! WJ Communications, Inc.
! AG201-63 InGaP HBT Gain Block
!
! The data is for the unmatched device in a 50 Ohm fixture, de-embedded to the device leads.
! Device bias: +4 V @ 20 mA -> Note a bias dropping resistor must be used for proper operation.
! Data From 20163b.s2p
! 
# MHZ S DB R 50
45.000000 -3.4173E+01 -7.8638E+00  1.1234E+01  1.7872E+02 -1.6019E+01  1.5838E+00 -1.6150E+01 -2.0796E+00 
61.137501 -3.1768E+01 -4.4689E+00  1.1174E+01  1.7809E+02 -1.6003E+01  2.2048E+00 -1.6359E+01 -3.4428E+00 
77.275002 -3.2321E+01  4.7319E+00  1.1197E+01  1.7784E+02 -1.6236E+01  9.2096E-01 -1.6270E+01 -1.5080E+00 
93.412498 -3.2848E+01  8.0297E+00  1.1164E+01  1.7732E+02 -1.6314E+01  5.4872E-01 -1.6197E+01 -1.9245E+00 
109.550003 -3.3317E+01  1.0934E+01  1.1171E+01  1.7684E+02 -1.6382E+01  1.3259E-01 -1.6156E+01 -2.7952E+00 
125.687508 -3.3209E+01  1.3797E+01  1.1181E+01  1.7637E+02 -1.6355E+01 -1.1863E+00 -1.6184E+01 -2.3218E+00 
141.825012 -3.2116E+01  7.3789E+00  1.1188E+01  1.7584E+02 -1.6387E+01 -6.2555E-01 -1.6258E+01 -2.6003E+00 
157.962509 -3.3134E+01  1.8355E+01  1.1174E+01  1.7562E+02 -1.6442E+01 -1.5180E+00 -1.6331E+01 -3.8849E+00 
174.100021 -3.2476E+01  1.5472E+01  1.1182E+01  1.7497E+02 -1.6457E+01 -5.1134E-01 -1.6342E+01 -3.2922E+00 
190.237518 -3.2993E+01  2.3003E+01  1.1174E+01  1.7453E+02 -1.6318E+01 -6.2924E-01 -1.6351E+01 -3.3850E+00 
206.375031 -3.3139E+01  2.2826E+01  1.1147E+01  1.7419E+02 -1.6399E+01 -1.7070E+00 -1.6278E+01 -4.1671E+00 
222.512527 -3.2492E+01  2.0021E+01  1.1168E+01  1.7362E+02 -1.6472E+01 -2.1960E+00 -1.6359E+01 -4.7309E+00 
238.650024 -3.3183E+01  2.1476E+01  1.1189E+01  1.7320E+02 -1.6353E+01 -2.3475E+00 -1.6193E+01 -4.4404E+00 
254.787537 -3.4746E+01  2.8882E+01  1.1189E+01  1.7271E+02 -1.6432E+01  1.6960E+00 -1.6365E+01 -3.8686E+00 
270.925018 -3.1435E+01  2.4434E+01  1.1169E+01  1.7188E+02 -1.6539E+01  4.2811E-01 -1.6201E+01 -5.4081E+00 
287.062531 -3.3050E+01  3.0834E+01  1.1176E+01  1.7181E+02 -1.6647E+01  1.7206E+00 -1.6198E+01 -7.0096E+00 
303.200043 -3.4716E+01  1.0644E+02  1.1196E+01  1.7138E+02 -1.6580E+01  5.5112E-01 -1.8135E+01 -6.2156E+00 
319.337524 -3.9480E+01  1.3560E+02  1.1182E+01  1.7082E+02 -1.6534E+01 -1.0842E-01 -1.8019E+01 -6.1155E+00 
335.475037 -3.3407E+01  7.5586E+01  1.1190E+01  1.7053E+02 -1.6448E+01 -1.9432E+00 -1.7842E+01 -4.8443E+00 
351.612549 -3.3412E+01  1.3032E+02  1.1191E+01  1.7005E+02 -1.6614E+01 -5.9480E-01 -1.8230E+01 -6.3555E+00 
367.750061 -3.6945E+01  9.1713E+01  1.1184E+01  1.6955E+02 -1.6460E+01 -1.6462E+00 -1.7976E+01 -5.9875E+00 
383.887543 -3.4121E+01  1.0567E+02  1.1134E+01  1.6869E+02 -1.6494E+01 -2.1140E+00 -1.7838E+01 -8.0595E+00 
400.025055 -3.5327E+01  8.9754E+01  1.1169E+01  1.6851E+02 -1.6463E+01 -1.9813E+00 -1.8611E+01 -8.1114E+00 
416.162567 -3.7302E+01  1.0166E+02  1.1189E+01  1.6803E+02 -1.6453E+01 -1.8131E+00 -1.8315E+01 -7.6663E+00 
432.300049 -3.7154E+01  1.0396E+02  1.1142E+01  1.6761E+02 -1.6492E+01 -2.7066E+00 -1.8093E+01 -8.6528E+00 
448.437561 -3.7194E+01  1.1781E+02  1.1185E+01  1.6732E+02 -1.6374E+01 -4.4733E+00 -1.8324E+01 -8.7148E+00 
464.575073 -3.3007E+01  9.9227E+01  1.1129E+01  1.6650E+02 -1.6541E+01 -2.9188E+00 -1.8423E+01 -8.3685E+00 
480.712585 -3.5277E+01  1.0630E+02  1.1166E+01  1.6623E+02 -1.6410E+01 -3.6832E+00 -1.8428E+01 -8.0401E+00 
496.850067 -3.3573E+01  1.1235E+02  1.1187E+01  1.6578E+02 -1.6376E+01 -3.5473E+00 -1.8539E+01 -1.0246E+01 
512.987610 -3.0734E+01  8.8782E+01  1.1194E+01  1.6545E+02 -1.6454E+01 -3.6114E+00 -1.8127E+01 -1.0635E+01 
529.125061 -3.3665E+01  9.2860E+01  1.1175E+01  1.6497E+02 -1.6390E+01 -3.3595E+00 -1.8307E+01 -1.0672E+01 
545.262573 -3.4167E+01  9.7672E+01  1.1138E+01  1.6456E+02 -1.6398E+01 -4.0164E+00 -1.8395E+01 -8.4760E+00 
561.400085 -3.1600E+01  9.6129E+01  1.1153E+01  1.6394E+02 -1.6468E+01 -3.9908E+00 -1.8405E+01 -1.0344E+01 
577.537537 -3.2011E+01  1.0070E+02  1.1184E+01  1.6358E+02 -1.6450E+01 -4.8565E+00 -1.8378E+01 -1.1945E+01 
593.674988 -3.3073E+01  9.6413E+01  1.1145E+01  1.6322E+02 -1.6392E+01 -4.4133E+00 -1.8246E+01 -1.3273E+01 
609.812500 -3.2432E+01  8.3990E+01  1.1164E+01  1.6264E+02 -1.6301E+01 -4.9800E+00 -1.8529E+01 -1.1210E+01 
625.949951 -3.3193E+01  9.0639E+01  1.1160E+01  1.6226E+02 -1.6417E+01 -4.8671E+00 -1.8174E+01 -1.3492E+01 
642.087402 -3.1136E+01  8.0106E+01  1.1149E+01  1.6155E+02 -1.6397E+01 -5.5084E+00 -1.8482E+01 -1.3933E+01 
658.224915 -3.1721E+01  8.5572E+01  1.1165E+01  1.6108E+02 -1.6329E+01 -5.3705E+00 -1.8649E+01 -1.3007E+01 
674.362366 -3.1789E+01  8.7834E+01  1.1145E+01  1.6081E+02 -1.6264E+01 -5.0762E+00 -1.8793E+01 -1.1608E+01 
690.499817 -3.0003E+01  7.3503E+01  1.1163E+01  1.6034E+02 -1.6390E+01 -5.3996E+00 -1.8737E+01 -1.6042E+01 
706.637329 -3.0843E+01  8.5493E+01  1.1142E+01  1.6000E+02 -1.6399E+01 -4.7382E+00 -1.8582E+01 -1.5346E+01 
722.774780 -2.9966E+01  7.9211E+01  1.1137E+01  1.5945E+02 -1.6344E+01 -5.5695E+00 -1.8650E+01 -1.7343E+01 
738.912231 -3.0089E+01  9.0534E+01  1.1142E+01  1.5887E+02 -1.6324E+01 -5.9365E+00 -1.8589E+01 -1.6663E+01 
755.049744 -2.9411E+01  8.4236E+01  1.1155E+01  1.5846E+02 -1.6320E+01 -5.8330E+00 -1.8757E+01 -2.1184E+01 
771.187195 -3.0633E+01  8.2826E+01  1.1146E+01  1.5813E+02 -1.6309E+01 -5.5961E+00 -1.8626E+01 -1.8636E+01 
787.324646 -3.0084E+01  7.1641E+01  1.1139E+01  1.5759E+02 -1.6389E+01 -5.0829E+00 -1.8947E+01 -1.9589E+01 
803.462158 -2.9799E+01  7.7602E+01  1.1157E+01  1.5722E+02 -1.6458E+01 -5.5123E+00 -1.8720E+01 -1.9953E+01 
819.599609 -2.8727E+01  8.1513E+01  1.1133E+01  1.5647E+02 -1.6471E+01 -5.9944E+00 -1.9115E+01 -2.0856E+01 
835.737061 -2.8909E+01  7.7093E+01  1.1139E+01  1.5624E+02 -1.6391E+01 -7.1823E+00 -1.9147E+01 -2.2500E+01 
851.874573 -2.9052E+01  6.9781E+01  1.1129E+01  1.5590E+02 -1.7181E+01 -1.1020E+01 -1.8716E+01 -2.3126E+01 
868.012024 -2.8171E+01  7.1299E+01  1.1107E+01  1.5530E+02 -1.6977E+01 -9.3966E+00 -1.9003E+01 -2.4445E+01 
884.149475 -2.9438E+01  7.3656E+01  1.1077E+01  1.5478E+02 -1.6812E+01 -1.0685E+01 -1.8755E+01 -2.5472E+01 
900.286987 -2.8303E+01  7.2595E+01  1.1106E+01  1.5459E+02 -1.6898E+01 -9.8071E+00 -1.9350E+01 -2.5056E+01 
916.424438 -2.8053E+01  7.0433E+01  1.1104E+01  1.5380E+02 -1.6665E+01 -9.7079E+00 -1.8822E+01 -2.5988E+01 
932.561890 -2.8230E+01  6.1569E+01  1.1101E+01  1.5323E+02 -1.6739E+01 -9.4270E+00 -1.9199E+01 -2.5888E+01 
948.699402 -2.8084E+01  6.8907E+01  1.1116E+01  1.5303E+02 -1.6741E+01 -1.0814E+01 -1.9124E+01 -2.9114E+01 
964.836853 -2.6803E+01  6.7136E+01  1.1054E+01  1.5232E+02 -1.6699E+01 -1.1279E+01 -1.9292E+01 -2.7452E+01 
980.974365 -2.7105E+01  7.1099E+01  1.1092E+01  1.5177E+02 -1.6768E+01 -1.0137E+01 -1.9317E+01 -2.7751E+01 
997.111816 -2.6711E+01  7.6079E+01  1.1074E+01  1.5172E+02 -1.6676E+01 -9.9687E+00 -1.9226E+01 -2.7922E+01 
1013.249268 -2.6333E+01  6.6644E+01  1.1044E+01  1.5133E+02 -1.6627E+01 -1.0548E+01 -1.9077E+01 -3.1833E+01 
1029.386719 -2.6960E+01  6.7845E+01  1.1112E+01  1.5063E+02 -1.6630E+01 -1.0274E+01 -1.9099E+01 -2.8011E+01 
1045.524170 -2.6677E+01  6.8247E+01  1.1049E+01  1.5027E+02 -1.6560E+01 -9.7843E+00 -1.9737E+01 -3.2755E+01 
1061.661743 -2.6160E+01  7.2426E+01  1.1107E+01  1.4984E+02 -1.6422E+01 -1.0113E+01 -1.9070E+01 -3.0660E+01 
1077.799194 -2.5450E+01  7.1928E+01  1.1103E+01  1.4899E+02 -1.6517E+01 -1.0801E+01 -1.9225E+01 -3.3231E+01 
1093.936646 -2.5764E+01  6.7985E+01  1.1072E+01  1.4892E+02 -1.6559E+01 -9.4942E+00 -1.8951E+01 -3.3690E+01 
1110.074097 -2.5778E+01  6.8466E+01  1.1093E+01  1.4836E+02 -1.6403E+01 -1.0101E+01 -1.8942E+01 -3.6301E+01 
1126.211548 -2.4922E+01  7.0419E+01  1.1105E+01  1.4770E+02 -1.6320E+01 -1.0236E+01 -1.9457E+01 -3.5931E+01 
1142.348999 -2.4881E+01  7.3797E+01  1.1073E+01  1.4755E+02 -1.6443E+01 -9.9643E+00 -1.9454E+01 -3.8567E+01 
1158.486572 -2.5873E+01  7.3336E+01  1.1109E+01  1.4712E+02 -1.6490E+01 -9.9270E+00 -1.9194E+01 -3.9422E+01 
1174.624023 -2.4943E+01  6.9109E+01  1.1029E+01  1.4677E+02 -1.6430E+01 -9.5727E+00 -1.9678E+01 -3.8599E+01 
1190.761475 -2.4223E+01  7.4489E+01  1.1054E+01  1.4597E+02 -1.6323E+01 -9.3275E+00 -1.9671E+01 -3.9976E+01 
1206.898926 -2.5159E+01  7.1409E+01  1.1035E+01  1.4562E+02 -1.6386E+01 -1.0002E+01 -1.9488E+01 -3.9594E+01 
1223.036377 -2.4679E+01  7.0179E+01  1.1029E+01  1.4532E+02 -1.6356E+01 -9.5353E+00 -1.9505E+01 -3.9351E+01 
1239.173828 -2.4393E+01  6.8895E+01  1.1055E+01  1.4465E+02 -1.6286E+01 -9.7210E+00 -1.9491E+01 -4.2200E+01 
1255.311401 -2.3950E+01  6.9987E+01  1.1035E+01  1.4432E+02 -1.6202E+01 -1.0550E+01 -1.9485E+01 -4.2820E+01 
1271.448853 -2.4168E+01  6.5781E+01  1.1021E+01  1.4396E+02 -1.6398E+01 -1.1102E+01 -1.9343E+01 -4.5507E+01 
1287.586304 -2.4395E+01  7.0732E+01  1.1010E+01  1.4338E+02 -1.6372E+01 -1.0801E+01 -1.9473E+01 -4.4088E+01 
1303.723755 -2.3897E+01  6.6080E+01  1.1011E+01  1.4308E+02 -1.6309E+01 -1.0798E+01 -1.9442E+01 -4.5693E+01 
1319.861206 -2.3809E+01  6.5707E+01  1.1032E+01  1.4255E+02 -1.6251E+01 -1.0316E+01 -1.9510E+01 -4.6774E+01 
1335.998779 -2.3489E+01  6.6961E+01  1.0991E+01  1.4220E+02 -1.6212E+01 -1.0879E+01 -1.9485E+01 -4.4853E+01 
1352.136230 -2.3570E+01  6.6369E+01  1.0981E+01  1.4168E+02 -1.6325E+01 -1.0556E+01 -1.9560E+01 -4.7278E+01 
1368.273682 -2.3120E+01  6.7407E+01  1.0991E+01  1.4104E+02 -1.6301E+01 -1.0701E+01 -1.9644E+01 -4.7729E+01 
1384.411133 -2.3156E+01  6.5087E+01  1.0983E+01  1.4059E+02 -1.6388E+01 -1.1240E+01 -1.9565E+01 -4.9177E+01 
1400.548584 -2.2999E+01  6.5292E+01  1.1004E+01  1.4031E+02 -1.6298E+01 -1.0729E+01 -1.9322E+01 -5.0607E+01 
1416.686035 -2.2916E+01  6.7046E+01  1.0993E+01  1.3979E+02 -1.6386E+01 -1.0810E+01 -1.9689E+01 -5.3330E+01 
1432.823608 -2.3182E+01  6.5473E+01  1.0983E+01  1.3920E+02 -1.6440E+01 -1.1585E+01 -1.9305E+01 -5.2405E+01 
1448.961060 -2.2491E+01  6.4246E+01  1.0955E+01  1.3887E+02 -1.6438E+01 -1.1794E+01 -1.9672E+01 -5.3683E+01 
1465.098511 -2.2390E+01  6.6238E+01  1.0971E+01  1.3816E+02 -1.6390E+01 -1.1072E+01 -1.9350E+01 -5.3630E+01 
1481.235962 -2.2446E+01  6.3491E+01  1.1023E+01  1.3811E+02 -1.6475E+01 -1.2333E+01 -1.9139E+01 -5.5512E+01 
1497.373413 -2.2428E+01  6.4619E+01  1.0969E+01  1.3748E+02 -1.6219E+01 -1.1730E+01 -1.9553E+01 -5.5468E+01 
1513.510864 -2.2021E+01  6.2098E+01  1.0928E+01  1.3714E+02 -1.6369E+01 -1.1543E+01 -1.9508E+01 -5.6612E+01 
1529.648438 -2.2304E+01  6.0624E+01  1.0937E+01  1.3671E+02 -1.6453E+01 -1.2325E+01 -1.9565E+01 -5.9003E+01 
1545.785889 -2.2125E+01  6.2615E+01  1.0951E+01  1.3631E+02 -1.6239E+01 -1.2250E+01 -1.9328E+01 -5.7269E+01 
1561.923340 -2.1909E+01  6.0985E+01  1.0958E+01  1.3567E+02 -1.6269E+01 -1.1822E+01 -1.9626E+01 -6.1141E+01 
1578.060791 -2.1973E+01  6.0847E+01  1.0952E+01  1.3529E+02 -1.6492E+01 -1.2638E+01 -1.9580E+01 -6.0114E+01 
1594.198242 -2.1482E+01  6.0924E+01  1.0921E+01  1.3471E+02 -1.6411E+01 -1.3287E+01 -1.9312E+01 -6.2208E+01 
1610.335693 -2.2059E+01  6.2030E+01  1.0902E+01  1.3448E+02 -1.6513E+01 -1.2805E+01 -1.9327E+01 -6.3326E+01 
1626.473267 -2.2116E+01  5.9925E+01  1.0913E+01  1.3390E+02 -1.6297E+01 -1.2831E+01 -1.9217E+01 -6.3334E+01 
1642.610718 -2.1956E+01  6.2507E+01  1.0917E+01  1.3329E+02 -1.6358E+01 -1.2375E+01 -1.9338E+01 -6.4141E+01 
1658.748169 -2.1889E+01  6.2877E+01  1.0896E+01  1.3329E+02 -1.6272E+01 -1.2375E+01 -1.9343E+01 -6.4194E+01 
1674.885620 -2.2034E+01  5.9509E+01  1.0908E+01  1.3250E+02 -1.6383E+01 -1.3944E+01 -1.8996E+01 -6.8957E+01 
1691.023071 -2.1324E+01  6.1348E+01  1.0872E+01  1.3212E+02 -1.6404E+01 -1.4068E+01 -1.9581E+01 -6.7479E+01 
1707.160522 -2.1249E+01  5.8777E+01  1.0885E+01  1.3175E+02 -1.6264E+01 -1.3040E+01 -1.9174E+01 -6.6522E+01 
1723.298096 -2.0710E+01  5.8039E+01  1.0869E+01  1.3110E+02 -1.6351E+01 -1.3937E+01 -1.9042E+01 -6.9400E+01 
1739.435547 -2.0894E+01  5.9797E+01  1.0860E+01  1.3056E+02 -1.6213E+01 -1.3980E+01 -1.8968E+01 -7.0973E+01 
1755.572998 -2.0968E+01  6.0598E+01  1.0886E+01  1.3030E+02 -1.6453E+01 -1.3894E+01 -1.9378E+01 -6.8741E+01 
1771.710449 -2.0831E+01  6.0369E+01  1.0889E+01  1.2996E+02 -1.6372E+01 -1.3156E+01 -1.8966E+01 -7.1970E+01 
1787.847900 -2.0699E+01  5.9991E+01  1.0842E+01  1.2979E+02 -1.6489E+01 -1.3918E+01 -1.9162E+01 -7.4886E+01 
1803.985352 -2.0780E+01  5.9651E+01  1.0846E+01  1.2877E+02 -1.6410E+01 -1.4266E+01 -1.9234E+01 -7.2887E+01 
1820.122925 -2.1164E+01  6.1144E+01  1.0859E+01  1.2848E+02 -1.6401E+01 -1.3763E+01 -1.9356E+01 -7.6430E+01 
1836.260376 -2.1069E+01  5.9906E+01  1.0825E+01  1.2826E+02 -1.6272E+01 -1.4236E+01 -1.9348E+01 -7.4565E+01 
1852.397827 -2.0696E+01  5.8419E+01  1.0831E+01  1.2777E+02 -1.6519E+01 -1.4771E+01 -1.9215E+01 -7.8447E+01 
1868.535278 -2.0869E+01  5.8578E+01  1.0860E+01  1.2724E+02 -1.6397E+01 -1.5025E+01 -1.9431E+01 -7.8256E+01 
1884.672729 -2.0450E+01  5.8379E+01  1.0836E+01  1.2668E+02 -1.6360E+01 -1.4617E+01 -1.9343E+01 -7.8462E+01 
1900.810181 -2.0486E+01  5.7425E+01  1.0811E+01  1.2605E+02 -1.6418E+01 -1.4991E+01 -1.9442E+01 -7.7857E+01 
1916.947754 -2.0501E+01  5.7592E+01  1.0818E+01  1.2567E+02 -1.6405E+01 -1.5262E+01 -1.9691E+01 -7.8540E+01 
1933.085205 -2.0801E+01  5.6542E+01  1.0844E+01  1.2526E+02 -1.6413E+01 -1.5302E+01 -1.9418E+01 -7.9629E+01 
1949.222656 -2.0722E+01  6.2781E+01  1.0859E+01  1.2468E+02 -1.6443E+01 -1.5525E+01 -1.9162E+01 -8.2166E+01 
1965.360107 -2.0974E+01  5.6820E+01  1.0799E+01  1.2457E+02 -1.6366E+01 -1.5097E+01 -1.9392E+01 -8.3901E+01 
1981.497559 -2.0694E+01  5.9160E+01  1.0792E+01  1.2421E+02 -1.6314E+01 -1.6147E+01 -1.9612E+01 -8.3513E+01 
1997.635132 -2.0424E+01  6.0678E+01  1.0789E+01  1.2356E+02 -1.6284E+01 -1.4541E+01 -1.9933E+01 -8.4093E+01 
2013.772583 -1.5494E+01  4.4018E+01  1.0637E+01  1.2325E+02 -1.6574E+01 -1.6062E+01 -1.5074E+01 -7.7873E+01 
2029.910034 -1.5910E+01  4.3814E+01  1.0679E+01  1.2296E+02 -1.6451E+01 -1.6365E+01 -1.5228E+01 -7.8252E+01 
2046.047485 -1.5775E+01  4.3759E+01  1.0628E+01  1.2243E+02 -1.6463E+01 -1.5675E+01 -1.5084E+01 -7.6942E+01 
2062.185059 -1.5901E+01  4.3257E+01  1.0666E+01  1.2215E+02 -1.6496E+01 -1.7017E+01 -1.5142E+01 -7.9187E+01 
2078.322510 -1.5766E+01  4.2472E+01  1.0656E+01  1.2148E+02 -1.6429E+01 -1.6857E+01 -1.5272E+01 -8.0305E+01 
2094.459961 -1.5947E+01  4.2359E+01  1.0636E+01  1.2138E+02 -1.6394E+01 -1.6915E+01 -1.5107E+01 -8.0161E+01 
2110.597412 -1.6136E+01  4.3563E+01  1.0654E+01  1.2078E+02 -1.6394E+01 -1.7361E+01 -1.5264E+01 -8.1651E+01 
2126.734863 -1.5954E+01  4.2108E+01  1.0652E+01  1.2041E+02 -1.6445E+01 -1.7500E+01 -1.5358E+01 -8.2158E+01 
2142.872314 -1.5978E+01  4.3077E+01  1.0659E+01  1.2014E+02 -1.6423E+01 -1.6254E+01 -1.5383E+01 -8.1379E+01 
2159.009766 -1.5937E+01  4.2387E+01  1.0631E+01  1.1950E+02 -1.6411E+01 -1.6866E+01 -1.5419E+01 -8.3278E+01 
2175.147217 -1.6138E+01  4.2776E+01  1.0599E+01  1.1890E+02 -1.6540E+01 -1.7626E+01 -1.5570E+01 -8.3785E+01 
2191.284668 -1.6183E+01  4.3073E+01  1.0608E+01  1.1860E+02 -1.6496E+01 -1.6589E+01 -1.5309E+01 -8.5247E+01 
2207.422119 -1.6176E+01  4.2760E+01  1.0607E+01  1.1798E+02 -1.6297E+01 -1.7809E+01 -1.5524E+01 -8.5809E+01 
2223.559570 -1.6062E+01  4.2343E+01  1.0581E+01  1.1776E+02 -1.6264E+01 -1.7946E+01 -1.5483E+01 -8.4260E+01 
2239.697266 -1.6246E+01  4.4082E+01  1.0577E+01  1.1720E+02 -1.6363E+01 -1.7777E+01 -1.5482E+01 -8.6284E+01 
2255.834717 -1.6308E+01  4.2419E+01  1.0625E+01  1.1681E+02 -1.6367E+01 -1.7318E+01 -1.5535E+01 -8.5664E+01 
2271.972168 -1.6392E+01  4.1928E+01  1.0632E+01  1.1604E+02 -1.6321E+01 -1.7120E+01 -1.5723E+01 -8.6311E+01 
2288.109619 -1.6182E+01  4.3799E+01  1.0607E+01  1.1599E+02 -1.6562E+01 -1.7625E+01 -1.5583E+01 -8.7465E+01 
2304.247070 -1.6329E+01  4.3593E+01  1.0589E+01  1.1523E+02 -1.6275E+01 -1.7535E+01 -1.5896E+01 -8.9098E+01 
2320.384521 -1.6344E+01  4.2437E+01  1.0576E+01  1.1515E+02 -1.6269E+01 -1.8131E+01 -1.5675E+01 -9.0866E+01 
2336.521973 -1.5995E+01  4.2028E+01  1.0595E+01  1.1429E+02 -1.6528E+01 -1.7708E+01 -1.5920E+01 -9.0221E+01 
2352.659424 -1.6268E+01  4.0860E+01  1.0563E+01  1.1408E+02 -1.6377E+01 -1.8414E+01 -1.6085E+01 -9.1075E+01 
2368.796875 -1.6442E+01  4.2059E+01  1.0574E+01  1.1390E+02 -1.6338E+01 -1.7857E+01 -1.5882E+01 -9.0751E+01 
2384.934326 -1.6401E+01  4.2427E+01  1.0552E+01  1.1333E+02 -1.6308E+01 -1.7595E+01 -1.6032E+01 -9.1448E+01 
2401.071777 -1.6293E+01  4.1126E+01  1.0559E+01  1.1301E+02 -1.6259E+01 -1.8648E+01 -1.6029E+01 -9.2375E+01 
2417.209229 -1.6582E+01  3.9544E+01  1.0570E+01  1.1443E+02 -1.7141E+01 -2.2787E+01 -1.6186E+01 -9.0704E+01 
2433.346924 -1.6613E+01  3.9836E+01  1.0598E+01  1.1436E+02 -1.7094E+01 -2.1973E+01 -1.6304E+01 -9.1405E+01 
2449.484375 -1.6193E+01  3.9624E+01  1.0551E+01  1.1351E+02 -1.7016E+01 -2.3381E+01 -1.6282E+01 -8.9473E+01 
2465.621826 -1.6923E+01  3.9464E+01  1.0551E+01  1.1323E+02 -1.6811E+01 -2.2339E+01 -1.6293E+01 -9.2531E+01 
2481.759277 -1.7061E+01  3.9935E+01  1.0593E+01  1.1237E+02 -1.6796E+01 -2.4017E+01 -1.6132E+01 -9.4019E+01 
2497.896729 -1.6439E+01  3.7949E+01  1.0537E+01  1.1230E+02 -1.6760E+01 -2.3583E+01 -1.6463E+01 -9.4087E+01 
2514.034180 -1.6656E+01  4.1826E+01  1.0541E+01  1.1212E+02 -1.6743E+01 -2.2699E+01 -1.6276E+01 -9.4917E+01 
2530.171631 -1.6372E+01  3.8460E+01  1.0527E+01  1.1159E+02 -1.6799E+01 -2.2363E+01 -1.6507E+01 -9.7530E+01 
2546.309082 -1.7095E+01  4.0041E+01  1.0545E+01  1.1091E+02 -1.6684E+01 -2.3435E+01 -1.6579E+01 -9.5232E+01 
2562.446533 -1.7038E+01  4.0938E+01  1.0528E+01  1.1067E+02 -1.6673E+01 -2.3443E+01 -1.6565E+01 -9.8517E+01 
2578.583984 -1.6851E+01  4.0350E+01  1.0516E+01  1.1032E+02 -1.6472E+01 -2.3222E+01 -1.6305E+01 -9.5717E+01 
2594.721436 -1.6874E+01  4.0676E+01  1.0488E+01  1.0953E+02 -1.6345E+01 -2.3342E+01 -1.6520E+01 -9.6206E+01 
2610.858887 -1.6417E+01  3.9446E+01  1.0533E+01  1.0897E+02 -1.6502E+01 -2.3398E+01 -1.6805E+01 -9.6632E+01 
2626.996582 -1.6834E+01  3.9985E+01  1.0508E+01  1.0853E+02 -1.6618E+01 -2.3725E+01 -1.6993E+01 -9.7667E+01 
2643.134033 -1.6777E+01  4.0706E+01  1.0504E+01  1.0829E+02 -1.6412E+01 -2.3152E+01 -1.6625E+01 -9.9580E+01 
2659.271484 -1.6630E+01  3.8391E+01  1.0484E+01  1.0799E+02 -1.6508E+01 -2.3341E+01 -1.7009E+01 -9.6981E+01 
2675.408936 -1.6768E+01  4.0170E+01  1.0419E+01  1.0746E+02 -1.6357E+01 -2.3240E+01 -1.7290E+01 -9.9375E+01 
2691.546387 -1.6837E+01  4.0143E+01  1.0544E+01  1.0709E+02 -1.6300E+01 -2.3894E+01 -1.7162E+01 -1.0027E+02 
2707.683838 -1.6921E+01  3.9898E+01  1.0478E+01  1.0675E+02 -1.6529E+01 -2.3802E+01 -1.7095E+01 -1.0133E+02 
2723.821289 -1.6875E+01  4.2343E+01  1.0501E+01  1.0610E+02 -1.6376E+01 -2.3293E+01 -1.7238E+01 -1.0136E+02 
2739.958740 -1.6582E+01  4.0867E+01  1.0443E+01  1.0534E+02 -1.6187E+01 -2.3288E+01 -1.7335E+01 -1.0292E+02 
2756.096191 -1.6944E+01  4.1173E+01  1.0501E+01  1.0515E+02 -1.6140E+01 -2.3698E+01 -1.7414E+01 -1.0389E+02 
2772.233643 -1.7157E+01  4.2700E+01  1.0437E+01  1.0486E+02 -1.6220E+01 -2.2494E+01 -1.7517E+01 -1.0396E+02 
2788.371094 -1.7064E+01  4.2144E+01  1.0489E+01  1.0428E+02 -1.6230E+01 -2.2538E+01 -1.7415E+01 -1.0461E+02 
2804.508789 -1.6981E+01  4.1501E+01  1.0460E+01  1.0426E+02 -1.6214E+01 -2.2732E+01 -1.7598E+01 -1.0368E+02 
2820.646240 -1.6705E+01  4.4281E+01  1.0471E+01  1.0342E+02 -1.6095E+01 -2.3600E+01 -1.7704E+01 -1.0727E+02 
2836.783691 -1.6826E+01  4.1525E+01  1.0432E+01  1.0333E+02 -1.6125E+01 -2.3333E+01 -1.7947E+01 -1.0438E+02 
2852.921143 -1.6913E+01  4.1730E+01  1.0380E+01  1.0292E+02 -1.6027E+01 -2.3001E+01 -1.8244E+01 -1.0611E+02 
2869.058594 -1.7230E+01  4.2004E+01  1.0429E+01  1.0243E+02 -1.6113E+01 -2.3329E+01 -1.7999E+01 -1.0699E+02 
2885.196045 -1.7169E+01  4.4250E+01  1.0427E+01  1.0184E+02 -1.6081E+01 -2.4215E+01 -1.8313E+01 -1.0651E+02 
2901.333496 -1.6941E+01  4.2417E+01  1.0449E+01  1.0143E+02 -1.6044E+01 -2.2684E+01 -1.8065E+01 -1.0721E+02 
2917.470947 -1.7465E+01  4.2866E+01  1.0437E+01  1.0084E+02 -1.6227E+01 -2.2886E+01 -1.8427E+01 -1.0751E+02 
