#Frequency	|S11|	<S11	|S21|	<S21	|S12|	<S12	|S22|	<S22
100000000.0	-19.7109747616	126.177420246	-20.4028616273	-126.257466501	-60.1202133126	50.8130738462	-22.1406329874	-61.4890922929
100687500.0	-19.5818440911	123.03668479	-20.049501112	-127.414932789	-62.04536029	118.909125396	-22.2573557361	-61.2096958888
101375000.0	-19.4930820381	119.68587002	-19.662513573	-128.714791476	-61.7839602513	-167.396493197	-22.3015220452	-60.9440253467
102062500.0	-19.4157562315	116.479130882	-19.2937765096	-130.10597743	-64.4839057545	-135.577180082	-22.3462810606	-60.9589733091
102750000.0	-19.3551806961	113.326020916	-18.9595906472	-131.478914726	-63.3260562584	-117.753085773	-22.4040160193	-60.7935837264
103437500.0	-19.3054104137	110.118343787	-18.6357217189	-132.862704536	-63.7926021667	-80.8756356476	-22.4602481653	-60.6988541433
104125000.0	-19.2580863366	106.74143714	-18.3385397434	-134.211927849	-62.6776303776	-50.9887335244	-22.5320951547	-60.6419022871
104812500.0	-19.2212554265	103.347159761	-18.0739294033	-135.604147202	-62.2762535238	-64.9947188918	-22.5897314702	-60.7762557972
105500000.0	-19.1860704936	99.8482317697	-17.8321157364	-136.973183431	-62.5862425611	-63.6192518917	-22.6289376632	-60.8606195907
106187500.0	-19.1542814706	96.2413140437	-17.6186551203	-138.326918466	-63.6013307615	-76.7878914632	-22.6908467058	-60.9258854836
106875000.0	-19.1183000323	92.498367952	-17.4432260178	-139.624474661	-63.6627607627	-105.45934408	-22.7574417774	-61.0792419595
107562500.0	-19.096758679	88.6023287646	-17.3057136217	-140.841775514	-63.7768630057	-115.335779049	-22.8212578183	-61.1248237854
108250000.0	-19.0686642167	84.5483128532	-17.2104543712	-141.88321138	-63.7436255469	-130.95274722	-22.8756236641	-61.2475701477
108937500.0	-19.0267750265	80.7087827505	-17.0543643172	-142.93148594	-63.8563613721	-135.200554936	-22.9348570315	-61.2974777348
109625000.0	-18.9954857133	76.7819843056	-16.9218051455	-143.895200094	-63.4067100272	-147.028387547	-22.9878926172	-61.3503545014
110312500.0	-18.9484187	72.7433466419	-16.8192405246	-144.681834463	-63.3087714727	-157.143617612	-23.046157158	-61.3990023038
111000000.0	-18.9194305235	68.6143023819	-16.7423436908	-145.252318243	-63.4837503003	-173.974954151	-23.1000590688	-61.4711957567
111687500.0	-18.8752606623	64.3713380818	-16.6902982319	-145.492322525	-63.1699546535	172.402582166	-23.1587287483	-61.5722830857
112375000.0	-18.8428894931	60.0166945638	-16.6520253148	-145.373230683	-62.3124906975	166.331138396	-23.2278288191	-61.6660085972
113062500.0	-18.8010929026	55.5745494013	-16.6087794526	-144.869870654	-61.9595913256	153.683481815	-23.2865316316	-61.7505621972
113750000.0	-18.7626846827	51.0141714031	-16.5389381493	-143.941535215	-62.2109600372	140.81659048	-23.3428905426	-61.8062645464
114437500.0	-18.726556466	46.353315056	-16.4319871399	-142.663829959	-62.2019182661	127.468414955	-23.40572948	-61.8552500588
115125000.0	-18.6859176605	41.5445996964	-16.2768404127	-141.117405831	-62.1655472667	116.170829968	-23.4651796762	-61.9078881785
115812500.0	-18.6469577072	36.6299157779	-16.0671779553	-139.398453071	-61.7056558486	112.981792396	-23.5329072113	-61.8861904666
116500000.0	-18.6051376232	31.5987271812	-15.7981427871	-137.596593681	-61.7753302291	99.5799584728	-23.5850665624	-61.8655655796
117187500.0	-18.5771329694	26.4630591078	-15.4760727936	-135.731291856	-61.7740609454	86.5033603557	-23.6409547183	-61.8431073016
117875000.0	-18.5511828576	21.2189510561	-15.0973683846	-133.891467811	-61.5004254818	86.1454743459	-23.6987768686	-61.6869870752
118562500.0	-18.5432623459	15.8120659218	-14.6708361064	-132.117150381	-61.547814824	92.8050660013	-23.7560852405	-61.4466633778
119250000.0	-18.5414051636	10.309130048	-14.1939210459	-130.433482171	-61.4252751005	92.6233311945	-23.8083264045	-61.1585023502
119937500.0	-18.5622344833	4.67333566766	-13.6756639684	-128.879071597	-60.6864674472	90.9828310634	-23.8565690618	-60.8470620862
120625000.0	-18.5972019858	-1.01339126151	-13.1148705867	-127.47409187	-59.928803437	92.1887756538	-23.9071923949	-60.5258184244
121312500.0	-18.669665845	-6.83546046772	-12.5167548501	-126.23347711	-60.2209635721	93.2560272597	-23.9455099589	-60.1809262839
122000000.0	-18.77281696	-12.6469218089	-11.8789373066	-125.199888501	-60.6299384221	106.743792703	-23.9937584661	-59.7947179226
122687500.0	-18.9332817017	-18.466591855	-11.209282356	-124.360025071	-59.9767794872	113.746030465	-24.0319392714	-59.3584308796
123375000.0	-19.1336498041	-24.2364758329	-10.5125279851	-123.743525869	-60.0159838702	117.464867548	-24.058174496	-58.8939331853
124062500.0	-19.3829918727	-29.8795788033	-9.78240767173	-123.324850718	-59.530062978	120.563415081	-24.0929651904	-58.3747059944
124750000.0	-19.7083722503	-35.2612275527	-9.03026367246	-123.187231397	-59.8657971612	133.795247849	-24.1194342514	-57.8105621871
125437500.0	-20.0490590328	-40.276619053	-8.24874161915	-123.277374602	-59.247608499	136.691433477	-24.1494650498	-57.2424276525
126125000.0	-20.4561800825	-44.7805290651	-7.44052905869	-123.669727915	-59.6228328111	139.987140788	-24.1743049295	-56.6510882254
126812500.0	-20.8434417963	-48.7096294749	-6.6080784874	-124.323728334	-59.450668636	143.756560713	-24.1986554942	-55.9684788018
127500000.0	-21.2215495353	-52.0250015358	-5.75570444445	-125.348820139	-59.5857847195	139.351870869	-24.2133055889	-55.3741905176
128187500.0	-21.5497292023	-54.9952834453	-4.88052777494	-126.75365466	-59.69442536	138.614064566	-24.232880356	-54.7273932716
128875000.0	-21.8682788425	-57.7225988986	-3.9917812002	-128.64346739	-59.7035167136	132.551948183	-24.2451505863	-54.0486853345
129562500.0	-22.1377200397	-60.2874378595	-3.09420042009	-131.010055301	-59.579902363	121.181449888	-24.2444902992	-53.3377048751
130250000.0	-22.3813390396	-62.7361075596	-2.21324659588	-133.953007426	-59.6175881892	108.208005931	-24.2488374836	-52.6423200437
130937500.0	-22.5836014732	-65.0310983884	-1.36277066355	-137.425215352	-59.5280141394	105.006882075	-24.2607292546	-51.9822132274
131625000.0	-22.7812115041	-67.2578722969	-0.561902156318	-141.393914472	-59.0671383195	95.3661662189	-24.2530055934	-51.3883895133
132312500.0	-22.9544503032	-69.376524561	0.182964820257	-145.724860267	-59.7674688592	79.9747882746	-24.2547715606	-50.7508565219
133000000.0	-23.1093110627	-71.4037578007	0.862422334459	-150.375719651	-59.534491292	57.7482867194	-24.2541170315	-50.1848656754
133687500.0	-23.2497178873	-73.3734314115	1.47372776905	-155.213461606	-59.8880852006	41.1579376606	-24.2593097097	-49.6637045121
134375000.0	-23.3756672197	-75.2440161604	2.02308839284	-160.220142047	-59.9639804405	28.1387440732	-24.2506447116	-49.1619112032
135062500.0	-23.4681265463	-77.0816043984	2.51295583961	-165.282652467	-60.4361685343	13.5558842569	-24.2408365744	-48.709168097
135750000.0	-23.5451955364	-78.7787758538	2.94360206643	-170.375329213	-60.1950626195	-11.5723908035	-24.2265674312	-48.407672675
136437500.0	-23.6066743711	-80.4449808643	3.31845170428	-175.467572884	-60.418961451	-27.3420908901	-24.2241281641	-48.2034237246
137125000.0	-23.6423105065	-81.9985895875	3.64429253817	179.471244649	-60.4148212766	-48.3609018784	-24.2311815472	-47.9924146597
137812500.0	-23.6499716876	-83.4679004652	3.9226700603	174.490135965	-59.9850225126	-68.0098982316	-24.2198916927	-47.8076195112
138500000.0	-23.6283505499	-84.8612150013	4.15969123531	169.588498604	-59.6650689317	-81.11950234	-24.2109019552	-47.7070708131
139187500.0	-23.5655479592	-86.2490629628	4.35523995811	164.804883567	-59.6529718117	-99.5017133785	-24.1972000672	-47.6158812374
139875000.0	-23.4484078413	-87.6071125701	4.518020001	160.132403329	-60.6240747534	-116.459470154	-24.1960757722	-47.5641774071
140562500.0	-23.2894579191	-89.000155748	4.65243059938	155.590991872	-60.7539179092	-140.731052115	-24.1963846976	-47.6012157182
141250000.0	-23.0728765325	-90.512032243	4.75793771181	151.174353225	-61.1003076242	-157.827460916	-24.1980423179	-47.669783192
141937500.0	-22.7987143057	-92.2048742994	4.83990322302	146.910207514	-61.1024212794	176.519239614	-24.1981865791	-47.8011999445
142625000.0	-22.5030267626	-94.2331075163	4.90354449524	142.778005512	-61.0752315526	161.075904506	-24.1981271342	-47.9426173536
143312500.0	-22.149264816	-96.7004886822	4.94642116993	138.777063828	-60.4526723071	149.694225205	-24.1976500934	-48.1497746573
144000000.0	-21.8152315711	-99.6850942425	4.97654744043	134.897650542	-60.7537001667	146.562640477	-24.2002495994	-48.4261069265
144687500.0	-21.5068265185	-103.227762968	4.993009612	131.155492261	-60.6619137082	141.107595491	-24.2068163902	-48.6370480473
145375000.0	-21.232564166	-107.016978474	4.99997098698	127.540680398	-60.7456074391	141.442342684	-24.2056876078	-48.9491072382
146062500.0	-20.9944397652	-110.966352888	4.99525861697	124.044915683	-60.7329568098	138.817750322	-24.2160765101	-49.2419334352
146750000.0	-20.799444672	-114.990052006	4.98373610826	120.642475028	-60.9195298935	136.587013189	-24.2308929232	-49.5350673919
147437500.0	-20.6455763191	-119.058754779	4.96314999217	117.363595571	-60.8965042212	139.472950924	-24.2371446764	-49.8000423464
148125000.0	-20.5329408691	-123.216538322	4.94067377586	114.172046045	-60.9091501611	140.328182638	-24.2488342596	-50.1122988879
148812500.0	-20.4391429754	-127.370610752	4.91130532475	111.086212376	-60.9539558489	137.359538876	-24.2483507391	-50.3470515686
149500000.0	-20.3751599975	-131.500840484	4.87925310097	108.085125712	-60.0323277846	138.735320429	-24.2437531499	-50.6006882731
150187500.0	-20.3320307289	-135.615553901	4.84291042111	105.179399707	-60.2360224251	137.803236193	-24.2408934392	-50.7475413941
150875000.0	-20.3165968527	-139.663641945	4.80660515364	102.348720348	-59.8243648788	131.842977095	-24.2377173437	-50.8879122467
151562500.0	-20.3110887865	-143.716018631	4.76746206486	99.6008921567	-60.2025904342	131.997350885	-24.2365613601	-51.0224644253
152250000.0	-20.3376845769	-147.695886689	4.72581494945	96.9160101096	-59.8920793939	129.350686401	-24.246418448	-51.2391838091
152937500.0	-20.3698104589	-151.642781341	4.68052098035	94.3017461148	-60.4545107752	130.517607413	-24.2537820705	-51.2947726315
153625000.0	-20.4274091883	-155.503823786	4.63825110614	91.7506168938	-60.5663372877	121.33486267	-24.2677743113	-51.3053192177
154312500.0	-20.4849297084	-159.383797215	4.59202589542	89.2660283346	-60.9704854186	120.626238619	-24.2605176361	-51.3073522514
155000000.0	-20.5614599679	-163.280983466	4.54541536982	86.8289915334	-61.0052726156	115.121163645	-24.2715614362	-51.2560129009
155687500.0	-20.6278779198	-167.102802485	4.49943116566	84.4630554762	-61.3818482286	113.740501567	-24.2946111667	-51.1979951488
156375000.0	-20.7229202022	-170.886490059	4.45255351717	82.1366189697	-61.3535249265	109.426095852	-24.3043419369	-51.0827781714
157062500.0	-20.8072062494	-174.659959985	4.40623495323	79.871533796	-61.0319473543	108.57073496	-24.3148981728	-50.8922740364
157750000.0	-20.9065939293	-178.419438624	4.35914535834	77.6443060461	-60.5253761695	110.851204493	-24.324354626	-50.6886513953
158437500.0	-21.0085415796	177.932222492	4.3126631767	75.4723154902	-60.5469344195	109.477424769	-24.3372077916	-50.5316263621
159125000.0	-21.1028541405	174.262912692	4.26766875533	73.3397034896	-60.2697728384	108.771074618	-24.3626985484	-50.2758581572
159812500.0	-21.2035905905	170.664187775	4.22142483035	71.2553348212	-60.4794103357	105.997770642	-24.3852877067	-49.9723250735
160500000.0	-21.3061392022	167.066345761	4.17627591223	69.2054587717	-60.4282515604	105.779727369	-24.4119515126	-49.6918599655
161187500.0	-21.410724803	163.48135905	4.13099154155	67.1948009339	-60.7717721077	105.488523871	-24.4442727126	-49.3629602131
161875000.0	-21.5163996073	159.972528778	4.08815684314	65.2160071393	-60.7428028123	105.144341908	-24.4715576322	-49.0981450447
162562500.0	-21.6381830015	156.439627406	4.0444967223	63.2754023307	-60.486440256	101.718380676	-24.5098555777	-48.7624272628
163250000.0	-21.7314757721	152.996190483	4.00272256291	61.3534835098	-60.6714712938	100.148138779	-24.5552864641	-48.3425201856
163937500.0	-21.8493628376	149.529429617	3.96173086335	59.4849620677	-60.552440482	101.733362274	-24.59054286	-48.0168366374
164625000.0	-21.9556618833	146.174871453	3.92313882147	57.6332263134	-60.4835166418	100.365140543	-24.6406824096	-47.6763677613
165312500.0	-22.0813671284	142.792762282	3.88196743407	55.8233874399	-60.4221356588	99.0548272811	-24.6870724397	-47.3223031431
166000000.0	-22.1859533237	139.524117762	3.84495255564	54.0403072121	-60.4163820287	102.059131357	-24.7579261245	-47.0228876359
166687500.0	-22.3027794223	136.21432878	3.80550523373	52.2796115121	-60.3730042052	93.0249584175	-24.8275698839	-46.7353527741
167375000.0	-22.425486761	133.037469021	3.76904263335	50.5487963687	-60.503175454	94.2237299713	-24.9047863251	-46.5837852289
168062500.0	-22.5356324692	129.764705266	3.73276881131	48.8420618789	-60.3578032582	96.1877249636	-24.9694462638	-46.3855250907
168750000.0	-22.6485538659	126.549946446	3.69670954641	47.1740019904	-59.8999592786	95.1573922767	-25.0481135013	-46.2454718401
169437500.0	-22.7567223236	123.289370203	3.66153710089	45.5368879754	-59.6802764352	89.7395826846	-25.1323196795	-46.0902250768
170125000.0	-22.8778530561	120.020976416	3.63152071941	43.9041382852	-59.582798818	91.7162405387	-25.2175703553	-45.9844803336
170812500.0	-22.9829112407	116.743846907	3.59836588921	42.3010744205	-59.3518956087	92.602895988	-25.297816268	-45.8754248864
171500000.0	-23.1027687849	113.499324132	3.56982992249	40.7237750325	-59.1852301019	89.7630443634	-25.3932357975	-45.8930488966
172187500.0	-23.2093045654	110.26668049	3.54328549519	39.168195058	-59.3222421323	89.1163872876	-25.4833690949	-45.9915598244
172875000.0	-23.3422189376	106.998538472	3.5182034889	37.6241672213	-59.2451067504	90.0316998011	-25.5679330704	-46.0398400699
173562500.0	-23.438597663	103.717079021	3.49416229878	36.1156528971	-59.0010599802	86.7574303946	-25.6677464903	-46.1829865286
174250000.0	-23.5626284118	100.479154483	3.47393300766	34.6151791187	-58.7378450064	87.3063927159	-25.7544099673	-46.3332313644
174937500.0	-23.6505172565	97.1467937375	3.45449786879	33.1326937628	-58.986431675	87.9316355331	-25.8529920729	-46.542315399
175625000.0	-23.7447511335	93.737403014	3.43727737617	31.6564107145	-58.7852966984	82.5335781536	-25.9460875362	-46.7304052526
176312500.0	-23.8313175763	90.3460744885	3.41946122521	30.2057940039	-58.6844519358	82.5710269324	-26.0456717184	-46.9807791109
177000000.0	-23.9116929874	86.9396047977	3.4049415742	28.755347099	-58.7721664779	73.740207804	-26.137364784	-47.3133255703
177687500.0	-23.97910822	83.4905861	3.39263806348	27.3217472753	-59.2016214028	69.5791115123	-26.231790436	-47.6414209945
178375000.0	-24.0519304951	80.0769046082	3.38283499934	25.8934334054	-58.852488847	62.3503704935	-26.3172017839	-47.9485936593
179062500.0	-24.1123221936	76.6204798696	3.37307454528	24.4790714729	-59.4389209337	61.0323935109	-26.4016119408	-48.2806255062
179750000.0	-24.1543577686	73.0880257954	3.36589426267	23.0717866147	-59.435233701	55.5138127502	-26.4848307082	-48.6308178854
180437500.0	-24.2142289837	69.4971332117	3.35926794278	21.6707516021	-59.1804276659	52.6876682676	-26.5491369931	-48.9935314179
181125000.0	-24.2384183251	65.9096787972	3.35492775728	20.2751387888	-59.0951096551	44.9962103237	-26.6337091966	-49.3109695257
181812500.0	-24.2703305304	62.3136156905	3.35025894643	18.8945395555	-59.4988715824	46.6893677222	-26.7110838298	-49.7614223697
182500000.0	-24.2705394947	58.7699328511	3.34899477734	17.5102643847	-59.4455418284	38.9182374836	-26.7942321479	-50.079453319
183187500.0	-24.2802180615	55.1777423044	3.34629936507	16.1363302702	-59.850691573	33.6414077812	-26.8646078374	-50.3654777776
183875000.0	-24.2725974438	51.6405596712	3.34754530989	14.7620582355	-59.8671950271	31.3025697841	-26.9294474661	-50.6489493167
184562500.0	-24.2601154344	47.9178103689	3.3474300037	13.3982693717	-59.8404088877	16.9193678963	-26.9808381621	-50.920100338
185250000.0	-24.2352353235	44.3449049503	3.34991843175	12.0364593196	-59.8002570488	-0.144483290276	-27.033544219	-51.1281124517
185937500.0	-24.2141198943	40.7313475817	3.35162571541	10.6719542582	-60.2225792224	-19.3729757342	-27.0921805121	-51.2381834311
186625000.0	-24.188597566	37.1697928675	3.35790822697	9.30827750644	-60.3714527253	-33.5929173414	-27.1460106075	-51.3768605833
187312500.0	-24.1510082966	33.5185075176	3.36187684666	7.9604183338	-60.5304609355	-48.1810174694	-27.1909071044	-51.3183326715
188000000.0	-24.1036711902	29.9362732477	3.36856047509	6.60547589419	-60.7586178953	-62.9211414789	-27.238440069	-51.3916565356
188687500.0	-24.0509634238	26.3294775241	3.37432861442	5.26536512281	-60.590213609	-85.6688415217	-27.2841894156	-51.3582276757
189375000.0	-23.9984162992	22.7531589244	3.38131264358	3.92360196938	-60.4068707426	-112.60669667	-27.3316481019	-51.249161588
190062500.0	-23.9240662177	19.1607712621	3.3879996934	2.58881852588	-60.3822940569	-138.903819232	-27.3871568484	-51.1309239085
190750000.0	-23.8651000252	15.5774966692	3.39803233575	1.25083979045	-60.4677593573	-164.60672168	-27.4414468308	-51.0012053826
191437500.0	-23.7911580066	11.9248742907	3.40598158714	-0.0741457288862	-60.0401050999	169.300004875	-27.4943052329	-50.8228636609
192125000.0	-23.729954513	8.42839146483	3.41535683259	-1.40002309735	-59.7653682086	139.592422486	-27.5415095393	-50.6108793765
192812500.0	-23.6489074986	4.89584011333	3.42537956491	-2.7097828107	-59.565189303	112.369574533	-27.5886420342	-50.4237877838
193500000.0	-23.5781003457	1.36950815358	3.4366015678	-4.04238421166	-59.9854811141	85.0028957519	-27.6322197193	-50.1039399426
194187500.0	-23.4943297117	-2.14716018686	3.44606531383	-5.35338976019	-59.716430668	60.5546561409	-27.6830700336	-49.8008750678
194875000.0	-23.4259613071	-5.67866081124	3.45842933706	-6.66302310572	-59.3243574092	32.6151738267	-27.7366995261	-49.3099444661
195562500.0	-23.329086982	-9.19850978531	3.4702153567	-7.96141020832	-59.2600092035	4.22951345807	-27.7875093446	-49.0600678403
196250000.0	-23.2411169966	-12.7404631441	3.48200580951	-9.25119730244	-58.8420871882	-22.3825155469	-27.8577022593	-48.7560571331
196937500.0	-23.1388620122	-16.1558801472	3.49384190029	-10.5445396649	-58.5527455077	-50.9577788015	-27.9183163881	-48.2837735303
197625000.0	-23.0358746219	-19.5482212848	3.50814423737	-11.8187128503	-58.6691835824	-83.2476934075	-27.9841647304	-47.9785368653
198312500.0	-22.9302270979	-22.8988638101	3.52179304899	-13.087769331	-58.8073065447	-113.938986489	-28.0262133224	-47.8195347784
199000000.0	-22.8209984897	-26.3084642859	3.53830844871	-14.3667835283	-58.6355076357	-149.313593744	-28.071941417	-47.5226423826
199687500.0	-22.7059681413	-29.638516862	3.55334023222	-15.6330886445	-58.7380727495	-177.855496606	-28.1128369573	-47.357651763
200375000.0	-22.5923966018	-32.942207639	3.56965395207	-16.9061606611	-58.4170290652	146.966958944	-28.1916085332	-47.2247563728
201062500.0	-22.4769614382	-36.240026621	3.58592122835	-18.156179079	-58.5493698313	119.416803327	-28.2508323992	-47.0564477038
201750000.0	-22.3449076264	-39.4446463342	3.60412721359	-19.4181003413	-58.3099763355	100.519881645	-28.3189904324	-46.8631993649
202437500.0	-22.2228554706	-42.6041657661	3.62216895098	-20.6683760892	-58.7792504028	87.5192147861	-28.3981416351	-46.9084074593
203125000.0	-22.083082748	-45.6469497198	3.64299879113	-21.9232858903	-58.5278747773	71.8936294748	-28.4512131791	-46.8645470312
203812500.0	-21.9375418567	-48.628754625	3.66158052188	-23.167903076	-58.9215882341	55.4808497759	-28.4960649114	-46.9117368377
204500000.0	-21.7912007566	-51.5061698056	3.68354145679	-24.4212208103	-58.3484920304	30.7096559033	-28.5511213331	-47.1064488015
205187500.0	-21.6530238302	-54.3491939671	3.705879459	-25.6572703617	-58.2759907759	15.4967302269	-28.6081334881	-47.1568928221
