#Frequency	|S11|	<S11	|S21|	<S21	|S12|	<S12	|S22|	<S22
100000000.0	-16.9287329307	146.949928553	-20.4921597147	-126.429308999	-68.8824688243	125.792155266	-20.6545033561	-50.4761416059
100687500.0	-16.8761213141	144.045889148	-20.1135690732	-127.458443307	-62.0150029206	-13.6400792677	-20.7613514949	-50.7650990348
101375000.0	-16.8452328982	140.873561648	-19.7092079507	-128.747344868	-61.0843890384	-48.8819042508	-20.845598199	-50.3604346873
102062500.0	-16.8278291041	137.717691368	-19.3336065087	-130.072204737	-61.2004319841	-68.1864125922	-20.9435195506	-49.6901220526
102750000.0	-16.8063004734	134.574975432	-18.9816447115	-131.48659991	-60.4921321668	-105.801193379	-21.0676528996	-48.9894480764
103437500.0	-16.7894016185	131.434553787	-18.6576504775	-132.876389651	-60.4507786185	-123.834284914	-21.1979310583	-48.3036399674
104125000.0	-16.7853506938	128.219731313	-18.35134702	-134.256437996	-60.9904417132	-141.91988882	-21.3430537112	-47.6493746307
104812500.0	-16.7831221373	125.064505009	-18.064016267	-135.678812873	-60.9101384555	-171.367565489	-21.4861404652	-47.1980245144
105500000.0	-16.7873000207	121.784979389	-17.8017206075	-137.109981771	-60.8759800879	160.218817172	-21.6197300778	-46.8362293658
106187500.0	-16.7939846387	118.458548248	-17.569740734	-138.520972761	-61.1381056844	161.342436149	-21.7747530602	-46.4433844914
106875000.0	-16.8122029787	115.047489931	-17.3672998228	-139.949609878	-61.8076899286	150.455282715	-21.9384753848	-46.0995992833
107562500.0	-16.8468015732	111.54259129	-17.2040050653	-141.278555946	-61.5801772583	149.80293013	-22.1298376596	-45.8161368417
108250000.0	-16.8844811148	107.916553476	-17.0761275169	-142.534391377	-61.41663577	145.370469767	-22.3094318513	-45.6442584014
108937500.0	-16.9085787049	104.39112356	-16.8930631841	-143.776357731	-61.1291947309	132.847083675	-22.4675181971	-45.3184077106
109625000.0	-16.9399882216	100.815983879	-16.7293698902	-144.974096464	-61.9287381681	129.138552136	-22.6385444424	-45.0475132715
110312500.0	-16.9678877088	97.1602452539	-16.6041026369	-146.059297784	-61.9529102217	124.62918673	-22.8054653045	-44.7832064156
111000000.0	-17.0149357182	93.4119792726	-16.5016310877	-147.047976282	-61.9147552156	112.15234158	-22.9798205817	-44.5163843036
111687500.0	-17.0562369834	89.6026834987	-16.4377453585	-147.835266031	-61.9780181965	101.541519048	-23.1594598817	-44.4173480745
112375000.0	-17.1102820209	85.6748783655	-16.4010208108	-148.374583171	-61.7528346714	88.266804812	-23.3368283761	-44.3254188171
113062500.0	-17.1608645335	81.6351996559	-16.3859280417	-148.592314959	-61.7540180965	77.0841181697	-23.5154352177	-44.2910164226
113750000.0	-17.2290380738	77.503864982	-16.3802626587	-148.396236155	-61.8864245082	74.7899654392	-23.6946699432	-44.3104837644
114437500.0	-17.2953530635	73.2854857841	-16.3705262805	-147.751847609	-61.8029080601	60.1364407665	-23.8995597746	-44.3966681626
115125000.0	-17.3753753221	68.9142634868	-16.3328005967	-146.686173287	-61.6460981649	56.7235166646	-24.0984747524	-44.5219761184
115812500.0	-17.4514513324	64.3962259091	-16.2531334932	-145.276675762	-61.7115277993	46.0262134214	-24.2975433825	-44.6864548608
116500000.0	-17.5385029614	59.7333527144	-16.1194125675	-143.586482954	-61.2874077232	45.0756048602	-24.4849488548	-44.8412504812
117187500.0	-17.6266264316	54.9616724025	-15.9286244127	-141.730801701	-61.9367723056	33.2971890151	-24.6766686134	-45.1618512657
117875000.0	-17.7377960638	49.9779878582	-15.6820631651	-139.768963053	-62.2487048465	19.2097638643	-24.8633715644	-45.3184628032
118562500.0	-17.8576158953	44.8272261878	-15.3795882133	-137.770423989	-62.1305708998	6.11714503859	-25.065516502	-45.5399666761
119250000.0	-17.9879788446	39.5444764232	-15.0225065929	-135.788767968	-62.2927301435	-10.4392921913	-25.2473293472	-45.6406790409
119937500.0	-18.1445004295	34.0448943691	-14.6133264569	-133.852144871	-62.0295707581	-24.6432590314	-25.4407119169	-45.8946471364
120625000.0	-18.3093457207	28.399852815	-14.1539377396	-132.028845059	-62.1049512336	-52.7637255269	-25.6268890387	-46.1415753934
121312500.0	-18.5251964898	22.5516838946	-13.6489159944	-130.315655974	-62.1479988255	-93.8324430034	-25.7971951864	-46.4786764999
122000000.0	-18.750037219	16.5458013121	-13.1000977665	-128.742039441	-62.1027065032	-125.145592171	-25.9749027256	-46.7553234917
122687500.0	-19.0304919225	10.2847845542	-12.5118513187	-127.325135548	-61.6085916795	-156.013510975	-26.129058284	-47.1368036378
123375000.0	-19.3467817208	3.90761410215	-11.8850944648	-126.122919146	-61.798968442	166.402297941	-26.2702982804	-47.4379636363
124062500.0	-19.737823607	-2.81664598541	-11.2213224774	-125.106856975	-62.1551118312	131.663707994	-26.3996388302	-47.7285669364
124750000.0	-20.2147472383	-9.57967893405	-10.5289348751	-124.314889794	-62.1670554817	94.8021883952	-26.5201515843	-47.9539295035
125437500.0	-20.7990819995	-16.5452603704	-9.80451455493	-123.745560823	-62.0596875711	60.2329016479	-26.6295848257	-48.1513181417
126125000.0	-21.5461601175	-23.4744451372	-9.04787601439	-123.422529484	-62.0829318565	18.797723163	-26.7367154453	-48.4831551877
126812500.0	-22.5972650581	-29.9384689735	-8.26288365203	-123.352469604	-61.2819323496	-18.2546906404	-26.8144925777	-48.687305956
127500000.0	-23.5988332375	-31.9118949866	-7.45129496444	-123.583673516	-61.848165258	-57.8211749537	-26.8741041426	-49.0506079278
128187500.0	-24.4327952794	-33.6883258879	-6.61222406137	-124.092218234	-61.6077011954	-86.8527295316	-26.9283141012	-49.3866330418
128875000.0	-25.046017033	-34.9813165608	-5.74554975545	-124.983603964	-61.9914355842	-117.965620855	-26.954525861	-49.7342741016
129562500.0	-25.5926959118	-36.5397079102	-4.85220321729	-126.285134319	-61.7678254983	-148.801004495	-26.9787047319	-50.0760781992
130250000.0	-26.0521862437	-38.1389768082	-3.94603030065	-128.077507339	-61.8959097948	177.97538561	-27.0076344127	-50.5421563774
130937500.0	-26.4544660211	-39.957346405	-3.03722085082	-130.410527254	-61.495973564	142.095711005	-27.0043328698	-50.8605497977
131625000.0	-26.8143858591	-41.6822966415	-2.14143239323	-133.355603756	-61.8399306378	114.830254577	-26.9691403034	-51.3078725316
132312500.0	-27.1122523734	-43.5369252968	-1.27926529813	-136.836111818	-61.8725485319	75.5353387898	-26.925932846	-51.6560717725
133000000.0	-27.3929910498	-45.3268589134	-0.471430093346	-140.811642025	-61.8651579822	43.2129020563	-26.8748494623	-52.1167103962
133687500.0	-27.6343962295	-47.2019391375	0.2739308402	-145.175186672	-61.6395952573	3.56338412759	-26.8180105872	-52.5943625092
134375000.0	-27.8574665381	-49.0566934195	0.953142646485	-149.828605648	-61.2868310126	-23.2853543437	-26.739081132	-53.0308387451
135062500.0	-28.0227609674	-50.9558896128	1.56837067145	-154.671143835	-60.905505084	-50.2867025802	-26.6490757309	-53.5186290892
135750000.0	-28.1804810751	-52.8059590074	2.1172651214	-159.657641322	-60.8917633546	-79.8904363628	-26.5364634957	-54.0351391115
136437500.0	-28.2913925051	-54.6527910189	2.60278149934	-164.708204006	-60.7474604739	-114.812414241	-26.4258449266	-54.6717285912
137125000.0	-28.3822940229	-56.4008792389	3.03037336314	-169.814161845	-60.5723146163	-147.250509019	-26.3040736096	-55.2632407561
137812500.0	-28.4352147995	-57.9353963542	3.40175136359	-174.876182623	-60.7436241337	-174.448591667	-26.1674690918	-55.8131643228
138500000.0	-28.4454733615	-59.491425526	3.7240064205	-179.928603885	-59.9389084728	168.361277703	-26.0260752144	-56.356683769
139187500.0	-28.4137557132	-60.85572095	3.99556013694	175.112286199	-60.4623955688	143.005460427	-25.8724484005	-56.9604379411
139875000.0	-28.3303339542	-62.0834244069	4.22427610904	170.22264795	-60.3062400881	115.777445295	-25.7157212839	-57.4420739833
140562500.0	-28.1898343178	-63.220633325	4.41398740338	165.455445238	-60.1822598234	97.3544379715	-25.5646167226	-58.0825806132
141250000.0	-27.974253783	-64.0623096777	4.5685088867	160.807122982	-59.6187649464	68.094645066	-25.3946391743	-58.583934659
141937500.0	-27.6648985722	-64.8439624122	4.69146872893	156.30886791	-59.7240397536	51.283261417	-25.2452215017	-59.2350435476
142625000.0	-27.2346935466	-65.4465308251	4.78839748277	151.935488184	-59.9939731297	27.5961010119	-25.0759290615	-59.7737919724
143312500.0	-26.6381677173	-66.0457574572	4.85832470428	147.712224054	-59.8383305532	10.5137279193	-24.9087425596	-60.3105850061
144000000.0	-25.7286372273	-67.1479242932	4.90860433402	143.617741006	-60.4198325975	-17.0445458558	-24.738249508	-60.7607993756
144687500.0	-24.8775567783	-72.7469131124	4.94089791933	139.686644968	-60.0120421812	-33.9992961206	-24.5912471338	-61.2294592127
145375000.0	-24.1701767486	-78.5134258796	4.95904511192	135.881273032	-60.0600344773	-61.7252895908	-24.4283739692	-61.5855481993
146062500.0	-23.6937791985	-84.7106522904	4.96396945442	132.224483699	-59.7720130122	-79.0960149069	-24.2930749679	-61.8991139234
146750000.0	-23.2623486397	-90.5518237735	4.95780244002	128.683240744	-60.1060706476	-99.7419059131	-24.1481607198	-62.0685072284
147437500.0	-22.9371267255	-96.2980907163	4.9412442848	125.280734421	-60.0541016412	-111.566065092	-23.9947086179	-62.1795352802
148125000.0	-22.6482280454	-101.769380916	4.92100486866	121.981486848	-60.8783316171	-126.883430991	-23.8524072257	-62.2622552827
148812500.0	-22.4076994609	-107.355676595	4.89177275127	118.804901677	-60.7201299526	-145.152668875	-23.7112115567	-62.2747891897
149500000.0	-22.2061950988	-112.591422115	4.86108658496	115.724145834	-61.1307745669	-158.562161517	-23.5775565916	-62.1887630573
150187500.0	-22.0321419891	-117.870078479	4.82462612226	112.751983096	-60.8638965089	-174.777635617	-23.4457106273	-62.012084055
150875000.0	-21.8857211154	-122.833657374	4.78765760888	109.860825256	-61.1248660391	169.679916161	-23.319044965	-61.7244707474
151562500.0	-21.7535002038	-127.845561558	4.7471585107	107.060625989	-60.8766961197	150.539781142	-23.204291337	-61.4223274059
152250000.0	-21.6574292318	-132.599237021	4.70442152466	104.332407739	-61.1431691383	136.234116609	-23.0973036273	-61.0185761791
152937500.0	-21.5546727471	-137.245515269	4.65957930431	101.691690256	-61.0649282649	124.375484486	-22.9945522235	-60.5514112795
153625000.0	-21.4987289524	-141.740972995	4.61694203406	99.1147676222	-61.3827365537	124.408349459	-22.9113593469	-60.0169762615
154312500.0	-21.4295173926	-146.201521917	4.5710711313	96.6153208419	-61.3361086756	120.648036585	-22.8056478448	-59.397288963
155000000.0	-21.3881396381	-150.722374885	4.52455234776	94.1572415764	-61.312470352	118.387277712	-22.7243989261	-58.7255536506
155687500.0	-21.3396473759	-155.006799437	4.47866610346	91.7881438638	-61.384762799	112.66250193	-22.6584137703	-57.9826158581
156375000.0	-21.3254152292	-159.321970354	4.43251557652	89.4471369187	-60.5010813949	112.954494988	-22.5899927821	-57.1560276968
157062500.0	-21.2858864169	-163.467811122	4.38605239906	87.1875792989	-60.8117025137	115.726678036	-22.5333705697	-56.2863939397
157750000.0	-21.272367644	-167.604625254	4.33978377352	84.9584220091	-60.6918181203	114.689265207	-22.4757376125	-55.3539578066
158437500.0	-21.2473906202	-171.656415058	4.29390319585	82.7855444253	-61.0974747885	115.683677436	-22.4373856643	-54.4095057435
159125000.0	-21.2322510403	-175.68715011	4.24936120957	80.6508862924	-60.8724826908	116.222845255	-22.400084646	-53.3995759127
159812500.0	-21.2256031513	-179.5944348	4.20496939698	78.5692609156	-60.6195134257	116.024484701	-22.3755344044	-52.3407480481
160500000.0	-21.2159961551	176.479073886	4.16302198096	76.5245906924	-60.4160006215	115.056527491	-22.3566077846	-51.3112949405
161187500.0	-21.2073947669	172.672913122	4.11947266366	74.530991943	-59.6776963184	117.618702551	-22.3504135494	-50.2348052573
161875000.0	-21.1950894978	168.946117076	4.07705786968	72.5580683678	-59.4916475159	115.742067824	-22.3647062364	-49.1000828316
162562500.0	-21.2018821309	165.275767868	4.03352635244	70.6329385096	-59.8835025715	117.906758188	-22.3781912681	-47.982624091
163250000.0	-21.1745110757	161.630390786	3.99298721297	68.7183523817	-59.6891754386	116.591736994	-22.3994565866	-46.785970955
163937500.0	-21.1752559174	158.045099802	3.95180892326	66.8572407844	-59.4943800712	114.983451638	-22.4225097022	-45.6363304921
164625000.0	-21.1463434881	154.540331155	3.91370563477	65.0116295214	-59.3906608424	117.304666391	-22.4620886551	-44.4530887423
165312500.0	-21.1433291758	151.048045692	3.87325090927	63.2130297773	-59.0241620365	115.461549051	-22.5182073435	-43.3390156207
166000000.0	-21.124671422	147.750367337	3.83755649861	61.4336123018	-58.7950463571	113.095375956	-22.5773134444	-42.1742739985
166687500.0	-21.1230188822	144.311946813	3.79916647043	59.6918192977	-58.7499544775	112.659815045	-22.6527024814	-41.0297101737
167375000.0	-21.1074257624	141.117812389	3.7642553389	57.9639685634	-59.1901728548	109.236875336	-22.7452975585	-39.9508666701
168062500.0	-21.1028582131	137.782323098	3.72954132006	56.2817516124	-58.960657485	111.091261775	-22.8440730575	-38.8115475048
168750000.0	-21.088929765	134.670419492	3.69551996169	54.6266495319	-58.8287986847	108.039787787	-22.9561080516	-37.7734794582
169437500.0	-21.0774983501	131.503211131	3.66184061819	53.0047290094	-58.5288327473	108.128202816	-23.0731547927	-36.751063827
170125000.0	-21.0696820827	128.420067181	3.6309540531	51.3829478897	-58.73658613	109.193281364	-23.2070449511	-35.7139424888
170812500.0	-21.0548683731	125.282356975	3.59934765129	49.7956991549	-58.3860876514	100.661994659	-23.3545066244	-34.6508530582
171500000.0	-21.044955552	122.306884796	3.57152469956	48.2304143226	-58.5601828975	96.9260488179	-23.5217342413	-33.7047588766
172187500.0	-21.029432916	119.333019151	3.54515363951	46.7029499919	-58.2928267201	96.7980146549	-23.6819323549	-32.7778562819
172875000.0	-21.0251784783	116.383217714	3.51873478942	45.1705208991	-59.0282091262	95.7487069131	-23.8468243917	-31.9458856119
173562500.0	-21.0040736123	113.462878349	3.49529233823	43.676230293	-59.1606373098	89.5108445827	-24.0503604696	-31.1288912829
174250000.0	-21.0093923729	110.59706799	3.47369346569	42.1831272736	-58.9209653035	90.8643900296	-24.2449362048	-30.2750865644
174937500.0	-20.9803635268	107.744427761	3.4545578634	40.7136719429	-58.6667031174	94.8548347026	-24.4713763571	-29.5307978756
175625000.0	-20.965363805	104.924056268	3.43677393543	39.2563009544	-59.0742034188	95.6636965282	-24.6844073034	-28.8152637224
176312500.0	-20.9306690841	102.140202302	3.41851164932	37.8224830124	-58.9603981838	93.0335679171	-24.9281777429	-28.2582105325
177000000.0	-20.9002453571	99.2760387013	3.40339812085	36.3953170155	-58.9877224877	92.6717591107	-25.1899768517	-27.8053558989
177687500.0	-20.8626113614	96.5036465472	3.38859628708	34.9806437694	-59.1569620031	87.7296957221	-25.4752496706	-27.3130397049
178375000.0	-20.8316824237	93.7116803144	3.37754043602	33.568104173	-59.7295781915	87.5288931793	-25.7509418755	-26.8385689263
179062500.0	-20.7843940522	91.0441973763	3.36669477207	32.1849049546	-59.7301733362	86.4027846954	-26.0463604911	-26.6859138137
179750000.0	-20.7350562875	88.3524683333	3.3600757146	30.8028461501	-59.3614608142	88.7427812329	-26.3413855446	-26.4971537636
180437500.0	-20.6926661434	85.6830717607	3.35287250185	29.4373481423	-59.3982903869	82.9120339675	-26.6515123612	-26.4686855089
181125000.0	-20.6433347858	82.9500981324	3.34748139855	28.064032904	-59.7576851047	79.9425820289	-26.9624537522	-26.4039342512
181812500.0	-20.5915823302	80.3102378122	3.34227746733	26.7136440759	-60.0064602734	67.1330532094	-27.286556641	-26.6228413313
182500000.0	-20.5286185034	77.6552573	3.34163712075	25.3599518216	-59.6688760472	67.6218131354	-27.6153408304	-26.5895553369
183187500.0	-20.4662847845	75.0177918489	3.33809783673	24.0256868424	-59.7840902922	64.0687555305	-27.9473156142	-26.9420453044
183875000.0	-20.3984238504	72.5014653189	3.33772000263	22.676276462	-59.2344944617	61.5985775772	-28.2689984952	-27.252855442
184562500.0	-20.3372636513	69.8901781096	3.33754166842	21.353820113	-58.9299405436	57.5117649015	-28.5892874681	-27.8417649499
185250000.0	-20.2560478422	67.3487320136	3.33864912787	20.0209614152	-58.9530228372	56.5384186895	-28.9082668023	-28.4333625019
185937500.0	-20.1897144583	64.8365787764	3.33909491079	18.698511407	-59.075884668	51.6721061902	-29.2176234737	-29.1552328125
186625000.0	-20.1179876449	62.4107002553	3.34437963501	17.3745229317	-59.3130931724	50.8934967596	-29.5672185708	-29.9056407309
187312500.0	-20.0518349629	59.9144921234	3.34966214104	16.0675674043	-59.1321218811	49.6690843812	-29.8644696161	-30.8877961403
188000000.0	-19.9819532523	57.5746020394	3.35666685326	14.7513661361	-59.1410163534	50.2942957898	-30.1409990825	-32.0829991125
188687500.0	-19.9204529918	55.1605717833	3.36264794834	13.4547855126	-59.0836150664	50.4625099598	-30.4230085474	-33.3266260048
189375000.0	-19.8597312084	52.8156062446	3.36971078867	12.1451775591	-58.9510362947	45.1096533052	-30.7190922797	-34.7982533401
190062500.0	-19.8019345805	50.4498646416	3.37755721966	10.8578295758	-58.9270667438	43.9218249391	-30.9757365865	-36.1182719515
190750000.0	-19.7441175342	48.1579175252	3.38837547648	9.56627707764	-58.8839896801	39.2997590225	-31.2413956922	-37.8121306658
191437500.0	-19.7003800324	45.8042834224	3.39808290369	8.28813672225	-59.0913434266	35.5170016728	-31.4446512508	-39.5055108291
192125000.0	-19.6656644817	43.5769191116	3.40815129561	7.00445856422	-59.5477943283	20.2303896775	-31.6362045045	-41.3600180863
192812500.0	-19.6404845133	41.184147161	3.41878115418	5.73537878273	-58.8355916408	4.50019333823	-31.7907677689	-43.223268987
193500000.0	-19.6326715146	38.9373758208	3.43112186494	4.44901638757	-58.7562863505	-14.6344004313	-31.9321920248	-45.224779764
194187500.0	-19.6289499075	36.619872883	3.44169776826	3.17688943499	-58.6558416058	-30.8307846763	-31.9977029105	-47.0600671379
194875000.0	-19.6372619049	34.3221361807	3.45553365	1.91007418316	-59.054734295	-45.9209464504	-32.0594951809	-49.2745488627
195562500.0	-19.6532384129	32.0168085138	3.46887527218	0.651884555891	-58.4289887341	-61.4842543669	-32.0870268994	-51.3559166561
196250000.0	-19.6817777762	29.6242669772	3.48217345568	-0.612284058353	-58.5310422465	-80.4067510511	-32.0943275008	-53.4807369828
196937500.0	-19.7086767576	27.2043239542	3.49513607089	-1.87438034979	-58.2999248461	-95.9807819776	-32.0859066212	-55.3054196572
197625000.0	-19.7588117429	24.7827983781	3.50984291657	-3.1246561664	-58.1678032071	-107.325451968	-32.0253451388	-57.2575665888
198312500.0	-19.8019546562	22.384509239	3.52582427825	-4.36066299923	-57.5929544865	-120.393475932	-31.9318640055	-59.3012872211
199000000.0	-19.8774813841	19.9228123938	3.54442399093	-5.61449876656	-57.2219558258	-134.076697052	-31.7987321894	-61.0698503144
199687500.0	-19.9275039628	17.4393253873	3.5604325514	-6.85570635362	-57.3741334857	-148.546055121	-31.6518039758	-63.1841238561
200375000.0	-19.9971644382	14.9059843633	3.5779841429	-8.11213011224	-57.3129250936	-164.085056677	-31.4843876605	-65.0003668789
201062500.0	-20.0644330718	12.3532121461	3.5955615579	-9.34406343245	-57.4106460738	176.702316141	-31.3142471901	-66.9551152935
201750000.0	-20.1395420561	9.77284093442	3.61485223979	-10.5908764466	-57.6328122335	164.238476978	-31.0966977841	-68.4407243258
202437500.0	-20.2119401078	7.22633759466	3.63298175427	-11.8212866116	-57.9469385779	140.046237207	-30.8833559958	-70.1059072382
203125000.0	-20.2905494434	4.54342284168	3.65419129313	-13.065181319	-58.2763168275	127.860333542	-30.6322701257	-71.369053869
203812500.0	-20.3581331276	1.86453858984	3.67358430389	-14.2964416435	-57.9552241625	106.203844724	-30.3411896797	-72.8653718363
204500000.0	-20.4453396029	-0.865857121224	3.69446037126	-15.5423492432	-58.486175985	92.4484972835	-30.059195543	-73.9369756641
205187500.0	-20.5255313819	-3.58504593284	3.71471102837	-16.7626301845	-58.4058894942	78.6769300062	-29.7942867927	-74.9406090299
