#Frequency	|S11|	<S11	|S21|	<S21	|S12|	<S12	|S22|	<S22
100000000.0	-19.7494431408	125.618165453	-28.1358381844	-127.390226833	-60.0582615426	165.988669395	-21.7743981567	-39.7780891393
100687500.0	-19.6151603265	123.062297449	-27.551909869	-127.413902223	-56.8172609296	-137.672586599	-21.8845495965	-40.253862452
101375000.0	-19.5444000784	119.920337875	-27.1145469499	-128.261153068	-58.2652077918	173.533836698	-21.9192760427	-40.2041688691
102062500.0	-19.4622215732	116.594851788	-26.7643328953	-129.829894817	-57.9262824258	97.8388727667	-21.9453214787	-39.8435418768
102750000.0	-19.4007553783	113.380312972	-26.4143904205	-130.96370564	-60.088144456	57.5335766672	-21.9653012177	-39.6415528324
103437500.0	-19.3279640746	110.118426068	-26.0725523055	-132.336980682	-59.9625117188	-27.6172984735	-21.9989099262	-39.39075651
104125000.0	-19.2797747175	106.702403395	-25.7882088152	-133.67902291	-60.0827170403	-137.859447951	-22.0325843789	-39.1925390821
104812500.0	-19.2248753767	103.392708495	-25.5187130646	-135.091276693	-60.085193255	123.139984965	-22.0678657565	-39.0727049236
105500000.0	-19.190998742	99.9183150831	-25.2799062368	-136.414680688	-60.342125568	61.3356750869	-22.0948731105	-39.0883006022
106187500.0	-19.1534729051	96.2339239778	-25.0773949765	-137.79607094	-60.7050508314	14.2183486311	-22.1319093104	-39.0946767124
106875000.0	-19.1181851398	92.4988933477	-24.9029260826	-139.046370224	-61.2412815225	-20.6609265193	-22.1668099288	-39.1564427575
107562500.0	-19.0988168367	88.6043475637	-24.7702623831	-140.282105596	-60.9886605797	-39.1388116309	-22.1987283866	-39.1362393173
108250000.0	-19.0696060337	84.5326913782	-24.6742205751	-141.278678565	-60.8841133961	-49.3150048995	-22.2233148116	-39.2347303101
108937500.0	-19.0268683037	80.6804750406	-24.5086506682	-142.316985778	-60.9271440667	-79.9091241492	-22.254248008	-39.1941509616
109625000.0	-18.9905633163	76.7453245217	-24.3886750829	-143.285965834	-61.1801186655	-114.097142628	-22.2772855342	-39.1738868921
110312500.0	-18.9450919029	72.7291593702	-24.2933964331	-144.005521725	-61.1287508861	-143.784148555	-22.3107885464	-39.1677384023
111000000.0	-18.9108306871	68.5797995252	-24.2229948412	-144.584568897	-61.4845657488	-163.791102008	-22.3397499894	-39.1400476048
111687500.0	-18.8625735765	64.3699750072	-24.1642031083	-144.837501483	-61.271837534	171.516798501	-22.3636016575	-39.2188953791
112375000.0	-18.8307375488	60.0297218516	-24.1223652329	-144.709240081	-61.2444330151	156.389308604	-22.389672469	-39.2670034976
113062500.0	-18.7865396863	55.6073365661	-24.0747501467	-144.146754621	-61.8696293025	142.23702606	-22.4150274629	-39.3559822514
113750000.0	-18.7512239996	51.0500211819	-24.0053036193	-143.238989056	-61.7786241065	125.93629403	-22.4393133318	-39.4242292462
114437500.0	-18.708231512	46.4268523603	-23.9073746509	-141.960511427	-62.1430035833	111.146607793	-22.467506785	-39.4998829099
115125000.0	-18.6758994041	41.6244786327	-23.7538046757	-140.397418043	-62.1816371732	97.126414797	-22.4972927354	-39.5750066435
115812500.0	-18.6364486372	36.6961823501	-23.5444832132	-138.673640534	-62.2102609743	85.8691181723	-22.5186765831	-39.6550123944
116500000.0	-18.6013751198	31.6669339522	-23.2699079406	-136.844368213	-61.8405651172	85.6067595494	-22.5453490665	-39.7451734247
117187500.0	-18.5685631605	26.5495182971	-22.9495790013	-134.971899013	-61.9048890539	96.7441742209	-22.5641526937	-39.834519292
117875000.0	-18.548721703	21.2602053835	-22.5691979008	-133.091063515	-62.4335772472	106.290955257	-22.5932768219	-39.7855209096
118562500.0	-18.5482950117	15.8033542032	-22.1470483377	-131.313007259	-62.0468315093	103.918559417	-22.6023238225	-39.8067781735
119250000.0	-18.5462042621	10.2891517413	-21.6690648699	-129.643952125	-61.4167464193	94.1082939301	-22.6279048887	-39.7014266511
119937500.0	-18.568657457	4.61814596245	-21.1523236657	-128.093288918	-61.7035050952	92.3350141978	-22.6432512509	-39.6434238668
120625000.0	-18.6072100801	-1.02479472801	-20.5862228835	-126.655271957	-61.4972454907	82.1289051289	-22.66607314	-39.5498045379
121312500.0	-18.6912886858	-6.84247949724	-19.9851765992	-125.391547442	-61.2421891346	71.5561647599	-22.6779381742	-39.4412287835
122000000.0	-18.7919244081	-12.6337074405	-19.3476168709	-124.331759559	-60.7076243247	59.7246708082	-22.7022579741	-39.3170327901
122687500.0	-18.9541515961	-18.5192137739	-18.6743893925	-123.524166209	-60.7648342251	58.1864568149	-22.7187009011	-39.1832664305
123375000.0	-19.13866642	-24.2348340206	-17.9733803129	-122.868816497	-60.862344401	47.6542558644	-22.732760065	-39.0118801312
124062500.0	-19.3929403667	-29.992103454	-17.2406224298	-122.445929201	-61.1936368271	36.1516169071	-22.7446888397	-38.8659020198
124750000.0	-19.7015101944	-35.2946392055	-16.4846886781	-122.288175437	-61.0878067466	24.5626084072	-22.766643111	-38.6221448398
125437500.0	-20.0535515094	-40.3607077742	-15.7054511692	-122.394240911	-61.4981678675	15.3524679367	-22.7742267776	-38.3099371536
126125000.0	-20.4424847595	-44.7962365932	-14.894925032	-122.712633829	-62.0613401741	7.61379894558	-22.8018853405	-38.0205368052
126812500.0	-20.8408015041	-48.8466055552	-14.0568008072	-123.406882378	-61.828716912	-0.512121525359	-22.8210314504	-37.6350248269
127500000.0	-21.2118097425	-52.1477773861	-13.1937245188	-124.424517369	-62.5985466753	-13.2167956638	-22.8311457302	-37.3433064027
128187500.0	-21.5449938485	-55.2144443727	-12.3216540119	-125.839675201	-62.188190713	-36.0180905036	-22.8503347731	-36.9528020161
128875000.0	-21.8467974095	-57.9603571357	-11.4338805899	-127.708632634	-62.6579112867	-49.972432326	-22.8551079364	-36.5083293507
129562500.0	-22.1178881358	-60.5155636338	-10.5393715621	-130.050613789	-62.4688398978	-76.3797945954	-22.8683080434	-36.0796632969
130250000.0	-22.3579286011	-62.9287537405	-9.6563599614	-133.00093668	-62.2351420764	-89.4603816386	-22.8925824808	-35.6679201663
130937500.0	-22.5590676474	-65.2451340602	-8.80441531479	-136.470613966	-61.735460779	-111.607812915	-22.913845185	-35.19302993
131625000.0	-22.7601076227	-67.4709348096	-7.99814884	-140.455173509	-62.004536508	-127.249656667	-22.9243227064	-34.7892086458
132312500.0	-22.9213402852	-69.5947354759	-7.25613709768	-144.773399746	-62.0146496252	-139.856485052	-22.9436452468	-34.2665259609
133000000.0	-23.0767754375	-71.6489347422	-6.57743666575	-149.420279838	-61.8884253504	-145.429651254	-22.961970401	-33.8332889291
133687500.0	-23.206547637	-73.5986026044	-5.96148286963	-154.249789771	-61.9441079447	-157.958143851	-22.9841087134	-33.339232764
134375000.0	-23.3333022573	-75.4676499239	-5.41239022375	-159.261736622	-62.4111919736	178.677586529	-22.9980971357	-32.9221530338
135062500.0	-23.4165879288	-77.2787623876	-4.92054017784	-164.311632463	-62.0462554542	167.557173548	-23.0124180044	-32.5504390182
135750000.0	-23.4973425839	-78.9843029327	-4.49100578617	-169.414474691	-62.1152755847	168.778138395	-23.0337333876	-32.2123526295
136437500.0	-23.5518518019	-80.6150303577	-4.11289970249	-174.48251764	-62.4037017174	169.858795546	-23.0547150809	-31.8773646081
137125000.0	-23.5895969329	-82.1822398453	-3.78762563116	-179.541677178	-62.1065814786	161.218145984	-23.0799827091	-31.5659641949
137812500.0	-23.5949605464	-83.6106176	-3.50846084452	175.491295981	-62.630537102	163.147346231	-23.1021634227	-31.2547987764
138500000.0	-23.5646195757	-85.0141702404	-3.27240973915	170.579121873	-62.3564941989	170.383915525	-23.1172749318	-31.014283052
139187500.0	-23.4980221133	-86.3786215415	-3.07534794458	165.803151336	-62.6577450578	173.138021308	-23.1306036117	-30.7467044318
139875000.0	-23.3795425678	-87.6935597189	-2.9159556005	161.128692625	-62.0360557558	176.299184474	-23.1553814586	-30.4457722739
140562500.0	-23.227024097	-89.1189040476	-2.78252130565	156.592252762	-62.1078820987	175.848139189	-23.189785126	-30.2790104001
141250000.0	-23.0168615766	-90.5002109046	-2.67769594115	152.17720654	-61.6187623251	177.764644418	-23.2089390624	-30.1254808239
141937500.0	-22.7508626011	-92.2685683834	-2.59616079693	147.910967513	-62.5057965233	175.737213566	-23.2326508785	-29.9792639781
142625000.0	-22.4437544732	-94.2351314102	-2.53434666008	143.769170364	-61.7681650577	175.121997588	-23.257552595	-29.8911314874
143312500.0	-22.105126564	-96.7358726348	-2.49168249861	139.778578914	-61.1573524198	171.425266671	-23.2718860104	-29.8206799455
144000000.0	-21.7594081627	-99.6251716385	-2.46336125246	135.901153793	-61.31306469	158.607289101	-23.2905313531	-29.742078337
144687500.0	-21.4576439782	-103.219571258	-2.44621853507	132.169033249	-60.9785713858	158.780240915	-23.3094089998	-29.7316602043
145375000.0	-21.1841448549	-106.914375814	-2.44180310396	128.553469419	-61.3896349994	163.353846015	-23.3240140655	-29.7664807766
146062500.0	-20.9617552102	-110.929274765	-2.44571698587	125.056138847	-61.1873846739	163.086033183	-23.3541875222	-29.7975841313
146750000.0	-20.7629871696	-114.951440686	-2.45744359471	121.665874688	-61.0382635199	174.566921391	-23.3825078387	-29.8217552969
147437500.0	-20.616006471	-119.083581174	-2.47848102992	118.399494954	-61.4386308248	175.128432432	-23.3904702234	-29.8302674604
148125000.0	-20.5039476968	-123.219058172	-2.50067045684	115.219027929	-61.4520355043	173.250061624	-23.4017887442	-29.8485384665
148812500.0	-20.4067048845	-127.431100016	-2.53079585809	112.135028365	-61.0214671656	164.628684546	-23.4049765276	-29.9295174253
149500000.0	-20.3481287142	-131.476652123	-2.56308068184	109.143051056	-61.2229240927	152.859429108	-23.4121646095	-29.9434720575
150187500.0	-20.3144830373	-135.559101192	-2.60239470218	106.231941981	-60.9624950066	132.232401461	-23.4123665798	-29.9425560805
150875000.0	-20.3040720271	-139.567526356	-2.63978845255	103.396759995	-61.4234566247	119.982768534	-23.4062545902	-29.9077695423
151562500.0	-20.2987766439	-143.656222444	-2.67885610623	100.648303135	-61.0031937946	118.898053379	-23.401392676	-29.8742412758
152250000.0	-20.3301305596	-147.632630192	-2.72205760185	97.9657830527	-61.2616263985	107.159384138	-23.4080500442	-29.7849759799
152937500.0	-20.3608641134	-151.550947196	-2.76719695373	95.3656362257	-61.3401474245	87.9113817332	-23.4009429197	-29.684267574
153625000.0	-20.4230866528	-155.439101181	-2.81030892002	92.8159277499	-61.3403722115	72.6035898785	-23.4016713274	-29.5803761414
154312500.0	-20.469953352	-159.28319287	-2.8557901274	90.3415128679	-61.5067596366	60.5713335672	-23.3780851883	-29.5221579459
155000000.0	-20.5461208533	-163.221031284	-2.90160544734	87.9101898296	-61.1702404069	44.8836203181	-23.3692945107	-29.3825352142
155687500.0	-20.6166770751	-167.0084547	-2.94800186705	85.5485071003	-61.3149740221	21.4945463929	-23.3595659038	-29.2134088496
156375000.0	-20.7192690762	-170.856913809	-2.99549415308	83.224971099	-61.6706807012	2.4377604331	-23.3449492089	-29.0231153038
157062500.0	-20.8019734199	-174.589790481	-3.03981580768	80.966281151	-61.8650567346	-25.2733999049	-23.3226741461	-28.8089917689
157750000.0	-20.9091815538	-178.35110451	-3.08728828811	78.7423712936	-61.6326058704	-51.4632936211	-23.2948080155	-28.5103557582
158437500.0	-20.9979508298	177.961316432	-3.13451033114	76.5812922095	-61.7312023824	-77.5233960581	-23.2841887374	-28.2166683792
159125000.0	-21.0996419796	174.261011321	-3.18107884823	74.4441454706	-60.9087369305	-92.7896368382	-23.2647135991	-27.8787784238
159812500.0	-21.1982715115	170.654600776	-3.22550317385	72.3640986365	-60.9529513773	-118.338971197	-23.2504311494	-27.5452931075
160500000.0	-21.3081116841	167.045035554	-3.27087408805	70.3003375545	-60.625597654	-135.331726289	-23.2402580322	-27.275781369
161187500.0	-21.4133654464	163.444215354	-3.3140495367	68.2929132102	-60.4290198921	-149.771316842	-23.2288343778	-26.9417859303
161875000.0	-21.5125441796	159.985927489	-3.3594519266	66.304783356	-60.2067771397	-169.873183913	-23.2260861122	-26.5272572964
162562500.0	-21.6292362454	156.475485441	-3.40327894331	64.3795539824	-60.7357807278	168.933805215	-23.2163735781	-26.1633440049
163250000.0	-21.7250024591	153.035298391	-3.44770672905	62.4614001394	-60.5173837919	142.271306108	-23.2121054825	-25.7903143452
163937500.0	-21.8447818345	149.579380275	-3.48899099427	60.5897094053	-60.7104822157	118.011779916	-23.2000183083	-25.3955673143
164625000.0	-21.937315225	146.250556784	-3.52915468036	58.7329366033	-60.4508666945	101.29129963	-23.2047762387	-25.0657911272
165312500.0	-22.056208422	142.882496909	-3.57178971838	56.9315377458	-60.3981381052	88.4364256871	-23.2108566666	-24.6834193865
166000000.0	-22.1672667751	139.663995337	-3.61186787703	55.1442159619	-59.9374888055	79.3225045184	-23.2206718208	-24.3099588783
166687500.0	-22.2960192272	136.206445446	-3.65164611754	53.3836706107	-59.8172892433	78.7990008738	-23.2301805274	-23.9765121338
167375000.0	-22.4077869965	132.987888476	-3.68866862375	51.6565330193	-59.9004487757	90.2400852071	-23.2504471052	-23.7298322121
168062500.0	-22.5188697301	129.635311147	-3.7273359904	49.9714560531	-59.4053878352	88.9738977835	-23.2775698911	-23.4301257728
168750000.0	-22.6293216645	126.490909205	-3.76449077024	48.302330434	-59.3828968566	77.6601308918	-23.3083509353	-23.1905529592
169437500.0	-22.7396704208	123.244570371	-3.79942697547	46.6690680001	-59.152932364	75.6787585143	-23.3410888517	-22.9988336115
170125000.0	-22.8526318061	120.099869636	-3.83053136991	45.0394731811	-59.1790120613	73.9676698794	-23.3761978551	-22.7425707541
170812500.0	-22.9667771272	116.83266253	-3.8645210726	43.4436469749	-59.1449307991	77.0203919584	-23.4081669321	-22.5106478204
171500000.0	-23.0809812092	113.679923122	-3.89451384127	41.8667166531	-59.0173438749	75.058631779	-23.4554930305	-22.3204452223
172187500.0	-23.1933471351	110.460797879	-3.92066150123	40.3205422983	-59.2098584465	64.9444879564	-23.5008363826	-22.1859362144
172875000.0	-23.316412406	107.152650772	-3.94688095376	38.7879846549	-59.3313117042	66.1006416366	-23.5513505156	-22.0422106739
173562500.0	-23.4083873058	103.885792575	-3.97187228513	37.2850379606	-58.9859602765	68.9808891302	-23.613782692	-21.9726840845
174250000.0	-23.5373623251	100.55292765	-3.99507103045	35.7932451917	-59.2721786546	69.1243951141	-23.6688335413	-21.8830471742
174937500.0	-23.6269480132	97.2289983436	-4.01541161998	34.3209271348	-59.2927663399	69.3177929968	-23.7244083948	-21.9437757832
175625000.0	-23.7344085075	93.8137929003	-4.03179566193	32.8555024648	-59.301680031	70.0331268456	-23.7756662003	-21.9089764806
176312500.0	-23.8242419937	90.4183252517	-4.04823627689	31.4221857595	-59.2287876433	57.7099658346	-23.8394937668	-21.997130499
177000000.0	-23.9189880167	87.0010738551	-4.06341690585	29.9842116004	-60.0009314047	42.8383079327	-23.9101756981	-22.0816392253
177687500.0	-23.9740274323	83.5680801979	-4.07596287759	28.5787408068	-60.0377542603	27.6194372023	-23.9736313021	-22.1579258345
178375000.0	-24.0540861928	80.093090774	-4.08764369945	27.1667503268	-60.3642809683	16.7307244098	-24.0309672984	-22.2344331869
179062500.0	-24.1082179884	76.6361309044	-4.09685594014	25.769340298	-60.3511198105	-1.74514036871	-24.0907957002	-22.4662518584
179750000.0	-24.1680360829	73.0506145762	-4.10401467858	24.3603902935	-59.5533187313	-14.6526044233	-24.1668270494	-22.5474863181
180437500.0	-24.2148586417	69.5440387688	-4.10819347543	22.9720136527	-59.6583489287	-24.6935303497	-24.2061235915	-22.7019680041
181125000.0	-24.2384283278	65.8847579516	-4.11434140446	21.5844074521	-59.488195576	-38.1928348792	-24.2698683088	-22.7557244232
181812500.0	-24.2836741183	62.2835345817	-4.1182583316	20.2192708922	-59.2157191333	-61.0405435496	-24.3141782691	-22.9169678679
182500000.0	-24.298604518	58.6345040785	-4.11925529215	18.8392251643	-59.3588426038	-73.9008239531	-24.3812755396	-23.0093815098
183187500.0	-24.304118002	55.0039822789	-4.11939781503	17.4855911438	-59.4577337565	-79.4926401631	-24.4296651305	-23.0880746235
183875000.0	-24.2861112577	51.5167770539	-4.11712130349	16.122924312	-59.408078104	-92.5262186133	-24.488467767	-23.2122651388
184562500.0	-24.2754829463	47.8414299025	-4.1149215717	14.7774238052	-59.4395298015	-115.207625139	-24.5218630192	-23.3443052293
185250000.0	-24.2511215357	44.280323081	-4.11048785924	13.4209039624	-59.4804609149	-128.794054799	-24.5589200935	-23.4486930335
185937500.0	-24.2398628594	40.6350254484	-4.1075920932	12.0782110682	-59.5605553567	-144.125745052	-24.589893767	-23.5245919976
186625000.0	-24.2151144438	37.089136823	-4.10138966835	10.7188940904	-59.7625259295	-164.615535865	-24.633099499	-23.5065927291
187312500.0	-24.1813903658	33.3670715162	-4.09523907651	9.38560982269	-59.8337877576	179.982255201	-24.6639568929	-23.5156566325
188000000.0	-24.121126635	29.8370966263	-4.08738769646	8.03355764172	-59.8798773893	166.372853011	-24.6978238013	-23.5063100267
188687500.0	-24.0818428178	26.1157778613	-4.08004254742	6.69904384931	-59.9260851252	166.071628414	-24.7268934286	-23.4076839683
189375000.0	-24.0231513006	22.5950993527	-4.07349524281	5.35333515438	-59.9917165367	177.314668896	-24.7532644545	-23.3046558476
190062500.0	-23.966125288	19.0161205263	-4.06470750871	4.02534409388	-59.8189358726	178.540703821	-24.7718526786	-23.1681967382
190750000.0	-23.9041342741	15.4926542767	-4.0540083958	2.69113523127	-59.7164274066	166.725169213	-24.8006872992	-23.0224241443
191437500.0	-23.8230900201	11.8777475936	-4.0459569748	1.37501800356	-59.3196861094	167.767213502	-24.8296919091	-22.8230912973
192125000.0	-23.7548241875	8.41700289478	-4.03640275283	0.050102005197	-59.5738410735	166.935864946	-24.8516924768	-22.567770367
192812500.0	-23.6697864207	4.86684445314	-4.02564150868	-1.25461042197	-59.4382839461	157.678825966	-24.890944492	-22.30390097
193500000.0	-23.5985334408	1.38682897071	-4.01469248292	-2.57871620943	-59.6374425606	160.131233035	-24.9101279015	-22.0316716619
194187500.0	-23.5082167828	-2.10966429231	-4.00403022257	-3.88459468606	-59.141516334	161.732891193	-24.9171231374	-21.6550198054
194875000.0	-23.4483127452	-5.67257642801	-3.99252743276	-5.19847302073	-59.2067064619	155.181786719	-24.9277217986	-21.3291614571
195562500.0	-23.3444849672	-9.09438184352	-3.98014309679	-6.49792243869	-58.7755061194	155.003335308	-24.9563950973	-20.9509108926
196250000.0	-23.2665605778	-12.6773026051	-3.96783740052	-7.78541700859	-58.9171001709	156.289143546	-24.9699250148	-20.6147148169
196937500.0	-23.1548304483	-16.0489004685	-3.95524140855	-9.07022469385	-58.9299605915	158.700695262	-24.9787486906	-20.1605594764
197625000.0	-23.0636150657	-19.5016245732	-3.94191946881	-10.3365559462	-58.9283597397	171.253119843	-25.0026270651	-19.8180731211
198312500.0	-22.9559539886	-22.7966974419	-3.92753941215	-11.5996016545	-58.9399947684	-172.929118591	-25.0257610369	-19.6037964242
199000000.0	-22.8497114567	-26.2492271998	-3.91113479254	-12.8773375782	-59.1813198912	-156.839741404	-25.0476188769	-19.3370343049
199687500.0	-22.7180553903	-29.4936148995	-3.89690524394	-14.1397053025	-58.9096999008	-152.802508248	-25.0784117067	-19.0366793991
200375000.0	-22.5999930047	-32.835475545	-3.88111384357	-15.4106240127	-58.857985234	-150.580412907	-25.1126513824	-18.7763763518
201062500.0	-22.4732300133	-36.0975568082	-3.86681345015	-16.6638119515	-58.9444541493	-148.971128332	-25.1291135666	-18.5415230984
201750000.0	-22.3427839254	-39.2889561172	-3.84889963302	-17.9259128681	-58.902417494	-142.758579108	-25.155988006	-18.2615527253
202437500.0	-22.2140429772	-42.4215118346	-3.8324721504	-19.1769387854	-58.9624856044	-137.675822105	-25.1939171808	-18.0912466497
203125000.0	-22.0656573972	-45.5219335401	-3.81189553063	-20.4328406565	-58.8855502316	-124.317522644	-25.2324510356	-17.9173883572
203812500.0	-21.913863672	-48.5367456952	-3.79346550184	-21.6714708713	-58.5150215415	-113.426159544	-25.2575850144	-17.898757974
204500000.0	-21.7643790515	-51.511445527	-3.77426786094	-22.9345072194	-58.4227462087	-100.713887979	-25.277500291	-17.844142515
205187500.0	-21.6350273415	-54.3857457444	-3.75223317622	-24.1572054127	-58.3094549675	-97.6592356903	-25.3081969612	-17.8265692377
