#Frequency	|S11|	<S11	|S21|	<S21	|S12|	<S12	|S22|	<S22
100000000.0	-18.6495916664	127.541222705	-41.9265277244	-118.182794256	-55.2176519386	-177.267063365	-21.5378613167	-35.1951388961
100687500.0	-18.632711172	124.644421915	-42.0911579283	-121.817494103	-58.5297236768	-71.4781658733	-21.5778114174	-35.6298294424
101375000.0	-18.5961085035	121.53752998	-41.7810431625	-121.046372244	-59.8009367504	-20.8826354718	-21.5854124902	-35.4069578805
102062500.0	-18.5450924527	118.353201601	-41.4488134549	-123.734865276	-60.1415630367	44.0326296964	-21.6132804802	-35.2349847531
102750000.0	-18.5037583207	115.14147962	-41.112845799	-124.307281844	-59.5526236584	50.1005414759	-21.6220375487	-34.9642740882
103437500.0	-18.4675870902	111.99156625	-40.8262644015	-125.991352192	-59.1831933794	48.4274117273	-21.6401431094	-34.6832642754
104125000.0	-18.4370706569	108.595492732	-40.6010425409	-127.549367452	-59.2097795519	34.803927985	-21.6731162587	-34.4187421965
104812500.0	-18.4053858396	105.238903302	-40.3481760802	-128.60447017	-59.2935491516	-1.33088578374	-21.7020527882	-34.3686708347
105500000.0	-18.3813002503	101.747138861	-40.1179636932	-130.023845268	-59.8658049423	-31.1571610165	-21.7158018934	-34.3327477673
106187500.0	-18.3609907369	98.1805949508	-39.8887054051	-131.78247834	-59.8715760382	-59.6072053508	-21.740797139	-34.2862170697
106875000.0	-18.3479810803	94.4826744423	-39.7289574475	-133.450584127	-60.3627872795	-72.8639653386	-21.7685357683	-34.2914007074
107562500.0	-18.3480543702	90.6265591286	-39.5860652105	-134.94551855	-60.2836442729	-73.0976691893	-21.8044195517	-34.2350777049
108250000.0	-18.3409886971	86.5603845732	-39.5159750821	-135.993829903	-60.3033681703	-79.3687564977	-21.8353757631	-34.2875004994
108937500.0	-18.3246611559	82.7445209204	-39.4028618965	-137.091738718	-60.7505942287	-82.8654088901	-21.8542646726	-34.2347576694
109625000.0	-18.3110165372	78.8516121143	-39.2709348769	-138.055401571	-60.526440308	-92.6961009871	-21.8739444448	-34.1483872269
110312500.0	-18.2859289685	74.8297684407	-39.2054102057	-138.88157613	-60.8795837893	-114.761864792	-21.8948152916	-34.1295632156
111000000.0	-18.2709556374	70.7148434308	-39.1419410176	-139.57774578	-60.8753728212	-132.991888433	-21.9189554891	-34.124792112
111687500.0	-18.2538554609	66.4485798424	-39.1338830743	-139.950549062	-60.9337422947	-159.608739593	-21.9413746788	-34.1979551187
112375000.0	-18.2444279803	62.1106556233	-39.0822423276	-139.900882567	-61.2286161131	175.607631883	-21.9600266767	-34.2466522649
113062500.0	-18.2279996223	57.6426308759	-39.0492557839	-139.205860546	-61.5013440236	162.81622703	-21.9793574053	-34.2561255714
113750000.0	-18.2208117004	53.088143598	-38.9780967535	-138.46868061	-62.4675105694	162.677964013	-22.0011600684	-34.3549970073
114437500.0	-18.2085434737	48.4282163115	-38.8783251706	-137.345413194	-62.7697759954	162.046619984	-22.0293088071	-34.4113385937
115125000.0	-18.2042008314	43.5795717549	-38.7300476828	-135.763043403	-62.7963028747	163.558652802	-22.0617404848	-34.4886242068
115812500.0	-18.1927105104	38.6413009374	-38.538412254	-134.030161621	-63.062702724	155.805406172	-22.0815849484	-34.5546270082
116500000.0	-18.193099312	33.5556926154	-38.229497968	-131.986073276	-63.1117318608	155.864328959	-22.0951426328	-34.6315187454
117187500.0	-18.1918971465	28.4336405128	-37.9082554678	-130.19322237	-63.1791082227	154.699422101	-22.1129710391	-34.7779742433
117875000.0	-18.2121910285	23.051291049	-37.5414582057	-128.418533984	-63.1669777443	154.226406657	-22.1366799352	-34.7838653999
118562500.0	-18.2340113987	17.6127065107	-37.119451744	-126.80170196	-62.983504015	146.141895138	-22.1561448477	-34.7704592604
119250000.0	-18.2788809116	11.9895897335	-36.6474838961	-125.162792552	-62.5847597504	148.497694624	-22.1689273418	-34.7225131934
119937500.0	-18.3423448788	6.33625408078	-36.1234354672	-123.580173003	-62.7688029925	152.449164007	-22.1862966841	-34.7271076571
120625000.0	-18.4277511276	0.498951652274	-35.5824706538	-122.108726937	-63.6242283829	152.030519895	-22.211607245	-34.7028403106
121312500.0	-18.5449811132	-5.35846868333	-34.9830365152	-120.597970667	-63.3515858647	164.869140554	-22.2268284052	-34.6862818372
122000000.0	-18.7015249778	-11.3437441713	-34.3622452681	-119.429247344	-63.4504517306	177.822391541	-22.2472668436	-34.6381669625
122687500.0	-18.9003000503	-17.2595786792	-33.6667247637	-118.337632772	-63.0919451487	-178.86195125	-22.2670838199	-34.5653805753
123375000.0	-19.1486184858	-23.1693797096	-32.9994204739	-117.634356002	-63.1332633627	178.930513405	-22.2735396603	-34.4963830212
124062500.0	-19.4637656337	-28.9432617148	-32.2470003324	-116.993713755	-63.2657796911	178.765471619	-22.2871646231	-34.376932529
124750000.0	-19.8541445337	-34.5030042325	-31.5138740449	-117.018907067	-63.2101328479	178.70360663	-22.3030426969	-34.1991060306
125437500.0	-20.2675676136	-39.5185571939	-30.6932043367	-116.810181072	-63.5378017897	-179.871147287	-22.3139559716	-33.9605040095
126125000.0	-20.7396690478	-43.9045300812	-29.8704522252	-117.162455574	-63.2248623857	-165.475148334	-22.342911118	-33.7521098274
126812500.0	-21.2029453397	-47.7785588864	-28.9977262406	-117.574139128	-63.4252609146	-153.247962984	-22.3617901846	-33.464030741
127500000.0	-21.627360957	-50.8880154622	-28.1460592607	-118.563631675	-63.5395262619	-138.007584682	-22.3852392542	-33.2243946784
128187500.0	-22.0069883275	-53.687301262	-27.2422446309	-119.757766895	-63.4384500996	-117.117405634	-22.4078576599	-32.906754407
128875000.0	-22.345502344	-56.2211703911	-26.3296678349	-121.898197624	-63.5229134808	-92.0886741034	-22.4258143032	-32.4840582463
129562500.0	-22.6423083784	-58.6574454999	-25.4152867627	-123.940188517	-63.0875966649	-76.9193957356	-22.4442100048	-32.122856441
130250000.0	-22.8999462384	-61.0059618411	-24.5565870746	-126.992874235	-63.1033008977	-63.4506359977	-22.4721764212	-31.7530695767
130937500.0	-23.1218732712	-63.2548569835	-23.6775262298	-130.35246645	-62.11396283	-61.285092438	-22.4983801849	-31.3082643671
131625000.0	-23.323609355	-65.3929354503	-22.909555636	-134.318308474	-62.9574362561	-59.8764926131	-22.5156760885	-30.929605681
132312500.0	-23.4968824062	-67.462565368	-22.1362930128	-138.510203886	-62.7650245981	-57.2705470669	-22.5309718571	-30.4803975151
133000000.0	-23.6549968934	-69.4094363586	-21.457111866	-143.226520461	-62.6151329767	-44.0220561122	-22.5542008553	-30.0781707677
133687500.0	-23.7904101586	-71.3532934712	-20.8523603168	-148.06143524	-62.779200005	-29.7110611978	-22.5790656958	-29.6369328279
134375000.0	-23.9118562581	-73.1850760327	-20.3128305981	-153.082576095	-62.5809122668	-2.96009522359	-22.6018163376	-29.1590943204
135062500.0	-23.9982658902	-74.9810393967	-19.8087223237	-158.073101704	-62.6496419598	26.3682880589	-22.6138505045	-28.7474124702
135750000.0	-24.0756292462	-76.6463828298	-19.3779518304	-163.143355511	-62.9026291329	54.3675311766	-22.6340961163	-28.4093384422
136437500.0	-24.1260449121	-78.2518415311	-19.0019467776	-168.178576336	-62.8882142259	77.8376955527	-22.666769669	-28.0703370686
137125000.0	-24.151264707	-79.8019737831	-18.6783957129	-173.22428639	-62.7318607097	93.0099089673	-22.69657555	-27.7174457528
137812500.0	-24.1446907526	-81.2083272032	-18.4023410442	-178.210547705	-62.0725770449	109.702528353	-22.7129550176	-27.3886653554
138500000.0	-24.1052276046	-82.5744917189	-18.1626021959	176.921094005	-61.9781122391	115.481652163	-22.7355741559	-27.0730261324
139187500.0	-24.0182882519	-83.8279993924	-17.9708663791	172.127154392	-61.7073673162	118.861768826	-22.7594462064	-26.7511248453
139875000.0	-23.8860690567	-85.175307317	-17.8108575731	167.49487725	-61.6060696877	121.704956415	-22.7812066214	-26.4628248188
140562500.0	-23.7053122549	-86.4944177646	-17.6852148301	162.951868541	-61.4608425003	135.31060131	-22.8076582424	-26.1613132566
141250000.0	-23.4519473418	-87.9478189465	-17.5826374624	158.622675576	-61.4649938352	151.526013999	-22.8222590612	-25.9605623666
141937500.0	-23.1333432931	-89.5332095166	-17.5070245583	154.310681291	-61.4935693128	167.010937201	-22.8392647756	-25.8285600977
142625000.0	-22.7856481172	-91.6343182957	-17.4450464898	150.232162451	-61.5976770319	-178.267631397	-22.859534542	-25.6603232015
143312500.0	-22.3812265291	-94.2642927495	-17.41090914	146.232124461	-61.4886707757	-175.300930593	-22.8727133146	-25.5023972017
144000000.0	-21.9915511818	-97.4541474741	-17.3810063326	142.412257133	-61.281316675	-173.599753806	-22.8959789349	-25.4505358996
144687500.0	-21.6508909317	-101.303761064	-17.3729071257	138.679063183	-61.0740017233	-175.381925692	-22.9038360991	-25.3563198487
145375000.0	-21.355582735	-105.373706058	-17.3701808193	135.128295586	-61.1424992289	178.930463431	-22.9139630165	-25.2876921933
146062500.0	-21.1009920333	-109.595390057	-17.3834488631	131.6729473	-60.9037647341	171.511261135	-22.9320425442	-25.2224974887
146750000.0	-20.8917753919	-113.871839474	-17.4012088187	128.311559271	-60.8985339825	168.450184604	-22.9488027183	-25.1790455475
147437500.0	-20.7347662885	-118.130022217	-17.4281635747	125.08276782	-60.2669702683	158.487945577	-22.9528281778	-25.1113161962
148125000.0	-20.6130243123	-122.447268014	-17.4580689729	121.947250468	-60.2424724141	160.570328178	-22.95278062	-25.0772638986
148812500.0	-20.5219972252	-126.819440301	-17.4938503352	118.924050276	-59.0547629392	162.230666387	-22.9549080117	-25.0767560021
149500000.0	-20.4636786287	-131.053009414	-17.531924954	115.979852031	-59.4520968939	165.966291367	-22.9592526249	-25.0882074768
150187500.0	-20.4215084755	-135.352883371	-17.574668224	113.147671504	-59.3519300297	170.334643767	-22.9529637428	-25.0674828591
150875000.0	-20.3982235603	-139.4570773	-17.6193399857	110.366123186	-59.5528591513	171.101019076	-22.9454948391	-25.0006293939
151562500.0	-20.3927986274	-143.677974346	-17.6587429122	107.691874992	-60.3617055126	160.022846132	-22.9420328194	-25.0102110021
152250000.0	-20.4159079239	-147.674004559	-17.7074520463	105.055756932	-60.2638030716	151.301104304	-22.9371543058	-24.9168814393
152937500.0	-20.4477472266	-151.730225825	-17.749584111	102.512897144	-60.2465520549	148.013996627	-22.9249729933	-24.8338585506
153625000.0	-20.4925020613	-155.712897488	-17.7990092121	100.051441099	-60.1851692997	143.501062588	-22.919261283	-24.7350205796
154312500.0	-20.5428568648	-159.677644427	-17.8454159387	97.6409373141	-59.9240025119	145.136026928	-22.896602848	-24.6512888555
155000000.0	-20.6082380424	-163.602451881	-17.8962988908	95.2466770236	-59.8052344335	149.380545943	-22.881543516	-24.47078138
155687500.0	-20.67950649	-167.545235227	-17.9429646291	92.9569998337	-60.7984830212	160.45044783	-22.8740897087	-24.3288455453
156375000.0	-20.7648389308	-171.468741875	-17.9924667341	90.6897673421	-61.0519643828	162.746136986	-22.8401532925	-24.1180260606
157062500.0	-20.8385546764	-175.27838389	-18.0376982976	88.48461189	-61.1169478344	163.657576121	-22.808110537	-23.8932166282
157750000.0	-20.9244288899	-179.147549042	-18.0860588998	86.3360342884	-61.632863966	164.314463384	-22.7793677736	-23.6858278189
158437500.0	-21.0128425886	177.123112318	-18.1263223022	84.2171432057	-61.2940283186	151.930641172	-22.7681624439	-23.4302243188
159125000.0	-21.1000745915	173.372467202	-18.1721682701	82.1531585059	-60.9622745565	152.673843747	-22.7550768712	-23.0979806143
159812500.0	-21.1959443413	169.715477174	-18.2170332582	80.1326020989	-60.3142214306	142.428560154	-22.7318996331	-22.7973679248
160500000.0	-21.2930413801	165.966353498	-18.2610193344	78.1530122105	-60.7717442981	143.452663294	-22.7052040269	-22.5271968902
161187500.0	-21.3857504214	162.389071369	-18.3079270013	76.1709912154	-60.7477991562	144.446982612	-22.6748034428	-22.2253950624
161875000.0	-21.4848202585	158.846473163	-18.3476026435	74.2422090035	-60.8778989248	147.613265434	-22.6754695317	-21.8783424235
162562500.0	-21.5844196013	155.299759929	-18.3928517885	72.3285716553	-60.9246408726	142.173802568	-22.6595530216	-21.5604368959
163250000.0	-21.6799418492	151.769342849	-18.4330491447	70.4895529365	-61.0227990234	131.366583449	-22.6540565612	-21.1838398165
163937500.0	-21.7789113285	148.363379239	-18.4759442124	68.657767496	-61.7560859966	122.786101497	-22.6410309243	-20.8487176605
164625000.0	-21.8669988931	144.900587775	-18.5114195214	66.8851888653	-62.2165343098	110.420246906	-22.6314711007	-20.5274247596
165312500.0	-21.9647273663	141.536900634	-18.5571554752	65.1202794032	-62.2668740269	95.7606141061	-22.6286606754	-20.1721515395
166000000.0	-22.0613542004	138.23723581	-18.5917344378	63.4084319023	-62.3668340967	71.9279834109	-22.6226362537	-19.8248700698
166687500.0	-22.150170209	134.895746972	-18.6307717281	61.7300678356	-62.0091629026	54.2541979861	-22.6239427014	-19.4105927421
167375000.0	-22.2511380889	131.64601151	-18.6605507665	60.0689795221	-62.4238074491	25.6957456778	-22.6389375783	-19.1229985064
168062500.0	-22.3534155508	128.33937849	-18.6955393061	58.3891573499	-62.2771397538	-9.92162062864	-22.6545212656	-18.8400809539
168750000.0	-22.4626013133	125.119240602	-18.7247865251	56.7858870077	-61.6931676153	-34.2172284273	-22.681412367	-18.5829477178
169437500.0	-22.5526364398	121.837637093	-18.760384412	55.1741108939	-61.9205687545	-50.4064320632	-22.7073901618	-18.3093415906
170125000.0	-22.6485523898	118.614358089	-18.7889869412	53.614388327	-61.826267119	-71.9687724812	-22.7392602074	-18.0862444802
170812500.0	-22.7497520593	115.373550579	-18.8214044956	52.0581603572	-62.2305151677	-86.1768349043	-22.76493456	-17.8210230482
171500000.0	-22.850033581	112.201901075	-18.8490593963	50.5368944253	-62.3397591821	-111.78978108	-22.8071925963	-17.6115635428
172187500.0	-22.9452026496	108.890118354	-18.8738199094	49.0524311094	-62.2430003237	-134.295155129	-22.8366776357	-17.4359186266
172875000.0	-23.0407010246	105.707782196	-18.9004673615	47.5502573216	-61.5875710531	-164.552508464	-22.8706950815	-17.333537485
173562500.0	-23.12384095	102.411190684	-18.9258823303	46.0970720888	-61.4635959756	165.979190694	-22.9319515756	-17.2507585669
174250000.0	-23.2239641153	99.1813245971	-18.9440048804	44.6674551942	-61.1903335414	139.433407572	-22.9816522875	-17.204333499
174937500.0	-23.3043184897	95.9004685878	-18.9635676527	43.226981041	-60.6390786358	101.443373857	-23.038692417	-17.2358771595
175625000.0	-23.3798221139	92.5754418343	-18.9836576933	41.8161742099	-60.7506604598	70.1084244873	-23.0889460086	-17.1515715621
176312500.0	-23.4545520118	89.1982986158	-18.9952800762	40.4436188189	-60.8179734387	29.2274784807	-23.1387227313	-17.219599075
177000000.0	-23.5267684473	85.8488711176	-19.0133793227	39.032072268	-61.05159643	-0.555153094769	-23.1983218287	-17.3076865641
177687500.0	-23.5774316925	82.4990591162	-19.0244589918	37.6600568086	-60.7007897191	-41.3583824982	-23.2608453031	-17.3411309518
178375000.0	-23.6378881832	79.078198131	-19.03688739	36.3136069736	-60.5501243078	-68.7125220135	-23.3257993798	-17.3226783568
179062500.0	-23.686502885	75.6718099215	-19.0440504433	35.0004138997	-60.2883729038	-97.888244288	-23.3708682677	-17.4457671535
179750000.0	-23.7154195794	72.2173103754	-19.0461141712	33.6652765462	-60.2192070584	-126.132140349	-23.4278162378	-17.5499466773
180437500.0	-23.7467631495	68.6802030488	-19.0416208489	32.3241602618	-60.0916711369	-156.688373768	-23.4734774519	-17.7716391451
181125000.0	-23.7680367197	65.0522061328	-19.0464188843	30.9946536137	-59.3469984989	173.359653469	-23.5313168256	-17.8441069845
181812500.0	-23.791597034	61.602651007	-19.0447087859	29.6830196313	-59.1525440286	146.274411901	-23.5892470758	-17.9803854113
182500000.0	-23.7888861537	58.0169161145	-19.0442343562	28.3492015748	-59.0479618442	119.879863182	-23.641986594	-18.0821155039
183187500.0	-23.7743216706	54.5468277598	-19.0403896393	27.0461115823	-59.124050473	90.3347532764	-23.699936453	-18.1215396705
183875000.0	-23.7678182568	51.0112773202	-19.034520747	25.7025968618	-59.3399807123	59.4261339586	-23.7506933346	-18.2196830366
184562500.0	-23.7450733858	47.4045032771	-19.0337633669	24.3865257919	-59.0789816071	30.1173143253	-23.790206725	-18.3464089643
185250000.0	-23.7124582764	43.8133432849	-19.0255455874	23.0993086006	-58.8663236043	-0.498854331921	-23.8287253014	-18.3986109565
185937500.0	-23.6740361254	40.3105211651	-19.0280485711	21.7605967177	-58.7590383318	-38.6561326129	-23.8543715618	-18.4554473101
186625000.0	-23.6473930884	36.7510706206	-19.0151813	20.4863046582	-58.8383163782	-77.9499068967	-23.887085453	-18.499641024
187312500.0	-23.599642454	33.1937904756	-19.0097639459	19.1719051523	-58.7237614206	-105.731501269	-23.9157884931	-18.4439902603
188000000.0	-23.5470094515	29.6882592417	-18.9975557108	17.8682042878	-58.6072333196	-135.799846583	-23.9489223809	-18.4355858162
188687500.0	-23.4922660824	26.1342341083	-18.9851495129	16.5606835466	-58.6604625869	-157.926730638	-23.9791217636	-18.3977437185
189375000.0	-23.4411100138	22.6665700343	-18.9747300006	15.270693179	-58.9071276535	177.366569694	-24.0150990521	-18.3425780533
190062500.0	-23.380674699	19.1212345701	-18.968187999	13.9981090722	-58.7068630023	151.29374509	-24.0410748222	-18.1251106772
190750000.0	-23.324526923	15.6644388681	-18.952873656	12.7341858271	-58.4295377702	123.27883191	-24.0619824804	-17.947100864
191437500.0	-23.2567755534	12.0676842975	-18.9453785132	11.4226442664	-59.1834597699	92.952281593	-24.0911865504	-17.7647640738
192125000.0	-23.1944997451	8.68835469913	-18.9285723066	10.1726100215	-59.4062446252	61.9760335077	-24.0998046234	-17.5022439016
192812500.0	-23.1276457429	5.17544627297	-18.9229863143	8.88251274996	-59.4647196665	36.0024464026	-24.124169835	-17.360167924
193500000.0	-23.0526954522	1.76110905908	-18.9067019426	7.60611514089	-59.6479227239	9.84630941219	-24.1396441136	-17.0978757037
194187500.0	-22.9682259083	-1.7568715064	-18.8945500662	6.33141709942	-59.6725964186	-15.8091789921	-24.1519274174	-16.7652558858
194875000.0	-22.9031728757	-5.23004603229	-18.8772478126	5.0755492442	-59.5418203418	-40.5387983164	-24.1688678287	-16.5023429483
195562500.0	-22.8114525219	-8.65293516158	-18.8641974608	3.8074153185	-59.593865802	-66.9331259318	-24.1877720778	-16.2255150016
196250000.0	-22.7238706291	-12.1200068177	-18.854819233	2.53223948707	-59.5650515985	-80.6979503859	-24.2084135641	-15.9187669516
196937500.0	-22.630647029	-15.5600665979	-18.847495346	1.27113580347	-59.6434037324	-83.0756087128	-24.2285440126	-15.5154845533
197625000.0	-22.5343409795	-18.8413148291	-18.8339070417	0.0172179768719	-59.4598330884	-85.6437644177	-24.2382677293	-15.1708002685
198312500.0	-22.4382285278	-22.140625855	-18.8193308064	-1.21115637087	-59.6136345089	-95.8940951308	-24.2497843139	-14.9123031157
199000000.0	-22.3344279124	-25.498188682	-18.8087473371	-2.47228137241	-59.648378537	-108.080644982	-24.2658448015	-14.7007160941
199687500.0	-22.2294552804	-28.7456118039	-18.7935190984	-3.71293677673	-59.5559285876	-123.69452215	-24.2916169182	-14.4282844557
200375000.0	-22.1301968347	-32.08599531	-18.777839578	-4.97806324367	-59.4575579425	-137.830938136	-24.3136564422	-14.2816150506
201062500.0	-22.0156017957	-35.3267195402	-18.7629373931	-6.19810527799	-59.2338218947	-159.35183621	-24.3339608573	-14.0323574559
201750000.0	-21.8938052786	-38.4726313416	-18.7445606977	-7.42833480714	-58.9538805933	-173.627333584	-24.3615319577	-13.8120651088
202437500.0	-21.7695500073	-41.5136112768	-18.72670351	-8.62617771972	-59.360216183	172.018067579	-24.381672938	-13.6439285059
203125000.0	-21.6470152398	-44.5972894945	-18.7049267807	-9.85428150936	-59.2487123375	165.657793211	-24.4133912072	-13.5283794126
203812500.0	-21.5015942434	-47.5332834782	-18.68582488	-11.0707637195	-59.2079661707	153.068344743	-24.4351716214	-13.4604964846
204500000.0	-21.3676578309	-50.4980227563	-18.6682345384	-12.2931413234	-59.485558746	135.61295412	-24.4531484825	-13.5014619268
205187500.0	-21.2260061266	-53.3491852464	-18.6436309451	-13.4831726414	-59.4688572919	109.036802853	-24.4744767221	-13.4303208056
