#Frequency	|S11|	<S11	|S21|	<S21	|S12|	<S12	|S22|	<S22
100000000.0	-15.1138619896	157.798880485	-18.0466927418	-124.396246239	-59.2297433053	21.5526066102	-19.9698443716	-63.9765708673
100687500.0	-15.1065531969	155.40679253	-17.647752653	-125.341595862	-59.6702905132	70.1967735505	-20.1388243856	-63.6587736527
101375000.0	-15.110272546	152.913057138	-17.2268785052	-126.730220903	-58.2800906866	-32.7528030885	-20.2238354196	-63.2150785992
102062500.0	-15.1180769851	150.367897195	-16.8356392175	-128.055889008	-60.1376973502	-33.6627801902	-20.3357777956	-62.6525501929
102750000.0	-15.1395485229	147.72874749	-16.4639927417	-129.434481316	-59.7470695019	-48.2474909089	-20.4633308166	-62.1715918865
103437500.0	-15.1594073586	145.148813559	-16.1165265836	-130.886359986	-61.14902815	-75.2755085917	-20.5697546637	-61.639787478
104125000.0	-15.1923962323	142.367926676	-15.794864458	-132.323071446	-60.2863114997	-96.4040611858	-20.7150570458	-61.192454748
104812500.0	-15.2364208621	139.576698601	-15.497897825	-133.743785027	-59.6959637646	-145.443225924	-20.8515119657	-60.8232276096
105500000.0	-15.2899731175	136.655888076	-15.2216803191	-135.235171596	-59.2022386414	176.214616006	-20.9866576089	-60.5623999345
106187500.0	-15.3451690161	133.640273324	-14.9746114225	-136.734387185	-59.4515817142	149.496095317	-21.1275903236	-60.3545761599
106875000.0	-15.4115619349	130.52410701	-14.7607593171	-138.223642319	-59.5309040348	118.004639195	-21.285060671	-60.2534740541
107562500.0	-15.4948012031	127.242548147	-14.574476239	-139.672504956	-59.8124644359	88.184174673	-21.4549439462	-60.1364623856
108250000.0	-15.584173198	123.803787947	-14.4255423502	-141.068645962	-59.7416711042	68.3899853646	-21.6147411925	-60.1050921565
108937500.0	-15.6489731708	120.584223913	-14.2231298028	-142.446250252	-59.9054365348	54.3379217114	-21.7674336044	-59.9292437652
109625000.0	-15.7265455433	117.25443557	-14.0408115192	-143.774442077	-60.1918494217	40.9229906474	-21.9175396705	-59.7593285338
110312500.0	-15.8017805001	113.84766266	-13.8879620745	-145.075735614	-60.0800940817	27.4703699695	-22.0712507103	-59.6296893774
111000000.0	-15.892518498	110.31114757	-13.7616412619	-146.286757309	-60.6598118582	14.4372908598	-22.2333403969	-59.522834068
111687500.0	-15.9789766915	106.66266242	-13.6735727626	-147.361444378	-60.6817864231	0.11814400694	-22.3959789488	-59.4886000203
112375000.0	-16.0789374018	102.896779432	-13.6107374826	-148.292236825	-60.6743961117	-17.8786618314	-22.5512525575	-59.5368053277
113062500.0	-16.1759209603	98.9923415103	-13.5844480882	-148.978080774	-59.9426137141	-45.1241067354	-22.731661156	-59.5608823395
113750000.0	-16.2835026277	94.9897894273	-13.5803914795	-149.374301558	-60.1048403255	-73.2062643167	-22.8927448303	-59.6380449759
114437500.0	-16.3928018125	90.8718515463	-13.5968911215	-149.389832709	-60.117201523	-107.598525086	-23.0692078352	-59.7388298266
115125000.0	-16.5112621523	86.5474526945	-13.6144056889	-148.956548567	-60.0289100798	-145.633613933	-23.2474227442	-59.820871039
115812500.0	-16.629435661	82.0640257097	-13.6136371927	-148.077873489	-59.6910764014	-172.251928124	-23.4242515254	-59.8884028094
116500000.0	-16.7598460785	77.509316046	-13.5701539553	-146.804687419	-59.9923770605	159.258750442	-23.5897667043	-59.9712466191
117187500.0	-16.8894497931	72.7717303539	-13.4799949361	-145.224365963	-60.2936819435	133.062287614	-23.7581389857	-60.1667173226
117875000.0	-17.0396326955	67.8936418479	-13.3324405991	-143.461064525	-60.300818946	117.347697621	-23.9373651674	-60.2549585316
118562500.0	-17.1904729314	62.810133357	-13.1307804563	-141.576476614	-60.3851534011	104.004529992	-24.1217338551	-60.2729347739
119250000.0	-17.3568002956	57.602696438	-12.8723498386	-139.603707204	-60.3686899827	91.4666459383	-24.2953910059	-60.2961745004
119937500.0	-17.5318245165	52.1993858764	-12.5648061393	-137.622039574	-60.9665558205	77.2666411251	-24.4647959796	-60.2311275749
120625000.0	-17.7341464342	46.5957303936	-12.2039690694	-135.665441505	-61.0282777765	51.4251886559	-24.6386538557	-60.2985755206
121312500.0	-17.9610060652	40.7798759982	-11.7949654606	-133.771124508	-60.7520543817	36.9366951647	-24.8023254576	-60.2791513447
122000000.0	-18.2120945223	34.7942769598	-11.3376343976	-131.963787912	-60.5694137946	31.0522510871	-24.9621418278	-60.2105527419
122687500.0	-18.5009297152	28.5823895011	-10.8387315081	-130.28007193	-60.8214575426	17.2226506301	-25.1069575785	-60.1702592817
123375000.0	-18.8199758729	22.1057073862	-10.2995603341	-128.719955577	-60.6938520541	14.62869858	-25.246161088	-60.0021514627
124062500.0	-19.2056581188	15.3899011869	-9.72349673793	-127.324928559	-60.4162646132	0.74862756494	-25.380042287	-59.8239055054
124750000.0	-19.6516022115	8.28967885177	-9.10870245479	-126.082847342	-60.3866149704	-4.70999637656	-25.5084733111	-59.6004386197
125437500.0	-20.1652528903	0.782425492089	-8.46050188033	-125.046790627	-60.6439454176	-18.5780962177	-25.6202006978	-59.2846134998
126125000.0	-20.7901973833	-7.49787429435	-7.77195491936	-124.166616133	-60.4166597696	-32.1868827453	-25.7280000446	-59.055598391
126812500.0	-21.4575204566	-16.5556472877	-7.05592240061	-123.529330974	-59.9011631744	-57.7272676755	-25.8157464244	-58.7343269074
127500000.0	-22.2209294645	-27.1805402314	-6.30444265581	-123.105634624	-59.9216207645	-79.6664542438	-25.8893629193	-58.5215005113
128187500.0	-22.9000537741	-38.6697321828	-5.52290297159	-122.954351895	-59.4074388119	-92.011463523	-25.9530491011	-58.2100354727
128875000.0	-23.5218410459	-50.9876037452	-4.70420310611	-123.070317736	-59.6000022054	-103.113353212	-25.9985263346	-57.8821129901
129562500.0	-24.0798208688	-63.848402012	-3.85972559223	-123.544759049	-59.434295977	-112.846566214	-26.0349011922	-57.5587307962
130250000.0	-24.5966623832	-77.0276215259	-2.97884505475	-124.404074568	-59.8423099888	-122.762461672	-26.0556376739	-57.2291606027
130937500.0	-25.0587926597	-90.6734051598	-2.08116523908	-125.733293521	-59.2891931516	-123.63283683	-26.060956274	-56.8771718368
131625000.0	-25.4913951857	-104.536239502	-1.16662550655	-127.584845722	-59.4808326255	-121.729906347	-26.0488599219	-56.5811724188
132312500.0	-25.8878115166	-118.552198057	-0.258122544426	-130.035441196	-59.2005624843	-110.450024303	-26.0151557866	-56.3614788435
133000000.0	-26.2614868692	-132.800367704	0.628791017636	-133.060289663	-59.2000089255	-109.069027327	-25.9853890417	-56.2332759159
133687500.0	-26.6109134609	-147.272912705	1.46276282189	-136.643740897	-59.0072466145	-106.500161881	-25.9457579406	-56.0874640221
134375000.0	-26.9460346915	-161.911912983	2.2471524092	-140.634490383	-58.5016903509	-105.875132875	-25.8808099371	-55.9522150324
135062500.0	-27.2609281037	-176.797897476	2.9645586449	-144.943252235	-58.6654531999	-109.706025667	-25.8023240099	-55.9553731937
135750000.0	-27.5567771822	168.257728321	3.62198117437	-149.485446048	-58.5955002037	-111.071307416	-25.6991906644	-56.1116987346
136437500.0	-27.8118614713	153.102466592	4.21267290317	-154.208927035	-59.7115057409	-118.949126165	-25.6020244289	-56.2840804126
137125000.0	-28.0474875747	137.895266553	4.747601317	-159.046173551	-59.1503397978	-118.66916193	-25.5051770449	-56.5468780791
137812500.0	-28.2194749674	122.586381812	5.22160649631	-163.944722682	-59.4226315426	-116.344828267	-25.3967889911	-56.7261135838
138500000.0	-28.3670086705	107.33247971	5.64567492446	-168.870062785	-59.081793078	-116.962647211	-25.2685816464	-57.0402922436
139187500.0	-28.4621461603	91.9819570503	6.0140018325	-173.789692225	-59.5554731623	-124.203158402	-25.148798025	-57.3904998695
139875000.0	-28.5042001425	76.6712669267	6.33872342019	-178.681689619	-59.0323116903	-125.793623473	-25.0248032332	-57.7522306227
140562500.0	-28.4907459975	61.4602698366	6.61733196996	176.477131117	-59.0540122348	-135.738411539	-24.8985107744	-58.2390214297
141250000.0	-28.3908206162	46.4632771308	6.85796722502	171.713775778	-59.5194790323	-137.167155515	-24.7530603335	-58.7605506401
141937500.0	-28.2078998713	31.7286313307	7.05848078429	167.041511124	-59.6370194745	-148.713996455	-24.6182732134	-59.291446396
142625000.0	-27.9360885388	17.367294605	7.22766399586	162.462736008	-59.1569981467	-152.130264368	-24.4831155002	-59.8925290334
143312500.0	-27.5348088927	3.73332528675	7.36198961182	157.991673711	-59.0155543512	-164.308081292	-24.3454565294	-60.4644612892
144000000.0	-27.0752069311	-9.14374620519	7.47272739083	153.631023626	-58.957044532	-166.379815451	-24.2150344857	-61.1086830946
144687500.0	-26.5027884807	-20.503663657	7.55624650008	149.403281674	-59.1233841244	-168.726836288	-24.0894938884	-61.6282424478
145375000.0	-25.9989691114	-30.9204611699	7.61891492668	145.301404632	-59.2822226304	-168.364990448	-23.9499963593	-62.2478103411
146062500.0	-25.5407190975	-40.4670725089	7.65979319427	141.320414986	-58.8395116317	-156.090746771	-23.8386756291	-62.8569318577
146750000.0	-25.124901496	-49.4051524828	7.68498821594	137.463186684	-59.0737383208	-146.651324123	-23.7337514268	-63.4115254426
147437500.0	-24.7392306472	-57.9356778754	7.69223323524	133.755757423	-58.6422652782	-134.319396228	-23.615368175	-63.9615698143
148125000.0	-24.39530815	-65.9721258248	7.69150439416	130.153585513	-59.1649637033	-121.432770196	-23.5122887114	-64.4598879641
148812500.0	-24.0704658661	-73.6915424241	7.6764512376	126.674332387	-58.9809914216	-108.913283481	-23.4142426455	-64.8838114782
149500000.0	-23.7676439298	-81.0894840842	7.65480261167	123.324651459	-59.2873810905	-101.774208889	-23.3371407907	-65.2658653722
150187500.0	-23.4815227994	-88.1442476901	7.62320886588	120.073625969	-58.9475543145	-88.5983672941	-23.2589553111	-65.517129018
150875000.0	-23.201402449	-94.8439842341	7.58858134819	116.950399913	-59.4588912598	-80.45642774	-23.1838117859	-65.7420768055
151562500.0	-22.9314753704	-101.266977567	7.54564211134	113.912541115	-59.4718608968	-67.9888440438	-23.1118525939	-65.8420884575
152250000.0	-22.6564200259	-107.239577357	7.50085042521	110.971565063	-59.895212511	-58.8528787496	-23.0598388604	-65.8813389584
152937500.0	-22.3941792683	-112.933881487	7.44824298279	108.129957175	-59.8654058991	-44.97106911	-23.0041172472	-65.838493366
153625000.0	-22.1534704957	-118.262621463	7.39843641501	105.379905653	-58.7446233684	-33.1645002264	-22.9716814893	-65.8029442859
154312500.0	-21.9146040678	-123.340440078	7.34222200125	102.706401226	-58.6051063301	-28.6728172214	-22.9244277437	-65.6491495268
155000000.0	-21.7126146846	-128.073445312	7.28824836372	100.111575083	-58.3284296878	-14.860802816	-22.8888610242	-65.4469561576
155687500.0	-21.5056399891	-132.623283749	7.22921798901	97.5904620531	-58.4694609996	0.282626706904	-22.872862385	-65.1301703902
156375000.0	-21.3270863963	-136.852264179	7.17379278497	95.1401416862	-58.0870829775	11.3808490227	-22.8498235973	-64.7826090499
157062500.0	-21.1513760413	-140.872197864	7.11566518712	92.7567026876	-58.2248218212	21.2036627688	-22.8364749739	-64.3310468178
157750000.0	-20.999812976	-144.629372122	7.05929378525	90.4390178849	-58.1524915271	34.3810555776	-22.8283608881	-63.8275888301
158437500.0	-20.8647217056	-148.275909831	6.99996052422	88.1678959122	-58.0567306992	44.9796142988	-22.8309583517	-63.3614052496
159125000.0	-20.7515866346	-151.741004754	6.94493962596	85.9728137868	-58.1804965625	60.5920551194	-22.8492873105	-62.8568519537
159812500.0	-20.6534351618	-155.091039096	6.88809912309	83.8197400583	-58.2928769485	72.0842035573	-22.871774026	-62.2846305733
160500000.0	-20.5805703347	-158.264176848	6.83500386542	81.7185054098	-58.0792252662	86.7404399056	-22.8988938849	-61.6952666276
161187500.0	-20.5173317937	-161.319315891	6.77847649072	79.6723352024	-58.7074472117	92.019355021	-22.9344496528	-61.0423306578
161875000.0	-20.4720152637	-164.221155289	6.72569426475	77.6589089019	-58.5408653238	105.883105229	-22.9929537095	-60.4399934508
162562500.0	-20.440376197	-167.062469529	6.67044182908	75.6934224613	-58.6080241276	118.713340971	-23.0572932496	-59.8104734893
163250000.0	-20.4219628543	-169.861407415	6.62000474756	73.7601067766	-58.4860564151	131.879414715	-23.1405600046	-59.1459838728
163937500.0	-20.4234739103	-172.567907552	6.56789314779	71.8760124106	-58.712885608	141.982713347	-23.2171845996	-58.4680183212
164625000.0	-20.4390423548	-175.240721282	6.52190253836	70.0100861277	-58.6190881108	155.14271244	-23.3140728325	-57.8148040034
165312500.0	-20.4725715425	-177.781532702	6.46991673851	68.1920810767	-58.5686401412	163.041704286	-23.4162738819	-57.2581030948
166000000.0	-20.5245749374	179.708460794	6.42540578657	66.4063920257	-58.5530858393	-178.996551523	-23.528178848	-56.67063486
166687500.0	-20.5924304533	177.199627946	6.37734324136	64.6479881608	-58.4201276447	-167.711362606	-23.6469661161	-56.0399509825
167375000.0	-20.6707532502	174.787206285	6.33323434307	62.9239042609	-58.2882425811	-154.603627347	-23.7782877897	-55.5786873046
168062500.0	-20.760753488	172.299964559	6.28873670753	61.223319739	-57.8272384737	-140.708648854	-23.9156477871	-55.0922525736
168750000.0	-20.8643346994	169.904501853	6.24740436967	59.5635888821	-57.7745939478	-127.472056923	-24.0788227885	-54.699063867
169437500.0	-20.9761045897	167.338612066	6.20416436465	57.925916279	-57.263192223	-112.133800563	-24.2406719777	-54.2385836244
170125000.0	-21.1045590473	164.818855435	6.16869996942	56.3041008649	-57.259439626	-104.958067896	-24.4117143026	-53.8376655876
170812500.0	-21.2484322132	162.194479884	6.12924434261	54.7109493537	-56.9847911093	-92.0228819201	-24.5920641572	-53.522987856
171500000.0	-21.3960518412	159.540918888	6.09531027165	53.1496365239	-57.4100586268	-79.1013722517	-24.7744029678	-53.3227345507
172187500.0	-21.5572991044	156.845949261	6.06077238428	51.6055176555	-57.1573414095	-65.7796229393	-24.9750444168	-53.2516189234
172875000.0	-21.724013563	154.019224153	6.02949936962	50.0840383837	-57.4796547268	-58.5950997709	-25.1666064238	-53.1840069207
173562500.0	-21.8880442778	151.123851348	5.99784664781	48.5839507195	-57.490161687	-43.3135818222	-25.3968332792	-53.1879819195
174250000.0	-22.0614456301	148.164145326	5.97047639413	47.0990697691	-57.7218602723	-30.9111165787	-25.5988911685	-53.2804615264
174937500.0	-22.2234710665	144.976597458	5.94254883714	45.627677025	-57.8176788476	-16.2151654101	-25.8132345211	-53.5372861819
175625000.0	-22.380980591	141.710526347	5.9190487552	44.1747258878	-57.5281485451	-1.83785980592	-26.0360212861	-53.6850795003
176312500.0	-22.5301779983	138.334915584	5.89228986848	42.7385381298	-57.1970715056	10.6397733219	-26.269872427	-54.0510937867
177000000.0	-22.669651355	134.845025944	5.87086744698	41.3196583142	-57.405656241	21.5819922606	-26.4897392423	-54.6214676906
177687500.0	-22.7887916856	131.23326206	5.84717045592	39.9097610317	-57.7468032261	34.4422974082	-26.7420623687	-55.2194683528
178375000.0	-22.8955622864	127.549684377	5.82966579957	38.510948362	-57.2465990994	50.7283112919	-26.9819459562	-55.8446878805
179062500.0	-22.9900837118	123.801980672	5.80901637229	37.1276508458	-57.1866708672	64.5566698742	-27.1993836395	-56.6676504654
179750000.0	-23.0627339542	119.964018558	5.7945909324	35.7571767447	-57.1499942308	68.4600531455	-27.4196571364	-57.43310324
180437500.0	-23.1199431207	116.071716777	5.77735650915	34.3887496125	-57.1678866022	63.228095846	-27.6354094278	-58.2518997144
181125000.0	-23.1567404861	112.130299496	5.76482647183	33.0267850275	-57.0017365877	63.5843395372	-27.8521487083	-59.0948992968
181812500.0	-23.1710953153	108.210485485	5.74808483333	31.6783505472	-57.0504624247	65.4319460206	-28.0528058617	-60.0045594681
182500000.0	-23.1641928026	104.19885668	5.73852596111	30.3514762504	-56.8583329998	65.1847293828	-28.2690716303	-61.0181273672
183187500.0	-23.1192238281	100.174276168	5.72477779484	29.0221184455	-56.9380213418	57.1817280704	-28.457406793	-61.9416972086
183875000.0	-23.0649505059	96.1943070804	5.71751750082	27.7005706254	-56.9866225997	56.047357565	-28.6406232942	-63.0242947846
184562500.0	-22.9901790897	92.1915356804	5.70753869619	26.3892298006	-57.5065140674	52.6572028819	-28.7865805244	-64.1698408385
185250000.0	-22.9001451807	88.2786482454	5.70085927497	25.0904161352	-57.4459192047	50.8804830776	-28.9469315251	-65.2472232419
185937500.0	-22.7845237449	84.3589544061	5.69015916805	23.7819556372	-57.5004089274	51.4075874516	-29.063150849	-66.3704134721
186625000.0	-22.6635425996	80.621304238	5.68812352349	22.4896750689	-57.475995382	50.4225967201	-29.2009196607	-67.6517253985
187312500.0	-22.5136481411	76.8269042244	5.68112688983	21.2038000913	-57.4981815127	55.8556797759	-29.3359064375	-68.7342182217
188000000.0	-22.3469331535	73.2090518945	5.67975704588	19.9210784626	-57.6269717586	56.743520653	-29.4254804631	-69.7517008903
188687500.0	-22.1676000688	69.6495496691	5.674393532	18.6432033274	-57.6880843792	62.6639828211	-29.5047802581	-70.9445554046
189375000.0	-21.9776494366	66.1505771387	5.67248458632	17.3814189714	-57.9273879404	61.9132912501	-29.6025657384	-72.0038586217
190062500.0	-21.7753843683	62.8127018193	5.66965298865	16.1217536173	-57.8080867242	60.3639264904	-29.6696308583	-73.0913292169
190750000.0	-21.5713884689	59.571812957	5.67179896907	14.8670212494	-57.7160278586	61.6607321186	-29.7127812219	-74.3031657233
191437500.0	-21.3606647158	56.4743532883	5.67014699614	13.6279908123	-57.5401938276	58.8839033801	-29.7575312794	-75.3808221356
192125000.0	-21.1514775179	53.5918697506	5.67142431805	12.3924584686	-57.4038668449	58.5430333594	-29.7801594586	-76.3229577836
192812500.0	-20.9417597948	50.7658421262	5.67140972999	11.1709328071	-57.1434814736	58.4544284528	-29.7817355476	-77.5405478774
193500000.0	-20.7400420764	48.1127101916	5.67543428302	9.93524070567	-57.538535505	57.1589825043	-29.7669261894	-78.5685757924
194187500.0	-20.5344925181	45.5949952438	5.67504264724	8.70960310797	-57.3390709567	58.4699953858	-29.7473170397	-79.371238722
194875000.0	-20.3542810128	43.1747808	5.68088866725	7.48767544316	-57.3018706899	61.4627611042	-29.6932234629	-80.1607934632
195562500.0	-20.1751878773	40.8433499722	5.68415255777	6.27187393332	-57.6794490359	60.7813027552	-29.6375100456	-81.0523065098
196250000.0	-20.0099538979	38.6102179704	5.69131895431	5.06218517892	-57.6475493068	56.4843521873	-29.5885203069	-81.7173333912
196937500.0	-19.8542593484	36.4244468349	5.69558386878	3.85100061766	-57.4856813952	57.0095098573	-29.5503390978	-82.4693641366
197625000.0	-19.7181899127	34.3903259099	5.70366064401	2.6634587074	-58.1750940595	60.8175553141	-29.4554395236	-83.0411328323
198312500.0	-19.5933197936	32.3658631666	5.71071760286	1.47707550972	-57.997946507	58.671112374	-29.3465886309	-83.7675441054
199000000.0	-19.4931300463	30.3649037666	5.72299696365	0.288798544455	-58.2402374703	48.6952245875	-29.233430167	-84.4155374595
199687500.0	-19.3946129284	28.4181284121	5.73178051358	-0.89996574175	-57.9924428827	46.8674267969	-29.1103707506	-84.8888110215
200375000.0	-19.3256630106	26.5340297717	5.74400757182	-2.08478402489	-58.0622000851	54.1573856832	-28.9890481311	-85.569555802
201062500.0	-19.2510668754	24.6064121323	5.75268391931	-3.26073203282	-57.815849311	68.5181910131	-28.8639985037	-86.0578055444
201750000.0	-19.1929475163	22.6959206751	5.76652778933	-4.43761408353	-57.6339183284	80.9630856627	-28.7411375704	-86.457355099
202437500.0	-19.1430828463	20.7863993662	5.77738076774	-5.61481704955	-57.5138392923	96.7780339836	-28.6089007915	-86.8958891812
203125000.0	-19.1043900994	18.8833148597	5.7937296463	-6.77661584437	-58.2721107667	104.098606192	-28.4662012314	-87.1501351715
203812500.0	-19.064877373	16.9060530639	5.80378569433	-7.94541613237	-58.4944628794	119.398491874	-28.3070009449	-87.3854771912
204500000.0	-19.0509181657	14.9528701839	5.82062064819	-9.11900579342	-58.7399012805	129.084477865	-28.1317656425	-87.7046988646
205187500.0	-19.0391137907	12.9872007293	5.83315669648	-10.2786558073	-58.6671825971	141.95464212	-28.0010693161	-87.8954296226
