#Frequency	|S11|	<S11	|S21|	<S21	|S12|	<S12	|S22|	<S22
100000000.0	-18.6741740486	145.072260024	-22.0229974041	-120.925820883	-56.6164968959	-12.9420446367	-20.7782407096	-57.7924608624
100687500.0	-18.6259708845	142.632335425	-21.5724251602	-122.302813549	-59.6328604324	146.729172177	-21.0033843748	-57.8312723736
101375000.0	-18.582923639	139.981832373	-21.1510031628	-123.44622939	-63.1824229166	-175.681373809	-21.073131711	-57.3059903838
102062500.0	-18.5459148868	137.389472368	-20.781962478	-124.709393221	-63.0226885072	-152.134520604	-21.1880974418	-56.7687821481
102750000.0	-18.5118178376	134.890321905	-20.3986132815	-125.888682425	-61.6396507372	-164.071027628	-21.2970472246	-56.3495698072
103437500.0	-18.4742198176	132.266019232	-20.0448742007	-127.200920354	-60.9551801197	-155.621123725	-21.4242883193	-55.7833281323
104125000.0	-18.4615793197	129.511879518	-19.7081004972	-128.502059632	-60.4497923308	-168.681386986	-21.5643287044	-55.2729701275
104812500.0	-18.4468530797	126.703786455	-19.403023175	-129.811949212	-60.086616062	-158.101392583	-21.6829361967	-54.9779453699
105500000.0	-18.4447286314	123.772722026	-19.1198942985	-131.086118231	-60.7924499661	-138.527189971	-21.8040349735	-54.6860753711
106187500.0	-18.4436082775	120.692462168	-18.8610195872	-132.383204961	-60.6847164141	-122.936224893	-21.9474475086	-54.4356961778
106875000.0	-18.4456388075	117.481441917	-18.6345238227	-133.653219334	-60.7394610076	-130.911760851	-22.0964813353	-54.2541740178
107562500.0	-18.4595527088	114.190262407	-18.4384232049	-134.948959154	-60.6933043942	-147.221678541	-22.2604241804	-54.008640688
108250000.0	-18.4678803649	110.731336644	-18.272435002	-136.166355698	-60.9543727023	-159.255267891	-22.4085532262	-53.9858016819
108937500.0	-18.4641443685	107.479505409	-18.0513962028	-137.371631285	-61.1197109639	-147.523628087	-22.5485741969	-53.7125877218
109625000.0	-18.46033699	104.127532476	-17.8551411142	-138.520529529	-61.1254105044	-149.120699582	-22.6793964027	-53.5326081314
110312500.0	-18.4498960893	100.700782519	-17.6883436996	-139.632831304	-60.9605195999	-158.758513346	-22.8268147344	-53.3951968413
111000000.0	-18.4516711054	97.1844141305	-17.5418213989	-140.639379774	-60.3502277942	-161.038682925	-22.9793066944	-53.283746101
111687500.0	-18.4419264647	93.5631714331	-17.4301179442	-141.575792382	-59.880961252	-159.532904893	-23.1361061279	-53.2906299874
112375000.0	-18.4444714413	89.8342270856	-17.3366117463	-142.337693577	-60.1942929523	-158.711872186	-23.2889971349	-53.2492981319
113062500.0	-18.4346374413	86.0237025416	-17.2761437176	-142.891432775	-59.7692262983	-170.788022648	-23.444842407	-53.1987907626
113750000.0	-18.4360142298	82.0691053493	-17.2365802399	-143.186063331	-60.1934810778	-170.521134885	-23.5991301302	-53.1838955987
114437500.0	-18.4192028653	78.038613461	-17.2183408687	-143.144273209	-60.0894831839	-173.229830298	-23.7634643096	-53.278466424
115125000.0	-18.4158964659	73.8509032758	-17.1995011665	-142.676623683	-60.396614024	-170.864652809	-23.9195039082	-53.3293378089
115812500.0	-18.3984714074	69.6239505039	-17.1631993682	-141.790346569	-60.3277667567	-167.800093849	-24.0848126615	-53.432129304
116500000.0	-18.3872091387	65.2274849034	-17.0933301267	-140.504876133	-60.374974759	-163.357387658	-24.2321818838	-53.5714407953
117187500.0	-18.367234637	60.768298096	-16.9792571255	-138.959577692	-60.5050512868	-154.831295499	-24.3799569231	-53.7293778578
117875000.0	-18.3559675802	56.1753555465	-16.8105290659	-137.197580189	-60.5595633572	-155.606092222	-24.5459569303	-53.7773152662
118562500.0	-18.3501930638	51.4816951498	-16.5858543739	-135.309521093	-61.8952998839	-167.330249403	-24.7109421444	-53.9212077279
119250000.0	-18.3470895227	46.6788530256	-16.3058634045	-133.377716053	-61.739806832	178.254113727	-24.8596867075	-53.9488062175
119937500.0	-18.3506132378	41.7473915909	-15.9762383126	-131.411935234	-61.5994898804	160.819328846	-25.0097347341	-54.013597532
120625000.0	-18.35954971	36.6823806536	-15.5949075899	-129.499936421	-61.7968831132	141.365368604	-25.153404251	-54.1367293058
121312500.0	-18.3989538276	31.5517918457	-15.1653453742	-127.644198555	-61.8284074678	114.141457974	-25.2938077975	-54.2862806245
122000000.0	-18.4472335767	26.3292757082	-14.6866229082	-125.907559006	-61.4600895878	100.985130921	-25.4403727652	-54.3716774459
122687500.0	-18.5320446473	20.9460863219	-14.1669297784	-124.298834646	-61.3876062449	88.9363347312	-25.5688008925	-54.4998468747
123375000.0	-18.6253806571	15.4770266428	-13.6054422713	-122.81676861	-61.3945420697	75.7559936839	-25.6920828029	-54.5220951462
124062500.0	-18.7792786317	9.86333205159	-13.0091573238	-121.493868178	-61.3458047415	62.4786417691	-25.8058146477	-54.6644784951
124750000.0	-18.9762835	4.24415528761	-12.3779266332	-120.373382976	-61.3748975551	60.3768604692	-25.9287817564	-54.7470568881
125437500.0	-19.2279455224	-1.51350913291	-11.7154433835	-119.443580856	-61.0024130573	61.6420020939	-26.0314494976	-54.6892587107
126125000.0	-19.5585873815	-7.15722980899	-11.0185360225	-118.717953614	-61.1880687574	62.4474580982	-26.1383387775	-54.7571758009
126812500.0	-19.9852547904	-12.7936679876	-10.2921196677	-118.216135319	-60.93583127	63.8214901588	-26.2370302097	-54.6477953651
127500000.0	-20.5112232605	-17.8971150755	-9.53406575428	-117.955860756	-61.1587747565	72.8319629608	-26.3096705916	-54.7236445306
128187500.0	-21.1338060741	-22.9837724631	-8.75253229942	-117.979014113	-61.1105171383	75.8373925203	-26.3809630851	-54.7167755896
128875000.0	-21.8339039948	-26.4884101851	-7.93698523498	-118.251235568	-61.8033280454	69.7341239117	-26.4336052878	-54.6693344441
129562500.0	-22.5145354255	-28.8909849082	-7.10208016484	-118.862649613	-61.291210279	70.8457296232	-26.4730597396	-54.6349474209
130250000.0	-23.126847457	-30.7046160369	-6.23518487679	-119.83999887	-61.4911851502	73.585917538	-26.5178014108	-54.8096683196
130937500.0	-23.6576961735	-32.2936985439	-5.35648723446	-121.270471459	-61.3509869196	74.4373650781	-26.5574180468	-54.8105993365
131625000.0	-24.1263563466	-33.4692741758	-4.46128586521	-123.156449014	-61.4729329058	75.6791231321	-26.5699522119	-54.8895694651
132312500.0	-24.5500092195	-34.7730914959	-3.5745229321	-125.619346776	-62.2557146999	74.5977699693	-26.5790495394	-54.9285748518
133000000.0	-24.9312487276	-35.928192353	-2.70656938912	-128.612794466	-62.1265719327	63.3781036456	-26.5762007616	-55.092972877
133687500.0	-25.2729743525	-37.1460174697	-1.88537792176	-132.158675384	-62.389189035	60.8393740067	-26.5752067787	-55.1979735186
134375000.0	-25.5925694781	-38.3081675751	-1.11007269857	-136.079565794	-62.0512116411	55.8460394796	-26.5568942711	-55.416231372
135062500.0	-25.8811658973	-39.6309148547	-0.399580330019	-140.350614068	-62.4616315053	57.3014532909	-26.5234806232	-55.57416984
135750000.0	-26.1484326958	-40.8824656707	0.254977219409	-144.832117467	-60.8331056827	61.4028936505	-26.4717650566	-55.8114816804
136437500.0	-26.3681608677	-42.1774163388	0.844418146922	-149.518056204	-60.9538968755	73.0255858832	-26.4344095841	-56.1700295143
137125000.0	-26.5900996732	-43.5185155126	1.37695965671	-154.300388219	-60.5575115651	79.0900508579	-26.3904519262	-56.5259239719
137812500.0	-26.7607409703	-44.7342755508	1.85025272405	-159.148934756	-60.6773527834	86.6646201778	-26.3353878418	-56.7767107312
138500000.0	-26.913679514	-46.0264362788	2.27420609056	-164.022252688	-60.642331794	104.20574757	-26.2503488879	-57.1264033203
139187500.0	-27.0261326496	-47.2821784765	2.64272251924	-168.893635251	-61.0582201636	113.763490086	-26.1720302284	-57.4999420243
139875000.0	-27.0945427298	-48.4861880819	2.96929845968	-173.701161345	-61.2501554256	129.844474929	-26.099812234	-57.8329819417
140562500.0	-27.1313256668	-49.6177851252	3.25029587822	-178.478907324	-61.0174845714	152.337908116	-26.0160362573	-58.422445469
141250000.0	-27.106612465	-50.712705677	3.49544276512	176.848677919	-60.8292557659	168.467408288	-25.9105798904	-58.8045765606
141937500.0	-27.0264477132	-51.791673079	3.70195462076	172.260419042	-60.3961798261	171.764612113	-25.8120221268	-59.2752749759
142625000.0	-26.8877867592	-52.7543750656	3.87974305519	167.779126114	-60.6394185214	173.828284824	-25.7109380049	-59.6892975322
143312500.0	-26.649854543	-53.8008325246	4.02494819469	163.404230637	-60.347925958	163.35575439	-25.6030052937	-60.2360748633
144000000.0	-26.3181133636	-54.8795465804	4.14805885136	159.150218654	-60.7026658039	152.129760049	-25.4992145025	-60.6990349437
144687500.0	-25.8825226059	-56.4578088663	4.24684876679	155.013257417	-60.3964896413	129.452862734	-25.403195053	-61.154116431
145375000.0	-25.333480655	-58.0223117092	4.32632186342	151.002192088	-61.2536289444	111.476300789	-25.2859715353	-61.5759721871
146062500.0	-24.7132983675	-61.1024865615	4.3875012325	147.107151395	-60.4943239008	94.3346120502	-25.1936709093	-61.9566387642
146750000.0	-24.094487815	-65.2428172943	4.43565639704	143.325902982	-60.909329433	77.6546651432	-25.0980748285	-62.2557240336
147437500.0	-23.5613969682	-69.9120198332	4.46598952816	139.665494846	-60.7282438463	61.9699340272	-24.992143007	-62.5316502924
148125000.0	-23.0912461976	-74.6875268621	4.48902057557	136.108597931	-60.5413742869	44.3666623969	-24.8888721374	-62.7288026303
148812500.0	-22.709046107	-79.8647473305	4.49864368567	132.666006952	-60.5156181149	31.2691834225	-24.7844647542	-62.8934949872
149500000.0	-22.3495218987	-84.7168651102	4.50403566565	129.329570734	-59.7700625523	11.0535795155	-24.6897966649	-63.0329377524
150187500.0	-22.0481640297	-89.760271526	4.49834382208	126.083847272	-60.1101355101	-5.9471383172	-24.594886677	-63.1261947181
150875000.0	-21.7708440497	-94.4999963269	4.49074978896	122.940101769	-59.7622712299	-31.7707089803	-24.5038737596	-63.0869171816
151562500.0	-21.5320997692	-99.2736785567	4.47323588741	119.869460343	-59.8739789848	-48.7012513739	-24.4211217933	-62.9556980769
152250000.0	-21.3059410339	-103.714569887	4.45525006859	116.893377108	-59.4221204431	-67.8891631991	-24.344075693	-62.8361974025
152937500.0	-21.1068823504	-108.131581344	4.42596141165	113.994237354	-59.6955480562	-83.459984473	-24.2720940654	-62.6470217568
153625000.0	-20.9475338102	-112.287324273	4.39824609687	111.179208347	-59.3841193568	-106.324715973	-24.2076149026	-62.3873280796
154312500.0	-20.7826538624	-116.336692498	4.36417754887	108.435585351	-59.7822427171	-120.75866713	-24.1339891359	-62.107255417
155000000.0	-20.6597418889	-120.309744529	4.33025479645	105.760490604	-59.2337536786	-134.789438847	-24.0762025019	-61.7544567807
155687500.0	-20.5280943844	-124.06284993	4.29151391315	103.152304617	-59.8003742517	-151.493277118	-24.0445124845	-61.3006644755
156375000.0	-20.4376826296	-127.698922636	4.25358576512	100.623355507	-59.353977123	-169.320988208	-23.9950092629	-60.8138217537
157062500.0	-20.3441907162	-131.186033686	4.21160025091	98.1329166897	-59.687983267	178.432069572	-23.9474644598	-60.2439899551
157750000.0	-20.2831216657	-134.586268151	4.17052656536	95.7154104765	-59.7212428116	158.756365435	-23.9165399565	-59.5929072577
158437500.0	-20.2257975283	-137.825193091	4.12570926434	93.3399801131	-60.1814285227	132.178480657	-23.8967266495	-58.9705245165
159125000.0	-20.1881686557	-140.961026353	4.08589981313	91.0433101605	-60.3895802804	117.990658407	-23.8797678229	-58.2594849052
159812500.0	-20.151469924	-144.002282258	4.04077859032	88.7785983718	-60.5091367636	94.6429621624	-23.871106282	-57.5107670995
160500000.0	-20.1481816363	-146.986814362	3.99870614937	86.5691262174	-60.3626790471	80.9697629149	-23.8811998944	-56.7243213263
161187500.0	-20.1497731482	-149.797177384	3.95096926865	84.3932442348	-60.4900830539	74.7371594093	-23.8853478005	-55.9767151925
161875000.0	-20.1717510242	-152.529199474	3.90658798873	82.2787308331	-60.5017889813	75.0464365317	-23.9125792121	-55.1765329765
162562500.0	-20.211348094	-155.173787661	3.86014287477	80.1955686426	-59.7768813906	66.6392812551	-23.9435452402	-54.3723578071
163250000.0	-20.2590645005	-157.808701902	3.81559162861	78.1472211557	-59.8716298857	64.9451186563	-23.9913584265	-53.5203041511
163937500.0	-20.3309449898	-160.29562118	3.76876507898	76.1377802108	-59.3954601252	61.6718522646	-24.0435790444	-52.7289207613
164625000.0	-20.4008566064	-162.748942932	3.72763212867	74.1777565666	-59.4730786457	62.2996546345	-24.1188878342	-51.8758619599
165312500.0	-20.5069451303	-165.172269107	3.68129319304	72.2520320818	-59.4961754101	60.8804993315	-24.1858386457	-51.1334611975
166000000.0	-20.6057141223	-167.499874352	3.63955252168	70.3579037547	-59.6779081725	61.4723586453	-24.2674606717	-50.450960667
166687500.0	-20.7480304867	-169.889799875	3.5952045797	68.4803690535	-59.2975797669	63.7755176056	-24.3604063886	-49.6397614163
167375000.0	-20.8830557176	-172.054544781	3.55413633197	66.6486406761	-59.4418298416	66.5547863772	-24.4751380497	-48.9681109931
168062500.0	-21.0468234056	-174.349221699	3.50931163715	64.8423983371	-59.5622226362	73.1257279464	-24.5861777512	-48.2322842307
168750000.0	-21.2118333625	-176.538147527	3.46909511463	63.0933479169	-59.4916240193	73.3705230352	-24.7266359554	-47.7212679493
169437500.0	-21.4197257381	-178.891058467	3.42631021257	61.3582235128	-59.4797065009	72.1734507871	-24.8583079752	-47.1060776744
170125000.0	-21.6158335425	178.86990703	3.39110994334	59.6407617111	-59.5295859267	74.3975449749	-25.0079970057	-46.6138194606
170812500.0	-21.8588214125	176.48069128	3.35219215386	57.949349136	-59.4063502898	76.6854369448	-25.1711150241	-46.0925808727
171500000.0	-22.1051996618	174.226671487	3.31713962217	56.2891984904	-59.2652837385	76.9475561403	-25.3354971009	-45.669248088
172187500.0	-22.3817844145	171.746660255	3.28193879704	54.6561288031	-59.4056685462	77.0421737607	-25.5196062715	-45.3994250625
172875000.0	-22.666082116	169.097094364	3.24833922046	53.0464459842	-59.1772736266	67.2546106043	-25.6831499128	-45.0779454454
173562500.0	-22.962577114	166.309146975	3.21481232337	51.4441838098	-59.2034325329	66.2340946674	-25.879232112	-44.9106348168
174250000.0	-23.2751454891	163.478963167	3.18526826877	49.8785416531	-58.5706201542	56.9702359814	-26.076552867	-44.6864701077
174937500.0	-23.5850268235	160.32713311	3.15557122954	48.321186413	-58.5229869801	55.1249105233	-26.2723059529	-44.6737754379
175625000.0	-23.9050198523	156.936139724	3.12915708711	46.7890732302	-58.310688524	60.7926248467	-26.4696436293	-44.5654159011
176312500.0	-24.2070386077	153.295367131	3.09861019731	45.26253043	-58.2226107388	61.6953616001	-26.6951099564	-44.7494177519
177000000.0	-24.5152852094	149.492249584	3.0744040473	43.7682086151	-58.1693577682	70.5022897865	-26.9114529607	-45.0220987498
177687500.0	-24.7723825012	145.507771309	3.04778352499	42.2707611261	-58.2857236756	71.5056797519	-27.1583602874	-45.4489893576
178375000.0	-25.0406032315	141.280982276	3.02663028143	40.8027010172	-58.2350928168	65.3073645835	-27.3831140063	-45.6767097604
179062500.0	-25.2584856576	137.067430836	3.00362951666	39.3418084445	-58.1595188586	64.679564543	-27.594124347	-46.2058218691
179750000.0	-25.4758932097	132.527372566	2.98475958081	37.901364685	-57.9576009957	66.2351839657	-27.8123950634	-46.6975218407
180437500.0	-25.6493079232	128.044839157	2.96395497303	36.4630126395	-58.0444377604	67.7648179667	-28.0065780571	-47.4483593024
181125000.0	-25.8052536138	123.253936387	2.94766857558	35.0510106888	-58.2226988913	64.3056394819	-28.2149117279	-48.1151477374
181812500.0	-25.9222715324	118.547130581	2.92798463026	33.6311433821	-58.6316864571	64.0153203281	-28.4139977164	-48.9645969751
182500000.0	-26.0058127908	113.65536767	2.91488518999	32.2352021473	-58.572167196	59.0792376636	-28.6414398903	-49.6776867723
183187500.0	-26.0589031628	108.859823947	2.89724416737	30.8456383219	-58.7190062827	58.252930021	-28.8416932742	-50.4790741142
183875000.0	-26.0766159114	104.023273585	2.88510648273	29.4775759376	-58.7360219879	57.2768405219	-29.0281324603	-51.3074289668
184562500.0	-26.079273675	99.1312400218	2.86964739039	28.10465854	-58.6891278547	58.7868452746	-29.1707390544	-52.2202931229
185250000.0	-26.0463287479	94.2527018049	2.85950629178	26.7552573033	-58.7627575034	54.6469783554	-29.3367917174	-53.2283499629
185937500.0	-25.9913642909	89.3990433206	2.84442710704	25.3850776574	-58.5069762614	55.1345579999	-29.4742106549	-54.1988219683
186625000.0	-25.8919992558	84.7422454405	2.83697660012	24.0384672771	-58.3605759105	54.7069314278	-29.6378234656	-55.3388398383
187312500.0	-25.7930884414	79.9591339565	2.82435107546	22.6926533229	-58.1470855855	51.8014371893	-29.7572994604	-56.3741358756
188000000.0	-25.6307025297	75.3548379639	2.8172097488	21.3679234481	-58.275730533	50.0448380918	-29.8711781304	-57.588174518
188687500.0	-25.469792251	70.6426631363	2.80650006071	20.0373327098	-58.4936064812	51.008963689	-29.9752679511	-58.7055706766
189375000.0	-25.2627006716	66.2492769426	2.79971549449	18.7278631491	-58.3816005049	50.1425725735	-30.0763773778	-60.0345963606
190062500.0	-25.0600004731	61.9459501695	2.79178856023	17.4125795612	-57.9888985704	55.8614816886	-30.1725310148	-61.0419440981
190750000.0	-24.8124901095	57.8352903194	2.78832736719	16.1155156018	-58.3763233697	57.7912276315	-30.2643079543	-62.2561798041
191437500.0	-24.5651406095	53.747298674	2.78015737071	14.822103885	-58.625763006	63.150897987	-30.3047846206	-63.4485555109
192125000.0	-24.2869659882	50.1053364557	2.77560694594	13.5476469046	-59.0127118266	62.7893709446	-30.3516661105	-64.549268567
192812500.0	-24.0081810138	46.5914374218	2.76985327283	12.2796500205	-58.9095136256	60.0516509782	-30.3775993524	-65.7294378797
193500000.0	-23.7344548402	43.4676084415	2.76745843068	11.010612699	-59.3147635901	60.0947391804	-30.3835951158	-66.8349252806
194187500.0	-23.4615075005	40.4873549099	2.76128060025	9.73397642459	-58.9190349183	52.3690602718	-30.3706493531	-67.6883226617
194875000.0	-23.2150322024	37.7306654041	2.75951522415	8.48429015106	-59.3672661923	50.13150948	-30.3289420875	-68.6625779814
195562500.0	-22.9635560068	35.0942634473	2.75756048531	7.23186640506	-59.3927599675	51.8858241677	-30.2994158787	-69.6989077781
196250000.0	-22.7464985423	32.5256388133	2.7585811094	5.99249163042	-59.6344066997	53.3328521	-30.2515753427	-70.7137918302
196937500.0	-22.5246312257	30.2088933463	2.75639468138	4.74781276003	-59.6112643301	54.0633458149	-30.2062693229	-71.5818756646
197625000.0	-22.3378474261	27.9044321951	2.75898731592	3.53597369411	-59.8882366539	53.4962216009	-30.1595370745	-72.3588943725
198312500.0	-22.1563351457	25.8003124841	2.7584579836	2.31592513028	-59.7842458657	52.4072410912	-30.0707522129	-73.1941923197
199000000.0	-22.020082068	23.6802842539	2.76363475801	1.09511576849	-59.8227472634	53.66100538	-29.942619439	-73.8684705864
199687500.0	-21.8780649886	21.6530847149	2.76442619816	-0.124921870908	-59.5910992061	53.7249430179	-29.8161946502	-74.6918314097
200375000.0	-21.7770136064	19.6010904388	2.7689593355	-1.3452002905	-59.1844841109	51.9034513454	-29.6957207885	-75.4167939617
201062500.0	-21.6753068773	17.5771344064	2.77212837679	-2.55673664836	-59.066817685	48.7331852891	-29.5753652559	-76.2870164589
201750000.0	-21.5977417764	15.5102473272	2.78049110582	-3.76035532684	-58.8490520733	47.8356264883	-29.4492773237	-76.7869010979
202437500.0	-21.523842644	13.5573486418	2.78521678366	-4.96770755823	-58.6859450561	50.3158912204	-29.3103243408	-77.4960237271
203125000.0	-21.4704473028	11.5116919548	2.79579119481	-6.16315373397	-59.0729092298	51.760064454	-29.1570271226	-77.8264791514
203812500.0	-21.4131690046	9.44157016916	2.8005211044	-7.36085367548	-59.4144430496	51.8941688018	-28.979773036	-78.3080491381
204500000.0	-21.3849196857	7.36859874727	2.81152308361	-8.55330330429	-59.3356204563	43.7124946868	-28.8130385668	-78.6085146491
205187500.0	-21.3601677516	5.26972109691	2.81918195855	-9.74200373103	-59.5130871366	44.2414056347	-28.6562835026	-78.8856132206
205875000.0	-21.3301208239	3.17843620514	2.83223024485	-10.9292322279	-59.0643097555	35.7313355202	-28.4712036134	-78.9642540578
