#Frequency	|S11|	<S11	|S21|	<S21	|S12|	<S12	|S22|	<S22
100000000.0	-15.6744194294	154.645129388	-36.187038073	-124.903149907	-54.2746584312	39.1791433397	-20.5838642042	-37.4180386725
100687500.0	-15.6280515839	152.155618154	-35.7142538365	-123.717590208	-60.2034000469	-9.10794099158	-20.5880176014	-37.026351808
101375000.0	-15.636657584	149.599439382	-35.1619608679	-124.913856319	-61.0813966601	18.2211367973	-20.5997380951	-36.4539127095
102062500.0	-15.6495065749	147.028088597	-34.7992411851	-126.179404362	-61.879016297	13.2835289296	-20.634585343	-35.6506196424
102750000.0	-15.6537053073	144.358238123	-34.321322834	-127.794685868	-62.5689444306	0.261324922151	-20.6828841866	-34.9089478947
103437500.0	-15.6595905177	141.691677041	-33.9553104778	-129.052638724	-61.8119217163	-62.4514636954	-20.723701487	-34.1233626456
104125000.0	-15.6886542282	138.941821707	-33.6207878931	-130.322810041	-61.5079232928	-103.325196585	-20.7896234429	-33.322654097
104812500.0	-15.7242487123	136.158622107	-33.2941010763	-131.635920687	-61.1380888193	-131.923312468	-20.8628506771	-32.6773227309
105500000.0	-15.7708673827	133.25898053	-33.0291474606	-132.931519885	-60.6123696771	-131.756455746	-20.9383725549	-32.1920516181
106187500.0	-15.8227866792	130.212047976	-32.7766372409	-134.413442302	-60.5391079957	-127.541459983	-21.0267184031	-31.7037634997
106875000.0	-15.879113362	127.080913371	-32.5683079213	-135.794807304	-60.0140822371	-140.344160335	-21.1192133722	-31.2661447672
107562500.0	-15.9507232146	123.841157707	-32.3817013807	-137.193636386	-60.0358180592	-136.019728902	-21.2113122359	-30.8022050404
108250000.0	-16.0249126189	120.401119773	-32.2356987646	-138.525783249	-59.8443254754	-128.581519125	-21.2991392604	-30.4600435102
108937500.0	-16.0814734063	117.17524619	-32.0278505476	-139.778988761	-60.0630644512	-136.1754697	-21.3715088595	-29.975979263
109625000.0	-16.143486826	113.862890495	-31.8356649447	-141.109907146	-59.9109728964	-136.469450001	-21.4539326021	-29.5006702019
110312500.0	-16.2045692891	110.436952279	-31.6501738873	-142.291613686	-59.9951799173	-137.284414142	-21.5480850243	-29.0804629311
111000000.0	-16.2792593658	106.91431974	-31.5179869994	-143.351281284	-60.1025331529	-148.368470449	-21.6321498469	-28.676473399
111687500.0	-16.3538973144	103.262787608	-31.4184327493	-144.448747946	-59.8239722365	-169.437256305	-21.7300683182	-28.380466824
112375000.0	-16.4337357813	99.5445411006	-31.3434229823	-145.341138306	-60.1668969011	176.671140742	-21.8317879164	-28.0942616812
113062500.0	-16.5101603408	95.6571749975	-31.2962631009	-145.946181358	-59.5473498026	162.124394251	-21.937844853	-27.8097813729
113750000.0	-16.5991651679	91.7121801877	-31.3134136451	-146.273009514	-59.2783795299	151.157236444	-22.0466551494	-27.5467766954
114437500.0	-16.6861262899	87.6567831974	-31.3247715552	-146.11936501	-59.8115560846	149.671917888	-22.1584971599	-27.325502701
115125000.0	-16.784188951	83.403436154	-31.3431015657	-145.662366127	-60.052064655	149.066955468	-22.2715815303	-27.1681541248
115812500.0	-16.8782772919	79.0197235165	-31.3317542087	-144.709319426	-60.2911365997	159.411390553	-22.3857052222	-27.0499036985
116500000.0	-16.9821300556	74.4992490662	-31.2874204416	-143.435998181	-60.6040629176	161.55746474	-22.490824163	-26.935972728
117187500.0	-17.0808628327	69.8527256424	-31.1978119287	-141.917517477	-60.7496253041	176.256950256	-22.600987868	-26.903150124
117875000.0	-17.1942188631	65.0609461878	-31.0544038662	-140.116792865	-60.8437944894	-179.323801401	-22.7178176997	-26.802726281
118562500.0	-17.309382827	60.1252151108	-30.8590566455	-138.217942343	-61.0448738026	-163.946136684	-22.8335751131	-26.7216787492
119250000.0	-17.4417267249	55.0167087596	-30.5840723223	-136.244549005	-61.2145476622	-160.089102569	-22.9456671072	-26.586012981
119937500.0	-17.5842198722	49.7909192659	-30.2669726247	-134.268630263	-61.1661418974	-162.443338463	-23.0511804045	-26.4966417782
120625000.0	-17.7416351719	44.3738191161	-29.8935067391	-132.280628745	-61.1420240832	-165.142419659	-23.1681860434	-26.4673081716
121312500.0	-17.9241025488	38.8508132083	-29.4924290531	-130.299989309	-61.5641898709	-177.446371753	-23.2631500743	-26.4619329691
122000000.0	-18.1394172319	33.0551483066	-29.0291773025	-128.451541859	-61.9713092885	175.798009914	-23.373303557	-26.4529508806
122687500.0	-18.380658499	27.1872732772	-28.5252666542	-126.764789828	-62.259536771	176.765133322	-23.4761175062	-26.4903002167
123375000.0	-18.6658002121	21.0338043439	-27.9740781142	-125.086633346	-62.3083260869	164.546018401	-23.5743897827	-26.5600732389
124062500.0	-18.9986274981	14.6809909011	-27.3995053135	-123.718487305	-62.2812129297	138.895161802	-23.6805267165	-26.6536298551
124750000.0	-19.4107801883	8.07203667179	-26.7726817641	-122.362798019	-62.3126189327	109.03578717	-23.7940933185	-26.6744183446
125437500.0	-19.8855487497	1.12376258967	-26.1200441126	-121.380096555	-62.0735072441	79.6798381033	-23.8880786932	-26.6841564134
126125000.0	-20.4758019184	-6.16498324275	-25.4195339599	-120.465633548	-61.9432300103	53.1962968451	-24.0032997222	-26.7586331512
126812500.0	-21.2042640817	-14.0014297033	-24.7179393616	-119.813547574	-61.9234491155	13.3798422163	-24.0970877852	-26.8097941316
127500000.0	-22.1416175247	-22.7415450384	-23.9621644342	-119.443980228	-61.707462677	-25.8283817558	-24.1932571715	-26.865823857
128187500.0	-23.060700709	-33.8396970125	-23.1903606735	-119.367836957	-61.5977758715	-52.9354042128	-24.2865145681	-26.89765838
128875000.0	-23.830123759	-46.5160977343	-22.3720318285	-119.403359806	-61.5244706917	-80.9317261015	-24.3730673303	-26.9227610326
129562500.0	-24.4785624768	-59.7703603236	-21.5361760298	-119.904058706	-61.2149446508	-106.514140907	-24.4520824437	-26.9361045824
130250000.0	-25.0624696035	-73.4327847072	-20.6499403671	-120.709225544	-61.4915565226	-120.777387499	-24.5454884225	-27.0049722347
130937500.0	-25.5499881748	-87.409127116	-19.7468385358	-122.124394953	-61.7427339106	-137.845295067	-24.6130958521	-27.0324864065
131625000.0	-26.0051493133	-101.598038181	-18.8362582934	-123.872812712	-61.0916245116	-159.689304109	-24.680531032	-27.1977165779
132312500.0	-26.4125184451	-115.934149289	-17.9300527081	-126.344320311	-60.9666433907	-168.884055459	-24.7351805805	-27.2032780869
133000000.0	-26.799085668	-130.52551162	-17.0433304999	-129.345097237	-60.6213954006	-178.743283102	-24.802031385	-27.3069126672
133687500.0	-27.1532362749	-145.222955907	-16.2165133107	-132.893151248	-60.5468775131	179.312843196	-24.8648227079	-27.3535623594
134375000.0	-27.4881057339	-160.055913973	-15.4174501175	-136.754941067	-60.0578926924	169.429713118	-24.9211621503	-27.5584435938
135062500.0	-27.7916184369	-175.185594507	-14.6957642198	-141.056326518	-60.0373405927	168.437040397	-24.9633742715	-27.6859885842
135750000.0	-28.0666714358	169.695289067	-14.0382670271	-145.552953725	-59.6487460311	163.660814117	-24.9962636292	-27.9800373041
136437500.0	-28.3221804719	154.44107301	-13.4530981071	-150.262931874	-59.6282898208	166.66083469	-25.0264688422	-28.2377323365
137125000.0	-28.5415800504	139.078888816	-12.9176220605	-155.065967765	-59.8905909681	173.790493093	-25.0607851647	-28.5494139766
137812500.0	-28.7279682191	123.673209303	-12.4398796007	-159.949958757	-59.6837029837	-168.683933959	-25.0891444005	-28.7895050912
138500000.0	-28.8724008984	108.324112166	-12.0146687605	-164.859301772	-59.4922787657	-150.282506711	-25.1040211964	-29.1013634051
139187500.0	-28.96943649	92.9126604032	-11.6371172645	-169.762904768	-59.6768305908	-128.221476861	-25.1162377261	-29.3762755422
139875000.0	-29.0177077334	77.4619294223	-11.3122887022	-174.641375104	-59.3220073263	-112.472827354	-25.1256560661	-29.6942261801
140562500.0	-29.00963978	62.1261594571	-11.0290455832	-179.456993435	-59.1141220829	-84.8513844679	-25.1449630789	-29.9986860767
141250000.0	-28.9255374695	46.979529423	-10.7857029227	175.77549259	-59.2447094384	-55.0451135242	-25.1261059943	-30.28928703
141937500.0	-28.7527833891	32.0104144114	-10.5815499965	171.140715562	-59.5472627407	-18.5348721618	-25.1118769837	-30.6000569619
142625000.0	-28.5017940607	17.3401046957	-10.4122397001	166.568675896	-59.8212973451	14.2792494592	-25.0891625194	-30.9038034447
143312500.0	-28.1098885749	2.98977802399	-10.27174835	162.150584687	-60.2183264867	48.4730863497	-25.0549105677	-31.2513008361
144000000.0	-27.5720498629	-10.8899337247	-10.1627981089	157.808406677	-60.0535576226	92.1641073795	-25.0186735897	-31.5543803637
144687500.0	-26.8155399074	-23.8013967689	-10.0758952483	153.635650947	-60.4397630745	147.644124318	-24.9758715271	-31.9495197791
145375000.0	-26.0489392989	-34.4082900353	-10.0129301213	149.555461369	-60.3573533392	-158.817479802	-24.9339300234	-32.2977276505
146062500.0	-25.4279308395	-43.3213767418	-9.96720661947	145.61930628	-60.3197778156	-100.974498335	-24.887182885	-32.5871219093
146750000.0	-24.9126081115	-51.678175727	-9.93928194729	141.799867227	-60.6665199277	-56.4242134662	-24.8328558764	-32.8482138286
147437500.0	-24.455884091	-59.4712689199	-9.92753530177	138.114414845	-60.3992016574	-23.3018498106	-24.750458983	-33.1725653779
148125000.0	-24.0856825852	-66.9599139074	-9.92567263615	134.542566963	-59.9135674314	9.83280587837	-24.6775783271	-33.3848944788
148812500.0	-23.7431306627	-74.1621353728	-9.93669464631	131.094900755	-59.9276464792	46.6679982365	-24.5998247818	-33.5662562986
149500000.0	-23.4342815801	-81.0343860084	-9.95132449358	127.761452402	-60.0388745639	73.9077890104	-24.5340943547	-33.7245873133
150187500.0	-23.143091441	-87.529684815	-9.98154973295	124.551405484	-60.3549834656	89.1469285768	-24.4490347963	-33.82496445
150875000.0	-22.8642305512	-93.7657847834	-10.0108227196	121.446538242	-60.2816385192	104.909917542	-24.3686085074	-33.8733268874
151562500.0	-22.6080458646	-99.7651800078	-10.0501528879	118.410837847	-60.3759844458	116.253479104	-24.2697988215	-33.8445984544
152250000.0	-22.3660706296	-105.332055719	-10.088025481	115.499005597	-60.5660878174	127.343101121	-24.1838476725	-33.7842742134
152937500.0	-22.145009353	-110.721584515	-10.1364289057	112.662408098	-60.7954204621	134.275468551	-24.0907026087	-33.5766374555
153625000.0	-21.9277778457	-115.781444715	-10.180037563	109.928955483	-61.0237549592	143.757874553	-24.0217079967	-33.3195231941
154312500.0	-21.726907434	-120.626152161	-10.2345204766	107.256680767	-60.8884928844	142.21486143	-23.9149060707	-33.0813642651
155000000.0	-21.5395250051	-125.176938536	-10.2824703972	104.680007228	-61.3396800604	136.681478308	-23.8201929015	-32.7615532388
155687500.0	-21.3725790558	-129.633988442	-10.3366557873	102.151400375	-61.771456013	139.271270032	-23.7376575493	-32.3681113528
156375000.0	-21.2248137144	-133.707123305	-10.3873765228	99.7138434161	-61.4444777689	134.459620645	-23.6465701334	-31.9673128427
157062500.0	-21.0803386686	-137.64330087	-10.4419302957	97.3249527028	-61.8385034716	130.653764801	-23.5469135211	-31.4246317837
157750000.0	-20.9589449629	-141.343507422	-10.4951027213	95.0091977798	-62.09734999	125.767922938	-23.4534476613	-30.8389813751
158437500.0	-20.8544633245	-144.987917078	-10.5517487772	92.7503227137	-61.8501731087	125.750474186	-23.3713066895	-30.2632076935
159125000.0	-20.769613216	-148.471209338	-10.6044007855	90.5513864492	-61.4908134626	133.042492955	-23.2969792672	-29.655320939
159812500.0	-20.6875015552	-151.806731869	-10.6582982873	88.395903312	-61.5287720498	134.009506607	-23.2203769243	-28.9647071752
160500000.0	-20.6352594753	-154.988029902	-10.7097649587	86.295436872	-61.5941477169	143.105839252	-23.162999907	-28.2551582551
161187500.0	-20.5901746355	-158.047813678	-10.7633545868	84.2508756217	-61.5107007517	143.771693307	-23.1024654225	-27.4935317397
161875000.0	-20.5663777951	-160.99888643	-10.8119946443	82.2241710203	-61.2554560453	130.316595847	-23.0548169544	-26.6634126195
162562500.0	-20.5646852832	-163.784028404	-10.8604282919	80.2542554815	-61.5271627031	115.61231952	-23.0048018517	-25.7853855975
163250000.0	-20.5635093852	-166.617993426	-10.9108790592	78.3207365941	-61.7375973743	103.951343939	-22.9669525972	-24.9026827506
163937500.0	-20.5881447936	-169.284466714	-10.9594906712	76.4246219076	-61.7348628091	101.190485008	-22.9306884402	-24.0595424988
164625000.0	-20.6237701051	-171.97566324	-11.006199207	74.5551742204	-61.8569837306	100.093058304	-22.9047316199	-23.1627971609
165312500.0	-20.6780736324	-174.524867349	-11.0560400989	72.7389864033	-62.0272522607	101.005847505	-22.8907709445	-22.3041417636
166000000.0	-20.7420667398	-177.055149618	-11.1028208193	70.9358014275	-62.2326090832	104.48210789	-22.8843399442	-21.4541007774
166687500.0	-20.8199934276	-179.579202181	-11.1461736912	69.1779702124	-61.8346477124	107.531380452	-22.8795390085	-20.5737008826
167375000.0	-20.9094558206	177.972279737	-11.1905986834	67.4292481774	-61.5580801472	112.235414013	-22.8921798776	-19.6911787498
168062500.0	-21.0282291641	175.473147563	-11.2325360392	65.7433679108	-61.5374919882	113.844117778	-22.8965829312	-18.8866599274
168750000.0	-21.1484645243	172.953197766	-11.2751792758	64.0843600291	-61.7525475112	114.980292472	-22.93546992	-18.0321993719
169437500.0	-21.2815069955	170.415303416	-11.3188119058	62.4469909377	-61.4303706044	117.092780059	-22.9710706035	-17.1876168131
170125000.0	-21.4304754116	167.860407829	-11.3549043092	60.8222829055	-61.2034722327	117.649159786	-23.0144406294	-16.4692740166
170812500.0	-21.589665379	165.242572321	-11.3937315096	59.2349615896	-60.9125703133	118.587589712	-23.0551911155	-15.7461857129
171500000.0	-21.7615729535	162.601841652	-11.4285725068	57.6772525016	-61.268413479	121.516310714	-23.1287452504	-15.0204348468
172187500.0	-21.942698431	159.836126779	-11.4664430765	56.1423345129	-60.9806934792	119.987668196	-23.1990318628	-14.3298974438
172875000.0	-22.1355822457	156.973286055	-11.4980652174	54.6227368227	-60.1437245411	115.486178876	-23.2661262149	-13.5988515037
173562500.0	-22.3226241858	153.916113559	-11.5333876749	53.1243295932	-59.8847020645	117.59468146	-23.3695875919	-12.924284078
174250000.0	-22.5318835568	150.890047481	-11.5629978033	51.6561129676	-60.0987457581	122.55660087	-23.4671556645	-12.3120082305
174937500.0	-22.720203974	147.554160887	-11.5922042057	50.2059455912	-60.1123896248	129.882312582	-23.5771095261	-11.8392277602
175625000.0	-22.9074197789	144.171439794	-11.6170324797	48.7630475678	-59.9679585743	135.371776775	-23.6846350858	-11.2939352887
176312500.0	-23.0886199692	140.619568333	-11.6440950597	47.3230517255	-61.0680433633	140.08403102	-23.805835358	-10.9029042954
177000000.0	-23.2452418522	136.998572618	-11.6653675349	45.919693987	-60.9114008555	153.582689584	-23.9331294242	-10.5241279403
177687500.0	-23.3929851566	133.152621288	-11.6913256194	44.5051353767	-60.5766673466	160.906550137	-24.062810586	-10.2230721156
178375000.0	-23.5270078589	129.333024584	-11.7081363513	43.1118628879	-60.8958869438	174.582544264	-24.2016473628	-9.89529079477
179062500.0	-23.6355260047	125.39304301	-11.7309679121	41.7443802319	-60.8703313262	-168.832816851	-24.3452593616	-9.73544522967
179750000.0	-23.7262007985	121.382356769	-11.7470062219	40.3881189806	-60.4724062729	-161.794025786	-24.4888815531	-9.53678443169
180437500.0	-23.7952777194	117.295132275	-11.7646046847	39.0260568297	-60.4841336276	-161.423981818	-24.6293083051	-9.51319342741
181125000.0	-23.8370044668	113.080217078	-11.777288481	37.6873709074	-60.4138755661	-163.182962354	-24.7811954577	-9.30418248676
181812500.0	-23.8606685225	108.924190957	-11.7940633705	36.3480348356	-60.3434660958	-159.94412195	-24.9468725274	-9.20694314193
182500000.0	-23.8599550157	104.67470081	-11.8008991908	35.0309365588	-60.2205746171	-158.77208768	-25.1204022145	-9.1649915036
183187500.0	-23.8274466288	100.514440336	-11.8107953146	33.7230751151	-59.9427498659	-168.946471648	-25.2733319682	-9.15368887396
183875000.0	-23.7870742848	96.3703234404	-11.8213856063	32.4254625113	-60.3053311397	178.064066014	-25.4369863198	-9.21693814479
184562500.0	-23.7225257318	92.1699076756	-11.8323637568	31.1394404085	-60.5489231251	177.378183773	-25.5848588802	-9.42899058278
185250000.0	-23.6223269537	87.9779286635	-11.8412835199	29.8503791006	-60.5174952797	166.499803274	-25.7558161996	-9.49066821775
185937500.0	-23.5078193851	83.9353859793	-11.8494332673	28.5531490991	-60.4330708899	168.823372708	-25.8954629993	-9.62900856477
186625000.0	-23.3824951547	79.9423216642	-11.8502717608	27.2701828661	-60.4103221094	171.830495225	-26.0595290803	-9.76356568246
187312500.0	-23.2273113908	75.9922360218	-11.8530350016	26.000521487	-60.3347629837	171.548529562	-26.1944443242	-9.89210667634
188000000.0	-23.0542180721	72.1206805173	-11.8555535474	24.7220343897	-60.4528765661	158.439032019	-26.3490105453	-10.1621709615
188687500.0	-22.8698043606	68.3607306901	-11.8585056152	23.4554208352	-60.101579699	156.992259451	-26.4851566134	-10.4290213156
189375000.0	-22.6788510309	64.71434414	-11.8597010285	22.1709377133	-59.9532449679	154.47861799	-26.6342744306	-10.6858659292
190062500.0	-22.4580890881	61.2203281902	-11.8610502673	20.9284819185	-60.1130554874	144.307185578	-26.7691079873	-11.0571362052
190750000.0	-22.2388736339	57.85633035	-11.8582370976	19.6830335231	-60.5053648065	138.199222515	-26.8959559198	-11.3833589668
191437500.0	-22.0053714254	54.6065769767	-11.8566113195	18.4450900766	-59.9739154052	137.31636128	-27.0203659548	-11.811501304
192125000.0	-21.7753025928	51.6461496604	-11.8555002677	17.191212717	-59.9491691963	130.3813228	-27.1311454615	-12.2342729177
192812500.0	-21.5469421802	48.771499533	-11.8518958144	15.9767160432	-59.9459766764	124.092882661	-27.252557648	-12.673803905
193500000.0	-21.3207740433	46.1109473714	-11.8484232361	14.7525393782	-58.8869284473	108.497536673	-27.3596496853	-13.2080822006
194187500.0	-21.1084700786	43.5478029826	-11.8477653881	13.5292008283	-58.9423213604	95.9361403831	-27.4395980328	-13.7215250325
194875000.0	-20.9110537078	41.1607867433	-11.8411413253	12.3014550179	-58.7423440565	78.6737131469	-27.5239875269	-14.2268318502
195562500.0	-20.7185585617	38.7784326495	-11.8366713079	11.0881944545	-58.6166372467	64.1030239093	-27.6051175267	-14.7780470905
196250000.0	-20.5435046738	36.5147338192	-11.8302028505	9.86978593778	-59.4528817889	50.4181984816	-27.6713457016	-15.4566263105
196937500.0	-20.3781252039	34.3049912525	-11.8274238455	8.65298054634	-59.5429649041	36.9290982758	-27.7298652312	-15.9484955108
197625000.0	-20.2353864979	32.2454831613	-11.8210687639	7.45194870547	-59.2510438953	25.9157432572	-27.7721857371	-16.5411496136
198312500.0	-20.1033116062	30.266935527	-11.8166410666	6.26619928393	-59.23583587	19.5944710222	-27.7971113876	-17.4203480142
199000000.0	-19.9934871347	28.3143296254	-11.8045538224	5.08072938384	-59.1835419445	17.4193037486	-27.7979433347	-18.2564234821
199687500.0	-19.8827189013	26.3326626346	-11.7980396006	3.89460329071	-59.3711462345	17.8721556274	-27.8003495422	-19.0012884519
200375000.0	-19.8030796971	24.3789876048	-11.7903724128	2.70643376626	-59.6778864103	16.9578326375	-27.7996689043	-19.8969487735
201062500.0	-19.7246945709	22.4084789212	-11.7825601065	1.52290850946	-59.40698744	18.2353969595	-27.8151403441	-20.6982455987
201750000.0	-19.6643595318	20.4905546442	-11.7673309138	0.346669798329	-59.3720443722	18.266007872	-27.7884664663	-21.4960199015
202437500.0	-19.6132926371	18.6067634382	-11.7576841469	-0.835603711368	-59.615178429	31.6752417023	-27.7597004138	-22.4723892242
203125000.0	-19.576684159	16.6564934645	-11.7423025914	-1.99640649986	-59.4598907457	32.6078119778	-27.7170175055	-23.354064365
203812500.0	-19.533651422	14.6597473977	-11.7336139653	-3.16400615405	-59.4919564345	31.3268417185	-27.6593360963	-24.3847531772
204500000.0	-19.5143136882	12.6960944656	-11.7206037292	-4.32412188497	-59.3287156439	32.9458034955	-27.5954410963	-25.2284035973
205187500.0	-19.5024785988	10.7331180629	-11.7104067454	-5.48616032003	-59.3711599254	47.3107497932	-27.5147889871	-26.1220100607
