#Frequency	|S11|	<S11	|S21|	<S21	|S12|	<S12	|S22|	<S22
100000000.0	-16.276778615	150.566499222	-28.6636663091	-123.982154926	-64.3634686667	-29.9311868844	-20.6036799634	-41.0104977362
100687500.0	-16.2817933724	148.253304608	-28.2449468413	-125.318846685	-60.5655358296	-179.194738508	-20.686884595	-40.4758366613
101375000.0	-16.2871423293	145.729599001	-27.8286992156	-126.770367663	-60.3433377778	72.8311596337	-20.7125537979	-39.6865175051
102062500.0	-16.290205433	143.266849827	-27.4640376442	-127.725027932	-60.9945712099	31.3154007541	-20.7554494604	-39.0417940978
102750000.0	-16.2909864056	140.702930669	-27.0939899168	-129.163631912	-61.1767781152	-35.2619530384	-20.832844006	-38.3545934907
103437500.0	-16.3079139705	138.104550179	-26.758039769	-130.416802294	-61.4652271425	-75.9854082585	-20.8905223081	-37.7170516685
104125000.0	-16.3322593638	135.343115729	-26.4356264643	-131.762611086	-61.4692629808	-128.557846529	-20.9468113009	-37.041523102
104812500.0	-16.3658584086	132.586138861	-26.1320888308	-133.017146868	-60.8480705024	-166.773260383	-21.0272925309	-36.4941117338
105500000.0	-16.4058288498	129.672392338	-25.8561231482	-134.391756836	-60.7312899675	164.773393882	-21.1015599313	-35.9696216539
106187500.0	-16.4421041914	126.656542384	-25.6057316286	-135.802810874	-60.7134211382	158.149804283	-21.1938275718	-35.5033575844
106875000.0	-16.4896189623	123.522577069	-25.3877663377	-137.108460105	-60.4665362963	156.380838314	-21.2826121735	-35.1068471659
107562500.0	-16.5489442612	120.276912703	-25.2036595745	-138.504984922	-60.6445692031	128.818277075	-21.3796974866	-34.6103722958
108250000.0	-16.6066151336	116.864593688	-25.0481180891	-139.840083148	-60.311710505	106.365681751	-21.4823136275	-34.3546607131
108937500.0	-16.6547460204	113.655737689	-24.8413738315	-141.102182536	-60.1260518435	65.1668574941	-21.5701147519	-33.9013884095
109625000.0	-16.7058283291	110.385143786	-24.6619578041	-142.280973227	-60.3107541024	24.9997242054	-21.6571525127	-33.4968264092
110312500.0	-16.7515095483	106.956789254	-24.5006312981	-143.506714614	-60.546776877	-6.03519339697	-21.7519511183	-33.1005154938
111000000.0	-16.8077996152	103.469859508	-24.3668073012	-144.523535441	-60.4816809951	-37.4535699391	-21.8494616138	-32.7577142316
111687500.0	-16.8619322976	99.8314057157	-24.2693630637	-145.554794013	-60.3998462705	-65.0664255282	-21.9509697143	-32.4728643726
112375000.0	-16.9201756339	96.1014946214	-24.1928109245	-146.407250148	-60.0953485175	-96.3063762872	-22.0605189494	-32.2071781803
113062500.0	-16.9794683746	92.2549235216	-24.1557133695	-147.070311966	-60.0061317179	-122.120470722	-22.1733659496	-31.9612874369
113750000.0	-17.0426767893	88.3307559864	-24.1430737716	-147.305868732	-60.4693401304	-135.600073963	-22.2823366301	-31.80121016
114437500.0	-17.104276282	84.2798243801	-24.1477071098	-147.227933778	-60.4640693881	-140.752112087	-22.3966337225	-31.6079677012
115125000.0	-17.1723146215	80.0847330879	-24.157252938	-146.835801409	-60.4166018897	-153.939794529	-22.5153058186	-31.4513906871
115812500.0	-17.2316599196	75.7412386715	-24.1477551845	-145.949685933	-60.5749625833	-167.250485835	-22.631237083	-31.2733263013
116500000.0	-17.3002482642	71.3248223629	-24.0970053104	-144.670642554	-60.8843896903	179.50571195	-22.7516247323	-31.2053071964
117187500.0	-17.3675138403	66.751911758	-23.9962774823	-143.074913417	-60.4502737058	155.857582966	-22.8689159522	-31.1603770237
117875000.0	-17.4454540737	62.0716176945	-23.8475821219	-141.309012773	-60.8591615296	141.73033497	-22.9906324434	-31.0351013967
118562500.0	-17.5225592518	57.2140787676	-23.6391749313	-139.417607663	-61.2821511621	122.410302848	-23.1114271291	-30.9214209119
119250000.0	-17.6162722173	52.2532149947	-23.3747165806	-137.41149466	-61.1547322372	106.842907458	-23.2247769898	-30.7953788068
119937500.0	-17.7169349396	47.1405544685	-23.0611251797	-135.40959735	-61.5769236927	81.9881151351	-23.3379475265	-30.7516062755
120625000.0	-17.8319670811	41.9027439275	-22.6968771747	-133.406899327	-61.7163867424	55.0544515049	-23.4572655671	-30.72714478
121312500.0	-17.9726479367	36.5116898317	-22.2793204518	-131.494420557	-61.9095159866	25.835030486	-23.5667134074	-30.7516572846
122000000.0	-18.1366923871	30.9718270507	-21.8206335896	-129.70343499	-62.1724978156	-14.6140893966	-23.6871081695	-30.7773954625
122687500.0	-18.3245066017	25.2914691523	-21.30948845	-128.033242509	-62.2402496062	-42.0411000676	-23.8058770798	-30.8813623619
123375000.0	-18.5573577938	19.4376626962	-20.7635629701	-126.429668588	-62.5417823905	-56.4684317469	-23.9118602894	-30.9804335406
124062500.0	-18.8234245485	13.4529948096	-20.1749678137	-125.017063264	-62.5149163547	-68.7496194305	-24.0216380347	-31.0537154226
124750000.0	-19.1656583263	7.27409218586	-19.5570664845	-123.734637224	-62.682164156	-82.7692162552	-24.1301397433	-31.0866753425
125437500.0	-19.5696969299	0.938273927884	-18.9005819738	-122.703906745	-62.8137964532	-92.1629008399	-24.226525873	-31.0266092424
126125000.0	-20.0771484751	-5.55398150269	-18.2091596349	-121.867033418	-62.8122949363	-90.8675318995	-24.3368415188	-31.1503994486
126812500.0	-20.706976401	-12.1987278136	-17.4832264439	-121.251273471	-63.0816109701	-79.4751975746	-24.4332739624	-31.1442429072
127500000.0	-21.6287495272	-18.659342075	-16.7340309811	-120.845336462	-63.4174884071	-67.7168126829	-24.5146567434	-31.2678373488
128187500.0	-23.1017849365	-26.2069660033	-15.9465346755	-120.761109812	-63.4251042232	-51.6770409788	-24.6102218829	-31.3013763769
128875000.0	-24.1411867187	-39.7680910165	-15.1365977003	-120.871643741	-63.4710519817	-37.4683234153	-24.6887488555	-31.3273155657
129562500.0	-24.8744625026	-54.0605211361	-14.2890013459	-121.377408242	-63.9144314285	-23.4334176462	-24.7615642854	-31.3968280114
130250000.0	-25.5201314862	-68.4271595539	-13.4178912481	-122.225054395	-64.2092554009	-20.4205206307	-24.84003855	-31.4528733036
130937500.0	-26.0524824402	-83.0725845265	-12.5152269489	-123.632793617	-63.4628296164	-16.5673211136	-24.9070468069	-31.4538586919
131625000.0	-26.5337612648	-97.7595115766	-11.6104185616	-125.460894202	-63.4396347462	-9.85060300474	-24.9677580151	-31.6213830916
132312500.0	-26.9534700555	-112.493933911	-10.696929925	-127.831288682	-63.2551141078	4.95839941222	-25.0236448861	-31.6895109701
133000000.0	-27.3455225224	-127.356822274	-9.81306171617	-130.79471263	-62.7786650072	22.2461994787	-25.0881017745	-31.8714814973
133687500.0	-27.7038866902	-142.35105401	-8.97585394952	-134.332363139	-62.6128029672	52.3439748359	-25.1463979917	-31.9687539038
134375000.0	-28.0311074753	-157.469527382	-8.19837116895	-138.23277144	-62.7605713665	92.2126161033	-25.1898840403	-32.165072144
135062500.0	-28.3244309972	-172.808100453	-7.47473506053	-142.521626424	-62.4703317082	134.833274563	-25.2211082167	-32.4058608494
135750000.0	-28.5995070322	171.908123082	-6.81770838077	-146.981202496	-62.0169136393	173.842314184	-25.244900724	-32.7402837093
136437500.0	-28.8450627283	156.532583359	-6.22193217707	-151.702935818	-62.3798229361	-142.490411766	-25.2768604848	-33.0776374297
137125000.0	-29.067310151	141.092339241	-5.68473162887	-156.476686882	-62.1938292019	-97.9747193222	-25.3085264406	-33.375397738
137812500.0	-29.2516282697	125.598910625	-5.20655937339	-161.34842095	-61.8040133611	-52.3306344085	-25.3210665578	-33.6708610567
138500000.0	-29.3960366471	110.111807294	-4.78009894085	-166.231788047	-61.4921496577	-4.59696607592	-25.323501891	-34.0101865354
139187500.0	-29.4962292381	94.659165222	-4.40781399367	-171.128507601	-61.4764872125	54.3665202315	-25.3150011056	-34.2946095219
139875000.0	-29.5579394052	79.1853744792	-4.08003336348	-175.96179309	-61.5592202343	100.900895912	-25.3080549665	-34.560423233
140562500.0	-29.5567588536	63.7719046864	-3.79633424348	179.216039576	-61.4677055034	144.477588589	-25.3038442172	-34.950424287
141250000.0	-29.5043436838	48.4458632698	-3.55271041018	174.507073036	-61.4816112475	-172.671409433	-25.285690347	-35.2866632971
141937500.0	-29.3649537398	33.2409013171	-3.34718977602	169.872951352	-61.3967892198	-126.876199988	-25.256833335	-35.6584886239
142625000.0	-29.1444048693	18.1882739861	-3.17272613298	165.346903782	-61.251070168	-74.5384356088	-25.2277383932	-36.0533794719
143312500.0	-28.8067903387	3.26559397182	-3.03118733809	160.915478623	-61.1529720595	-25.447854176	-25.1809642563	-36.3899833563
144000000.0	-28.3457688523	-11.5715270183	-2.9147062969	156.606004742	-60.6925212978	16.4331522245	-25.142230249	-36.8277062902
144687500.0	-27.5811962699	-26.5299058373	-2.82417309526	152.425625066	-60.1410917319	50.8167684535	-25.1041348732	-37.1325830083
145375000.0	-26.2498363641	-40.4166007129	-2.75371428151	148.388088757	-60.0596463871	93.8957483575	-25.0473327151	-37.5512650618
146062500.0	-25.3432612792	-48.20297703	-2.70440146602	144.461126994	-60.458873346	132.166798676	-24.9941782603	-37.8421354718
146750000.0	-24.7285400633	-55.2005942263	-2.6695436565	140.654643329	-60.385863478	178.871344659	-24.9368915893	-38.0904345157
147437500.0	-24.199316411	-62.0854057	-2.64994525553	136.97490585	-60.7765779237	-124.359609844	-24.8665854353	-38.3602827883
148125000.0	-23.7790013586	-68.6014755575	-2.643053864	133.408692253	-60.9678099251	-80.7209137583	-24.8013370676	-38.6424384175
148812500.0	-23.404254807	-75.0536234068	-2.6471092544	129.960939664	-61.0609330214	-37.7907078455	-24.7193792442	-38.7904328655
149500000.0	-23.077514401	-81.3297124182	-2.65705192952	126.622349163	-61.0873142161	-6.52717060049	-24.6393149592	-39.0135375325
150187500.0	-22.7825888822	-87.3559748486	-2.67758062387	123.394183514	-61.1152430786	34.9060628168	-24.5493330905	-38.9956925504
150875000.0	-22.5046520074	-93.1305677385	-2.70237415138	120.278062	-60.8705029903	62.9595101585	-24.4542373546	-39.0481642813
151562500.0	-22.2573481961	-98.6819076322	-2.73149453097	117.233940839	-60.7829764815	80.2762785015	-24.3698193961	-39.0024314552
152250000.0	-22.0332511474	-103.912257133	-2.76632103712	114.295745454	-60.7357770809	92.941774911	-24.2952886453	-38.8987951507
152937500.0	-21.8249651038	-108.964086718	-2.80690548243	111.436718933	-61.2630846386	104.977845799	-24.212961671	-38.7234897118
153625000.0	-21.6298276148	-113.760870704	-2.84789670562	108.67965326	-60.9447328679	111.678206385	-24.1297456743	-38.5228646628
154312500.0	-21.4423878912	-118.380205714	-2.89166378464	105.986407776	-60.6251295924	128.107768734	-24.0379234797	-38.2691095013
155000000.0	-21.2818080505	-122.747804396	-2.93817942668	103.37333006	-61.0692886796	135.451648648	-23.950150563	-37.8762428939
155687500.0	-21.1364985407	-126.973080821	-2.98448126028	100.827603066	-61.080940584	149.675064776	-23.8795184531	-37.4287727607
156375000.0	-21.0149040601	-130.989737912	-3.03374670256	98.3575382897	-61.0822106105	164.948492307	-23.8019236028	-36.9825857135
157062500.0	-20.8929826543	-134.811107172	-3.08220592745	95.9431679301	-60.7368700108	-179.356290457	-23.7199496743	-36.426318683
157750000.0	-20.7973205983	-138.457443855	-3.13251677256	93.6088374234	-60.7089112245	-172.707225282	-23.6343083755	-35.8322234783
158437500.0	-20.7120785548	-142.006585075	-3.18235614075	91.3069984458	-60.4490933323	-155.799348265	-23.5628616119	-35.2485852113
159125000.0	-20.6462196378	-145.399644599	-3.23256567009	89.079099517	-60.3324760488	-139.396744155	-23.5039168704	-34.5442485787
159812500.0	-20.594392306	-148.705629862	-3.28242954305	86.8881841817	-60.5929984784	-134.888927835	-23.4379406212	-33.830702555
160500000.0	-20.5636449218	-151.831909128	-3.33087954937	84.7664733352	-60.5386425645	-139.18355434	-23.3826180146	-33.1227260842
161187500.0	-20.5321994973	-154.869562394	-3.38034702513	82.6620555219	-60.5980239316	-139.955136924	-23.3280405559	-32.2944016331
161875000.0	-20.5241693172	-157.746270604	-3.42820794766	80.6192736091	-61.0084174677	-139.121769576	-23.2864950811	-31.4903335276
162562500.0	-20.534827389	-160.561448718	-3.47711366093	78.5876206283	-61.0025754248	-150.095657524	-23.2551583404	-30.662104342
163250000.0	-20.5566203247	-163.328817637	-3.52496209498	76.6156460802	-61.374014037	-167.22974688	-23.2325433256	-29.7815736334
163937500.0	-20.5977329421	-166.029358702	-3.57282006189	74.6771379119	-61.0944097374	172.854577002	-23.2073859746	-28.960642523
164625000.0	-20.651050578	-168.651070303	-3.6177623974	72.7769578545	-60.4733321789	144.463600726	-23.1882752487	-28.0838838853
165312500.0	-20.7131903775	-171.218612329	-3.66486193554	70.9060333495	-60.6689012752	118.563263976	-23.1844262271	-27.2520508574
166000000.0	-20.7989354361	-173.696017125	-3.70887535113	69.0798326529	-60.4757703165	91.1396958405	-23.1891818352	-26.3752218777
166687500.0	-20.8971201451	-176.196611789	-3.75369640519	67.2733535479	-60.4156452706	64.7518016179	-23.2044082626	-25.4738018793
167375000.0	-21.0111597543	-178.608597716	-3.79611316356	65.5188768778	-60.5247745151	37.3534829237	-23.2366646672	-24.5976847126
168062500.0	-21.1373922401	178.93727347	-3.83855884438	63.7796513391	-61.3676634104	17.8438855692	-23.269533209	-23.7868906638
168750000.0	-21.2911107533	176.590547878	-3.87899302483	62.0939182665	-61.4706973655	2.85367540965	-23.3098107498	-22.9988077214
169437500.0	-21.4461506971	174.150793397	-3.92058175933	60.4199265506	-61.9008941204	-18.4617844484	-23.3551584825	-22.1926195329
170125000.0	-21.6125717845	171.66379058	-3.95688310798	58.7681150344	-61.4208439042	-32.7884416713	-23.4194469994	-21.3399530749
170812500.0	-21.8054225352	169.06813482	-3.99667591145	57.1378421159	-61.7745215995	-48.9996111838	-23.4869062396	-20.4748007937
171500000.0	-22.0051511097	166.463908759	-4.03361383247	55.5430083545	-61.6983166191	-68.3866705979	-23.5629595464	-19.7684084586
172187500.0	-22.2209294311	163.7014702	-4.06702005535	53.9694178669	-61.9292052451	-81.1476184054	-23.6437302891	-19.175139048
172875000.0	-22.4490861229	160.934907346	-4.10119621601	52.4117753808	-61.696842887	-96.1777291082	-23.7301052306	-18.5585651155
173562500.0	-22.6721286895	157.86186019	-4.13307182685	50.8831903474	-61.4003404639	-123.052625285	-23.8373344298	-18.0238174374
174250000.0	-22.9087684294	154.753501053	-4.16292745136	49.3678293645	-61.5931018033	-149.858945485	-23.943900273	-17.5656926244
174937500.0	-23.1365349902	151.396924942	-4.19020843279	47.8598617029	-61.0985964443	-166.604331155	-24.0702717494	-17.096650264
175625000.0	-23.3642523022	147.911450636	-4.21601002521	46.3813150167	-60.9957866173	165.616364478	-24.1978513062	-16.5681533145
176312500.0	-23.5830123183	144.341883561	-4.24161625352	44.9139689758	-61.0887310672	137.716105869	-24.3334249147	-16.1964342739
177000000.0	-23.7789712368	140.630426974	-4.26580299444	43.4669002931	-60.9558376968	110.895553442	-24.4918512248	-15.8616200823
177687500.0	-23.9506250555	136.73452348	-4.28800228028	42.028924746	-61.2043102721	94.2441416027	-24.6457693433	-15.4895561604
178375000.0	-24.114815737	132.758518772	-4.30792116023	40.6181833965	-61.2653366104	70.4012122759	-24.8136965711	-15.2293209298
179062500.0	-24.2612880497	128.641142164	-4.32708604586	39.2042030563	-61.0012504536	40.5281273686	-24.9801212587	-15.1081974827
179750000.0	-24.3781704592	124.436882307	-4.34421451081	37.8266853526	-60.9001016297	21.1162413656	-25.1388985944	-14.9417056607
180437500.0	-24.4810873573	120.119450468	-4.35957997335	36.4364505145	-60.0544135778	6.30366845834	-25.2970749779	-14.9150784075
181125000.0	-24.5599657968	115.722387026	-4.37483651899	35.0663137681	-59.9058710322	-15.7056166059	-25.4690135356	-14.7496834839
181812500.0	-24.6038262802	111.393951353	-4.38901773387	33.705512552	-59.8982663414	-39.7407382148	-25.6550184905	-14.7857598239
182500000.0	-24.6326991713	106.922561269	-4.39991636353	32.363700136	-59.609121883	-53.26100259	-25.8385911814	-14.7293846768
183187500.0	-24.6103967218	102.457487759	-4.41082796523	31.0116235824	-59.5040427609	-68.595267079	-26.0046238999	-14.7143848656
183875000.0	-24.5781555303	98.0992676301	-4.42018432254	29.6867398529	-59.5259178794	-79.90289539	-26.1773810681	-14.896321859
184562500.0	-24.5168237385	93.6677339082	-4.4287643735	28.3440039444	-59.5919096776	-92.1287371316	-26.3369934505	-15.1987075917
185250000.0	-24.4431716474	89.2571593145	-4.43614405359	27.034636574	-58.9959145973	-107.381429396	-26.4986773752	-15.3097550679
185937500.0	-24.3223479512	84.8513549461	-4.44693670655	25.7011446932	-58.9733373784	-119.937522937	-26.6599952177	-15.4961482705
186625000.0	-24.2084038743	80.5621388041	-4.45099072658	24.3956311604	-59.2652975074	-120.474035568	-26.8222335071	-15.8295615976
187312500.0	-24.0592724525	76.2796746822	-4.45688520472	23.07821038	-59.4063497813	-119.378989609	-26.9754727677	-16.1930787228
188000000.0	-23.8817498917	72.1857912177	-4.45858401934	21.7881570826	-59.4412343747	-117.831811137	-27.1117929834	-16.715454153
188687500.0	-23.6890989319	68.1497204101	-4.46093691428	20.4852964843	-59.5135396296	-122.040216094	-27.2613906309	-17.0519028802
189375000.0	-23.4809689262	64.2712170705	-4.46304127467	19.2123914459	-59.1981146249	-123.573265778	-27.4200509782	-17.4512473573
190062500.0	-23.2534145625	60.5193590405	-4.46554870069	17.9243564951	-59.6541381697	-121.411323052	-27.5512693086	-17.8682120788
190750000.0	-23.022173846	57.0081650192	-4.46443737826	16.647450133	-59.9998559199	-107.6817933	-27.6916566756	-18.2740823153
191437500.0	-22.7766972586	53.5864132267	-4.46544786308	15.3757419552	-60.2136173255	-93.960860159	-27.814179726	-18.7537883563
192125000.0	-22.5327785816	50.4596071619	-4.46579454928	14.1231222341	-60.4450916588	-91.0780932735	-27.9263263259	-19.1904757521
192812500.0	-22.2765021452	47.4313026171	-4.46518441426	12.86965755	-60.4194394476	-90.4841264059	-28.0337183469	-19.8720417124
193500000.0	-22.0314293907	44.539519364	-4.46200579825	11.6224230853	-60.6793878206	-90.1870893356	-28.1299662759	-20.395704401
194187500.0	-21.7985340104	41.8305529822	-4.46142367813	10.3788977058	-61.1069913915	-78.1177443418	-28.1923735597	-21.0510322269
194875000.0	-21.5891334371	39.2807338257	-4.45897208995	9.13687379497	-60.9678550943	-77.0267783297	-28.2832663383	-21.6442021861
195562500.0	-21.3792098394	36.8300297122	-4.45582410461	7.89984429963	-62.0948112345	-76.5560217261	-28.3501068177	-22.333762639
196250000.0	-21.1850650972	34.511509977	-4.45231698612	6.68319529681	-61.8195047195	-73.9396056449	-28.4030737773	-23.0271489581
196937500.0	-20.9974035109	32.2833270438	-4.44967535818	5.45887716096	-61.7543873647	-82.5474005555	-28.4475496115	-23.636358461
197625000.0	-20.8269537178	30.165625613	-4.44392283046	4.25343058027	-61.7623997002	-83.0126643805	-28.4763034235	-24.3860743387
198312500.0	-20.6717105853	28.1582077119	-4.43815790612	3.04829377379	-61.9036022604	-81.9946648381	-28.4882750878	-25.3896310184
199000000.0	-20.5420670066	26.0870497719	-4.43027241474	1.83200577883	-62.1743804241	-70.6952104955	-28.4769880987	-26.1555593158
199687500.0	-20.4190749558	24.1107540875	-4.42417519398	0.624399909024	-62.4424131545	-67.4531652668	-28.4445739608	-27.0412460203
200375000.0	-20.3358661927	22.1898801296	-4.41616419171	-0.574440250008	-62.2541189515	-63.480026872	-28.4475520717	-28.0454494652
201062500.0	-20.2511968442	20.208458837	-4.40963458075	-1.76473886385	-62.2667167197	-64.7546291118	-28.4182592017	-28.9326437637
201750000.0	-20.1862801558	18.2580100816	-4.40041249594	-2.95283449869	-62.328712437	-62.983965339	-28.3881734259	-29.725574573
202437500.0	-20.1227907477	16.3531863591	-4.39105233416	-4.15648103641	-62.0783706722	-53.1006400415	-28.3457061593	-30.7435002081
203125000.0	-20.077225509	14.4183189444	-4.37808901702	-5.3270975021	-62.4551647211	-38.4810079571	-28.2911260664	-31.6503854681
203812500.0	-20.0213596106	12.447960383	-4.36805782185	-6.51352836773	-62.0785810113	-36.9146273306	-28.1989854736	-32.5160995496
204500000.0	-19.9969125182	10.5096219023	-4.35672834085	-7.68976816127	-61.9080039298	-36.4636812919	-28.1143112584	-33.3799037151
205187500.0	-19.9699911147	8.5199702611	-4.34539358499	-8.87019682604	-61.4581812842	-34.5220458587	-28.0340083642	-34.0532064136
