#Frequency	|S11|	<S11	|S21|	<S21	|S12|	<S12	|S22|	<S22
100000000.0	-17.4516257004	146.269941666	-16.5840425291	-122.8900617	-64.120324793	-174.588594371	-19.0108186166	-69.0946958791
100687500.0	-17.3615305508	144.3592826	-16.1903945041	-124.328972172	-63.6357235085	70.635741768	-19.0663287661	-68.8680905188
101375000.0	-17.3294064506	141.824418081	-15.7739484103	-125.66644662	-63.544964847	57.6073571894	-19.1803310462	-68.4122286965
102062500.0	-17.2948827053	139.390757239	-15.3902781126	-126.894657886	-61.9193825843	50.5837616558	-19.3057443819	-67.942431457
102750000.0	-17.2847411727	136.84088972	-15.029479322	-128.144704544	-61.6543363003	52.8217875523	-19.4322332597	-67.5994445048
103437500.0	-17.2714111478	134.295041859	-14.6804399547	-129.470566458	-61.9248709975	6.95686126644	-19.5535227523	-67.2603174572
104125000.0	-17.2846736214	131.537783561	-14.3534405681	-130.774689109	-62.1924950766	-38.9165667314	-19.6961358698	-66.9769008695
104812500.0	-17.3034467207	128.730680553	-14.0493769083	-132.109343414	-61.5293983129	-108.196573777	-19.8411198309	-66.7527634449
105500000.0	-17.3225121974	125.805182582	-13.7733185579	-133.454359448	-61.7888036913	-165.160708288	-19.9890722783	-66.6031140747
106187500.0	-17.3420494075	122.74347067	-13.5233627938	-134.810763598	-61.9118366332	167.287504856	-20.1418730494	-66.4761918221
106875000.0	-17.3688723187	119.574898042	-13.2980672485	-136.139106	-62.8657136485	132.107810249	-20.3108621684	-66.4243670388
107562500.0	-17.405795959	116.317407871	-13.1029409543	-137.45992566	-62.3979584105	115.806904694	-20.4886215999	-66.4374173604
108250000.0	-17.4369797632	112.890275022	-12.9460927323	-138.717003621	-62.3062171375	96.1435708648	-20.6565661273	-66.5275775163
108937500.0	-17.4521467077	109.727074281	-12.734309343	-139.978443737	-61.9702089221	72.0609377343	-20.8102800956	-66.4163728314
109625000.0	-17.4780600106	106.41026701	-12.5433917947	-141.163820551	-61.9716364794	49.4079663139	-20.9707208366	-66.3538983609
110312500.0	-17.4938402643	102.993303592	-12.3804558436	-142.330681908	-62.013246778	28.8617921606	-21.1406583919	-66.3251118412
111000000.0	-17.521362641	99.4965968005	-12.243301911	-143.392357214	-61.9683029968	3.10980632335	-21.3079298217	-66.3285368507
111687500.0	-17.544181088	95.9170132934	-12.1357549132	-144.333977654	-61.8269164792	-18.4251970919	-21.4769635954	-66.3779601195
112375000.0	-17.5774824064	92.208089304	-12.0529942757	-145.120184183	-61.9395825268	-40.6130010017	-21.6494905993	-66.4578464831
113062500.0	-17.5988322403	88.3818180946	-12.00381845	-145.73212766	-61.8599977622	-55.3140132612	-21.8331019901	-66.5322614363
113750000.0	-17.626475803	84.4662472244	-11.9757452587	-146.037041067	-61.8872855588	-83.2691998912	-22.0085931207	-66.6559553001
114437500.0	-17.6516955676	80.4648020201	-11.9657755283	-146.002312418	-61.9775660678	-109.691709881	-22.199735137	-66.7375239633
115125000.0	-17.6806511944	76.3019987205	-11.9567721317	-145.535545584	-61.8030305449	-125.961044763	-22.3834695405	-66.812222599
115812500.0	-17.7046277908	72.0003152887	-11.9350047959	-144.653650107	-62.7306915619	-139.378867797	-22.578228078	-66.8720904641
116500000.0	-17.7280585752	67.6442306002	-11.875412824	-143.390154446	-62.5711774876	-148.707989083	-22.7614095006	-66.9431496176
117187500.0	-17.75102507	63.1878283787	-11.772086168	-141.840608433	-62.3631748248	-149.14675348	-22.9516703368	-67.0290969175
117875000.0	-17.7757586607	58.6245710391	-11.6118532229	-140.075536181	-62.6100344362	-144.529151224	-23.140897245	-67.0201050657
118562500.0	-17.8138411903	53.9022724705	-11.401750889	-138.186627964	-62.550305975	-132.921825233	-23.3273730218	-66.9816184116
119250000.0	-17.8500355084	49.0806087918	-11.1297059613	-136.224875391	-62.8722833104	-130.263679031	-23.5112591753	-66.8664821595
119937500.0	-17.9088559193	44.136583989	-10.8067158308	-134.259951638	-63.0586812266	-124.413840602	-23.6930925988	-66.7294837191
120625000.0	-17.9687437895	39.0772256546	-10.431299486	-132.3112157	-62.733928136	-120.540379329	-23.876300407	-66.5801273056
121312500.0	-18.0609345252	33.8571002382	-10.0091108501	-130.437971338	-63.034739233	-127.865111933	-24.0478063429	-66.4006208485
122000000.0	-18.1623205542	28.5536779937	-9.53796978832	-128.661758166	-62.7212948394	-124.510620715	-24.2154825156	-66.1379340463
122687500.0	-18.2989991224	23.12969193	-9.0273260468	-127.006439936	-61.8949844939	-117.549036803	-24.362485868	-65.8165848142
123375000.0	-18.4570735941	17.5661770411	-8.47364130936	-125.49594461	-61.7771480271	-118.445973322	-24.5105416655	-65.3699749838
124062500.0	-18.6693951087	11.8764552006	-7.88552840753	-124.143537638	-61.7039065113	-123.577882164	-24.6402594451	-64.9301521042
124750000.0	-18.9359833958	6.12029566672	-7.2566936562	-122.969393533	-61.8037284725	-122.875494033	-24.7566930705	-64.4018050975
125437500.0	-19.2669070535	0.292044814576	-6.59763445188	-121.996585217	-61.2409528561	-118.50366382	-24.8603914788	-63.7420040944
126125000.0	-19.6814234294	-5.62310151646	-5.90300792328	-121.209094352	-61.5792149344	-116.642452089	-24.9629807977	-63.1748195803
126812500.0	-20.2074183001	-11.4344874264	-5.17949859925	-120.651494956	-61.1038493339	-115.543961152	-25.0372306023	-62.5183852812
127500000.0	-20.8917276217	-16.6821393541	-4.4233138896	-120.333616457	-60.8108342567	-110.409494495	-25.092513212	-61.8838295883
128187500.0	-21.7160547051	-20.9536239967	-3.64296013183	-120.288965197	-60.5061580482	-109.385447369	-25.1242024356	-61.2177014719
128875000.0	-22.591367805	-23.3256474108	-2.82621738677	-120.514428193	-60.3757710841	-107.178999343	-25.1367433858	-60.5540040433
129562500.0	-23.3341543611	-24.5581083967	-1.98708675422	-121.088869939	-60.1726444429	-107.671135593	-25.1286558554	-59.8963867861
130250000.0	-23.9589052894	-25.4956083493	-1.11817705345	-122.010935807	-60.3439319247	-113.803126676	-25.1121857536	-59.296877371
130937500.0	-24.4757818667	-26.4709884239	-0.231666266666	-123.400674852	-60.1255189939	-111.780732881	-25.0855790604	-58.6916104317
131625000.0	-24.9310363755	-27.2616180316	0.670496611064	-125.274986242	-59.9325856161	-106.053349109	-25.0239669557	-58.1680586221
132312500.0	-25.3226760397	-28.0164665875	1.56404504577	-127.72193764	-59.8700676527	-105.40417108	-24.9643410257	-57.6424693572
133000000.0	-25.7057013722	-28.9089078069	2.4410661801	-130.717234964	-58.5549424411	-104.739358503	-24.8819921659	-57.2627620783
133687500.0	-26.0386712115	-29.7991653954	3.27088502732	-134.240145236	-58.5011130259	-106.811750718	-24.7974316053	-56.8274159128
134375000.0	-26.3465912841	-30.7624310107	4.05201401075	-138.171277416	-58.2720723871	-113.667954307	-24.6847537724	-56.5212085277
135062500.0	-26.6218860755	-31.8642771461	4.76834636514	-142.437155338	-58.3953785348	-116.980904636	-24.5684003054	-56.3049787634
135750000.0	-26.8782098609	-32.9202145587	5.42841549025	-146.919538459	-58.1357960998	-128.429800072	-24.4316376845	-56.2054838603
136437500.0	-27.1068303526	-34.1089397516	6.01958366994	-151.606859703	-57.6508411316	-129.359732479	-24.2971633519	-56.1466225027
137125000.0	-27.3110176829	-35.2647169313	6.55531527864	-156.385202451	-56.6659662092	-131.826719283	-24.1440925073	-56.2155263975
137812500.0	-27.4757858977	-36.389949231	7.03115759225	-161.24922859	-56.5234641479	-135.543839478	-23.9886336337	-56.3063810597
138500000.0	-27.6190473109	-37.5160073991	7.45710989721	-166.122608094	-56.0244161781	-136.800373653	-23.8189792823	-56.4982220604
139187500.0	-27.7208636664	-38.6705590013	7.82683591326	-171.008812716	-56.226198588	-145.580017782	-23.6565645677	-56.7339895092
139875000.0	-27.7804551573	-39.8179273298	8.15404985002	-175.847589982	-56.0182307641	-148.957690046	-23.4872746335	-57.1015617252
140562500.0	-27.8011484683	-40.8903348165	8.43523067193	179.371045861	-55.8433606156	-149.899843936	-23.3152566138	-57.6099223793
141250000.0	-27.756508619	-41.9025573104	8.67923538522	174.670480396	-55.9088839455	-153.858938241	-23.1371979618	-58.0760889667
141937500.0	-27.6563972839	-42.9379625414	8.88402050808	170.053925894	-55.7409077246	-163.057198015	-22.977825868	-58.6609041529
142625000.0	-27.4764908071	-43.8482323309	9.06003496197	165.554543479	-55.9589346625	-168.927040197	-22.8135755138	-59.2693110942
143312500.0	-27.2013661904	-44.7213897145	9.20255862907	161.150991388	-55.6329085863	-177.957775565	-22.6518517036	-59.8935267459
144000000.0	-26.8020025317	-45.6943485453	9.3219224559	156.871602334	-55.8784714262	-179.735679585	-22.5099375627	-60.5740284098
144687500.0	-26.2510050933	-47.1913414654	9.41650426516	152.717597317	-55.8018752485	170.914301691	-22.3606667273	-61.250151099
145375000.0	-25.5417424146	-49.6446820507	9.49247172153	148.693679874	-55.9760587847	169.857920804	-22.2276092224	-61.95555769
146062500.0	-24.7841756647	-53.9573797669	9.54749157433	144.780138137	-55.6699825385	166.401109235	-22.1087686283	-62.6142908613
146750000.0	-24.1381375408	-59.3691348846	9.58859506551	140.994766983	-56.1618389389	162.310955133	-22.006558395	-63.2406937142
147437500.0	-23.6219609475	-64.9923745084	9.61355705262	137.327499109	-55.8053662009	159.686379607	-21.8904297074	-63.9007572109
148125000.0	-23.2006237078	-70.5216525307	9.62963971368	133.775124562	-56.1955277018	155.464493712	-21.7899528861	-64.4244349721
148812500.0	-22.8482644203	-76.1799153779	9.63226707281	130.327222575	-56.2097400803	152.367466386	-21.6935408157	-64.9663227512
149500000.0	-22.5483057542	-81.7684293635	9.63135045444	126.992848812	-56.0829486841	153.515349093	-21.6138565535	-65.4723339738
150187500.0	-22.2624021307	-87.1082238682	9.61829227625	123.753605951	-56.3026799642	152.277547367	-21.528621972	-65.8522097018
150875000.0	-22.016240163	-92.3454430418	9.60281676947	120.62190181	-56.431539845	148.45117293	-21.4624843266	-66.2138459587
151562500.0	-21.7975190148	-97.4560963276	9.57943395511	117.569998038	-56.4492300298	145.254655374	-21.3886144514	-66.4885294298
152250000.0	-21.6030829576	-102.278136056	9.55344011878	114.621493403	-56.1644174325	143.041943921	-21.3337269077	-66.7008468239
152937500.0	-21.4131957637	-106.99380192	9.51902569106	111.737984096	-56.3035951326	143.171716214	-21.2814625992	-66.8481540292
153625000.0	-21.2606194438	-111.443889277	9.48768219629	108.951195829	-56.3817890265	139.902731419	-21.2466724497	-66.9849615247
154312500.0	-21.10884513	-115.788004445	9.4473336992	106.231736631	-56.7958440444	138.833651284	-21.1989207391	-67.0167507466
155000000.0	-20.9948735759	-119.973222307	9.40839778275	103.589412734	-56.6228223132	132.5901097	-21.1727033339	-66.9515753999
155687500.0	-20.8709895879	-123.98953399	9.36548552457	101.012150368	-57.2147984094	131.99361704	-21.1574598299	-66.875144037
156375000.0	-20.7876671493	-127.816978364	9.32383812677	98.5047269013	-56.7611905715	129.768426639	-21.1445403966	-66.7461811203
157062500.0	-20.6947232354	-131.528031275	9.27833927419	96.0571878484	-57.0370979246	127.613292391	-21.1376681211	-66.4848830316
157750000.0	-20.6323899106	-135.115450594	9.23493873827	93.6761045403	-56.951283207	123.772464112	-21.1388517968	-66.2027727666
158437500.0	-20.5733293559	-138.573750149	9.18727559636	91.3394604807	-57.2889121558	124.541209139	-21.1497166369	-65.93235042
159125000.0	-20.5305735619	-141.827182459	9.14313360039	89.0696289777	-57.253440688	123.741215819	-21.1738911864	-65.638441699
159812500.0	-20.4981979709	-145.061668387	9.09454790891	86.8336523688	-57.4361402454	122.245659093	-21.1963467902	-65.3550248276
160500000.0	-20.4920639435	-148.161125595	9.05106356269	84.6622498377	-57.2362310348	120.852859348	-21.2302174333	-65.0145503837
161187500.0	-20.4942040864	-151.130341295	9.00290127262	82.5250364367	-57.3133028556	119.994562552	-21.2639583685	-64.659124264
161875000.0	-20.5048306014	-153.95957571	8.9578866974	80.4401402464	-57.401462166	119.800513365	-21.3212402853	-64.3541625582
162562500.0	-20.5383912791	-156.778124964	8.91063963944	78.3855462325	-57.1137340648	116.466302737	-21.3819211691	-63.9731861633
163250000.0	-20.5745980731	-159.552492606	8.86584989152	76.3777203724	-57.4432718309	115.846929825	-21.4628633506	-63.594083199
163937500.0	-20.6409802641	-162.181191871	8.81968207372	74.4046029369	-56.9010676903	113.609578626	-21.5333591435	-63.2289160495
164625000.0	-20.7085436874	-164.802615992	8.77661422666	72.4723822096	-56.9052862757	111.719925414	-21.6159380574	-62.8720537035
165312500.0	-20.8080971428	-167.335121306	8.73046072024	70.5720822848	-56.3886315603	109.670472527	-21.7066158159	-62.4911215918
166000000.0	-20.9029960274	-169.782028264	8.68957053069	68.7121591062	-56.4316655822	109.098136836	-21.8058130565	-62.1470098885
166687500.0	-21.0303634938	-172.211767372	8.64482767756	66.8797743077	-56.2933521631	100.635552146	-21.9184967286	-61.8240466052
167375000.0	-21.1596593839	-174.616699603	8.60402136361	65.0817969657	-56.3110804809	100.191916347	-22.0364262687	-61.6182088811
168062500.0	-21.3168428861	-177.010535489	8.56186103997	63.3116512451	-56.3243265745	97.404191863	-22.1638737768	-61.3435493971
168750000.0	-21.4780387172	-179.373269365	8.52359582872	61.5911619405	-56.5653697785	97.2422496464	-22.2972340904	-61.2355953867
169437500.0	-21.6749533736	178.168270369	8.48393962575	59.8769935375	-56.56298755	93.6988224621	-22.4448853018	-61.0800532424
170125000.0	-21.8837553142	175.727732458	8.4498656937	58.1924587154	-56.9792889492	91.0453283249	-22.5917434689	-61.0857581026
170812500.0	-22.100262718	173.233588386	8.41116660888	56.5248904049	-56.933840176	88.1660337786	-22.7493776764	-61.0107449229
171500000.0	-22.3408216406	170.67413652	8.37865904134	54.8984699678	-57.406931168	88.9286225733	-22.9131374299	-61.070161678
172187500.0	-22.5931907198	167.96926427	8.34557808788	53.2893529305	-57.2455682382	88.3581563206	-23.0810935637	-61.2513444804
172875000.0	-22.8709831822	165.117457465	8.31509955765	51.7010961536	-56.8023373582	84.1949193624	-23.2490100298	-61.3625969654
173562500.0	-23.1328782245	162.081364167	8.28304043763	50.1317716149	-56.7910159776	84.6537675966	-23.4323893719	-61.6130198644
174250000.0	-23.4275829596	159.051765908	8.25636122264	48.5884416968	-56.9516178389	85.2088690986	-23.6017517966	-61.9894128006
174937500.0	-23.7009893261	155.712766562	8.22850762421	47.0412915666	-57.1366345738	83.8556052228	-23.7739204438	-62.3693052453
175625000.0	-23.9818684974	152.122723246	8.20457500238	45.5320537103	-56.7011566158	83.9589966284	-23.9610226947	-62.7424849856
176312500.0	-24.2380177011	148.388921888	8.17735275163	44.0307038386	-56.8912312826	85.3169727907	-24.1362166181	-63.2818545811
177000000.0	-24.4852029567	144.481809838	8.15646343104	42.5533303119	-56.5975772173	82.825607072	-24.3275746637	-63.8544703825
177687500.0	-24.6965518126	140.391643762	8.13157019083	41.0791101011	-57.0359541522	81.2893301307	-24.5099110992	-64.5711482173
178375000.0	-24.9222461515	136.171948366	8.11259494311	39.63336029	-56.6577086364	75.0153618389	-24.7023305009	-65.1582056748
179062500.0	-25.0984380943	131.835607565	8.09123007877	38.186815434	-56.6330319553	73.3957992389	-24.8602655391	-65.92193141
179750000.0	-25.2504879162	127.404260237	8.07480443188	36.7613891101	-56.587420802	70.8778048853	-25.0424119344	-66.6692856774
180437500.0	-25.3914046345	122.895209417	8.05623321965	35.3330916764	-57.1261705684	70.9684330873	-25.1902895221	-67.6038174582
181125000.0	-25.4787065867	118.213208263	8.0420294473	33.9263537822	-57.2283658608	69.7157637335	-25.3654470508	-68.4074841819
181812500.0	-25.5525565046	113.573646365	8.02430186511	32.519634593	-57.5623590779	69.3154954401	-25.5135086306	-69.3079509259
182500000.0	-25.5839706963	108.896576574	8.01323511094	31.1332012504	-57.4668323311	68.7899311241	-25.6893226906	-70.2729974331
183187500.0	-25.5932737832	104.138865926	7.99794890074	29.7506657878	-57.7580863174	68.8069103024	-25.8354009052	-71.2480505448
183875000.0	-25.5638142459	99.4414788923	7.98765937288	28.3812714058	-57.8384755424	78.0206111885	-25.9705775188	-72.2133830945
184562500.0	-25.5263781769	94.7306309387	7.9752628688	27.0217084094	-58.1226778655	77.4748680977	-26.0782139556	-73.1672167608
185250000.0	-25.4429375977	90.0429911735	7.96668640601	25.6680637602	-57.939968139	76.1797428898	-26.1854246085	-74.1181562773
185937500.0	-25.3509484755	85.4057961991	7.95293089783	24.3030665345	-57.6321030695	79.0651115869	-26.2999060296	-75.0243118551
186625000.0	-25.2109698634	80.8666712564	7.94590003611	22.9646456411	-57.7747251787	76.5714432196	-26.3958484086	-76.0612658928
187312500.0	-25.0549516618	76.2938825307	7.9354269096	21.6228833742	-57.3753157565	75.4894083104	-26.4959286591	-76.8804462026
188000000.0	-24.8686985216	71.8578706367	7.93014718545	20.3046652793	-57.5424572947	72.9427109609	-26.5773251765	-77.7659866087
188687500.0	-24.6628852402	67.5255172745	7.92105584922	18.982188996	-56.9109436476	70.2389369256	-26.6461342407	-78.6356780854
189375000.0	-24.4325360567	63.3744699817	7.91533778656	17.6785531576	-57.268055087	70.863807535	-26.7083778616	-79.5019829117
190062500.0	-24.1764058748	59.3641464902	7.90805203272	16.3740362771	-57.9007544007	68.1520072118	-26.7594770577	-80.3768522143
190750000.0	-23.9218619239	55.5760136172	7.9064835307	15.0874973457	-58.1957177026	67.7402683622	-26.7934716921	-81.2702468856
191437500.0	-23.6481646195	51.8511786427	7.90017924827	13.7978950641	-57.7347429784	59.7147102034	-26.8325728934	-81.9836166655
192125000.0	-23.3619426275	48.4890825198	7.89763802706	12.5349531098	-57.7455338069	60.0174527703	-26.866615857	-82.7297584665
192812500.0	-23.0814550051	45.33450528	7.89443548078	11.2677361987	-57.7365760077	51.141973811	-26.8793339051	-83.474799138
193500000.0	-22.8121974804	42.3594616225	7.89471982425	10.0062478	-57.9071840475	49.9151664777	-26.8775874291	-84.2086817801
194187500.0	-22.5455052705	39.6132893479	7.89153908115	8.74937365932	-58.2014917569	46.7658144605	-26.8558417078	-84.7307885235
194875000.0	-22.3130101261	37.0487167805	7.89316488972	7.50419030767	-58.1285917778	46.7837218737	-26.831898626	-85.2732668533
195562500.0	-22.0543116628	34.5855015526	7.89276880697	6.25166495077	-58.2859790073	48.3801363318	-26.7974104915	-85.8795835682
196250000.0	-21.8462793058	32.2364376301	7.89471397534	5.01913187682	-58.6456801278	49.2610857433	-26.7690935746	-86.4189264285
196937500.0	-21.6415155584	30.0146184598	7.89461102511	3.78245473178	-58.6760401316	47.7836595152	-26.7382434869	-86.7615582567
197625000.0	-21.4532872404	27.8540014263	7.89897998693	2.56794872529	-58.084512515	45.6889785271	-26.6790642396	-87.0870751411
198312500.0	-21.2898213245	25.8045665868	7.90117420708	1.35129330458	-58.0483117273	43.7292041185	-26.6115100574	-87.5047410543
199000000.0	-21.150910502	23.7715894334	7.90964747537	0.140147220264	-58.0594520166	45.5744971904	-26.5371092636	-87.779746852
199687500.0	-21.0226669703	21.7319284707	7.91353728113	-1.07038728218	-58.0891004641	44.2018912434	-26.4396305054	-88.0331022328
200375000.0	-20.9200681274	19.7930322461	7.92095492259	-2.27756260393	-57.7024920472	41.4116374013	-26.3438251948	-88.3195745147
201062500.0	-20.8312310601	17.8183685485	7.92629204471	-3.47904194301	-57.6701719827	31.7927755698	-26.2525072636	-88.570150685
201750000.0	-20.7463486652	15.8249541851	7.93547769242	-4.67775212021	-57.3701638203	28.5059645023	-26.1660244744	-88.7834609272
202437500.0	-20.6841370344	13.851763282	7.94191244612	-5.87149327112	-57.5256521679	29.5903300508	-26.0746235619	-89.0283919096
203125000.0	-20.6316770271	11.899888466	7.95515940522	-7.06032518717	-57.6183619126	22.0093058959	-25.9690762786	-89.1637877548
203812500.0	-20.5852612331	9.89618500674	7.96335613569	-8.25395497602	-57.4175839153	21.0601405008	-25.8607100964	-89.2296000975
204500000.0	-20.5513341458	7.92193115567	7.97553924065	-9.43944670395	-57.2396466569	20.0981784187	-25.7472830542	-89.2990657669
205187500.0	-20.5246030901	5.92372245352	7.98539721072	-10.6280205162	-57.1411810276	19.0392626217	-25.6302320587	-89.4275568214
205875000.0	-20.4988425123	3.93654651611	8.00115714047	-11.81277225	-57.0142465905	15.8762802989	-25.5108278866	-89.3699428016
