#Frequency	|S11|	<S11	|S21|	<S21	|S12|	<S12	|S22|	<S22
100000000.0	-18.6057147261	144.82589057	-29.2398995741	-120.559848859	-66.3088896554	-139.457763144	-20.6391522185	-39.7911279255
100687500.0	-18.5193512948	142.568370825	-28.9303889739	-121.396493318	-64.3399594591	-51.1938627616	-20.6642823363	-39.4668538577
101375000.0	-18.4603014629	140.075896701	-28.4958664824	-122.228962643	-64.1101886172	20.384842141	-20.6621297019	-38.8168580959
102062500.0	-18.4289873746	137.609208001	-28.1389725685	-123.510815802	-62.7681543162	55.6353695954	-20.7302903772	-38.1074114732
102750000.0	-18.4060827966	134.998707789	-27.7854857008	-124.891957342	-61.183073815	123.111644289	-20.7819826436	-37.4933971459
103437500.0	-18.3835207684	132.43320694	-27.4559134362	-126.145658432	-60.2178959563	145.10493955	-20.8542844549	-36.8191305855
104125000.0	-18.3791930607	129.638257821	-27.121618918	-127.596080543	-60.7482827169	133.034607513	-20.9214889364	-36.1662690374
104812500.0	-18.3795348978	126.876475655	-26.8217259679	-128.877556096	-62.330969047	143.913760425	-21.004093988	-35.6452958139
105500000.0	-18.3837283805	123.987289002	-26.5504037992	-130.203756863	-62.6113070655	170.635655417	-21.08400607	-35.2114428509
106187500.0	-18.3906061483	120.954866525	-26.2967332501	-131.542161222	-62.4773066343	160.69180054	-21.1788641424	-34.6976838486
106875000.0	-18.4011312904	117.74463705	-26.0797120776	-132.808054275	-62.387665637	157.065834353	-21.2684906416	-34.3760465636
107562500.0	-18.4238708339	114.467850977	-25.8752145026	-134.13835958	-62.8091566788	154.067243214	-21.3695939612	-33.8670055954
108250000.0	-18.438985439	110.956645145	-25.7060772956	-135.338103374	-62.8796240386	139.121660482	-21.4795976268	-33.5689718404
108937500.0	-18.4412065288	107.729648943	-25.4948040421	-136.533012313	-62.3708645962	139.649558694	-21.5589162008	-33.1415049953
109625000.0	-18.4421704331	104.405293472	-25.2977507211	-137.721048665	-62.1951330927	126.134291373	-21.6455946444	-32.7438654754
110312500.0	-18.440430485	100.969444866	-25.1336193489	-138.852409009	-61.7706571076	109.499034281	-21.7389050911	-32.3419323765
111000000.0	-18.4482166522	97.427152969	-24.9896686068	-139.861154457	-61.8112076607	92.8506361124	-21.836675974	-32.0051434838
111687500.0	-18.4522907709	93.8197107238	-24.8795343263	-140.871882164	-62.2136666196	68.5378599173	-21.9409058332	-31.7758370894
112375000.0	-18.4560707604	90.0792240363	-24.7863322056	-141.607379823	-62.0997942318	42.8554206444	-22.0418393979	-31.5377543793
113062500.0	-18.4507521092	86.234771298	-24.7348023576	-142.186094894	-62.4122273623	15.7095413771	-22.148068291	-31.3064227912
113750000.0	-18.4545930934	82.2605469862	-24.7002270013	-142.397974733	-62.420371868	-23.0772735058	-22.2586181257	-31.0938968614
114437500.0	-18.4484853987	78.2733460052	-24.6803549933	-142.297430183	-62.6242340261	-52.9987586294	-22.3781417864	-30.9662974119
115125000.0	-18.4456490405	74.0703324307	-24.6550294466	-141.818421149	-62.7169402858	-82.7953700515	-22.4984686082	-30.8297401549
115812500.0	-18.435940998	69.7925394391	-24.6197535568	-140.967665933	-63.0115913576	-108.104430978	-22.6129692776	-30.6893020072
116500000.0	-18.4246549014	65.374970442	-24.5580499779	-139.665225472	-62.4779047973	-133.772467032	-22.7253091543	-30.6177583964
117187500.0	-18.4088727125	60.9457404454	-24.4379243972	-138.056527608	-62.453367212	-149.275683871	-22.8461848973	-30.5613019449
117875000.0	-18.3986658793	56.3326840903	-24.2670316185	-136.310301109	-62.5725939612	-164.952954501	-22.9626274964	-30.4351982935
118562500.0	-18.3921361259	51.5975013184	-24.0436301412	-134.41352995	-61.7408713976	169.010945335	-23.0862682979	-30.2842790817
119250000.0	-18.3868661371	46.758710953	-23.7591028024	-132.490507935	-61.1830678345	133.07718448	-23.2015534125	-30.1646793981
119937500.0	-18.3911696278	41.7960085862	-23.4242844176	-130.49097685	-61.3362641984	104.943435635	-23.3105605984	-30.1287806798
120625000.0	-18.4022595621	36.7102811383	-23.0389428547	-128.54653849	-61.1864482649	76.9627900647	-23.4289313666	-30.1615587642
121312500.0	-18.4405603648	31.5376415655	-22.609543449	-126.674342605	-61.197026813	62.4591242295	-23.5350048632	-30.2409613087
122000000.0	-18.4829166129	26.2681924801	-22.1254890648	-124.959193877	-61.0564560585	37.3084247212	-23.6532418562	-30.2488716899
122687500.0	-18.5691456165	20.9081450223	-21.6043656284	-123.327479818	-61.3905712114	20.2394954147	-23.7658494682	-30.3229171084
123375000.0	-18.6625191154	15.4379207672	-21.0469843918	-121.837123839	-61.1211992885	-6.64612823338	-23.8753489356	-30.3974817801
124062500.0	-18.8187716676	9.76113611345	-20.452256703	-120.485140218	-61.2032788951	-31.4730537431	-23.9741578206	-30.5130920883
124750000.0	-19.0165516485	4.1847772658	-19.8232689614	-119.334670084	-61.2682479914	-44.8964559969	-24.0750534163	-30.5547592051
125437500.0	-19.260349022	-1.570880176	-19.1611767034	-118.431834756	-61.046927178	-57.9816692586	-24.1736721413	-30.5459727806
126125000.0	-19.5750160139	-7.16048085555	-18.4621736825	-117.693870142	-61.3623540859	-59.8946653139	-24.2904368972	-30.6650894158
126812500.0	-19.9918517988	-12.8455175228	-17.7365145086	-117.18722539	-61.3604041426	-56.8123283191	-24.3901860761	-30.7516727306
127500000.0	-20.5111576176	-17.9794928622	-16.976286702	-116.887130761	-61.6544084816	-41.205750721	-24.4817292536	-30.8507125418
128187500.0	-21.1379697597	-22.8219978694	-16.1989172963	-116.902822018	-61.6654335339	-27.3639730685	-24.5797426712	-30.9032832364
128875000.0	-21.825139125	-26.5662477168	-15.3844634132	-117.161572986	-60.9868153471	-10.9068134075	-24.6467139192	-30.8983047343
129562500.0	-22.5092106893	-29.1790437336	-14.5460183167	-117.806347524	-60.9008812754	5.12032957244	-24.7210750773	-30.9577721579
130250000.0	-23.1061921863	-31.0291598274	-13.6758239012	-118.757599574	-61.138970025	18.3805470751	-24.8019867313	-31.0804891922
130937500.0	-23.6285805168	-32.7043238948	-12.7931663035	-120.246984812	-61.6856266363	33.3574018556	-24.8779912412	-31.1774399498
131625000.0	-24.0857404149	-33.8910545236	-11.8946990214	-122.167917899	-61.8369692408	47.9025933731	-24.925725635	-31.3470714393
132312500.0	-24.4912498488	-35.132087652	-11.0105667794	-124.643731813	-61.9530183354	63.2860567424	-24.9768126373	-31.4430443598
133000000.0	-24.8682711506	-36.2745890304	-10.1367890268	-127.626580245	-61.6974043198	72.9163578419	-25.0309423745	-31.6390070848
133687500.0	-25.2139617385	-37.3891715647	-9.31574758826	-131.173233431	-61.8466615882	86.7427645501	-25.085193318	-31.7713947297
134375000.0	-25.5303038057	-38.5605831516	-8.53900741739	-135.105234201	-62.0773618188	92.0288081522	-25.1244481761	-32.0155126578
135062500.0	-25.8101092193	-39.8396131464	-7.82890621329	-139.390768014	-62.1235921324	94.1382881333	-25.1596420374	-32.2930056123
135750000.0	-26.0753046813	-40.9928383147	-7.17313372208	-143.863754272	-62.3961385615	97.3923556599	-25.1776422935	-32.7059766597
136437500.0	-26.3073521157	-42.2710104155	-6.58857505238	-148.552020296	-62.5524445705	111.251522011	-25.1967720333	-33.0659328547
137125000.0	-26.5286711193	-43.5432580958	-6.05388493866	-153.31597068	-62.4729105733	127.493352298	-25.2167525583	-33.4046302936
137812500.0	-26.6913614271	-44.7386305351	-5.5816440196	-158.182632032	-62.4759351622	155.531570049	-25.221609343	-33.7199047388
138500000.0	-26.8460001025	-45.9858570301	-5.15600036821	-163.043171327	-62.725177656	172.031633465	-25.2187039097	-34.0944998841
139187500.0	-26.959293437	-47.1973598753	-4.7861441929	-167.91191775	-62.6729071989	-174.803781974	-25.2072184667	-34.387301886
139875000.0	-27.030076871	-48.403800444	-4.45850107802	-172.717183546	-62.7334051345	-172.501213784	-25.1988066291	-34.7268821895
140562500.0	-27.0603853642	-49.5207863213	-4.17902743022	-177.481938336	-62.5135126944	-158.349513974	-25.1865408286	-35.1017094863
141250000.0	-27.0326268223	-50.5832728184	-3.93361288101	177.836581603	-62.3346067655	-146.610546139	-25.1730968764	-35.5132585591
141937500.0	-26.9507418124	-51.66380263	-3.72765476445	173.230795354	-62.4145738823	-135.373109455	-25.1405872499	-35.9631565092
142625000.0	-26.8083150507	-52.6233738241	-3.54889736141	168.756854568	-62.6945794679	-132.004007076	-25.103385425	-36.3243663068
143312500.0	-26.5845446923	-53.7623935492	-3.40654277427	164.379296277	-62.4646295458	-131.624570549	-25.0557117985	-36.6848042813
144000000.0	-26.2610058812	-54.8120220167	-3.28409267239	160.130814343	-62.4325817545	-131.731695992	-25.0105454592	-37.0776606178
144687500.0	-25.8285042497	-56.3974069744	-3.18645106955	156.001935279	-62.1571147177	-143.868412302	-24.9622531803	-37.4807985934
145375000.0	-25.2765042999	-58.2232474093	-3.10732144452	151.997980297	-62.4785400255	-156.046591321	-24.8999545987	-37.9019476724
146062500.0	-24.6680007905	-61.0775089896	-3.0473936674	148.109898033	-62.4302136093	-171.412410837	-24.8517824284	-38.2536188732
146750000.0	-24.046397312	-65.0052106201	-3.00001582599	144.323883501	-62.6429882293	-173.809619851	-24.7974938967	-38.5168552694
147437500.0	-23.526977218	-69.6506426636	-2.96995017282	140.672867357	-62.3303156874	175.083465205	-24.7149623834	-38.789562508
148125000.0	-23.065596249	-74.3809931427	-2.94791363843	137.134081538	-62.2071865937	160.665873004	-24.6311215742	-39.0125637198
148812500.0	-22.6873291404	-79.5845127973	-2.93719484113	133.697140495	-62.4884409547	147.919832718	-24.5555177314	-39.1687053878
149500000.0	-22.3425958901	-84.5248920172	-2.9327778134	130.35917861	-62.4973218797	132.62867482	-24.4822965166	-39.333599244
150187500.0	-22.0437552585	-89.5430138805	-2.93959331114	127.125303541	-62.6530291265	110.443744969	-24.3879540963	-39.4475905313
150875000.0	-21.763581005	-94.3840151799	-2.94843231322	123.98524996	-62.491364207	94.9466728068	-24.2950230648	-39.4558254257
151562500.0	-21.5245482769	-99.1909024217	-2.96590809611	120.92259346	-62.3116212095	77.481717732	-24.2049830888	-39.4308516006
152250000.0	-21.3036037937	-103.674804118	-2.98524213808	117.950130462	-61.7650502386	64.7420809877	-24.1195028449	-39.3256746156
152937500.0	-21.1049715189	-108.183822805	-3.01328782631	115.056536273	-61.6461190424	49.7400284834	-24.0330132341	-39.1070230071
153625000.0	-20.9352181554	-112.375235724	-3.04034935979	112.253747993	-61.8794244399	35.1255495158	-23.9566527609	-38.8543511479
154312500.0	-20.7649150448	-116.457196736	-3.07388571786	109.507489044	-62.3039918358	9.38647158324	-23.8726298697	-38.6274098826
155000000.0	-20.6453785832	-120.430026714	-3.10876970994	106.833767598	-62.1299512144	-17.8923280157	-23.7856652956	-38.1808310431
155687500.0	-20.5113061657	-124.246747173	-3.14720561578	104.227942921	-62.2091485809	-44.8844730226	-23.7147245744	-37.7529773014
156375000.0	-20.4209677118	-127.893927537	-3.1859172006	101.694463365	-62.1686445199	-59.6992913658	-23.6377307951	-37.3054706195
157062500.0	-20.3241576031	-131.409969998	-3.22853024275	99.2148637731	-61.9766611142	-61.6670342009	-23.5589737322	-36.7868310129
157750000.0	-20.2662345989	-134.852029403	-3.26816471126	96.8066726735	-61.8396253037	-71.1014048434	-23.4757131789	-36.2686863799
158437500.0	-20.2017035986	-138.085113792	-3.31363689902	94.437781613	-61.9698202964	-70.3841633983	-23.3991072582	-35.6164594136
159125000.0	-20.166895526	-141.25543174	-3.35652035793	92.1541943807	-61.7861872191	-70.0973197547	-23.3427982262	-34.8912009667
159812500.0	-20.1365796946	-144.260244407	-3.4027693947	89.8863726936	-61.2455167476	-63.1514011413	-23.2791146482	-34.2301896034
160500000.0	-20.1347815467	-147.187016764	-3.44305888827	87.6833106874	-61.2887967053	-53.8000880064	-23.2183393735	-33.4686129926
161187500.0	-20.1313252953	-149.980920809	-3.48973537338	85.5024035241	-61.2677147499	-40.6444540951	-23.1663671415	-32.6659213082
161875000.0	-20.1519398065	-152.681079888	-3.53174754026	83.3798852829	-61.3460241856	-21.6422381092	-23.1233182179	-31.7909888027
162562500.0	-20.1893766104	-155.264846262	-3.5786404913	81.2822577198	-61.3089897067	-7.31378101511	-23.0874782681	-30.9385203794
163250000.0	-20.2324272303	-157.892932465	-3.62212627406	79.2396601423	-61.1692613121	11.4655216303	-23.0579085303	-30.0854802358
163937500.0	-20.304017424	-160.397968922	-3.6701140438	77.2295569576	-60.8315772932	26.6583840923	-23.0300031762	-29.3316269213
164625000.0	-20.3745933249	-162.862857643	-3.71099710481	75.2647488618	-60.5991479032	44.8428448661	-23.0197229281	-28.4335296018
165312500.0	-20.4730994548	-165.211779929	-3.75684160541	73.3249497524	-60.1620740072	69.6288917122	-23.0175028417	-27.5627770779
166000000.0	-20.569604892	-167.495935194	-3.79804002357	71.4230576843	-59.6836455996	86.3915411995	-23.0215901091	-26.7234611991
166687500.0	-20.7113667055	-169.769277704	-3.84441926355	69.5521111372	-59.3129281414	114.535811322	-23.030770241	-25.8155573316
167375000.0	-20.842703868	-171.955022678	-3.88673980084	67.7218568996	-59.1946771421	143.908179574	-23.0642164432	-24.9813267493
168062500.0	-21.0095965622	-174.228000291	-3.93091485271	65.9306057024	-59.2609646682	174.743609763	-23.0964868474	-24.2048218924
168750000.0	-21.1779138638	-176.423824086	-3.97012939054	64.1781145933	-59.3357003824	-155.132314249	-23.1436326893	-23.3704045784
169437500.0	-21.3829915876	-178.709948554	-4.01251266921	62.4564424874	-59.5750336907	-138.02099051	-23.1909269943	-22.5590977468
170125000.0	-21.589646392	179.048442447	-4.05037172183	60.7438842394	-59.6892022301	-108.909210506	-23.2497146343	-21.8488672023
170812500.0	-21.8247127214	176.670182795	-4.09096913101	59.0563929502	-59.1943306108	-92.1790644259	-23.3136303274	-21.032043898
171500000.0	-22.0707202182	174.399060428	-4.12909847108	57.4077674407	-58.7097363781	-76.2350486951	-23.3945983984	-20.3177336107
172187500.0	-22.3544240313	171.904071181	-4.16467368293	55.7918270136	-59.084522266	-70.5209891093	-23.4773697143	-19.6692201977
172875000.0	-22.6556667491	169.44537935	-4.19922196545	54.1885230625	-58.7935566569	-54.1668017108	-23.5644820093	-19.0405074876
173562500.0	-22.9511995992	166.570099945	-4.23437006566	52.6064593943	-58.6336409215	-37.523257348	-23.6704429218	-18.393084451
174250000.0	-23.2673266232	163.782035191	-4.26488227897	51.0436283176	-58.6760855217	-34.3679240706	-23.7758432697	-17.8117146121
174937500.0	-23.5825306116	160.535745256	-4.29608068199	49.4937336496	-59.008019854	-33.8036525928	-23.8963294804	-17.3222914862
175625000.0	-23.9078733529	157.160787219	-4.32364728212	47.9718626459	-59.2653904613	-32.3987947615	-24.0216853351	-16.8872408748
176312500.0	-24.2127515568	153.561794711	-4.35339795431	46.4654000021	-59.2058406885	-41.5756549097	-24.1553212489	-16.5597238218
177000000.0	-24.5262184181	149.767776527	-4.37891414345	44.9835081471	-59.1610921312	-56.4429032433	-24.304207094	-16.2946134527
177687500.0	-24.793902219	145.751760672	-4.40744101646	43.5137267514	-59.2129233961	-74.9454372021	-24.4599532457	-16.0301662643
178375000.0	-25.0766702052	141.53326336	-4.42910353719	42.0681887563	-59.0144318107	-100.482231382	-24.6181867158	-15.7800026735
179062500.0	-25.3062251017	137.307765958	-4.4546667182	40.6249304751	-59.1340738487	-119.276944027	-24.7771360144	-15.6981909565
179750000.0	-25.5346900844	132.719160798	-4.47392868561	39.2065987757	-58.6907893366	-143.707137557	-24.9342933779	-15.5463384388
180437500.0	-25.6981230017	128.150538615	-4.49392592269	37.7737935693	-58.7618410046	-170.50820287	-25.1037471827	-15.5199865557
181125000.0	-25.8498258774	123.294622743	-4.51060659865	36.3749110789	-58.7502113555	164.061019949	-25.2753323739	-15.3831371483
181812500.0	-25.9689449243	118.64241802	-4.53163587402	34.9743508016	-58.900751899	147.960843884	-25.4573969065	-15.499573466
182500000.0	-26.0658192318	113.730591801	-4.54474889857	33.6039995702	-58.8656590006	124.584047965	-25.6425766568	-15.555521882
183187500.0	-26.1164543478	108.897624062	-4.56258612974	32.2314328163	-58.9965850536	96.2939621263	-25.8171606492	-15.5642401124
183875000.0	-26.1337152876	103.990030264	-4.57251969124	30.87393164	-59.5919191819	56.2476996356	-25.9802936965	-15.7476636525
184562500.0	-26.1417463087	99.1147105339	-4.58734800805	29.5066688718	-59.9086559357	27.8694194587	-26.1473366431	-16.0619749433
185250000.0	-26.0985669529	94.2491399133	-4.59659458432	28.1570949217	-59.9102385218	-0.701139232696	-26.307380968	-16.2229576525
185937500.0	-26.0427761329	89.4178851871	-4.61231584903	26.8011804569	-60.2869683115	-18.3585333353	-26.4662467601	-16.5532923687
186625000.0	-25.9502620245	84.7058015951	-4.61921761447	25.4587990616	-60.2398746351	-31.7580794853	-26.6316830648	-16.8652888753
187312500.0	-25.8380826364	79.9144418164	-4.63061104569	24.1208644031	-59.9965291531	-55.9522118639	-26.7753834358	-17.1577136495
188000000.0	-25.6822462952	75.3218469152	-4.63658279499	22.7985868341	-60.1573130838	-80.836812512	-26.9133384454	-17.6141881492
188687500.0	-25.5235723732	70.6856451684	-4.6470061271	21.472789041	-60.2309170055	-94.629832242	-27.0471091707	-18.1013470089
189375000.0	-25.3082687111	66.2874996933	-4.65348949695	20.1671093654	-60.6387456711	-99.7485414351	-27.1939243852	-18.6757277652
190062500.0	-25.0798098399	61.8441602375	-4.66083041431	18.8598913556	-60.4100250168	-114.294797023	-27.3222586918	-19.1305493185
190750000.0	-24.8285324901	57.8350823429	-4.66235724776	17.5616827292	-60.6694867116	-127.902922443	-27.4486355814	-19.7276711045
191437500.0	-24.5771709711	53.7693916858	-4.668953057	16.2732437663	-60.2341497762	-140.246814404	-27.572549124	-20.3842734529
192125000.0	-24.2936827498	50.2583049802	-4.67207950382	14.9984159091	-60.0568652018	-155.663490988	-27.6763605101	-20.9120850638
192812500.0	-24.0124572607	46.7664366405	-4.67724678723	13.7270591641	-59.679862946	-170.850420529	-27.7886071925	-21.5886977087
193500000.0	-23.7312912388	43.6072142161	-4.67797010757	12.4503512972	-59.9037420172	173.929444503	-27.8777046169	-22.2236561526
194187500.0	-23.4475254211	40.5373597641	-4.68118038876	11.1850712172	-60.3207600718	155.406159298	-27.9512069761	-22.805324223
194875000.0	-23.1894056608	37.801162899	-4.68180072834	9.9185033434	-60.0952278453	129.733432232	-28.0237446598	-23.4953735153
195562500.0	-22.9230897121	35.1906252656	-4.68636274878	8.66396742442	-60.2217274072	112.950147599	-28.080075972	-24.266001304
196250000.0	-22.6890052177	32.6801775104	-4.68654022388	7.42666677225	-60.2394498479	85.5819748773	-28.1271885686	-25.0640550795
196937500.0	-22.4562097746	30.3559465969	-4.68822011982	6.18263101627	-60.7359463595	71.7958505651	-28.1595495399	-25.7228150436
197625000.0	-22.2777795792	28.1502628379	-4.68642247933	4.96699193489	-60.6312718068	68.774863214	-28.1723023018	-26.4975380852
198312500.0	-22.0977659135	26.1327012768	-4.68512900627	3.75103620211	-60.6762324762	54.3610714151	-28.1745189802	-27.3379494766
199000000.0	-21.9552246273	23.9861319701	-4.67882896145	2.52167398337	-60.5829685365	27.8968622242	-28.1515912192	-28.2014958212
199687500.0	-21.8008916444	22.0046752415	-4.67841485394	1.29721282411	-60.6410200853	2.271822486	-28.1188027277	-29.0580557332
200375000.0	-21.700107374	19.98724122	-4.67449146395	0.0822518381121	-60.8454004034	-10.1644623169	-28.0922120142	-30.1034337768
201062500.0	-21.5955901645	17.9849972678	-4.67276959998	-1.12473438716	-60.5539759936	-23.5591454771	-28.0744138298	-30.9430222867
201750000.0	-21.5077576511	15.8774983517	-4.66578694345	-2.32447431411	-60.3377647586	-40.3980664673	-28.0230321172	-31.7226909287
202437500.0	-21.4367641723	13.9170792989	-4.66187654619	-3.52770382506	-60.4813391036	-62.8355205191	-27.9641769493	-32.6510361715
203125000.0	-21.3796083066	11.905084432	-4.65168935184	-4.71906830438	-60.0435506661	-87.10711377	-27.8929819893	-33.5308783021
203812500.0	-21.3158814471	9.84659894102	-4.64741871984	-5.90909896773	-60.4882094262	-115.106298199	-27.801170225	-34.4493943757
204500000.0	-21.285781881	7.79932092454	-4.63759834243	-7.09696694597	-60.4233152098	-133.332552537	-27.7156015666	-35.2985067944
