#Frequency	|S11|	<S11	|S21|	<S21	|S12|	<S12	|S22|	<S22
100000000.0	-15.7080904192	140.835455063	-40.4799573943	-127.321568282	-63.9208280787	-158.449575522	-21.3290223801	-36.9511925249
100687500.0	-15.6506047399	137.559149691	-40.9660267621	-122.78644642	-65.6922243447	100.923220373	-21.4463917364	-36.5046547817
101375000.0	-15.6542295259	134.436014134	-40.7215844979	-124.144560094	-65.5473551002	105.148631154	-21.4345443864	-36.1871517856
102062500.0	-15.6553923143	131.287671565	-40.231153986	-127.239210059	-65.1761266418	123.760897091	-21.4845259476	-35.9165384096
102750000.0	-15.6602876526	128.146935505	-39.8767208603	-127.883155549	-64.8066642745	131.935182318	-21.49076116	-35.5651738116
103437500.0	-15.6635259739	124.961221553	-39.561400528	-129.617313387	-63.9583375289	80.5102187897	-21.5084837217	-35.3339752306
104125000.0	-15.6892198097	121.634134399	-39.2644422209	-130.794287488	-63.2234350919	69.8078543456	-21.5296115294	-34.9786280034
104812500.0	-15.7200615131	118.271166648	-39.017999255	-132.377129462	-62.9499790364	93.6057842006	-21.5498725261	-34.9147611559
105500000.0	-15.7569728136	114.757935962	-38.741311702	-133.948934068	-62.28510401	139.398207453	-21.5684327165	-34.8064754159
106187500.0	-15.8035488411	111.130439976	-38.5425121283	-135.387115682	-62.1116133463	-152.61433386	-21.603463255	-34.7481052164
106875000.0	-15.8631137708	107.361251403	-38.3840093459	-137.123192888	-62.2110547164	-81.0463951488	-21.6263824693	-34.7535855793
107562500.0	-15.9410492157	103.424766604	-38.2541280145	-138.335316072	-62.0737631367	-34.2628108088	-21.6503827651	-34.7340698041
108250000.0	-16.0208417425	99.3209368857	-38.1834147639	-139.590439042	-61.8049505297	18.3635522469	-21.6738645839	-34.7441369427
108937500.0	-16.0829934291	95.4226221064	-38.0996788637	-140.555708207	-61.8969721419	41.0778663122	-21.6983595293	-34.6547969152
109625000.0	-16.1541438639	91.4555996843	-37.9644839278	-141.809910328	-62.22860787	65.0478457762	-21.720359681	-34.6596433794
110312500.0	-16.2240869996	87.334423117	-37.9225052892	-142.958783114	-61.7169893546	89.6171821289	-21.7458676057	-34.5997225491
111000000.0	-16.3062016311	83.1104751114	-37.809942482	-143.562018188	-61.4358199283	107.662979426	-21.7720260732	-34.5825451491
111687500.0	-16.389258984	78.7009721705	-37.7987710372	-143.940473647	-61.369084545	129.781249124	-21.8037681243	-34.6308084448
112375000.0	-16.4832059706	74.1894633924	-37.7866177684	-143.903998416	-61.083629837	146.593064569	-21.8230533806	-34.6143123337
113062500.0	-16.5784922216	69.5120488127	-37.8016128799	-143.298842547	-61.0326866747	159.49127952	-21.8471441596	-34.6356594279
113750000.0	-16.6897462611	64.6918459362	-37.7753278616	-142.42525109	-61.8732389105	174.228800768	-21.8758069587	-34.6784958634
114437500.0	-16.8024009951	59.7279618658	-37.7007405763	-141.173255021	-61.4803156781	-168.992940383	-21.9035493729	-34.7464563684
115125000.0	-16.9307660335	54.5798917315	-37.5597384605	-139.537941686	-61.2000763522	-140.066711874	-21.9259333487	-34.7463628783
115812500.0	-17.0517948184	49.2433572966	-37.3716380523	-137.849176093	-61.7197990147	-98.7466864843	-21.9479514695	-34.8075733445
116500000.0	-17.1912330478	43.7265981655	-37.1410365527	-136.302994284	-61.7765777593	-69.1467544555	-21.9663639392	-34.9155168638
117187500.0	-17.3331277152	38.1081433336	-36.8241053811	-134.421986019	-61.8942837797	-42.306720712	-21.987705011	-35.0172364664
117875000.0	-17.5043620203	32.2289462929	-36.4837004557	-132.670741729	-61.8462426706	-25.3922280765	-22.0233657272	-34.9862426873
118562500.0	-17.6848942556	26.2127734508	-36.0652782893	-130.860827346	-62.0832002226	-12.2659517636	-22.0376390045	-34.9652435741
119250000.0	-17.8889166304	19.9370596802	-35.6375392902	-129.209669569	-62.4285681066	-1.16781276039	-22.0592639696	-34.9553253738
119937500.0	-18.1228230644	13.5616890147	-35.1480935242	-127.598319233	-62.5102822021	2.68531031203	-22.0812351138	-34.8641441218
120625000.0	-18.3818413095	6.90220842011	-34.5970338547	-126.05053317	-62.9653607171	3.29159417315	-22.1042593098	-34.8316539643
121312500.0	-18.687607725	0.0847497445462	-34.0347460659	-124.93492048	-63.0275199663	-9.31282482761	-22.1150437368	-34.7605171217
122000000.0	-19.0256880341	-6.93390167734	-33.4519549498	-123.737316136	-63.0718838464	-33.6965142015	-22.1403582948	-34.7047695299
122687500.0	-19.4465525376	-14.1232843555	-32.7695282023	-122.711435824	-62.7045056242	-59.4025297098	-22.1574296445	-34.6108107661
123375000.0	-19.9170062712	-21.4181754517	-32.0928687005	-121.958016945	-62.5783184036	-73.1065074367	-22.1778695345	-34.4533083494
124062500.0	-20.5143553418	-29.0624985916	-31.3817976015	-121.643162914	-62.6276568695	-84.9873803188	-22.1939668328	-34.2804563891
124750000.0	-21.2551965468	-36.8181962984	-30.6499847641	-121.236314606	-62.6692889523	-98.8949375306	-22.2137552076	-34.0926715613
125437500.0	-22.2412373749	-44.3252496601	-29.8651594212	-121.302765005	-62.8268598248	-110.412214164	-22.229724055	-33.8072847301
126125000.0	-23.5674441528	-47.099926231	-29.0397412161	-121.627765288	-62.5282753796	-120.382200377	-22.2563301	-33.5516734978
126812500.0	-24.4177517131	-48.4225176241	-28.2001810811	-122.280156104	-62.197404393	-124.454528849	-22.2732351175	-33.1826379958
127500000.0	-25.0462584135	-49.8832196869	-27.2981546525	-123.009971769	-62.5471488407	-133.287986191	-22.2925870051	-32.9320991533
128187500.0	-25.5914268565	-51.4933338327	-26.4248932479	-124.565964036	-62.4679388322	-135.535657437	-22.3151800874	-32.5178825087
128875000.0	-26.0310564223	-53.0978735453	-25.534472412	-126.326791444	-62.3534845214	-140.666603056	-22.3231469883	-32.110891015
129562500.0	-26.4223656418	-54.758172452	-24.6362842058	-128.674042008	-62.3973410821	-152.591254088	-22.3406808407	-31.7284754782
130250000.0	-26.7521336818	-56.5465881054	-23.7296930556	-131.427565132	-62.2931664763	-152.639371511	-22.3733965812	-31.3532461413
130937500.0	-27.0357879756	-58.4001854698	-22.8745013587	-135.266055937	-61.4229561439	-153.068638887	-22.3929901948	-30.9292236202
131625000.0	-27.2857491165	-60.2348361378	-22.0521360636	-139.200636248	-61.190335712	-150.950667421	-22.4149466388	-30.5193611875
132312500.0	-27.5020206932	-62.0582778232	-21.321951642	-143.705273071	-61.8677235715	-155.323469079	-22.4375881463	-30.0596091242
133000000.0	-27.6956299154	-63.8176808511	-20.6373440132	-148.350847549	-61.1979969947	-168.409287487	-22.4699833184	-29.6083716661
133687500.0	-27.8494745767	-65.6105527955	-20.0340286249	-153.311284095	-61.1334619551	178.616165956	-22.4994214799	-29.1546545627
134375000.0	-27.9817325512	-67.3062979401	-19.4921597528	-158.270471007	-61.2646424484	156.131041502	-22.5273259955	-28.7171030941
135062500.0	-28.0689375274	-69.0225335246	-19.0126134104	-163.349501825	-61.5201840106	138.91484846	-22.5436186634	-28.309917062
135750000.0	-28.1352034291	-70.5888657571	-18.5804478029	-168.482560874	-60.9347876108	121.525123769	-22.5659470134	-27.9564106256
136437500.0	-28.1588300518	-72.0708802835	-18.2228682507	-173.621008789	-60.5603000921	102.778963155	-22.5897965334	-27.5828643121
137125000.0	-28.1519539697	-73.4754995153	-17.899608951	-178.723563085	-60.5705876794	85.6175953026	-22.6141523948	-27.2644771419
137812500.0	-28.0997768014	-74.621513196	-17.6404998081	176.231873834	-60.1605777493	60.5453377861	-22.6348218753	-26.8924479348
138500000.0	-28.0017202579	-75.6260902447	-17.4130711782	171.255009744	-61.1573819455	48.5344375144	-22.6583640929	-26.6115432742
139187500.0	-27.8492855011	-76.512979717	-17.2353134029	166.431914697	-61.0678352926	49.5143053796	-22.6857412836	-26.2481775309
139875000.0	-27.6157242743	-77.2556327087	-17.0866001447	161.680349874	-60.8905411208	63.6846831564	-22.7079846941	-25.920076741
140562500.0	-27.3098474594	-77.8640492376	-16.9759158922	157.118992743	-60.6611846771	78.5364035003	-22.7445067004	-25.7363186037
141250000.0	-26.8765031493	-78.1627789688	-16.8925219719	152.61039956	-60.5675886768	81.6133906129	-22.7645173591	-25.5247645234
141937500.0	-26.2990278281	-78.2470066058	-16.838219701	148.323263221	-60.1996910795	85.1887800087	-22.7903850153	-25.3980141437
142625000.0	-25.4738504501	-78.5846379243	-16.8034549845	144.096516045	-60.1610843992	85.8914107682	-22.8062774915	-25.2552129636
143312500.0	-24.2882432891	-83.5476721173	-16.790825603	140.116910687	-60.0405743463	97.6507998686	-22.8301590082	-25.090113149
144000000.0	-23.5806998643	-89.9990406032	-16.8019622279	136.201835645	-59.9254433211	101.816321832	-22.8455721662	-25.0186478885
144687500.0	-23.0947279791	-96.1797675921	-16.8185105323	132.467901646	-59.3556416905	105.651438527	-22.8683524632	-24.866539856
145375000.0	-22.6731966036	-102.158085718	-16.855861007	128.87891859	-59.4458401194	106.526890219	-22.8758628004	-24.8762951125
146062500.0	-22.357831528	-107.96510564	-16.893947957	125.434534592	-59.4617267795	108.65554623	-22.9039782093	-24.8021493268
146750000.0	-22.0786513921	-113.692524462	-16.9432352996	122.12563571	-59.8517950871	110.857187409	-22.9268008711	-24.7165375624
147437500.0	-21.865603818	-119.12035364	-16.9955207046	118.944440036	-59.9198451267	113.644763668	-22.9249091806	-24.6760468425
148125000.0	-21.6851612634	-124.402640737	-17.0527220674	115.889913667	-59.9439093728	105.996086119	-22.9277612195	-24.6832598527
148812500.0	-21.5394247852	-129.634064247	-17.1119075987	112.919752175	-60.0958465507	105.495665929	-22.9258887664	-24.6717742991
149500000.0	-21.4173574577	-134.650542342	-17.1730057218	110.080200385	-59.6795678756	107.66902084	-22.9374040043	-24.659214427
150187500.0	-21.3221633218	-139.613826046	-17.2398803706	107.319046289	-60.0687357221	113.247792947	-22.9335918396	-24.6066918743
150875000.0	-21.2483462934	-144.323850742	-17.3007287533	104.67927734	-60.0306647881	130.96363009	-22.9249128102	-24.5698451134
151562500.0	-21.1897813318	-149.128356689	-17.3607502701	102.078332989	-59.8564298437	146.942618915	-22.9124621447	-24.4746130188
152250000.0	-21.1504939004	-153.597183863	-17.4266532986	99.5754156484	-59.7898702022	167.693075074	-22.9119172475	-24.3979974039
152937500.0	-21.11698953	-158.081963398	-17.4937957788	97.1494867192	-59.9057689421	-160.449545671	-22.8981645859	-24.2799979893
153625000.0	-21.1057430954	-162.351687316	-17.5527319848	94.8019003509	-60.2171071443	-134.351397302	-22.902327561	-24.1861577931
154312500.0	-21.087435173	-166.619869875	-17.6145417474	92.5130175729	-59.9803781031	-103.578667204	-22.8777767197	-24.0367915536
155000000.0	-21.0958710827	-170.822258827	-17.668821101	90.2856805859	-59.9448293207	-59.8585855769	-22.8624755812	-23.8343001741
155687500.0	-21.0927120235	-175.003675446	-17.7250607135	88.0931947826	-58.4889699485	-29.8258527315	-22.8479907861	-23.6284540436
156375000.0	-21.1166708856	-179.075159636	-17.781076258	85.9980535684	-58.4392021852	-12.9109279943	-22.8335043788	-23.4662885683
157062500.0	-21.1247044116	176.940303957	-17.8409954084	83.9026592968	-59.1594224039	4.15847497415	-22.8129581694	-23.1992868413
157750000.0	-21.154281875	172.982315171	-17.8922356253	81.8447628087	-59.2968988593	16.9341781286	-22.7901123062	-22.9086574474
158437500.0	-21.1702565737	169.185230914	-17.9470201252	79.8790074363	-59.342467297	32.6429762206	-22.768128034	-22.6276086766
159125000.0	-21.1949695072	165.346995977	-17.9920887077	77.9180219652	-59.5487008026	42.0261878303	-22.7496073017	-22.2829259515
159812500.0	-21.2093762723	161.635736237	-18.0432926228	76.0243173089	-59.5385898662	58.4254603985	-22.7310175632	-21.9760726138
160500000.0	-21.2431022722	157.899781562	-18.087657913	74.1324834989	-59.5585964506	73.4742860609	-22.7117083273	-21.7187982299
161187500.0	-21.2607552347	154.30626906	-18.1296811342	72.3241901832	-59.8870967954	97.9510403078	-22.688582027	-21.3053768041
161875000.0	-21.2941671459	150.721928191	-18.1676232298	70.5266839143	-59.8975745322	126.625007467	-22.6776840445	-20.9384429414
162562500.0	-21.3317931318	147.2067656	-18.2076618111	68.7427177439	-59.7398392513	146.567299445	-22.6583243826	-20.5288021863
163250000.0	-21.3575597933	143.723777759	-18.245596105	66.985595555	-59.810252764	175.872474256	-22.6508556288	-20.0844387195
163937500.0	-21.3968243665	140.351514098	-18.287999821	65.294876834	-59.5830085234	-154.254457984	-22.6313143345	-19.7291406003
164625000.0	-21.4204239565	136.953225357	-18.3207530017	63.5830447395	-59.3616314953	-137.937736549	-22.627177564	-19.366294314
165312500.0	-21.4590427538	133.670831262	-18.3606996117	61.9596057189	-59.518315023	-111.759950347	-22.624229672	-18.9436382661
166000000.0	-21.4882778198	130.448046264	-18.3913312401	60.331697843	-59.6142623982	-83.9571680142	-22.6273498423	-18.5380945032
166687500.0	-21.5298427967	127.187240058	-18.4269591766	58.7453857437	-59.6802407357	-61.286593095	-22.6285220335	-18.1480841513
167375000.0	-21.5641922908	124.056064144	-18.4605387008	57.1852434803	-59.3219718874	-35.884150125	-22.6434991458	-17.8402421696
168062500.0	-21.6016416126	120.904379784	-18.4957270398	55.6545911809	-59.6108990676	-10.2440625495	-22.6629087218	-17.5308934325
168750000.0	-21.636196946	117.852756521	-18.528553457	54.1438345825	-59.513237749	16.5057455975	-22.6871528444	-17.2998027948
169437500.0	-21.6671073966	114.731749984	-18.556624983	52.6652197859	-59.5420143507	31.2910867912	-22.7094625073	-17.0074905527
170125000.0	-21.7060384378	111.686565536	-18.5806601567	51.1308536189	-59.8323242554	35.9944962587	-22.7374618477	-16.7385677372
170812500.0	-21.7477276902	108.583432561	-18.6022932624	49.6755280545	-60.2864808911	50.1591742397	-22.7641248928	-16.4611369035
171500000.0	-21.7968609174	105.580402339	-18.6283950409	48.2323302748	-60.4172258054	62.6923720372	-22.806546784	-16.2545308805
172187500.0	-21.8357887319	102.479159789	-18.652975503	46.8228668994	-60.3121746619	61.0179854695	-22.8512656698	-16.1623362044
172875000.0	-21.8787100735	99.4726006817	-18.6745683618	45.4149318381	-60.791360872	60.3080333769	-22.8882714317	-15.9766218274
173562500.0	-21.9019230983	96.4231395946	-18.6891879757	43.9934827021	-61.1253955855	62.6898628585	-22.9370087916	-15.8477758297
174250000.0	-21.9456024272	93.4433432958	-18.7018024033	42.6466432186	-60.5160613161	52.8454642887	-22.9830132925	-15.775760503
174937500.0	-21.9706226887	90.3669391601	-18.7108883651	41.2818612691	-60.3122384418	42.7965250629	-23.0387714572	-15.7074165298
175625000.0	-22.0066314329	87.2679798622	-18.7232136185	39.936043139	-60.4313050268	28.6184261429	-23.0829499736	-15.6640056606
176312500.0	-22.0307028948	84.1196742624	-18.7315799798	38.6085914539	-60.7119974583	20.8679666421	-23.1385231484	-15.6443785063
177000000.0	-22.0629099185	80.9973714039	-18.7349683865	37.2887859131	-60.5965597427	17.9705874651	-23.2020571543	-15.6900073842
177687500.0	-22.0662283468	77.8437612633	-18.7382349754	35.9899619656	-60.7106564599	5.0304150489	-23.2700460732	-15.6513749524
178375000.0	-22.0930412034	74.6575704045	-18.7412855905	34.67350078	-60.6228954624	-17.0297600578	-23.3358379856	-15.7630563055
179062500.0	-22.0949347122	71.549953635	-18.7464759825	33.3375846121	-61.4471043392	-44.0269421446	-23.3907470294	-15.9187520677
179750000.0	-22.09640826	68.3098645422	-18.7372474443	32.0925985855	-61.7102707981	-60.2896310751	-23.4560813591	-16.0435751136
180437500.0	-22.0932828972	65.0621303848	-18.7357041881	30.8119368311	-61.5146908985	-77.2343980976	-23.5036614878	-16.2178334368
181125000.0	-22.0823987857	61.7233913897	-18.7267976967	29.5423505154	-61.3679374622	-94.9599343223	-23.5669927571	-16.3611951216
181812500.0	-22.0686130369	58.5190268078	-18.7265176184	28.2353640077	-61.5522373237	-110.181690749	-23.6174662915	-16.4517468734
182500000.0	-22.0437985773	55.1981624511	-18.7130970596	26.9202472449	-61.6284326824	-136.065611525	-23.6840279628	-16.5283131162
183187500.0	-22.0102671748	51.9446397526	-18.7106445208	25.6241873775	-61.3623728747	-175.19948639	-23.7419423776	-16.5818678203
183875000.0	-21.9720648675	48.6812317439	-18.6970379755	24.3814420335	-61.0520540928	144.88854404	-23.7957523859	-16.7732520224
184562500.0	-21.9242981947	45.4017841742	-18.6861332973	23.1161632134	-61.0658736243	94.2690027073	-23.8269933554	-16.8541416757
185250000.0	-21.8770648586	42.047585826	-18.6698680954	21.8237766155	-60.5556006147	39.8727878262	-23.8801366153	-16.9175138369
185937500.0	-21.8304348071	38.82761399	-18.6586138826	20.530573989	-60.3265595301	-1.52127882098	-23.9170355548	-16.9125295271
186625000.0	-21.790560543	35.5325415276	-18.6348836333	19.2324931466	-60.2086658132	-43.1247431552	-23.9643313034	-16.9445394899
187312500.0	-21.7335246617	32.2501033688	-18.624051252	18.0108510759	-59.8425324006	-88.2421045852	-23.9936148798	-16.9249690012
188000000.0	-21.6657091411	28.9772875115	-18.6097886909	16.7146905215	-59.2493933042	-134.205807488	-24.0221939302	-16.9352150228
188687500.0	-21.6003675805	25.6773209902	-18.5969869096	15.4528085225	-59.9479178064	171.672755486	-24.0471801108	-16.9142473273
189375000.0	-21.5310058229	22.4672657871	-18.5783612439	14.1676314412	-60.1321021102	130.197510182	-24.0901514757	-16.8072198226
190062500.0	-21.4647879558	19.1714127222	-18.5630692845	12.9200241055	-59.7742124742	89.6716150373	-24.1125573976	-16.7120503493
190750000.0	-21.3962419959	15.9066221517	-18.5427661434	11.6621791936	-59.6133681041	45.6015365963	-24.142686195	-16.4973693199
191437500.0	-21.3257552537	12.6014526049	-18.5252214081	10.3917969789	-59.7807669673	13.4345515784	-24.1637209041	-16.3832264641
192125000.0	-21.2550116697	9.40706290304	-18.5065594898	9.10672317895	-60.1951018132	-26.6607381858	-24.1794460685	-16.2070339681
192812500.0	-21.1792307372	6.11689476115	-18.489217777	7.84950901778	-60.0939855154	-60.4529980786	-24.2076816358	-15.9933277873
193500000.0	-21.1047976482	2.90656976089	-18.4688518876	6.57611838579	-59.6610370621	-101.096723237	-24.2348199348	-15.7635458756
194187500.0	-21.0180976868	-0.372341875507	-18.4513372629	5.3402264184	-59.9931337075	-154.315967226	-24.246089841	-15.4348640891
194875000.0	-20.9503214607	-3.59274855919	-18.4324467924	4.01955253737	-60.0681670231	151.000043133	-24.249940523	-15.2091536805
195562500.0	-20.8556193049	-6.85710249223	-18.4092096492	2.76853765551	-59.9440374432	95.6321774032	-24.2753203056	-14.9042166227
196250000.0	-20.7711879014	-10.1452542231	-18.3884747856	1.51154616923	-59.1639125592	39.1176490534	-24.2943198012	-14.5241759088
196937500.0	-20.6813374225	-13.3360402811	-18.3736225911	0.25861851668	-59.2501247086	-16.4383119775	-24.3069079612	-14.1622310525
197625000.0	-20.5992158798	-16.4905502581	-18.3556703343	-1.0074211212	-59.353537505	-71.0983160983	-24.3239883599	-13.8600337713
198312500.0	-20.5027439212	-19.6150510722	-18.3368547869	-2.28987366569	-59.7434737057	-112.752896659	-24.3374766381	-13.5950695022
199000000.0	-20.4186050848	-22.8179194823	-18.3152810029	-3.49309699939	-59.5542225766	-154.979846176	-24.3536105365	-13.3651519986
199687500.0	-20.3125086901	-25.9361722132	-18.2918872315	-4.71764868836	-59.3366285479	174.592614287	-24.3728542906	-13.1137456304
200375000.0	-20.216473154	-29.0597607681	-18.2710857878	-5.93842651396	-60.2104393635	145.674233313	-24.3904761351	-12.917352319
201062500.0	-20.1084837192	-32.1125169088	-18.2481942314	-7.21612094247	-60.5425140279	124.31525319	-24.4141888784	-12.6646953361
201750000.0	-20.0144809871	-35.1825946056	-18.224271433	-8.44944603487	-60.7222413822	104.976118788	-24.4423272213	-12.4334673664
202437500.0	-19.9016544661	-38.1021372732	-18.1976247952	-9.68187053489	-60.8837761044	76.4875542922	-24.4653402197	-12.3213655587
203125000.0	-19.7875744509	-41.1251012062	-18.175320687	-10.8992888037	-61.1592058258	34.41129356	-24.4864831725	-12.2023205646
203812500.0	-19.6559849856	-43.9980046981	-18.1525208519	-12.1121371488	-61.4598072959	3.73814532059	-24.5149451625	-12.1747147685
204500000.0	-19.537659388	-46.8921726832	-18.1277858729	-13.3483090746	-61.3667548917	-13.5961068965	-24.5424627745	-12.1709062687
205187500.0	-19.4187109208	-49.6522760859	-18.1006270866	-14.582748905	-61.4911604406	-38.7366450672	-24.5793955915	-12.1102770031
