#Frequency	|S11|	<S11	|S21|	<S21	|S12|	<S12	|S22|	<S22
100000000.0	-16.2723922504	148.327812194	-35.0117074627	-119.705735868	-56.8856587968	-55.6692813666	-20.1143128092	-30.464107571
100687500.0	-16.2330725118	145.377083629	-34.9291003305	-124.114079815	-63.3509753883	-115.447531888	-20.1693492489	-29.6204367683
101375000.0	-16.204492236	142.138936512	-34.5997022489	-125.445465124	-63.7536571276	-120.449005359	-20.2206897728	-28.9444835973
102062500.0	-16.2033490162	139.006130759	-34.1716082589	-127.276722154	-62.0805006829	-135.363818283	-20.2516550127	-28.3081880155
102750000.0	-16.1912075182	135.826609249	-33.7677345568	-128.783932986	-61.7440242633	-123.461805967	-20.2975710077	-27.6215089463
103437500.0	-16.1803829367	132.71793499	-33.4903459406	-130.24789876	-62.5078714225	-86.287104264	-20.3352193603	-26.9679606044
104125000.0	-16.1818583483	129.514624281	-33.1959188466	-131.793030738	-61.6308587739	-82.002355096	-20.3981058537	-26.1649903558
104812500.0	-16.1770190862	126.328851084	-32.8886093856	-133.240393492	-61.112010379	-103.066610621	-20.4536495223	-25.5572172235
105500000.0	-16.1798257196	123.065149503	-32.6126318477	-134.69563531	-60.7809314848	-133.315498785	-20.5339648219	-24.973633492
106187500.0	-16.1938594228	119.648084209	-32.3792119613	-136.28190691	-60.8623429519	-152.268191302	-20.6184459773	-24.4020652713
106875000.0	-16.2191873662	116.233528033	-32.1661650436	-137.636512986	-60.5844472076	-168.952315949	-20.7100729704	-23.863814576
107562500.0	-16.2525843131	112.729152618	-32.0074268958	-139.009937213	-60.5047715531	179.414723046	-20.8141907731	-23.3548709806
108250000.0	-16.2970146439	109.073097397	-31.890795428	-140.299737919	-60.5783292599	-179.444619722	-20.9179020648	-22.997257682
108937500.0	-16.3255755896	105.53858356	-31.7195975428	-141.723144068	-60.5770523008	171.261074218	-21.0049546219	-22.4696295647
109625000.0	-16.3631671129	101.956103429	-31.5516848678	-142.92922084	-60.7677462951	173.349085222	-21.0936729804	-21.9972973034
110312500.0	-16.3985909261	98.2665025981	-31.4278051142	-144.028346773	-60.7860529806	174.340100418	-21.1910580475	-21.5486496978
111000000.0	-16.4519057559	94.4962138091	-31.3258967753	-145.071637873	-60.3132090758	176.719064327	-21.2862004037	-21.1455921345
111687500.0	-16.5022044586	90.6783055356	-31.256893833	-145.806020024	-60.2390834592	-179.646445833	-21.3918124757	-20.8242207708
112375000.0	-16.5655694273	86.7715625701	-31.2041826489	-146.354942632	-60.3228246037	-165.258769872	-21.5001864308	-20.4982717832
113062500.0	-16.6219037669	82.7146417639	-31.1999351353	-146.606872007	-60.7121569745	-160.612087323	-21.6139432316	-20.2423450498
113750000.0	-16.6965946954	78.5763139054	-31.2011945829	-146.386708351	-61.1833068918	-147.806290992	-21.7326846316	-20.0170614305
114437500.0	-16.7721522324	74.3523240265	-31.2164535047	-145.66058785	-61.2029643423	-146.612654748	-21.8610683474	-19.7827429738
115125000.0	-16.860069256	69.9301762749	-31.1627698309	-144.542166055	-61.2306213604	-158.441749695	-21.9902315774	-19.6238358487
115812500.0	-16.9478801906	65.3945574831	-31.0714379104	-143.095012233	-60.8323789812	-162.168897731	-22.1244044717	-19.43632826
116500000.0	-17.051813748	60.6940983111	-30.9289759763	-141.452076651	-60.8096344213	-163.110389353	-22.2518488218	-19.4038535989
117187500.0	-17.1627586653	55.8995434452	-30.7360701806	-139.448760813	-60.9962425746	-175.541464953	-22.3859509768	-19.4072701661
117875000.0	-17.2932807742	50.9337606657	-30.4864386425	-137.527175794	-61.1114525707	-174.859555666	-22.5340764329	-19.3299224393
118562500.0	-17.4357773221	45.7691160078	-30.1763687255	-135.492325863	-61.3438898961	-172.131733477	-22.678141618	-19.2610156625
119250000.0	-17.5951367333	40.432359049	-29.8231633819	-133.523437769	-61.4259679304	-161.934417306	-22.8087779094	-19.1893753163
119937500.0	-17.7772954043	34.9064406975	-29.4131667203	-131.549420505	-61.4844702838	-159.168204069	-22.936464162	-19.2595867191
120625000.0	-17.9679521451	29.2404396279	-28.9598223629	-129.663376274	-61.5899314782	-150.682934554	-23.0842980399	-19.4043488137
121312500.0	-18.2114349369	23.3320232853	-28.4426420404	-127.850641975	-61.3939075676	-151.757268774	-23.2141310336	-19.525214314
122000000.0	-18.4672225055	17.2651553962	-27.8952839396	-126.357558642	-61.3602994668	-152.031602333	-23.3605908241	-19.6641375857
122687500.0	-18.7947340682	10.893138322	-27.3073466943	-124.888630273	-61.5865072028	-161.486611684	-23.4928422884	-19.8673217137
123375000.0	-19.1573658906	4.37839104965	-26.6801750763	-123.692054398	-61.7687433094	-164.898422215	-23.618573775	-20.0765961166
124062500.0	-19.614549205	-2.49845224503	-26.0071604923	-122.613791355	-61.6334169265	-178.605145657	-23.7442783486	-20.2643739259
124750000.0	-20.1591139304	-9.43427010004	-25.3054015708	-121.794452727	-61.7035155807	171.842006521	-23.8680221263	-20.4956178663
125437500.0	-20.8129371934	-16.6438792716	-24.5688594654	-121.181192447	-61.5411640916	160.702778203	-23.9909145257	-20.7115117357
126125000.0	-21.8092094261	-23.8631981969	-23.806481803	-120.828876799	-66.4674261927	156.801051826	-24.1202874827	-21.038997754
126812500.0	-23.295876303	-31.8189191113	-23.013154174	-120.653285694	-66.2346519938	143.637846322	-24.2363923527	-21.3170202899
127500000.0	-24.1682295968	-46.6306906357	-22.1895986506	-120.906829948	-65.4220750815	130.472885894	-24.3454006979	-21.713100713
128187500.0	-24.915235541	-61.9241781362	-21.3518836439	-121.337256763	-65.2923717816	128.448646334	-24.4439349388	-22.0144655912
128875000.0	-25.4950962755	-77.2068074057	-20.4629020058	-122.36893999	-65.3944844568	113.823983348	-24.532960207	-22.3101623596
129562500.0	-26.0150003113	-92.8653101904	-19.5859829285	-123.561473586	-65.4253218316	92.6267571524	-24.6166544309	-22.7221421112
130250000.0	-26.4666288918	-108.560913599	-18.6686238302	-125.358250838	-65.1155222088	81.7866652328	-24.7134720635	-23.0673299142
130937500.0	-26.8597961557	-124.409229417	-17.7587935178	-127.683784961	-64.7644825482	59.2769121489	-24.7909927654	-23.4656891407
131625000.0	-27.2053093334	-140.260352435	-16.8381182907	-130.76115627	-64.9020671663	45.5800047097	-24.8578606366	-23.9240580617
132312500.0	-27.5148406322	-156.227882492	-15.983543418	-134.247670762	-64.6546607653	32.2211122113	-24.9205863725	-24.2841305717
133000000.0	-27.7924832123	-172.283283473	-15.1683232973	-138.323054666	-64.7841011464	13.0999979595	-24.9720261941	-24.7639866446
133687500.0	-28.0314844208	171.557370965	-14.4295094304	-142.641689546	-64.9911418304	2.40663341368	-25.0239848883	-25.1690467868
134375000.0	-28.2424679665	155.420803662	-13.7377707108	-147.400140779	-64.7773550061	2.57220148418	-25.0548223388	-25.6804556411
135062500.0	-28.4136748884	139.175999411	-13.1324106795	-152.256954578	-65.0764242467	0.366812068126	-25.0687869423	-26.1728272844
135750000.0	-28.5618968422	123.02781817	-12.5881596712	-157.244007226	-65.3332175303	2.37503535785	-25.0748285317	-26.7646448716
136437500.0	-28.6713424531	106.938848181	-12.1072518443	-162.325002012	-65.247051473	5.39487187646	-25.0886571738	-27.3869450197
137125000.0	-28.7624679637	90.8722084067	-11.6741608242	-167.446272369	-65.1454818625	9.59497201512	-25.0982086003	-27.9622493478
137812500.0	-28.8045340883	74.9655721844	-11.3085315523	-172.540153844	-65.2195782203	16.1844452048	-25.0841056966	-28.4846397224
138500000.0	-28.8113836037	59.157856296	-10.9862736154	-177.614595152	-65.1215041401	25.9041162133	-25.0502888332	-29.0875540885
139187500.0	-28.7693079074	43.4169863684	-10.7211679741	177.411292621	-65.3482192936	41.0357260356	-25.01514016	-29.6730556488
139875000.0	-28.6550795387	27.8196350894	-10.4920471533	172.520202514	-65.7363117858	62.0726290476	-24.9699382736	-30.246864164
140562500.0	-28.4913060761	12.3665191458	-10.3073025739	167.746270127	-65.6110925885	80.6704205418	-24.9284960428	-30.8474355112
141250000.0	-28.231075379	-2.72166521037	-10.1542694849	163.118038375	-65.7142199526	108.665614737	-24.8514418212	-31.4602280216
141937500.0	-27.8721426542	-17.7622060965	-10.037180036	158.579349069	-65.7033011771	122.926568397	-24.7911263587	-32.013619412
142625000.0	-27.3950476054	-32.5553933946	-9.94755090223	154.198282249	-65.8961164258	144.940035715	-24.6953952596	-32.5043980231
143312500.0	-26.5693557315	-47.3657204293	-9.88484903622	149.949515343	-61.0875140784	162.590517559	-24.6090640071	-32.9757765929
144000000.0	-25.2440955169	-61.4544896494	-9.84040457201	145.862347612	-61.3894772332	-170.708256412	-24.5137598678	-33.4587741568
144687500.0	-24.5341347815	-68.6589496147	-9.81456509698	141.921068109	-61.7157707352	-149.821973125	-24.4186834765	-33.8072570281
145375000.0	-23.9300619383	-75.3135020557	-9.80297769428	138.129332658	-61.8516015131	-132.210695769	-24.3147382588	-34.261777733
146062500.0	-23.4978902016	-81.9601632204	-9.80535022217	134.468379661	-61.7292858411	-115.987734901	-24.2197629003	-34.6405123817
146750000.0	-23.1127508903	-88.1630833868	-9.81897488822	130.928175552	-61.8537542156	-102.869317107	-24.1130835459	-34.9267953563
147437500.0	-22.8038006855	-94.3175347669	-9.84081705917	127.529077112	-62.0168650166	-100.79953062	-23.9794273771	-35.1600963912
148125000.0	-22.5394255572	-100.225369813	-9.87003701062	124.237765303	-62.4638215669	-88.7151813727	-23.8548364599	-35.3530487247
148812500.0	-22.3299052584	-106.15232222	-9.90531484547	121.082852195	-62.0481176956	-87.6575375348	-23.7160246226	-35.4664660303
149500000.0	-22.1397606573	-111.720243824	-9.94275890739	118.019678319	-62.2546129701	-76.236931236	-23.5830477633	-35.5794377959
150187500.0	-21.9830452043	-117.20386316	-9.98633150842	115.085601589	-62.3483567662	-62.1921087873	-23.4455057191	-35.5631480202
150875000.0	-21.8470827971	-122.365903849	-10.0303611521	112.22779216	-62.3328627242	-60.3169882069	-23.3099135716	-35.5412337558
151562500.0	-21.7293995618	-127.577337315	-10.0781271854	109.464780367	-62.9715362833	-57.5631295957	-23.1685777817	-35.3404232798
152250000.0	-21.6371556711	-132.461990093	-10.1258792669	106.776657812	-62.4437906507	-54.8006841964	-23.0461402629	-35.1952852595
152937500.0	-21.5515779455	-137.304973691	-10.1782596956	104.181756699	-61.7961255745	-54.2664232403	-22.911191555	-34.9267050477
153625000.0	-21.4905045271	-142.001113751	-10.2250947649	101.650248515	-61.6911373032	-57.356658842	-22.7816018272	-34.5513026381
154312500.0	-21.4143088188	-146.594265627	-10.2769112531	99.2000836692	-61.7012134143	-60.6998729289	-22.6401962345	-34.1182148096
155000000.0	-21.3776020946	-151.167912352	-10.3256085995	96.7858872781	-61.7787452974	-73.0872304905	-22.5103111411	-33.5970847768
155687500.0	-21.3205586274	-155.625882692	-10.3755945369	94.4516282493	-61.8814715742	-81.618453823	-22.3964353263	-32.9716394898
156375000.0	-21.3003376597	-160.020519316	-10.4227145074	92.1407508817	-61.5117786773	-95.0372690184	-22.2669327933	-32.3884005618
157062500.0	-21.2635193572	-164.221268852	-10.4743018906	89.9214350119	-61.2904829285	-105.317978267	-22.1445761507	-31.6525752335
157750000.0	-21.2479751553	-168.430891702	-10.5211594771	87.7239620567	-61.2693131731	-117.004998342	-22.0297936103	-30.912012736
158437500.0	-21.2263495194	-172.578245803	-10.572871524	85.5704157148	-61.0746806045	-129.885833496	-21.93657608	-30.1047525771
159125000.0	-21.2158543751	-176.667663935	-10.6171938383	83.5028078183	-61.0177526841	-139.353221819	-21.8399300311	-29.2353633039
159812500.0	-21.2044949861	179.317924014	-10.6647029016	81.4745220257	-60.7146022741	-147.658196636	-21.7490030345	-28.3523314153
160500000.0	-21.1958670793	175.369401856	-10.7047636222	79.4737932207	-60.485615082	-159.950630841	-21.6566620373	-27.4486360885
161187500.0	-21.1865424785	171.524440495	-10.751273242	77.5098215646	-60.2383541267	-173.507797158	-21.5664136908	-26.4928611262
161875000.0	-21.1760262275	167.770595582	-10.794928621	75.5814805347	-60.3085177858	167.320818837	-21.4930071415	-25.5642325496
162562500.0	-21.1717760334	163.990752459	-10.8394787621	73.6999399181	-60.5057314849	138.524719673	-21.4232848444	-24.573239555
163250000.0	-21.1506851357	160.282257738	-10.8793095705	71.8428573115	-60.5453552929	111.149438422	-21.3632898819	-23.4743446949
163937500.0	-21.1419528998	156.632815608	-10.9231330994	70.0248096375	-60.7678147754	95.2012732488	-21.3052303352	-22.4010387529
164625000.0	-21.1122124419	153.165095369	-10.9600358419	68.238398864	-60.6433119479	80.8662263304	-21.266629156	-21.3632088785
165312500.0	-21.1006145629	149.676180242	-11.001011113	66.4841469107	-59.8423059291	68.898171741	-21.2301926255	-20.2591755982
166000000.0	-21.0697854491	146.348905326	-11.0395560866	64.7474980597	-60.1135078728	69.6393215344	-21.2066023402	-19.2244365638
166687500.0	-21.0520069579	142.904046147	-11.077965549	63.0405728461	-59.7868635083	60.6485846819	-21.1838626351	-18.1750569775
167375000.0	-21.0243285789	139.704627105	-11.1163416764	61.3585443117	-60.3334569115	60.8224953869	-21.1769046215	-17.1483737621
168062500.0	-21.0069622136	136.376205751	-11.1537878859	59.6952481053	-60.082703476	60.4935544192	-21.1695844465	-16.1004877705
168750000.0	-20.9777107422	133.230408713	-11.1878129956	58.0913047951	-59.5279967111	48.7401131274	-21.1810785383	-15.090613806
169437500.0	-20.9461827509	129.960583607	-11.2216551584	56.4945697315	-59.8429831563	26.295387134	-21.1942285084	-14.045009417
170125000.0	-20.924531549	126.903501029	-11.2512008966	54.9048509622	-59.7308965266	11.0118878588	-21.222381416	-13.0223697255
170812500.0	-20.9007018532	123.770115795	-11.2841718553	53.3517190938	-60.1475715447	-11.1159198832	-21.2620913279	-12.0084706552
171500000.0	-20.8799772709	120.795570381	-11.3127622689	51.8055940551	-60.2851479489	-25.6643206678	-21.311067509	-11.0655253579
172187500.0	-20.8555582388	117.810398234	-11.3410455671	50.307551262	-60.2573905928	-38.4963218461	-21.3644847926	-10.172849539
172875000.0	-20.8328720939	114.91807036	-11.3683630045	48.8245654775	-60.3509282428	-51.4287012815	-21.4212883034	-9.31174502473
173562500.0	-20.7946960668	112.015535022	-11.3924421664	47.3662740661	-60.4206878806	-61.0738095706	-21.5019065324	-8.39184985785
174250000.0	-20.7793523532	109.1725276	-11.4140016627	45.9103063199	-60.0906285259	-80.143641599	-21.5814415785	-7.55633161325
174937500.0	-20.7358180201	106.343322974	-11.4331584272	44.4825121116	-59.9127694875	-96.2936951595	-21.6755578825	-6.74694043254
175625000.0	-20.7001122004	103.5196633	-11.451532157	43.0689508007	-60.1920897113	-117.641366916	-21.7709938074	-5.91383966413
176312500.0	-20.6530342863	100.74453747	-11.4692864413	41.6761997326	-60.4154337772	-132.780892989	-21.8811821075	-5.18279166703
177000000.0	-20.6105777788	97.997151352	-11.4847622547	40.2778374994	-60.6383102579	-150.354591083	-22.0069472137	-4.50417655631
177687500.0	-20.551962476	95.3022615755	-11.501165974	38.9148266458	-61.0943524917	-165.073578877	-22.1392531018	-3.7950264216
178375000.0	-20.5093021359	92.6034283291	-11.5097366753	37.5449677683	-61.8315382231	-177.259192931	-22.2814576221	-3.12602505514
179062500.0	-20.4527341109	89.9443694453	-11.519078538	36.2068283866	-61.3564514681	171.532822194	-22.4366291732	-2.52843134395
179750000.0	-20.3960593406	87.2934969557	-11.5261930681	34.8468598625	-61.296826393	172.934401164	-22.5934938867	-1.91596418648
180437500.0	-20.3411720669	84.6504026556	-11.5336236753	33.5061873703	-61.1678077274	173.455824917	-22.7477897998	-1.48128294055
181125000.0	-20.2772833224	81.968921468	-11.5353226686	32.1580605857	-60.9291714563	172.325884528	-22.9187024878	-0.936480563176
181812500.0	-20.2195523171	79.3523530733	-11.5425677777	30.8522018417	-60.9922088617	-177.301875872	-23.0971683485	-0.508485076569
182500000.0	-20.1426351895	76.6974187019	-11.5406184582	29.5358957926	-60.9838740777	-177.017896633	-23.2811534512	-0.0678377694912
183187500.0	-20.0686740748	74.0760011581	-11.541258255	28.236099038	-60.6800036952	172.743722369	-23.4645257203	0.410257044921
183875000.0	-19.9957361458	71.5551024229	-11.5377403542	26.9221205701	-61.568569406	169.228408321	-23.6673538148	0.740146964906
184562500.0	-19.9234252539	68.9745175104	-11.5343587424	25.6308091765	-60.8030227633	154.889895199	-23.8609813412	0.93290265456
185250000.0	-19.8358186966	66.4855286536	-11.5255876835	24.3352970659	-60.7669925836	144.041011657	-24.0619654997	1.14016998918
185937500.0	-19.7669973054	64.0226329303	-11.5255726618	23.0390995172	-60.7618725812	134.276515829	-24.2588786614	1.38861129575
186625000.0	-19.6937576161	61.6766125627	-11.5174378389	21.7470433039	-60.9475020005	133.294299252	-24.4732035298	1.58983106263
187312500.0	-19.622515326	59.1887162046	-11.5119125153	20.46628552	-61.4109637315	132.161554796	-24.6693098832	1.77658308031
188000000.0	-19.542091645	56.8735659078	-11.5023170495	19.1796122666	-61.5452016459	130.329277922	-24.8712319316	1.75580645296
188687500.0	-19.4803071193	54.468678694	-11.4971114677	17.9166162531	-61.3359416929	120.16565041	-25.0774316229	1.69894484883
189375000.0	-19.4123078296	52.1597117013	-11.4862927056	16.6467354383	-61.2360840171	106.911631372	-25.2924764203	1.58148026038
190062500.0	-19.3590838817	49.761517292	-11.4790860646	15.3720333266	-61.274612722	92.6931448006	-25.4936670053	1.52326678234
190750000.0	-19.3123400521	47.5020516319	-11.4657015091	14.1153895351	-61.9786526883	75.3425198985	-25.7249696426	1.35368054398
191437500.0	-19.2741253937	45.1444163255	-11.4559976978	12.8440454792	-62.1400233618	68.7104850012	-25.9297033078	1.09663878792
192125000.0	-19.2450715867	42.9215625445	-11.4446556142	11.5866727703	-62.1532780319	56.2349852663	-26.1281269314	0.824058204883
192812500.0	-19.2176875054	40.568868724	-11.4317095873	10.3399161472	-62.0899347754	46.1889400672	-26.3120660301	0.28903402896
193500000.0	-19.2009935025	38.3070544252	-11.4188700962	9.06952810432	-61.9002847661	33.2102669927	-26.5072985495	-0.247565620069
194187500.0	-19.1866482606	35.9650298618	-11.405464423	7.81371480289	-61.5975678915	9.82795000371	-26.6744033329	-0.893929120374
194875000.0	-19.1946564297	33.6690575388	-11.3901518217	6.55566173364	-61.5823430557	-4.17860448939	-26.8553198718	-1.67198973085
195562500.0	-19.1967157789	31.2855918106	-11.3758498943	5.31513370449	-61.0134694496	-17.545450933	-27.0134936721	-2.557084214
196250000.0	-19.2166219249	28.9169335633	-11.3623447859	4.07614781667	-61.6522919189	-19.7069537127	-27.1587487671	-3.49624416398
196937500.0	-19.2361826906	26.5380432942	-11.3456373075	2.82400172772	-62.1601688245	-32.8482539335	-27.2846505812	-4.34062761134
197625000.0	-19.2699001387	24.1393130982	-11.3291202109	1.59727773391	-62.1232209302	-36.1900935954	-27.4041639113	-5.28322441715
198312500.0	-19.3008194906	21.7201829216	-11.3113948848	0.399946179514	-62.0628948293	-46.6093841769	-27.5171401705	-6.53578283568
199000000.0	-19.3607026636	19.1745626047	-11.2912544296	-0.844294913049	-62.1333948297	-67.0019524752	-27.5723885701	-7.72910911381
199687500.0	-19.405573483	16.7286032884	-11.2756046863	-2.06227427881	-62.7659356911	-80.3652663081	-27.6530937707	-9.11160343374
200375000.0	-19.4750548004	14.192198993	-11.2567366198	-3.29441095042	-63.2995653508	-85.1641051639	-27.7087246518	-10.5830371378
201062500.0	-19.5329050082	11.6639263661	-11.2400488368	-4.50115027338	-62.7078131418	-95.9667750494	-27.7486955813	-12.0104915152
201750000.0	-19.6038031825	9.00540995698	-11.22180016	-5.74699857428	-62.5649475062	-106.617115229	-27.7488339784	-13.3722236027
202437500.0	-19.6762721808	6.44076546591	-11.2063517162	-6.94581575422	-62.7887391281	-108.862395623	-27.7598617567	-14.8583067677
203125000.0	-19.7482677347	3.77161249943	-11.1834791547	-8.17316014596	-62.8269863117	-112.155194234	-27.7345827389	-16.3784699377
203812500.0	-19.8112598779	1.09777204518	-11.1642587647	-9.37202358068	-62.5415641854	-111.483927034	-27.6873193355	-17.9498243845
204500000.0	-19.8862491578	-1.61720969677	-11.1437945907	-10.5937158934	-62.4482289491	-120.394233196	-27.6251703617	-19.532146169
