#Frequency	|S11|	<S11	|S21|	<S21	|S12|	<S12	|S22|	<S22
100000000.0	-18.3663858276	125.369668874	-15.2244269888	-126.301533828	-73.9393966135	143.874382278	-19.8787203215	-67.8201644636
100687500.0	-18.2389857038	122.543616854	-14.8282745152	-127.38209562	-64.5015740897	-151.017573325	-19.9663129974	-67.902244108
101375000.0	-18.1342599292	119.796328712	-14.4634340887	-128.660386691	-63.0433097185	-151.26535356	-20.0854299065	-67.7274223566
102062500.0	-18.0542675861	116.810603055	-14.1179586283	-129.977168035	-65.4353320431	-135.914364328	-20.1849491171	-67.7893738762
102750000.0	-17.9758743031	113.964093402	-13.7854183769	-131.33665712	-64.1286480468	-144.717219709	-20.3059227776	-67.7200936034
103437500.0	-17.8945145347	111.031574718	-13.4816821938	-132.758166841	-63.6480232044	-147.249981814	-20.4002377727	-67.5923357257
104125000.0	-17.8223354687	107.954073937	-13.2026802374	-134.126886807	-64.404390636	-149.85034518	-20.5182677647	-67.4877418165
104812500.0	-17.7598414525	104.912409656	-12.9454732773	-135.520905958	-64.0375046569	-138.722426639	-20.617913321	-67.584851508
105500000.0	-17.7125309892	101.72466	-12.7188941913	-136.91662159	-63.6078980575	-137.195123668	-20.7174876773	-67.6837972308
106187500.0	-17.6660247602	98.4541306509	-12.5273807016	-138.297989225	-62.9302741531	-145.23962215	-20.8268680067	-67.8500454522
106875000.0	-17.6268582381	95.0575155992	-12.3703398193	-139.608434497	-62.8860747824	-145.399906362	-20.9313215413	-67.9990020983
107562500.0	-17.6003840909	91.5208863349	-12.2542789811	-140.805995755	-62.6781377572	-144.345562799	-21.0520172781	-68.1264518918
108250000.0	-17.572960445	87.8501971952	-12.1850665133	-141.833784378	-62.2829130921	-141.974465765	-21.1548147997	-68.278896246
108937500.0	-17.5270620991	84.377518359	-12.0488162088	-142.892710952	-61.7651864733	-141.367294898	-21.2606372225	-68.2978709262
109625000.0	-17.4867747539	80.8185060066	-11.9386994526	-143.817007464	-61.8492659633	-140.328164373	-21.3665148425	-68.3364751218
110312500.0	-17.4450584099	77.1934860911	-11.865183137	-144.571160572	-62.0356811259	-126.934169541	-21.4688624536	-68.4322143359
111000000.0	-17.4097699844	73.4597422184	-11.8108176092	-145.086151348	-62.2563649591	-111.820552264	-21.575583465	-68.5119105896
111687500.0	-17.3772724299	69.6279406062	-11.7839982463	-145.295995562	-61.8997454164	-95.8798581872	-21.6776340906	-68.6331049622
112375000.0	-17.347936501	65.7470166892	-11.7624348229	-145.13222488	-61.3559668922	-80.7972811592	-21.7888708306	-68.6644375568
113062500.0	-17.3221204532	61.7254124029	-11.7399213857	-144.550569439	-60.6470215394	-66.9957883631	-21.8940944167	-68.6656531127
113750000.0	-17.2993389332	57.6119800998	-11.6891872133	-143.546756368	-60.4739734859	-61.9540806815	-21.9950034532	-68.615508036
114437500.0	-17.2823721856	53.3752409568	-11.6037157682	-142.198262583	-60.6168744029	-56.036562527	-22.1033969756	-68.6208650021
115125000.0	-17.2740128126	49.0645460128	-11.4639062371	-140.58337909	-60.3140692367	-50.437108843	-22.2142813114	-68.5797830581
115812500.0	-17.2626244244	44.6089675926	-11.270657927	-138.792252721	-60.3531904524	-46.1618024938	-22.3277097305	-68.4964878594
116500000.0	-17.2686439648	40.0857025169	-11.0205680005	-136.913027958	-59.9890650001	-35.7923895258	-22.4346127103	-68.3237664036
117187500.0	-17.2761344261	35.4535023683	-10.717061346	-135.00029264	-59.4317485034	-34.6294733304	-22.5362837576	-68.1722072193
117875000.0	-17.3071167914	30.698272104	-10.3606343856	-133.0977038	-59.3237533789	-31.9793732348	-22.6549506212	-67.8352816913
118562500.0	-17.3484476963	25.8327566779	-9.95790941796	-131.253519508	-59.35217771	-29.3308590502	-22.7621745859	-67.3591972037
119250000.0	-17.4097886144	20.8861421539	-9.50615405305	-129.486057164	-59.4299186225	-21.4284484887	-22.8641056417	-66.7528122995
119937500.0	-17.4903683363	15.8574959237	-9.01012196899	-127.837029864	-59.2539589631	-20.5548038114	-22.9570571567	-66.1402840176
120625000.0	-17.6039860996	10.7342027271	-8.46977250266	-126.321367502	-59.4783531327	-16.8308010563	-23.0500088937	-65.3925887286
121312500.0	-17.7574000942	5.57480480899	-7.89305285682	-124.954945676	-59.6708295417	-10.825913123	-23.1224193319	-64.5925779423
122000000.0	-17.9532287034	0.405569777951	-7.27742705641	-123.76030376	-59.445875808	-0.0468637252718	-23.1968862813	-63.7762690583
122687500.0	-18.2071456961	-4.69603797787	-6.63067134244	-122.783307886	-59.4022816172	-0.573312618712	-23.2571667238	-62.8437735162
123375000.0	-18.511637265	-9.7315555079	-5.94852982551	-121.993752831	-59.6566612024	3.30536827049	-23.2949732761	-61.8873156416
124062500.0	-18.8830033644	-14.5475333865	-5.2368287537	-121.432162162	-59.5669834649	3.69231267235	-23.3245427434	-60.8157182878
124750000.0	-19.339426951	-18.9216167417	-4.49407535152	-121.097500403	-59.6159881551	5.20394614934	-23.3433216806	-59.6858224729
125437500.0	-19.8256606815	-22.751393669	-3.72506074716	-121.013541317	-59.494718914	3.25808688868	-23.354086129	-58.4832929229
126125000.0	-20.3504908397	-25.75405058	-2.92356846829	-121.185098011	-59.4120238373	5.03524066718	-23.3538268293	-57.3457931834
126812500.0	-20.8282951565	-28.198749912	-2.09713003761	-121.68111148	-58.9598545371	-0.036876107816	-23.3440167934	-56.1244144935
127500000.0	-21.24305106	-30.069522334	-1.24161436532	-122.509808927	-58.8219448996	-10.2453896534	-23.3184556113	-54.9633799213
128187500.0	-21.6275198547	-31.7417531295	-0.368041071572	-123.758861677	-58.3910010682	-27.6526097672	-23.2930392888	-53.7764733327
128875000.0	-21.9625855771	-33.2115181627	0.524919727226	-125.439552363	-58.3994216588	-39.3408430744	-23.2491180242	-52.567069007
129562500.0	-22.2577911179	-34.6109710029	1.41868151503	-127.669911011	-58.3370888701	-58.7793038813	-23.1963421799	-51.3987681582
130250000.0	-22.5331890136	-35.9784578538	2.30480475966	-130.431438033	-58.3798542565	-72.9186324545	-23.145063411	-50.3007368186
130937500.0	-22.7711337445	-37.2706800557	3.15412575683	-133.771712015	-58.245866116	-83.5112955106	-23.0877102806	-49.228337407
131625000.0	-23.0003336943	-38.4388724833	3.95972994375	-137.561634613	-57.9022864122	-85.0904360275	-23.0058161694	-48.178144944
132312500.0	-23.203282735	-39.6056848633	4.70371628371	-141.735203814	-58.0033988931	-93.390124374	-22.9263008286	-47.1360754499
133000000.0	-23.3951591031	-40.7567279322	5.38792831141	-146.195006364	-57.5282057035	-96.2134589655	-22.8386260442	-46.1968765604
133687500.0	-23.5684851813	-41.9183688274	6.00423273065	-150.874764325	-57.4740143334	-105.866130813	-22.7509914276	-45.3181799066
134375000.0	-23.7228768547	-42.9993816204	6.56471898529	-155.689397025	-57.6418157897	-109.668544112	-22.6593874162	-44.52152767
135062500.0	-23.8507019459	-44.1267172722	7.06218974296	-160.584109074	-57.5391836635	-119.977767604	-22.5538918013	-43.8103604015
135750000.0	-23.9662089993	-45.1450660068	7.50704035922	-165.499747599	-57.2705028225	-122.460769888	-22.4455627133	-43.2728498671
136437500.0	-24.055644591	-46.200299598	7.89597039283	-170.439604043	-57.0209972026	-131.782550072	-22.3472634128	-42.8844000749
137125000.0	-24.1285602786	-47.2534532022	8.23760117131	-175.339293494	-56.9486095427	-142.396839355	-22.2610045996	-42.5489818621
137812500.0	-24.1631603303	-48.2396035401	8.5304575572	179.812598113	-56.5950803993	-147.444423839	-22.1728780696	-42.3108496659
138500000.0	-24.1619365939	-49.2402829125	8.78556153913	175.03800105	-56.5119645145	-152.336452456	-22.0879128257	-42.1642451583
139187500.0	-24.1070375009	-50.2605565097	8.99879355818	170.355947716	-56.3249024728	-163.361504204	-22.0037791173	-42.0888353168
139875000.0	-24.0079680444	-51.4390548792	9.18157537862	165.784826652	-56.3251300541	-164.424226985	-21.9405715695	-42.0175129688
140562500.0	-23.8499940904	-52.6839267989	9.33005148015	161.32049831	-55.7540374437	-169.06169556	-21.884694322	-42.1128276252
141250000.0	-23.6278408465	-54.1641069527	9.45289012208	156.98024355	-55.8785836457	-175.58994662	-21.8292282018	-42.223076688
141937500.0	-23.3236185817	-56.0532959406	9.54821813749	152.767034891	-55.5067075176	-177.51226631	-21.7907393641	-42.5010021939
142625000.0	-22.996387347	-58.5444160377	9.62666617436	148.676258014	-55.6517422868	174.789801	-21.7608943105	-42.7637085561
143312500.0	-22.620987783	-61.8190019235	9.68169517323	144.714070716	-55.5002955885	172.312360139	-21.7348069381	-43.0964742384
144000000.0	-22.3045804645	-65.6467109694	9.72275889875	140.865624951	-55.6834329528	167.26566131	-21.7258225415	-43.4135793966
144687500.0	-22.0593769404	-70.0401369995	9.74937154428	137.148216065	-55.6862592112	163.14392268	-21.7253528177	-43.7967652245
145375000.0	-21.8398303121	-74.6269093379	9.76599164221	133.551983486	-55.7863110621	158.529929586	-21.7210675386	-44.2005907663
146062500.0	-21.6751941931	-79.3759448664	9.76983785834	130.0717375	-56.0897894106	155.704624479	-21.7349808952	-44.5927638698
146750000.0	-21.542423001	-84.1702417864	9.76751811061	126.694137751	-56.3844727682	151.87942397	-21.7605391211	-44.9995124304
147437500.0	-21.4386014078	-88.8804405963	9.75308442767	123.434809881	-56.3924224377	151.766183925	-21.7807633303	-45.432802265
148125000.0	-21.3779060333	-93.6565396352	9.73683233443	120.267898825	-56.5491680948	149.808807385	-21.8063692009	-45.8666699807
148812500.0	-21.3294747908	-98.5432887613	9.7122476359	117.183861301	-56.5643083508	143.099185841	-21.8405470476	-46.2591586752
149500000.0	-21.3054249562	-103.336130506	9.68748558562	114.20085758	-56.3649556683	140.587280142	-21.8868326672	-46.5692931354
150187500.0	-21.2926164286	-108.062168442	9.65388114066	111.300541568	-56.7154597544	138.473980811	-21.9374529989	-46.9427626056
150875000.0	-21.2964163738	-112.684085807	9.62299689994	108.492732216	-56.6811277933	136.769810694	-21.9901282645	-47.2716836339
151562500.0	-21.3180543145	-117.360209438	9.58501063295	105.75677262	-56.6773066742	131.149333331	-22.0417412016	-47.5684655566
152250000.0	-21.3486326738	-121.875934225	9.54849595896	103.095955388	-56.6336216857	128.536168575	-22.1095435895	-47.8688700024
152937500.0	-21.3869653643	-126.362062384	9.5050833463	100.489662868	-56.6190998538	123.138401784	-22.1720915886	-48.0851110183
153625000.0	-21.4317286925	-130.684985049	9.46656631103	97.96683767	-56.518057258	120.028564764	-22.2502264908	-48.3378052689
154312500.0	-21.47379862	-135.005861326	9.42273860022	95.4914543504	-56.4634641318	123.081581024	-22.3034861229	-48.5583386277
155000000.0	-21.5315767926	-139.239922066	9.3806063128	93.0741569366	-56.6407807607	122.372800447	-22.3674254004	-48.6928873579
155687500.0	-21.5773241148	-143.41458545	9.33575514517	90.7147937832	-56.4516465249	118.006854312	-22.4408943184	-48.8383206732
156375000.0	-21.643556947	-147.559305709	9.29323401698	88.4100622897	-56.5559730037	117.229936506	-22.5103324684	-48.9114488808
157062500.0	-21.6951884071	-151.565915181	9.24757873634	86.1479138595	-56.2935001255	109.568555856	-22.5824517175	-49.0462581097
157750000.0	-21.7636804661	-155.533677618	9.20537010459	83.9420595048	-56.4260526934	108.183009842	-22.6549885834	-49.1357324638
158437500.0	-21.8260293284	-159.420467061	9.15914455272	81.7809152552	-56.1709871795	106.081102222	-22.7392500083	-49.2240368535
159125000.0	-21.8873127678	-163.256110825	9.11796704752	79.6771693247	-56.3882906396	102.581879476	-22.8256272902	-49.2026958301
159812500.0	-21.9498981647	-166.973635977	9.07262237874	77.6095004316	-56.4603783924	101.636649765	-22.9104847566	-49.2565928136
160500000.0	-22.0306596687	-170.669927333	9.03144435331	75.5761285492	-56.7094680435	100.147548298	-23.0024105271	-49.3548637241
161187500.0	-22.09509087	-174.3274869	8.98650793217	73.5855777918	-56.4623563059	98.9004119612	-23.096103101	-49.3816226102
161875000.0	-22.1739233719	-177.809339964	8.9453260812	71.6298148612	-56.5880995942	96.8075959119	-23.1969956677	-49.4722726912
162562500.0	-22.2541194398	178.723926799	8.90220006194	69.7048478937	-56.3876927458	95.5631474133	-23.2928688045	-49.4573057496
163250000.0	-22.3335169027	175.356475541	8.86282597125	67.8076475441	-56.9157902092	95.0821682192	-23.4027896883	-49.5946310049
163937500.0	-22.4231460242	172.060615235	8.82122493021	65.9500664896	-56.6023701278	94.1474707366	-23.4996312205	-49.6444295735
164625000.0	-22.5126589715	168.78512123	8.78315080163	64.1126733067	-56.7867798823	89.7781664176	-23.6144217443	-49.7501661616
165312500.0	-22.602187875	165.598173649	8.74152680696	62.3235685399	-56.7569535841	88.3483315471	-23.7212793984	-49.8512459016
166000000.0	-22.6914797762	162.548864629	8.70555004609	60.5568299771	-57.0682993649	85.8773531911	-23.8312984129	-50.0349049468
166687500.0	-22.7980981327	159.466746831	8.66507052351	58.8137853113	-57.1792641807	85.4381099873	-23.9495139265	-50.2234566323
167375000.0	-22.9077457102	156.495811674	8.63050977614	57.0967655539	-56.9365000601	80.8491180275	-24.065564213	-50.5474143624
168062500.0	-23.02245514	153.453535939	8.59329929239	55.4110615181	-57.060694364	76.5840415699	-24.1758670894	-50.7693601266
168750000.0	-23.1428110645	150.448371732	8.5603623568	53.7575603336	-56.941823547	78.4467940016	-24.2904053696	-51.1546093809
169437500.0	-23.2624613454	147.407308578	8.52473224225	52.1183166429	-57.0949222955	78.6412855431	-24.3928996004	-51.5254163218
170125000.0	-23.3871977069	144.508409341	8.49524565908	50.5048353905	-57.1191093417	76.2005813929	-24.5078625517	-52.0004167556
170812500.0	-23.5193081708	141.435341566	8.46161004394	48.9091476619	-57.2158551251	76.3854515362	-24.6165769856	-52.4890811552
171500000.0	-23.6565249458	138.425571919	8.43357027724	47.3440121229	-57.1969167946	74.3385896004	-24.7358936863	-52.9835685677
172187500.0	-23.7890895639	135.280004234	8.40514553361	45.8056299389	-57.450935425	75.9749762353	-24.8341856151	-53.6072053929
172875000.0	-23.9421796404	132.12294929	8.38035360781	44.279828995	-57.5471676072	75.4626873055	-24.9377934689	-54.1678226119
173562500.0	-24.0861435409	128.851387644	8.3539910048	42.7755008471	-57.9762287675	75.7782741573	-25.0509647964	-54.8917145798
174250000.0	-24.247449614	125.646599123	8.33298187812	41.2948099304	-57.9946187499	74.535772683	-25.1464430263	-55.5385077615
174937500.0	-24.3850099166	122.236254889	8.30994413576	39.8209955501	-58.0792244181	72.1412078014	-25.2312205667	-56.2635187009
175625000.0	-24.5186868848	118.750873075	8.29230102482	38.3653184762	-57.8557017865	73.7303662488	-25.3277125981	-56.8311033379
176312500.0	-24.6488135076	115.230287381	8.27132478842	36.9155540621	-58.0031527199	72.6695771649	-25.405938035	-57.6672305251
177000000.0	-24.7682637434	111.619247126	8.25714526008	35.4790594542	-57.6880549575	72.2532756552	-25.4799031034	-58.3694944856
177687500.0	-24.8657483915	107.898785284	8.23967970749	34.0558784409	-58.260260072	69.9134276545	-25.5495766945	-59.1325159022
178375000.0	-24.962740898	104.216099832	8.22791765711	32.6527224887	-58.0937625208	69.3458344022	-25.6146687109	-59.8282576723
179062500.0	-25.0460602421	100.474646335	8.21450250362	31.2475973454	-57.9140592689	63.6266628984	-25.6624862492	-60.6337926954
179750000.0	-25.113869345	96.6763295933	8.20530830928	29.8620085983	-57.9478920576	63.2919483851	-25.7159902297	-61.2559350483
180437500.0	-25.1743530861	92.8279396941	8.1940925025	28.4703159975	-57.3326395893	55.0745041542	-25.7532213109	-61.840140805
181125000.0	-25.2101975996	88.9104066014	8.18602429865	27.0941776036	-57.2589899026	55.1805284287	-25.8002875057	-62.4493360993
181812500.0	-25.2297757406	85.0381462235	8.17677107402	25.7225738512	-57.0593951208	52.0891053127	-25.8217604121	-63.0390110335
182500000.0	-25.244077655	81.1389934487	8.17204791658	24.3576304136	-56.9345263506	55.0306022403	-25.8574427559	-63.5087104151
183187500.0	-25.2371004352	77.2322081206	8.16374155743	23.0042588484	-56.9474148138	55.7851857805	-25.8944269409	-63.9314725983
183875000.0	-25.2124849565	73.3761747682	8.16172742677	21.6436648804	-57.0073362902	55.6884873098	-25.9013151427	-64.3987270155
184562500.0	-25.1820643409	69.4722000331	8.15670928944	20.3052455808	-57.0306043921	53.4765195197	-25.8958924498	-64.6667074844
185250000.0	-25.1289204701	65.6681055644	8.15521938945	18.9737508265	-57.0200859808	57.2994532169	-25.8974615537	-64.9295556001
185937500.0	-25.0661728955	61.9111646827	8.14995110793	17.632412578	-56.8049375879	54.863198202	-25.898841709	-65.0157974523
186625000.0	-25.0058794	58.2307704374	8.1520081272	16.3023792261	-57.0449512521	54.6717824978	-25.9056719811	-65.1922338689
187312500.0	-24.9209600194	54.3639364606	8.15035950589	14.979677519	-56.8769442371	55.7991394358	-25.9033719509	-65.1287188133
188000000.0	-24.8313306877	50.7442789489	8.15251524449	13.6604858021	-57.225898954	53.0561511159	-25.8812857689	-65.0414956221
188687500.0	-24.7356264055	47.0728975677	8.1505619942	12.3451077761	-57.3394416043	53.3031416465	-25.8802148189	-64.8725864744
189375000.0	-24.6359988443	43.6118012996	8.15276199704	11.0354459533	-57.1601191218	46.4401013477	-25.8901858969	-64.718447433
190062500.0	-24.5238135692	40.1975093764	8.15308179637	9.73365024825	-57.0287225101	45.1649872482	-25.8862378225	-64.3998935558
190750000.0	-24.4144568369	36.844929057	8.15811161909	8.43928178629	-57.1045019826	39.889318855	-25.8872571521	-64.0356175072
191437500.0	-24.2979729886	33.5066569323	8.15825821257	7.14644598423	-57.0056501826	40.4214675958	-25.8770489391	-63.5442601182
192125000.0	-24.188374427	30.3885795669	8.16240780029	5.86386519871	-57.7315269533	42.8567704654	-25.8823893963	-63.0656327118
192812500.0	-24.0797903022	27.25809512	8.16487438358	4.58402349856	-57.828262786	39.9473784619	-25.8819420932	-62.6359175969
193500000.0	-23.9896848616	24.233822838	8.17008400796	3.30199209309	-57.8043661345	37.0747278203	-25.8886435527	-62.1106915749
194187500.0	-23.8979153919	21.2416688979	8.17252580474	2.03341461744	-58.0496788601	35.7649235956	-25.8944497752	-61.4772813874
194875000.0	-23.8296522293	18.3451420819	8.18036801846	0.764024282097	-57.1060124599	34.9657053028	-25.9079154962	-60.7779153965
195562500.0	-23.7536760403	15.4166434103	8.1868958187	-0.496905172163	-57.3278579846	36.8248186984	-25.9210031514	-60.1198710696
196250000.0	-23.687389178	12.4252658199	8.1936845845	-1.74599077861	-57.4154707292	38.7315183238	-25.9482585698	-59.33807707
196937500.0	-23.6236992762	9.51792134115	8.19873309461	-2.99953014541	-57.5906468528	35.5464431386	-25.9738422965	-58.5945769579
197625000.0	-23.5741093142	6.56996466295	8.20733263489	-4.23257668104	-57.5257224542	38.0306814532	-25.9968260747	-57.8045793725
198312500.0	-23.5340697318	3.61436739068	8.21564993691	-5.46316606952	-58.0330638052	35.3425481681	-26.0110531981	-57.0591948774
199000000.0	-23.5048025762	0.599507266921	8.22777545617	-6.69812578017	-57.9438964734	34.668487389	-26.0359494443	-56.2452604583
199687500.0	-23.4633676671	-2.4364787085	8.23684307883	-7.92716396865	-58.1021871387	31.3684207895	-26.0579896953	-55.546110854
200375000.0	-23.441979268	-5.43906785341	8.249425407	-9.15450991702	-57.8721987466	31.3647588979	-26.0921607043	-54.8554628276
201062500.0	-23.4112867801	-8.5288353791	8.25951830234	-10.3696898881	-58.7016395852	29.6360694155	-26.1278440778	-54.1136965857
201750000.0	-23.3786791622	-11.616677888	8.27287626346	-11.5837194157	-58.638651812	29.9360136898	-26.1804013032	-53.4398620022
202437500.0	-23.3547579053	-14.7533758258	8.28399990357	-12.803904007	-58.7328670791	27.3150925213	-26.2274860818	-52.8530101307
203125000.0	-23.3252990713	-17.8430123022	8.30060331653	-14.0149222334	-58.6562550984	26.7036097867	-26.2754745603	-52.2555946727
203812500.0	-23.27801033	-20.999517694	8.31253507303	-15.2186565782	-58.2901666051	21.8308785424	-26.3246600475	-51.6878336238
204500000.0	-23.2416228101	-24.1232575963	8.32912325176	-16.4231658831	-58.3786456147	20.9333934353	-26.3781164906	-51.1159062757
205187500.0	-23.2028563598	-27.3148815598	8.34403373201	-17.6252120501	-58.1237643481	18.2666656872	-26.4383020696	-50.5970201065
205875000.0	-23.155171023	-30.414317414	8.36471005156	-18.8337547776	-58.0206384234	16.7626268884	-26.4881980811	-49.9820066476
