#Frequency	|S11|	<S11	|S21|	<S21	|S12|	<S12	|S22|	<S22
100000000.0	-16.9342501656	147.620835773	-43.1883450617	-112.047483439	-64.1347449452	20.2210240705	-20.0726709356	-29.1811449227
100687500.0	-16.8501622338	144.331821218	-43.1068960517	-116.429205126	-67.4832747314	57.8663699106	-20.0967398318	-29.0694374148
101375000.0	-16.8557233173	141.147945434	-42.6754711191	-119.279799171	-63.4437767853	148.915470746	-20.1239722116	-28.477572897
102062500.0	-16.8417831168	137.982704401	-42.2688457992	-120.466930454	-63.0858877022	-162.442330174	-20.1501060147	-27.6672730343
102750000.0	-16.8195753437	134.712747201	-41.8171113557	-123.427670381	-64.4159816746	-126.807301321	-20.1940785155	-26.957662689
103437500.0	-16.8123239904	131.530435638	-41.5068588118	-125.841342399	-62.8921508426	-82.7900878045	-20.2453272181	-26.2669336018
104125000.0	-16.8067042354	128.317454253	-41.2410517666	-126.929798994	-62.3625828028	-104.763430929	-20.2946132026	-25.492329532
104812500.0	-16.8004194775	125.112007236	-40.9949834815	-128.471779701	-61.9896545577	-151.923092893	-20.3711802467	-24.8939288225
105500000.0	-16.8028882144	121.85309165	-40.6970503915	-129.783282337	-62.1673056036	174.326543919	-20.4365294513	-24.3286372529
106187500.0	-16.8084484874	118.526286478	-40.4387898382	-131.12606085	-62.78452049	144.726354836	-20.5211824195	-23.821069277
106875000.0	-16.8252860913	115.115868665	-40.2281020201	-132.463709969	-62.7721109246	122.725320903	-20.6124950848	-23.3648474878
107562500.0	-16.8589932662	111.636150311	-40.0646927155	-133.891247712	-62.1409212412	106.791816557	-20.7099001205	-22.8870971409
108250000.0	-16.899381858	107.999973265	-39.9179121128	-135.120685201	-61.8642138639	78.7670442258	-20.808942497	-22.4708944757
108937500.0	-16.9241007114	104.452215684	-39.7324207468	-136.411294693	-61.7623309935	63.6987348489	-20.885614109	-21.9787008009
109625000.0	-16.9592350012	100.868957039	-39.5047803028	-137.618270963	-61.5054568038	53.3289762082	-20.9700156992	-21.519402221
110312500.0	-16.9920693561	97.197701303	-39.4434734103	-138.827100489	-61.0106826279	40.1747493022	-21.0614376874	-21.0736683522
111000000.0	-17.0344443365	93.4637270129	-39.2985526645	-139.753753914	-61.1200309249	15.949646144	-21.1580611062	-20.6354876434
111687500.0	-17.0765064637	89.5988754953	-39.2583779703	-140.651313882	-61.3935262043	-11.1454304136	-21.2534240998	-20.3035394027
112375000.0	-17.1327854212	85.6655996802	-39.2442250067	-141.255918733	-61.3696523852	-37.9713363211	-21.3665676347	-20.0358218156
113062500.0	-17.1796831386	81.6497159674	-39.2284322485	-141.650455568	-60.9840645668	-67.2874688266	-21.4712903911	-19.7691554636
113750000.0	-17.24631789	77.5178826667	-39.1796021322	-141.290537073	-60.6100911111	-95.4077432732	-21.5803297661	-19.5564727782
114437500.0	-17.3116226389	73.3236006269	-39.1770938926	-140.688167628	-60.3172027494	-134.779112729	-21.702672324	-19.3745088914
115125000.0	-17.3901076677	68.9461197461	-39.1098822521	-139.650873965	-60.4882500148	-176.052588789	-21.8293009287	-19.2091187047
115812500.0	-17.4596030789	64.420939962	-39.0366085694	-137.931434259	-61.1169184058	143.219966341	-21.9560335043	-19.0730397836
116500000.0	-17.5532757397	59.7066891112	-38.9155021475	-136.433552772	-61.6616068351	103.462623804	-22.0901453441	-19.0110024171
117187500.0	-17.6462145176	54.9516447374	-38.6814456319	-134.537534872	-61.878882536	65.2332380152	-22.2204699306	-19.000115553
117875000.0	-17.7535458587	49.9374284243	-38.4351842869	-132.513423446	-61.520618787	37.588861225	-22.3576942489	-18.9313350144
118562500.0	-17.8755182657	44.8360403693	-38.0656123183	-130.436453209	-61.5261807168	6.75715052638	-22.4800804499	-18.9765391784
119250000.0	-18.0097557317	39.4859534965	-37.7335555552	-128.39964159	-61.4100648296	-34.8969480445	-22.6139685399	-18.9801160178
119937500.0	-18.1647610886	34.0044020077	-37.2914275829	-126.500642947	-60.9875753201	-66.926230951	-22.7452474413	-19.0231474299
120625000.0	-18.3340771959	28.2982519381	-36.8289999159	-124.689668639	-61.0049618726	-105.644366751	-22.8795078325	-19.0634016011
121312500.0	-18.5500908937	22.4102834561	-36.3136837713	-122.969429007	-61.07133381	-136.161988891	-23.0086482708	-19.208198085
122000000.0	-18.7744486157	16.3332467492	-35.7830571482	-121.481831578	-60.9498584085	-174.389994994	-23.1526064988	-19.3245519041
122687500.0	-19.0601329841	10.0817789888	-35.1504062264	-120.022384282	-60.49193637	158.936342595	-23.2804080503	-19.5160252325
123375000.0	-19.3789439213	3.63667967446	-34.510143513	-118.937986448	-60.7178187183	128.958993058	-23.4046409642	-19.771886139
124062500.0	-19.7768031827	-3.07070336759	-33.832142815	-117.708747677	-61.100864167	103.812504442	-23.5279181104	-19.9970758378
124750000.0	-20.2514625722	-9.79763500039	-33.1485942143	-117.084496519	-61.553739121	89.0117449648	-23.6517026811	-20.3007843847
125437500.0	-20.8260493403	-16.7966325444	-32.4076003324	-116.332734879	-61.3423263317	77.2115937215	-23.7704249211	-20.4795897964
126125000.0	-21.5571729678	-23.6062098316	-31.6443971159	-116.203944041	-61.1564505772	67.7888202252	-23.8993861855	-20.778085081
126812500.0	-22.5599723747	-30.431474398	-30.8553502714	-115.990620164	-61.6045070249	53.5203741534	-24.0166119232	-20.9755081899
127500000.0	-23.553463735	-32.7967804097	-29.9983768436	-116.322423594	-61.6045188996	35.3753814056	-24.1263385119	-21.3564486726
128187500.0	-24.3799721862	-34.4436862215	-29.1782453402	-116.646239706	-61.4919398397	20.903991216	-24.2277806344	-21.6872130248
128875000.0	-25.0118748146	-35.9129433125	-28.2807125848	-117.631103482	-61.3897497778	7.41931981889	-24.3262361086	-22.0830592037
129562500.0	-25.567876485	-37.5430149054	-27.3475517422	-118.678158317	-61.4147722181	3.90844403401	-24.4100012517	-22.4314140063
130250000.0	-26.0373511051	-39.1805889323	-26.4309496488	-120.636851245	-61.35235044	-4.58646535973	-24.5051266313	-22.8205239637
130937500.0	-26.443374903	-41.0319679023	-25.5508075967	-122.697047205	-62.0814339243	-16.1244390548	-24.5907209551	-23.1725428485
131625000.0	-26.8052835392	-42.768391161	-24.6653178464	-125.587105927	-61.8119260014	-18.528434493	-24.6577326126	-23.6360912584
132312500.0	-27.1144597271	-44.6219970707	-23.8153932647	-128.765651257	-61.6910804724	-16.9126382251	-24.716814808	-24.0368173262
133000000.0	-27.3996930522	-46.4025650479	-22.9867820613	-132.835426719	-61.4378602371	-15.9647311449	-24.7697133523	-24.5502322586
133687500.0	-27.6330629987	-48.2537687121	-22.2311809212	-137.021209365	-61.0721562085	-1.89121549475	-24.8217517047	-25.0203412824
134375000.0	-27.8488723298	-50.096975214	-21.5481724074	-141.740155173	-60.6247369808	10.9379512462	-24.8505185978	-25.5163612803
135062500.0	-28.0202934121	-51.9938627193	-20.95014033	-146.558109407	-60.7767076796	15.037514023	-24.8710753361	-26.021564583
135750000.0	-28.1820534135	-53.8348176149	-20.3962157876	-151.51428655	-60.9143682844	23.1944555417	-24.8856816536	-26.5273873402
136437500.0	-28.2936192596	-55.5718309801	-19.9107335067	-156.540199717	-60.8999123462	30.3921010531	-24.8996257624	-27.1390086503
137125000.0	-28.3853142185	-57.3242673182	-19.4806442094	-161.670565921	-61.0330751785	32.4483828611	-24.9012138953	-27.7019065103
137812500.0	-28.4306124352	-58.9141408489	-19.122403909	-166.736988823	-60.7494432276	31.9023490622	-24.8837792266	-28.2746641303
138500000.0	-28.4384490754	-60.4173333184	-18.7886559977	-171.703019729	-60.496559801	19.1509291423	-24.864221892	-28.8699795669
139187500.0	-28.4089082225	-61.7187494921	-18.525796311	-176.655252476	-60.9412397915	3.24034654408	-24.8199997085	-29.4453207167
139875000.0	-28.3162817897	-62.9930825543	-18.2933483074	178.52421476	-60.9450198587	-13.1784335186	-24.7844061564	-29.9473435165
140562500.0	-28.1807426057	-64.0427421762	-18.1056288293	173.760770778	-61.2629465704	-38.1257029635	-24.7316832398	-30.547509381
141250000.0	-27.9561824825	-64.9592227082	-17.9462545162	169.207979468	-61.0972136985	-58.6430204548	-24.6728915186	-31.0358634204
141937500.0	-27.6492816596	-65.7898154939	-17.8269572928	164.737036493	-61.2309459854	-75.8720778581	-24.6013947965	-31.5971915005
142625000.0	-27.2300380971	-66.3930352471	-17.72954087	160.405626704	-61.1664472496	-101.348289744	-24.5177764772	-32.1524027015
143312500.0	-26.6499733441	-67.1064499993	-17.6619789919	156.20087843	-61.3618233698	-117.579659132	-24.4200764959	-32.6989815615
144000000.0	-25.7875581768	-67.9349130499	-17.6132780448	152.163234001	-61.0424693665	-141.80111008	-24.3260469932	-33.2274038967
144687500.0	-24.9436795016	-73.1089720304	-17.5833319511	148.238592387	-60.8152519601	-165.369964952	-24.2262907128	-33.6567002704
145375000.0	-24.2456385907	-79.0145409171	-17.5654995128	144.501431734	-60.6333524402	179.627007264	-24.1259956604	-34.0639272493
146062500.0	-23.747109194	-84.9857884668	-17.56196745	140.89921207	-60.6592497578	160.573639909	-24.0173773637	-34.3740497594
146750000.0	-23.3069139386	-90.773507583	-17.5692275738	137.409202297	-60.4791529083	136.630966894	-23.9064706886	-34.6360722951
147437500.0	-22.9647984744	-96.512842129	-17.5846642535	134.038921841	-60.530135804	106.90436581	-23.7773295262	-34.9319678754
148125000.0	-22.6673940932	-101.959145782	-17.6045171176	130.781246703	-59.9010083344	89.9579189944	-23.6474344845	-35.1542609537
148812500.0	-22.4280076391	-107.518998	-17.6323912499	127.654370024	-60.1841517141	65.1347300169	-23.5090353996	-35.2868769931
149500000.0	-22.216685559	-112.758523743	-17.6618062702	124.594721212	-60.3214031302	27.8524304934	-23.3701837862	-35.3681688917
150187500.0	-22.0451969413	-118.011067046	-17.6930447608	121.660647489	-60.3372573521	1.5868828074	-23.2346240695	-35.3443132491
150875000.0	-21.896928782	-122.974183611	-17.7299691955	118.812263854	-60.5009535227	-38.284026742	-23.0899530767	-35.2822167821
151562500.0	-21.7715490847	-128.026305724	-17.769865319	116.065034618	-60.8625311158	-64.7125486076	-22.9534772722	-35.1426704874
152250000.0	-21.6736144773	-132.725986229	-17.8156673048	113.335576391	-60.7467571428	-84.0611392041	-22.8228614225	-34.9882941523
152937500.0	-21.571569429	-137.436380603	-17.8604656482	110.746693226	-60.7421776104	-104.658550976	-22.6913763572	-34.7368941419
153625000.0	-21.5053032485	-141.973222595	-17.8995342146	108.2241324	-60.8992967651	-124.416966225	-22.5616509328	-34.3504835362
154312500.0	-21.4311917533	-146.421594929	-17.9447192329	105.797654835	-60.8504634007	-136.459860179	-22.4244649657	-33.9607800199
155000000.0	-21.3947093612	-150.816867545	-17.990173706	103.36911216	-60.8056402825	-148.737052659	-22.2909493677	-33.5054770676
155687500.0	-21.3495714769	-155.104545922	-18.0375438693	101.029802775	-60.3956011199	-148.659771151	-22.1663663642	-32.934565642
156375000.0	-21.3302448667	-159.436149372	-18.0790145565	98.7291420696	-59.9028637087	-145.03546271	-22.0409498457	-32.3746947213
157062500.0	-21.2988002567	-163.58187552	-18.1288410772	96.4899270119	-60.0251960178	-143.270621737	-21.9191232794	-31.7006929445
157750000.0	-21.2886311988	-167.795677465	-18.1709901216	94.3056368029	-59.5140119593	-140.559447972	-21.8060014166	-30.9632645862
158437500.0	-21.2656771009	-171.766908657	-18.2225450576	92.1713140888	-59.2563986728	-147.269931987	-21.7002767851	-30.2076795573
159125000.0	-21.2501061179	-175.816864007	-18.2612371478	90.0913576891	-58.9157040941	-156.854457199	-21.6046986884	-29.3765277901
159812500.0	-21.240892993	-179.702729048	-18.3058504853	88.0890351514	-59.2194787847	-170.116241076	-21.5061689739	-28.4991064756
160500000.0	-21.2310440018	176.316728616	-18.3442728718	86.0680969047	-59.050393824	176.814297396	-21.4244566041	-27.603292759
161187500.0	-21.2212762989	172.593441334	-18.3888167737	84.0897090489	-58.9870337933	162.991887501	-21.3367410506	-26.6714945079
161875000.0	-21.2046047267	168.818027836	-18.4246204318	82.168185116	-59.2279592178	158.359283162	-21.2621271339	-25.7061623241
162562500.0	-21.2068510227	165.160345352	-18.4697053314	80.2813137775	-59.7066470815	145.949914215	-21.188237942	-24.7416481366
163250000.0	-21.1871424364	161.515481879	-18.5077946744	78.4305998982	-59.5275399826	136.634868204	-21.1297132009	-23.732161242
163937500.0	-21.1887549176	157.949613293	-18.5579146438	76.5921572151	-59.5525747044	124.9689604	-21.0751481721	-22.7113682793
164625000.0	-21.1655873918	154.412012544	-18.5932372197	74.8023721922	-59.6720718792	113.358442792	-21.0296168066	-21.6678455572
165312500.0	-21.164606029	150.94721823	-18.6353743139	73.032021458	-59.7381226135	101.327120831	-20.9938317193	-20.58725082
166000000.0	-21.1408516777	147.58241776	-18.672884998	71.3043033156	-59.7181308547	87.5301992236	-20.9719078312	-19.5481231409
166687500.0	-21.1360579981	144.19336135	-18.7195152692	69.5978190157	-59.5517008499	75.8753648195	-20.9549528082	-18.5115662062
167375000.0	-21.1167814018	140.942372628	-18.7586196515	67.9207822056	-59.1644688196	63.933766916	-20.9448804954	-17.4443643482
168062500.0	-21.1064325761	137.603073964	-18.7947193394	66.2650552016	-59.1494509067	64.4638315714	-20.9341853032	-16.4340843595
168750000.0	-21.0903041989	134.496963316	-18.8287808896	64.6717285334	-58.8663364389	65.121935598	-20.9565543471	-15.4140335134
169437500.0	-21.0767986321	131.276772165	-18.8596115164	63.0810980552	-59.3846797732	55.0737390403	-20.9703715346	-14.3576500698
170125000.0	-21.0659615028	128.204267813	-18.8917091028	61.5469883489	-59.3216299987	43.9862634652	-20.9972325409	-13.350151687
170812500.0	-21.0575496339	125.053345454	-18.9239685992	59.9812723685	-59.0111304055	44.1233943328	-21.0293239026	-12.3567617097
171500000.0	-21.0498890725	122.053022563	-18.9598353962	58.4309823458	-59.1886232265	44.4010849957	-21.0862613429	-11.4251913884
172187500.0	-21.0328027623	119.032270671	-18.9821709001	56.9111067303	-59.273211617	44.8138154688	-21.1522362147	-10.4769934448
172875000.0	-21.0227159774	116.123425723	-19.0137855014	55.4210651133	-59.240959404	36.6016628821	-21.2125333895	-9.59838814721
173562500.0	-20.9974848095	113.240210239	-19.0419207987	53.9914268526	-59.2179950346	36.7508113488	-21.2986145648	-8.7551842806
174250000.0	-20.9911817748	110.427687246	-19.0628454455	52.5778416821	-59.1240615739	35.12428453	-21.3774068194	-7.9495318632
174937500.0	-20.9524656881	107.603034925	-19.0850846259	51.1712631634	-59.2694806704	39.0728752483	-21.4719812345	-7.17549359901
175625000.0	-20.9367603722	104.746094608	-19.1021594437	49.7628506125	-59.2528872934	52.3626110526	-21.5730081376	-6.39480694945
176312500.0	-20.9032755161	101.964260352	-19.118503955	48.3848487394	-59.0866009141	67.1486495083	-21.6882955754	-5.69463925225
177000000.0	-20.8679201193	99.1720153161	-19.1352151541	46.948639898	-59.1501374735	81.8479969095	-21.8203454216	-5.03185040509
177687500.0	-20.8216720989	96.4701743137	-19.15144886	45.6234286534	-59.0410884209	84.3418076028	-21.9600341836	-4.37303741826
178375000.0	-20.7930909212	93.7270997075	-19.163909685	44.2735461621	-59.0483638417	100.15513391	-22.106262711	-3.75562162944
179062500.0	-20.7488626536	91.1084066372	-19.1762141863	42.9322193751	-59.3150199997	107.645937982	-22.2585271684	-3.25030081481
179750000.0	-20.697256691	88.3488986743	-19.1802301058	41.5621414497	-58.9083931295	122.580803628	-22.4238561274	-2.71501619378
180437500.0	-20.650578399	85.6614072756	-19.1848678617	40.2457019221	-58.9552431378	138.814116277	-22.5865572017	-2.25857198562
181125000.0	-20.5987246735	82.9007217265	-19.1820955884	38.9042875635	-58.9388845221	156.746120304	-22.7556199215	-1.81078000184
181812500.0	-20.5516496942	80.3242113472	-19.1914900009	37.6226706744	-58.8672004504	-176.961930865	-22.9345906	-1.42418428862
182500000.0	-20.4926652552	77.6862638015	-19.1909519312	36.3089729858	-58.8754443535	-160.962890653	-23.1183755789	-1.04236834638
183187500.0	-20.4258581051	75.1494767826	-19.1964236478	35.0232245725	-58.9990680157	-144.280721444	-23.2948125921	-0.643812166994
183875000.0	-20.3552763783	72.5716425172	-19.1875243982	33.7432837876	-59.1274299829	-118.384709373	-23.4908354507	-0.388695018811
184562500.0	-20.2891592108	70.0498954834	-19.1896977419	32.4755005686	-59.0795316657	-102.656052995	-23.6789721884	-0.235398027543
185250000.0	-20.2114011465	67.560704365	-19.1803510691	31.1887524445	-58.6895499627	-99.242099757	-23.8797451139	-0.0434396522801
185937500.0	-20.1403688297	65.0721539805	-19.1815736418	29.9080077534	-58.909682724	-96.4015305758	-24.0747416494	0.0739951587007
186625000.0	-20.0690730844	62.6758757776	-19.1723384306	28.6353026815	-58.5057225164	-84.3063364411	-24.287587019	0.140573130378
187312500.0	-20.0068976517	60.2333222712	-19.164183432	27.2978821389	-58.5715571955	-69.5290665023	-24.4843703462	0.265698433844
188000000.0	-19.9328345476	57.8743924281	-19.15453154	26.0433457058	-58.7199978247	-54.9061628766	-24.6778002128	0.178819548821
188687500.0	-19.8801751543	55.4822766184	-19.1478896294	24.7773543676	-58.7051360353	-51.6130008363	-24.8682510192	0.128678612892
189375000.0	-19.8156556935	53.1775861006	-19.1381727468	23.5536737525	-59.0158671602	-35.7183298638	-25.0725805081	-0.0399086369981
190062500.0	-19.7611534865	50.7614024899	-19.1299460706	22.3067297637	-59.1232078894	-22.9357725239	-25.2786079391	-0.106921588831
190750000.0	-19.7142270166	48.4280934727	-19.1136889599	21.0590020259	-59.2577240363	-20.6297995098	-25.4679371749	-0.339586565071
191437500.0	-19.6797428677	46.049210456	-19.1052358056	19.7471730073	-59.373921425	-27.5989350816	-25.6689665487	-0.612673170676
192125000.0	-19.6470990635	43.8295577824	-19.0904056386	18.5003017133	-59.319692149	-30.428440322	-25.8472514168	-1.0629505655
192812500.0	-19.6186070802	41.4798868277	-19.0792732234	17.2403519889	-59.471526397	-45.4090072532	-26.039292244	-1.52521151165
193500000.0	-19.6059240639	39.2487618354	-19.0691113754	15.9797026425	-59.4800719652	-58.6920138119	-26.209769155	-2.10039288344
194187500.0	-19.6048692441	36.8812266609	-19.0550547361	14.7368213254	-59.0896156501	-60.3573741083	-26.3717717791	-2.69834289983
194875000.0	-19.6245277915	34.5964778031	-19.0402013503	13.5152320574	-59.6246163699	-58.010767571	-26.5177864996	-3.44777591344
195562500.0	-19.6353170306	32.1982517619	-19.0245299804	12.2553386701	-59.4778977426	-57.4963487289	-26.6617869027	-4.21747463057
196250000.0	-19.6679333873	29.837828598	-19.0123242169	11.0135893832	-58.9659109099	-45.1362126252	-26.8000385737	-5.13672160696
196937500.0	-19.6996158675	27.4991231664	-18.9971331463	9.76366496542	-59.1005294369	-43.0370092156	-26.9150201465	-5.99259803332
197625000.0	-19.7520154231	25.1383238647	-18.9809328501	8.54782666073	-59.5225328071	-51.5624963443	-27.0142925084	-7.03784813755
198312500.0	-19.7919719892	22.7185192615	-18.9648608094	7.33490657364	-59.6816587619	-54.1705387302	-27.103373188	-8.22998891034
199000000.0	-19.8636944901	20.2395201084	-18.9450555994	6.1082940491	-59.6600334637	-61.2700857552	-27.1678137594	-9.4439120605
199687500.0	-19.9145525274	17.7386740512	-18.9270240317	4.88976477209	-59.4797217847	-60.5921509343	-27.2231616292	-10.7507643129
200375000.0	-19.9990250261	15.1826857347	-18.9063829982	3.67703885902	-59.4086505057	-60.6832425223	-27.2872693078	-12.0778530493
201062500.0	-20.0685502958	12.6420553045	-18.8880707098	2.46549091123	-59.569591131	-60.4510148811	-27.3103601971	-13.5456609739
201750000.0	-20.1445829042	9.99633916712	-18.8663085673	1.23257241822	-59.7947919292	-47.8049712812	-27.3240884858	-14.8582725224
202437500.0	-20.2291205743	7.38623236074	-18.8478789016	0.0340678846736	-59.949309194	-21.7724110807	-27.3148766569	-16.3740140527
203125000.0	-20.3170645475	4.72332092717	-18.8264139627	-1.18272697744	-59.8290441474	4.10902240214	-27.2815023644	-17.7659041312
203812500.0	-20.3892924728	2.05513552724	-18.8110549537	-2.35300570571	-60.3036409548	21.2487108365	-27.2310793862	-19.2580882046
204500000.0	-20.4697772706	-0.709343876944	-18.7938170095	-3.55407686554	-60.3151414374	38.9744835839	-27.1805387086	-20.7141812553
205187500.0	-20.5459502278	-3.37814980546	-18.7764682974	-4.72856376752	-60.5379699461	54.9103826069	-27.1143650614	-22.0833946338
