#Frequency	|S11|	<S11	|S21|	<S21	|S12|	<S12	|S22|	<S22
100000000.0	-18.3012556612	125.099814332	-35.7101892189	-121.575883056	-64.8363203558	38.683787066	-21.8164896861	-33.7795530713
100687500.0	-18.2359732312	122.459963341	-35.1417910282	-123.239314427	-60.6715534422	95.7423791147	-21.9115382278	-34.3765037675
101375000.0	-18.1332760994	119.55959585	-34.6475847566	-124.511186144	-60.3102284705	116.553814771	-21.9446316706	-34.1203832263
102062500.0	-18.0570265712	116.669771007	-34.2621254869	-126.672516052	-60.0849670005	-175.226204174	-22.0035133306	-33.7722792014
102750000.0	-17.9739146922	113.802632486	-33.8909987157	-127.866797837	-58.5925385458	-101.731336041	-22.0368972977	-33.3700407542
103437500.0	-17.8971970195	110.937768623	-33.500650028	-129.278103093	-59.7232413516	-53.262591243	-22.0619168865	-32.9985019929
104125000.0	-17.8299765172	107.929163873	-33.1530763859	-130.837619972	-58.9583360689	-15.2103363	-22.1171187071	-32.4690212612
104812500.0	-17.773033898	104.840948855	-32.9007927673	-132.302125492	-59.3727973333	14.8062552497	-22.1812496231	-32.3294127357
105500000.0	-17.722587582	101.655315611	-32.6583277812	-133.63823309	-59.1818644629	23.9291481051	-22.2378813911	-32.1119143356
106187500.0	-17.6758584536	98.3643195279	-32.4849500889	-134.976135044	-59.2648566603	47.195692853	-22.3021169838	-31.9718413624
106875000.0	-17.6415514916	94.944464444	-32.312205738	-136.267813629	-59.5874623607	67.2615243493	-22.3693632089	-31.9825925128
107562500.0	-17.6147520552	91.4637663792	-32.2035097426	-137.581378222	-59.7313952838	56.7734398989	-22.4329828098	-31.8341161377
108250000.0	-17.5847853386	87.8186615709	-32.1396669827	-138.567921677	-59.9463645793	46.8316591571	-22.4833582502	-31.9269254955
108937500.0	-17.5431963798	84.3417626436	-31.9833603116	-139.704977173	-59.6180209837	49.3918653274	-22.527967951	-31.8167002796
109625000.0	-17.499729331	80.7977224798	-31.8542448733	-140.73421324	-59.9403430822	41.5837311549	-22.5709280093	-31.6949049099
110312500.0	-17.4575174217	77.1540128998	-31.7592731632	-141.516274186	-60.0132661299	44.2212777731	-22.6186662894	-31.6213089374
111000000.0	-17.4263353139	73.4203954597	-31.7155166029	-142.058884398	-60.4500353959	45.7863033912	-22.6666732029	-31.5880649999
111687500.0	-17.3940379752	69.6355843371	-31.6610707653	-142.181094279	-60.3670765378	43.6362721989	-22.7063440096	-31.627478828
112375000.0	-17.3628754025	65.7369415631	-31.6494678412	-141.959676702	-60.4553939826	35.3996633388	-22.754861722	-31.6363019033
113062500.0	-17.3344826478	61.7540130027	-31.6049549931	-141.256650311	-60.6217911313	23.4168645862	-22.7945801407	-31.6884263414
113750000.0	-17.3133464244	57.6293257183	-31.5406452633	-140.25558893	-60.7827799554	8.72698890799	-22.8409593838	-31.7476005584
114437500.0	-17.2990295051	53.4639497465	-31.4563595537	-138.822282404	-61.4450434382	-2.97846897201	-22.880227484	-31.8748791875
115125000.0	-17.2880274803	49.0718513768	-31.3167477731	-137.266496824	-60.856144762	-14.5887762656	-22.934197426	-31.9592924632
115812500.0	-17.2797421691	44.6839121394	-31.1421313123	-135.398314259	-60.8943000727	-13.6756006566	-22.9762996728	-31.9986906999
116500000.0	-17.2841140631	40.0982639799	-30.8942772501	-133.430240833	-61.0985087786	-14.7765656426	-23.0108317296	-32.0989800287
117187500.0	-17.2924304924	35.5046725461	-30.6214452736	-131.47927105	-61.1852721053	-15.4594739102	-23.038270383	-32.2905408179
117875000.0	-17.3184992328	30.737274404	-30.2597971446	-129.55740404	-61.7413534376	-28.499520035	-23.0716646898	-32.271327134
118562500.0	-17.3558351156	25.9344703977	-29.862072788	-127.684807533	-61.6740710757	-41.6574339968	-23.0913507735	-32.2898622417
119250000.0	-17.4176083194	20.9588004572	-29.4099055983	-125.894058093	-62.0230364773	-56.1154740019	-23.1111502778	-32.2999034358
119937500.0	-17.499569816	15.9612499994	-28.92239612	-124.288206995	-62.1174678364	-67.9924682948	-23.1296017573	-32.3056911827
120625000.0	-17.614402668	10.8572908967	-28.3669540742	-122.722231698	-62.2840941106	-92.1175519532	-23.1441547157	-32.3071300972
121312500.0	-17.7652727025	5.67524073554	-27.7922822705	-121.403307292	-62.183384622	-107.135908287	-23.1595679339	-32.2764825996
122000000.0	-17.956236544	0.533406647043	-27.1773843367	-120.225320409	-61.8694880891	-122.322604285	-23.1760187469	-32.2234024162
122687500.0	-18.2067770769	-4.60782745478	-26.5389197702	-119.247403354	-61.8848595315	-135.036048358	-23.1846033378	-32.126629665
123375000.0	-18.5137441394	-9.6314832319	-25.855214185	-118.333047644	-62.0570290073	-149.248984398	-23.1866165128	-32.0832791121
124062500.0	-18.884740425	-14.5242385669	-25.1341893201	-117.763995623	-62.6608736694	-149.572487065	-23.1921244742	-31.9425817805
124750000.0	-19.3463930108	-18.9467236169	-24.3806727607	-117.420937573	-62.904792857	-161.454420849	-23.2015886841	-31.7232394105
125437500.0	-19.8287371891	-22.8927149813	-23.6114061172	-117.358178772	-62.5352309362	-160.440025752	-23.2084408432	-31.3834885504
126125000.0	-20.3519091425	-25.8891397462	-22.8078083647	-117.505537656	-62.636587154	-158.183651318	-23.2260720372	-31.1636873312
126812500.0	-20.8468465557	-28.3814602122	-21.9880327561	-117.968481782	-62.3047950257	-148.643655757	-23.2345410337	-30.8250380467
127500000.0	-21.2637770475	-30.2257198423	-21.1413429343	-118.70936531	-62.28192086	-149.363677809	-23.2357366159	-30.5571921406
128187500.0	-21.6468532019	-31.963612988	-20.2691667358	-120.058716186	-61.7030200665	-161.389040889	-23.2447730196	-30.1186478534
128875000.0	-21.9846462446	-33.426801089	-19.3849119251	-121.721101166	-61.6873729205	-160.27573851	-23.2471043518	-29.6895973955
129562500.0	-22.2838288238	-34.8286885841	-18.477091922	-123.971189471	-61.9174923423	-166.510793273	-23.2398378487	-29.2255340913
130250000.0	-22.5627041522	-36.1559348417	-17.6038959456	-126.686824988	-61.8409088653	178.744302023	-23.2467665735	-28.6997933735
130937500.0	-22.8018885597	-37.4603677128	-16.7518994828	-130.110675312	-62.0061380311	166.972747087	-23.2473249837	-28.104717519
131625000.0	-23.0245386575	-38.6771201204	-15.9533143267	-133.925325766	-61.666834388	152.627215808	-23.2560396747	-27.5863022028
132312500.0	-23.2256703797	-39.8323870611	-15.2074622508	-138.129166858	-61.6441381058	125.607910859	-23.2489683667	-26.9591818951
133000000.0	-23.4135200593	-40.9629786242	-14.5248539153	-142.553579081	-61.6696444404	85.1192350526	-23.2547083229	-26.4512578668
133687500.0	-23.5843059235	-42.1049597121	-13.8956516607	-147.23784455	-61.6705917193	47.4714494417	-23.2656055157	-25.837241533
134375000.0	-23.7445789994	-43.1790368324	-13.3401954979	-152.050601779	-61.8430128623	7.24955219415	-23.2794424569	-25.2520456096
135062500.0	-23.8747533774	-44.3180956197	-12.8326263174	-156.947010693	-61.3691814196	-31.4771282177	-23.2842530562	-24.6813479813
135750000.0	-23.9861643665	-45.3868380646	-12.3896224557	-161.834417902	-61.1769851939	-60.381944591	-23.2870265879	-24.1399883992
136437500.0	-24.0759307985	-46.4405324068	-11.9974793367	-166.769309525	-60.9286746929	-83.9008068263	-23.3024107126	-23.6512015569
137125000.0	-24.1493037589	-47.4863344809	-11.6568724777	-171.651845777	-60.8157015322	-112.903478005	-23.3243731099	-23.1109034282
137812500.0	-24.1800024391	-48.4611138225	-11.3566687384	-176.485940952	-60.5988811193	-138.932985503	-23.3351950695	-22.5252841791
138500000.0	-24.1857934306	-49.4827109223	-11.1022918938	178.715965778	-61.2173748681	-167.227435057	-23.3544202883	-22.0219336811
139187500.0	-24.1424517444	-50.5143451017	-10.8857148955	174.051697156	-61.9294318326	154.6409664	-23.3635436133	-21.455111716
139875000.0	-24.0369482403	-51.6254091375	-10.7059470698	169.491157165	-62.2403736253	127.77153523	-23.3774990998	-20.8836293915
140562500.0	-23.875650931	-52.8401305892	-10.5554449933	165.045491516	-62.025051304	111.448689365	-23.3970478317	-20.361941931
141250000.0	-23.6504666898	-54.2959181862	-10.4361652068	160.700380034	-61.4935087014	86.3012510029	-23.4129688508	-19.8664428983
141937500.0	-23.3411665837	-56.1541987561	-10.3387665643	156.517749261	-61.5055446972	60.4644255436	-23.4300314079	-19.4263443979
142625000.0	-23.0145849955	-58.5368776783	-10.2619045494	152.419805867	-62.0607805525	31.9440810755	-23.4495397985	-19.0316618531
143312500.0	-22.645780986	-61.8295772954	-10.2030325637	148.481990507	-61.9250871128	3.84599381454	-23.468314169	-18.6302275542
144000000.0	-22.3121787861	-65.6783707544	-10.1593036173	144.633940429	-61.9378034876	-24.142814949	-23.4896771025	-18.1932706557
144687500.0	-22.0626853825	-70.0865866501	-10.1335979014	140.938757958	-62.3097180316	-51.6844153228	-23.5170871939	-17.7648355782
145375000.0	-21.8469593588	-74.6000777711	-10.1167459482	137.349236548	-62.6512054269	-65.9063181298	-23.5367429804	-17.4435178479
146062500.0	-21.6785068532	-79.3294073038	-10.1119393236	133.873319535	-62.8734671811	-90.1195433043	-23.5736768825	-17.0368509598
146750000.0	-21.5544969821	-84.1142214047	-10.1173127629	130.499473934	-62.3441082802	-113.239749919	-23.6101888733	-16.65911355
147437500.0	-21.4457263568	-88.9209899012	-10.1318267675	127.246043031	-62.5902850175	-125.378546717	-23.6278624366	-16.3567109465
148125000.0	-21.3821517413	-93.6766363458	-10.1496004064	124.072227634	-62.4353446607	-146.201062656	-23.6553588426	-16.0688653233
148812500.0	-21.335492324	-98.5523949623	-10.1755521932	121.009307434	-62.1681683498	-158.659908737	-23.6676462198	-15.7386806446
149500000.0	-21.3144736951	-103.257405475	-10.2032018055	118.055000156	-62.2141553811	-168.870273947	-23.6895301014	-15.4398683597
150187500.0	-21.30649765	-108.069820175	-10.2386803471	115.148258068	-62.2322460626	-168.924778863	-23.7083045153	-15.1207181639
150875000.0	-21.3068569606	-112.607752431	-10.2738419192	112.371667269	-62.7253474737	-177.925885997	-23.7214019482	-14.8144088027
151562500.0	-21.3163756717	-117.34303711	-10.3088607803	109.640201151	-62.5086534595	-179.103842067	-23.7293750809	-14.5221697654
152250000.0	-21.3469037235	-121.772544934	-10.3473741016	107.006077618	-62.544137802	-178.176585707	-23.7513257063	-14.169389052
152937500.0	-21.38795869	-126.258607218	-10.3909456389	104.40753111	-62.4372137689	-175.875993581	-23.7766239033	-13.842028759
153625000.0	-21.4373467408	-130.540418119	-10.430285245	101.908394756	-62.5336558941	-179.125542343	-23.8015012525	-13.4124660246
154312500.0	-21.4778916611	-134.88776121	-10.4729283981	99.4389969571	-62.4844596522	179.373863906	-23.8065515549	-13.0732281214
155000000.0	-21.5337403458	-139.09858975	-10.5178910381	97.0552723267	-62.5200529984	176.509643664	-23.82064512	-12.6815316413
155687500.0	-21.5783157599	-143.290823085	-10.5617813744	94.7215320592	-62.0951822071	174.57476433	-23.8425257923	-12.2002356794
156375000.0	-21.6443359884	-147.405254135	-10.6066369672	92.449310089	-61.5036855404	174.766342562	-23.8536647985	-11.8411117437
157062500.0	-21.6997574002	-151.453964862	-10.6484889659	90.2036243021	-61.3680274598	162.755936466	-23.8664278749	-11.3670827793
157750000.0	-21.7685617254	-155.456985919	-10.6925584618	88.0088811783	-61.3537896812	147.577397152	-23.8786656224	-10.9464779684
158437500.0	-21.8340921549	-159.309385652	-10.7340440485	85.8658748252	-61.9946374623	128.629654454	-23.8953495802	-10.4705508514
159125000.0	-21.8926408959	-163.162308357	-10.7791669035	83.7747859435	-61.9137370081	109.008951525	-23.9075436356	-9.97445546565
159812500.0	-21.9561624918	-166.859135209	-10.821043914	81.723253562	-61.3829464387	82.9440360404	-23.9199239896	-9.4837403424
160500000.0	-22.0307127299	-170.564410661	-10.8650319736	79.7085850633	-61.67924009	66.1307194863	-23.9371428575	-9.04071215919
161187500.0	-22.0984504457	-174.114479002	-10.9066781887	77.7329566386	-61.5364500397	39.1252274194	-23.9487891608	-8.62203197877
161875000.0	-22.1717657086	-177.64602251	-10.9498453947	75.7785864129	-61.0414828608	11.3567696509	-23.9802554564	-8.13470569105
162562500.0	-22.2433453381	178.900243024	-10.9899537598	73.8611726832	-60.7890455215	-29.2329689944	-24.0064407849	-7.60368559647
163250000.0	-22.3196371061	175.422515876	-11.0315301698	71.9687806336	-60.4214217852	-67.6066434097	-24.033975148	-7.09966854403
163937500.0	-22.3980589339	172.172274789	-11.0703715134	70.1429409479	-60.632684567	-99.1443234224	-24.0623656509	-6.61589364569
164625000.0	-22.4835874925	168.874858564	-11.1094096149	68.3124068573	-60.3894150013	-140.503867512	-24.1002693334	-6.18169220115
165312500.0	-22.572540763	165.730307965	-11.1480693648	66.5435398403	-60.5660697611	173.213721303	-24.1423445941	-5.70800293444
166000000.0	-22.6643274017	162.632557648	-11.1855819671	64.7704872131	-60.9558606223	128.487258818	-24.1973070164	-5.31449046185
166687500.0	-22.766778902	159.494778716	-11.2226231709	63.036759189	-61.0976213622	82.3557088741	-24.2525602096	-4.87720260826
167375000.0	-22.8695976463	156.563426821	-11.2569029534	61.3432198254	-60.9854497285	26.3205649666	-24.3069185707	-4.53067741451
168062500.0	-22.9833634919	153.472282976	-11.2942778225	59.6717773561	-60.4556819717	-34.6636258946	-24.3646583486	-4.20768842679
168750000.0	-23.1000652205	150.520833204	-11.3288522838	58.0204347767	-60.5579169791	-101.429791544	-24.4455394962	-3.86366394139
169437500.0	-23.216214795	147.417898948	-11.364609498	56.4024930677	-60.8336995516	-159.212501299	-24.5172971389	-3.59771024578
170125000.0	-23.3477776536	144.479999902	-11.3957003523	54.8032961299	-60.8119878502	142.612695721	-24.5947483405	-3.29703417486
170812500.0	-23.467186169	141.339340766	-11.4298412275	53.2249262098	-60.6834146973	84.4085210008	-24.6664490465	-3.15508553669
171500000.0	-23.6034235326	138.378864584	-11.4598946995	51.6763573954	-60.5823639767	23.3488930075	-24.7520468562	-2.99873346568
172187500.0	-23.7389564028	135.179608606	-11.4888759404	50.1510739009	-60.5603687522	-33.051373694	-24.8387987248	-2.97938094887
172875000.0	-23.8959848123	132.128772604	-11.5166016364	48.6489205551	-60.620954433	-99.5004125013	-24.9233812101	-3.01333462547
173562500.0	-24.0273490571	128.83369383	-11.5449810005	47.1527095746	-60.7447816612	-164.253724872	-25.0244351608	-2.99196041234
174250000.0	-24.1827732086	125.666770689	-11.569478135	45.6978240502	-60.5325520635	131.031499851	-25.1156569458	-3.04072095799
174937500.0	-24.3199878747	122.206532687	-11.5916292331	44.2439437488	-60.604189651	59.8792697348	-25.2146653185	-3.24832691066
175625000.0	-24.4492269162	118.766075467	-11.613887149	42.8124799162	-59.7331269412	-6.0576064523	-25.3007980891	-3.44513963862
176312500.0	-24.5784960568	115.187831098	-11.6347533457	41.3765218315	-59.6725773808	-63.0983251726	-25.4018212333	-3.74978888356
177000000.0	-24.6953453599	111.601208088	-11.6534556321	39.9816389633	-59.8567614826	-118.851224115	-25.5046339177	-4.02489051727
177687500.0	-24.7896613906	108.007377077	-11.6718781392	38.5783298168	-60.3282032024	-176.250143706	-25.6016582426	-4.33922262973
178375000.0	-24.889236966	104.343735005	-11.6865399896	37.2072926	-60.4452641136	127.874463942	-25.7038045422	-4.62881358412
179062500.0	-24.9853313763	100.721506601	-11.6995175262	35.8305809548	-60.6536848647	78.494743825	-25.7835136622	-5.24744953897
179750000.0	-25.0667672332	96.8632626818	-11.7143120904	34.4828763355	-60.5269804596	34.8735910804	-25.8584840844	-5.62919172794
180437500.0	-25.1238799316	93.0875182736	-11.7258862989	33.1218945516	-60.709366458	-12.7420590306	-25.9292325581	-6.18672119047
181125000.0	-25.1674277853	89.1048761707	-11.7353078003	31.7803294384	-60.7319742236	-55.6206507195	-25.9993933365	-6.64344689449
181812500.0	-25.2021173369	85.354084339	-11.7435530554	30.4235119648	-60.6509980921	-98.4317733978	-26.0641644358	-7.16198429069
182500000.0	-25.2197706159	81.3329901799	-11.7526855565	29.0960266578	-60.3813081897	-127.083347569	-26.1093410778	-7.67453179188
183187500.0	-25.2155116363	77.4861771182	-11.7582522079	27.7921605028	-60.2738112909	-160.765933503	-26.1486524264	-8.04852704282
183875000.0	-25.1969959911	73.6264059721	-11.7655279279	26.4663925669	-60.1600071075	172.704923919	-26.1816393605	-8.6047070159
184562500.0	-25.1702986521	69.7615519672	-11.7709621696	25.1391345746	-60.5015517197	157.988200637	-26.2143658735	-9.08337341417
185250000.0	-25.12140251	65.9131509883	-11.7743840075	23.8186010411	-60.3389342998	144.03413113	-26.2383032608	-9.52572173264
185937500.0	-25.0714362456	62.1556743473	-11.7772654498	22.5100402759	-60.5943015003	128.770943669	-26.2397820146	-9.91555788175
186625000.0	-25.0188314133	58.5093403961	-11.7772493403	21.1982034823	-60.1369979617	100.746555245	-26.246743944	-10.3207887171
187312500.0	-24.9339714639	54.6960536039	-11.7753882733	19.9081507127	-60.0160251772	71.3188938999	-26.2382906126	-10.6532448669
188000000.0	-24.8559145851	51.099115637	-11.773236125	18.6162084777	-59.9735309647	43.369520625	-26.2217375526	-10.9803793602
188687500.0	-24.7663999834	47.4125232275	-11.7716631007	17.3396589851	-59.8945328929	10.9913215853	-26.2072097126	-11.162627468
189375000.0	-24.6741880119	43.9753254203	-11.7698857105	16.0529758956	-59.8902786636	-28.4959623498	-26.1917791232	-11.3119351974
190062500.0	-24.5659581385	40.449219758	-11.7663671775	14.7628428802	-59.7233840727	-56.0091224859	-26.1502601107	-11.3691356507
190750000.0	-24.4735486283	37.1593308614	-11.7607004268	13.4790991483	-59.6321498469	-88.1059671172	-26.117379219	-11.4225163527
191437500.0	-24.3608471287	33.7653339916	-11.7590736023	12.2130361923	-59.4707355913	-110.913434749	-26.0661731982	-11.5032809615
192125000.0	-24.2543369464	30.7566854519	-11.7585272997	10.9495443078	-59.4808176281	-133.634796808	-26.0102007848	-11.3758266703
192812500.0	-24.1539282422	27.5466939816	-11.7552910906	9.69585466363	-59.3051798236	-161.744663362	-25.9681075837	-11.3097399575
193500000.0	-24.0740757919	24.5788477267	-11.7492840556	8.44378282585	-59.2151177635	174.194283713	-25.908355434	-11.1737726448
194187500.0	-23.9861255931	21.5142843754	-11.7449544569	7.18550750153	-58.9156696763	157.695197024	-25.8404511442	-11.032851716
194875000.0	-23.9222415883	18.5524602559	-11.7390334497	5.92753237039	-58.1433000401	135.430840732	-25.7776452845	-10.7869376391
195562500.0	-23.8461247373	15.4737891497	-11.7349159725	4.68573382191	-57.9868663448	123.517409421	-25.7117302964	-10.4979113548
196250000.0	-23.7801083037	12.4147168745	-11.7277012716	3.43767803191	-58.2516750019	117.724059147	-25.6517163159	-9.99404212085
196937500.0	-23.7108560147	9.51129740417	-11.7192253562	2.20042127245	-58.9063249313	115.985186321	-25.5902219372	-9.63128757249
197625000.0	-23.6655069958	6.60161363397	-11.7097947042	0.974440706335	-58.8395089931	114.822705396	-25.5215926624	-9.18014431831
198312500.0	-23.6276325682	3.7016428225	-11.7025238231	-0.256134306756	-58.9395460573	103.822364312	-25.4590614923	-8.83344019007
199000000.0	-23.5955177289	0.624533152988	-11.6909660561	-1.46389342118	-59.0225396706	104.041385143	-25.3993109596	-8.39418052697
199687500.0	-23.5539360508	-2.34309632637	-11.6822471459	-2.67525724436	-59.0835704127	90.6724834104	-25.3528981074	-7.92693251776
200375000.0	-23.5277851355	-5.37576420811	-11.6696856242	-3.90163739709	-58.9430412165	83.7702985898	-25.3146371395	-7.51578401875
201062500.0	-23.496847178	-8.43545583755	-11.6584000005	-5.10374988846	-58.8672805178	80.5044692967	-25.2724347765	-7.04835594802
201750000.0	-23.4791173441	-11.6103575548	-11.6441381213	-6.2925952434	-58.6947335236	67.5791105999	-25.2278640753	-6.49745197738
202437500.0	-23.4504533452	-14.6113405191	-11.6326172344	-7.49614157913	-58.9850096604	55.1632354012	-25.1878173327	-6.08494741811
203125000.0	-23.4266712392	-17.7559684556	-11.6174951339	-8.68593634996	-58.5896669938	43.1034607701	-25.1507081552	-5.62580576967
203812500.0	-23.3770921472	-20.8576654704	-11.6047567921	-9.86911865838	-58.6942792239	43.9530587013	-25.1119468823	-5.26641540469
204500000.0	-23.3424661413	-24.0341999542	-11.5916285698	-11.0521145594	-58.795333005	48.9600930964	-25.0768554051	-4.85188057096
