#Frequency	|S11|	<S11	|S21|	<S21	|S12|	<S12	|S22|	<S22
100000000.0	-16.2979244105	148.375749343	-20.3136227625	-126.39309373	-58.8388772381	-61.3214733294	-20.640569879	-51.5058361521
100687500.0	-16.2564513496	145.336810186	-19.8417727815	-127.526889094	-64.5689390476	-8.7824197384	-20.7907868741	-51.2431141433
101375000.0	-16.2382513811	142.028376312	-19.4102382513	-128.927827381	-64.4626374153	58.3926838777	-20.8868153932	-50.605382214
102062500.0	-16.2159301896	138.834819558	-19.02142368	-130.390217654	-65.6326468733	108.611041503	-20.9638471336	-49.858481843
102750000.0	-16.1826062867	135.66190765	-18.6593316246	-131.917322652	-63.1433018063	111.163560228	-21.0683274053	-49.1560179188
103437500.0	-16.1737544559	132.544309554	-18.3409327003	-133.314972243	-61.9924648247	109.899180041	-21.1819106392	-48.5545375215
104125000.0	-16.1694533337	129.343524403	-18.0341710363	-134.770995984	-62.0155836468	101.287507844	-21.3223063071	-47.835097522
104812500.0	-16.177559035	126.130145087	-17.7557010573	-136.195032229	-61.8220145183	77.2069453136	-21.4587551616	-47.4026890839
105500000.0	-16.1837905894	122.892595203	-17.4978374206	-137.65373695	-61.7666186433	67.8860461161	-21.6022554342	-47.0473348047
106187500.0	-16.1988007147	119.570336156	-17.2711977703	-139.089656444	-62.6545090393	59.9827825838	-21.767955775	-46.6284114506
106875000.0	-16.2196075801	116.167449771	-17.071984114	-140.501097973	-62.8115495637	56.9707433174	-21.93426407	-46.3685454961
107562500.0	-16.2531698253	112.688058765	-16.911940666	-141.886728011	-62.2199314519	43.4251103171	-22.1161224368	-46.0623689568
108250000.0	-16.2933895569	109.048642211	-16.7900727397	-143.17754503	-61.7637503952	38.2558243412	-22.2887887804	-45.9145317852
108937500.0	-16.3184400974	105.516062147	-16.6043275999	-144.444445119	-61.8039811863	40.2931507668	-22.452384979	-45.5820728672
109625000.0	-16.3530799416	101.934000378	-16.4539644867	-145.679416991	-61.3562019564	42.7637413623	-22.6071754727	-45.2670083224
110312500.0	-16.3866568649	98.2415282441	-16.3260495455	-146.820559607	-61.4622616427	57.7155357024	-22.7782597259	-44.9544054606
111000000.0	-16.4360687696	94.5135368133	-16.2346695233	-147.829824689	-61.0195141518	73.9999890807	-22.9497362502	-44.6875139755
111687500.0	-16.484035237	90.701237176	-16.1708637878	-148.633889012	-61.4967115804	79.462311499	-23.1277895717	-44.536667705
112375000.0	-16.5447084736	86.7804749424	-16.1402187768	-149.200793101	-61.8175388803	80.5569016588	-23.3074835182	-44.4102476587
113062500.0	-16.6053109854	82.7846923087	-16.1359643314	-149.421370436	-60.9287948859	83.0032622897	-23.4954938422	-44.3450463735
113750000.0	-16.6799191468	78.671054026	-16.1415511849	-149.222379618	-61.3686213462	82.4632965111	-23.67683429	-44.4143704137
114437500.0	-16.7596942288	74.4787984569	-16.1430034705	-148.565751269	-61.4685813464	94.0449950563	-23.873694154	-44.4552040117
115125000.0	-16.8447062572	70.0443659106	-16.1119486063	-147.481967057	-61.6447566685	95.3550610762	-24.0700242457	-44.5545865983
115812500.0	-16.9354924804	65.5187678335	-16.0361502706	-146.032491584	-62.0118821925	95.9487735492	-24.2677553021	-44.6598958145
116500000.0	-17.0352384975	60.834645158	-15.9041607162	-144.307468684	-61.7985306198	100.309849256	-24.4564283121	-44.900717364
117187500.0	-17.1459910613	56.0838556828	-15.7180348104	-142.408896043	-62.0707115824	102.558756365	-24.6469658968	-45.1431875522
117875000.0	-17.2689274911	51.09999599	-15.4675987399	-140.45292656	-61.9712396569	104.661191597	-24.8569523583	-45.2706569067
118562500.0	-17.4094755701	46.0195740632	-15.1652374245	-138.44353649	-61.9472008087	106.468935384	-25.0580047049	-45.505059066
119250000.0	-17.5640782366	40.6551613925	-14.8084384743	-136.452684959	-61.5791841855	118.74442111	-25.2416084872	-45.6595830225
119937500.0	-17.7426766267	35.1831290881	-14.3989300932	-134.509069268	-61.7281252049	121.741111778	-25.4232279665	-45.8567466276
120625000.0	-17.9413538217	29.4423801438	-13.9394463941	-132.680476468	-61.4415664411	137.04591284	-25.6108341865	-46.1292193475
121312500.0	-18.183002	23.5658858094	-13.4354426027	-130.94046447	-60.6784307758	151.725429806	-25.7784571045	-46.3756761622
122000000.0	-18.4556608459	17.4990068343	-12.8860918778	-129.377460845	-60.8804307142	165.118899146	-25.9559178357	-46.6571918639
122687500.0	-18.7845003517	11.155316183	-12.3004147536	-127.961636777	-60.5579377759	-176.562859556	-26.1057845064	-47.0136318984
123375000.0	-19.165637729	4.6374153579	-11.6719817053	-126.73771204	-60.8495877667	-162.591241651	-26.2437923108	-47.2403046332
124062500.0	-19.6186742092	-2.24280807125	-11.0101599348	-125.696888223	-60.8912659665	-139.573306618	-26.3783690689	-47.6109701546
124750000.0	-20.1855871849	-9.19337230575	-10.3165388512	-124.896656696	-60.9946178608	-123.206310183	-26.5116459545	-47.8816382653
125437500.0	-20.839903191	-16.4460122631	-9.58905474098	-124.300437657	-60.8866465959	-116.605150633	-26.6297209753	-48.0750149279
126125000.0	-21.8271468323	-24.1712931761	-8.83040941152	-123.978651835	-61.0210005056	-104.562934719	-26.7394827571	-48.4298547996
126812500.0	-23.4024930612	-34.1619109499	-8.04030006317	-123.871788434	-60.7589178793	-103.250998148	-26.8301597621	-48.7827884592
127500000.0	-24.2764451046	-48.9613748918	-7.2265876493	-124.08955345	-60.6197263547	-103.433051545	-26.9030303746	-49.1821808171
128187500.0	-25.0255519732	-64.1115936998	-6.38138023232	-124.59921085	-60.3665633962	-115.55774814	-26.9537662516	-49.5344170585
128875000.0	-25.608233054	-79.4823264527	-5.51275357117	-125.488545769	-60.6580928282	-129.257835299	-26.9943983227	-49.8547277415
129562500.0	-26.1143062369	-95.0204731245	-4.61625549672	-126.77237704	-60.6890206154	-140.301186992	-27.0048449879	-50.3053927081
130250000.0	-26.551931646	-110.744273917	-3.70286333325	-128.562695449	-60.8762311883	-164.498553	-27.0317652013	-50.8005605527
130937500.0	-26.9363026792	-126.767281758	-2.78448736233	-130.908108007	-60.8300848893	-177.463427325	-27.0302811839	-51.1076420153
131625000.0	-27.2907799415	-142.730932011	-1.88119443639	-133.870565717	-60.7005311231	159.843082079	-26.9988588937	-51.6138602298
132312500.0	-27.5969387314	-158.718530776	-1.01324246654	-137.397595965	-60.5832565224	147.013947257	-26.9701190344	-51.9706453213
133000000.0	-27.8762474567	-174.757140513	-0.201734831619	-141.433537531	-60.0851195248	136.134788884	-26.9226411691	-52.4883416261
133687500.0	-28.112073208	169.096536996	0.543950142784	-145.842072061	-60.2365355938	119.994589463	-26.8709556701	-52.9425448139
134375000.0	-28.3281553649	152.924728655	1.22288908202	-150.561797347	-59.8380505149	108.670882548	-26.784950444	-53.4515486416
135062500.0	-28.49968252	136.68703492	1.83572287901	-155.442373136	-59.9956915775	106.245263667	-26.6837587464	-53.9907854579
135750000.0	-28.6484194838	120.52595937	2.38006145938	-160.455715383	-60.0250417711	96.1140962151	-26.5578257351	-54.5793329188
136437500.0	-28.7626859961	104.446638069	2.8656895325	-165.550668408	-59.9982069112	83.5415785587	-26.4511329734	-55.167299889
137125000.0	-28.8492251132	88.365118913	3.28819943271	-170.676332583	-59.6680107674	70.0003618421	-26.3310875403	-55.8370888999
137812500.0	-28.8887049445	72.5029875057	3.65863085153	-175.780114229	-59.7898014539	53.0580063355	-26.2042673161	-56.4140744248
138500000.0	-28.8921548399	56.6616388622	3.97600424323	179.141179442	-59.9811917786	27.4528480887	-26.0460527907	-57.0784252434
139187500.0	-28.8423243522	40.9732427194	4.24538068856	174.148665028	-59.6672676629	-1.73221050991	-25.8999985302	-57.5684120138
139875000.0	-28.7302611029	25.4081723839	4.46962022817	169.242677656	-59.5627618095	-29.7511124553	-25.7455252432	-58.1556101167
140562500.0	-28.5611748872	9.980637841	4.65543014836	164.443376144	-59.2735006356	-53.1770019062	-25.6070364708	-58.7906671641
141250000.0	-28.300001752	-5.14473453993	4.80519879504	159.781627106	-59.2398778641	-76.8310255336	-25.4378523398	-59.3105414156
141937500.0	-27.9344260534	-20.1292496301	4.92286797214	155.252273738	-59.0987403792	-100.853077139	-25.2807741565	-59.8755377496
142625000.0	-27.4548772904	-34.9256671491	5.01348939829	150.857152279	-59.3984125189	-116.532837058	-25.1067278641	-60.4026784136
143312500.0	-26.6361882813	-49.1585811418	5.0769710674	146.615294739	-59.3106876983	-130.023848431	-24.9309585948	-60.8334568263
144000000.0	-25.2214745781	-61.1925542879	5.1202739218	142.504337036	-59.7143098918	-146.144908169	-24.7665467849	-61.2622044905
144687500.0	-24.517640702	-68.3522554962	5.14729078191	138.559300653	-59.7493013445	-173.099755544	-24.59681392	-61.7317059309
145375000.0	-23.9137437706	-75.1762998595	5.15714919327	134.752587425	-60.1143250882	171.614300325	-24.4332117491	-62.176107185
146062500.0	-23.4854122137	-81.7118513124	5.15406281764	131.088455634	-59.5973504523	159.094103702	-24.286207881	-62.5530254655
146750000.0	-23.1154952492	-88.026019746	5.14167097385	127.553745781	-59.4876416984	151.274935809	-24.1550026673	-62.7244724132
147437500.0	-22.8267369617	-94.1068645196	5.12014724078	124.160532391	-59.181478672	152.333134605	-23.9887966089	-62.8269694975
148125000.0	-22.5719642866	-99.8553087148	5.09215886256	120.877098507	-59.756215881	146.838411516	-23.855889093	-62.9177856769
148812500.0	-22.3537883773	-105.648056859	5.05604200605	117.713753463	-59.8189116795	146.73951051	-23.7076928789	-62.9392767733
149500000.0	-22.1704630801	-111.194837824	5.01840262446	114.655722442	-59.657921312	145.761429236	-23.5735092226	-62.9201612525
150187500.0	-22.0000099837	-116.665320597	4.97505271379	111.69957494	-59.6965271028	146.165458762	-23.4394304412	-62.7383184974
150875000.0	-21.8751946647	-121.839573623	4.93191527572	108.846096045	-59.672808158	145.292968641	-23.3149596157	-62.4462352471
151562500.0	-21.7541341838	-127.013444523	4.88621911308	106.080686103	-59.710180353	145.245702079	-23.1996860856	-62.1405015605
152250000.0	-21.659880377	-131.898039757	4.83963469984	103.389407718	-59.3263202926	149.110310312	-23.1034004859	-61.7619711045
152937500.0	-21.575022616	-136.786280683	4.78993567578	100.783514094	-59.2684966163	149.128373766	-23.0042575716	-61.2295163328
153625000.0	-21.516219001	-141.522353539	4.7419968696	98.2461200703	-59.3373469441	140.225192051	-22.9287659539	-60.6645439384
154312500.0	-21.452528001	-146.159107402	4.69387896623	95.7808514065	-59.4275572884	138.74729813	-22.8304450134	-60.0538788449
155000000.0	-21.412219364	-150.722654911	4.64342877782	93.3697650534	-59.2826712551	133.396002601	-22.7472560594	-59.2994201142
155687500.0	-21.366750185	-155.207966273	4.59521989899	91.0284295815	-59.0056713132	131.528868519	-22.6785172618	-58.5601795558
156375000.0	-21.3406394649	-159.653682496	4.54693910621	88.729557309	-58.978927576	135.278019442	-22.6068008787	-57.7752341762
157062500.0	-21.3098291248	-163.917839243	4.49964133578	86.4970638929	-59.0787367862	132.655546631	-22.5496685192	-56.7772973261
157750000.0	-21.2794865696	-168.156832242	4.45138441136	84.3055030027	-59.1090467763	133.830066032	-22.4795518102	-55.8465484512
158437500.0	-21.2673254098	-172.258576291	4.40363170744	82.1608216418	-59.1688099329	133.41906951	-22.4367997366	-54.8933763469
159125000.0	-21.24178243	-176.427623534	4.35755296333	80.0607942973	-59.1772050284	132.643406001	-22.4009011676	-53.878541401
159812500.0	-21.2396422513	179.649305274	4.31174653752	78.0056496433	-59.2823376092	130.41870862	-22.3775235291	-52.8737673663
160500000.0	-21.2304072288	175.622670822	4.2676300266	75.9856536116	-59.064899788	121.731203153	-22.3635436923	-51.8120960764
161187500.0	-21.2237424233	171.759404729	4.22490180907	74.0022101182	-58.7312013557	121.426079867	-22.3537998423	-50.6674277015
161875000.0	-21.2037030972	167.897765262	4.18044120776	72.0556456659	-58.6298716446	122.3874398	-22.3676383644	-49.4578461609
162562500.0	-21.192664381	164.154232091	4.13906189257	70.1586276313	-58.2691902491	122.320021258	-22.3809487909	-48.2521538686
163250000.0	-21.1642317319	160.414283333	4.0969311615	68.278316013	-58.1502291387	123.186848849	-22.4081945777	-47.0386061289
163937500.0	-21.1609561618	156.753330936	4.05624320223	66.4311003759	-57.9149125784	126.043362857	-22.4331572876	-45.8617585497
164625000.0	-21.1247984048	153.141943961	4.0168104195	64.6103992214	-57.8085488261	125.424740549	-22.4768389627	-44.6342083818
165312500.0	-21.1089553196	149.631506069	3.97673833561	62.8277844377	-57.5638149212	125.19974146	-22.5266802566	-43.413356209
166000000.0	-21.0768940962	146.208894812	3.93875416227	61.0684532127	-57.5259706126	121.26884054	-22.6033520803	-42.1510286038
166687500.0	-21.0539687132	142.78658274	3.90115071041	59.336358083	-57.6645756668	112.21223131	-22.6750755245	-40.9214737621
167375000.0	-21.0356420197	139.523810843	3.86526613033	57.6307859887	-58.1402073089	110.871746556	-22.7642678423	-39.8014364585
168062500.0	-21.0132942686	136.197073975	3.83084672476	55.9475218804	-57.618253499	104.940660694	-22.8633614316	-38.6206783654
168750000.0	-20.9872799672	133.008936018	3.79684683395	54.2966781353	-58.164182875	93.9761169401	-22.9797933454	-37.5240355984
169437500.0	-20.9572266746	129.773969911	3.76299532515	52.6736556392	-58.227917461	72.046576961	-23.1018465488	-36.3893490222
170125000.0	-20.9352231227	126.668675493	3.73289210108	51.062283698	-58.6528142576	55.4569291372	-23.2378126676	-35.3829737889
170812500.0	-20.9030436256	123.55816043	3.70198083787	49.4817544539	-58.507348959	41.2280703164	-23.3749197678	-34.3208977831
171500000.0	-20.8796467841	120.554055826	3.67262648419	47.923985933	-58.5990304834	26.3440362318	-23.5337906845	-33.2716383201
172187500.0	-20.8478160466	117.47584896	3.6471466142	46.3894137333	-58.8469299571	7.87779445745	-23.7046784942	-32.2993514175
172875000.0	-20.82402751	114.564008456	3.62179833032	44.8708281815	-58.739891011	-12.5798914037	-23.8828381271	-31.4240367435
173562500.0	-20.786554903	111.605828312	3.59738864578	43.3804491388	-58.9702344422	-27.1539619383	-24.0873729635	-30.561843876
174250000.0	-20.7624869906	108.757774581	3.57714375051	41.8920493772	-58.9963952994	-45.7498875575	-24.2835848304	-29.7684500469
174937500.0	-20.7230378641	105.876068706	3.55786296324	40.4297270795	-58.9517763062	-62.3187141769	-24.5204925905	-29.0546841849
175625000.0	-20.6883786428	103.052600235	3.54147642062	38.9817321408	-59.0578214892	-83.9478514834	-24.7441742165	-28.3221815547
176312500.0	-20.6464137713	100.272316271	3.52524925104	37.5671719104	-59.0773011054	-98.3220146389	-24.9894655704	-27.6510853374
177000000.0	-20.5951244349	97.4635848274	3.51070912539	36.1581053636	-58.922261809	-116.651226328	-25.2543057962	-27.1697146972
177687500.0	-20.5445939031	94.7134433271	3.49686695192	34.7624180463	-58.8715137926	-131.056648641	-25.5466575608	-26.6841968887
178375000.0	-20.4999042939	91.9996026399	3.4854599558	33.3749578427	-58.8195895091	-152.412689512	-25.8363645669	-26.268615669
179062500.0	-20.4468190466	89.3681236329	3.47730940109	31.9972959776	-58.7269537527	-165.957123123	-26.1357692454	-26.0758599589
179750000.0	-20.3957099239	86.6417920381	3.46937783183	30.6176307928	-58.9528718115	173.596289557	-26.444235735	-25.8552964215
180437500.0	-20.3498485354	83.9786313671	3.46406524861	29.2488316849	-58.9441354406	159.311701562	-26.7493619048	-25.7903182217
181125000.0	-20.2804049842	81.2501990521	3.45841462743	27.8874907564	-58.686323884	138.850360285	-27.0803131919	-25.7046863249
181812500.0	-20.227343541	78.6615727136	3.4552583046	26.5321810077	-59.0576956622	123.825760934	-27.4253231434	-25.9039861445
182500000.0	-20.1581316169	75.9997801119	3.45481018068	25.1865207205	-58.5253643198	108.036797809	-27.781516995	-26.0316516949
183187500.0	-20.0878732361	73.4470236839	3.45490016923	23.8539904716	-58.576133796	95.1879649327	-28.1374341312	-26.5225667633
183875000.0	-20.0095701872	70.8967100559	3.45510147668	22.5188639805	-58.3596165556	80.3378486113	-28.4998366454	-26.9942311192
184562500.0	-19.9376378485	68.3719723733	3.45725971388	21.2013843975	-58.425053742	63.8691851837	-28.8436235243	-27.7122756182
185250000.0	-19.8555665111	65.8484597066	3.46008541516	19.8916523652	-58.4046244997	50.8599832009	-29.2059231799	-28.3028959919
185937500.0	-19.7863125143	63.3809041681	3.46269700014	18.587765734	-58.0305377479	45.9275745607	-29.5244687798	-29.2418239908
186625000.0	-19.7220708818	60.9762843536	3.46997870283	17.2864243539	-58.129333401	42.442820491	-29.8860615613	-30.107995114
187312500.0	-19.6461561291	58.5708833491	3.47705992377	15.9907590283	-57.4860116698	37.5298458244	-30.1919177924	-31.1519291504
188000000.0	-19.5727019282	56.2136294328	3.48499948025	14.6913835485	-57.6601100813	35.8626205802	-30.5322053628	-32.247236649
188687500.0	-19.5044771019	53.8416328896	3.49353863893	13.4027922707	-57.5259088682	31.7867154999	-30.8277777576	-33.6402538971
189375000.0	-19.442692576	51.5619738439	3.50298644574	12.1133625693	-57.5120052345	33.2596760339	-31.1395205484	-35.2350022812
190062500.0	-19.3845871566	49.1994151742	3.51178694859	10.8304222529	-57.4418150027	32.3355511369	-31.396056732	-36.6545057862
190750000.0	-19.3327622168	46.9524628864	3.52335208015	9.55460057512	-57.6235965826	30.7865019847	-31.6781009818	-38.4070048997
191437500.0	-19.2898467397	44.619576976	3.53266905797	8.29282110863	-57.6794651527	29.0587828578	-31.9077893303	-40.3462238207
192125000.0	-19.2567447609	42.4349446244	3.54338744924	7.0219955832	-57.9684490634	29.6405316974	-32.0922784333	-42.199894678
192812500.0	-19.2229837818	40.1005057152	3.55452129894	5.76403992351	-57.9048611697	33.4286696499	-32.276573523	-44.2629336936
193500000.0	-19.2075440501	37.8690297797	3.56591380869	4.48465614895	-58.068202836	34.3998428121	-32.4147635378	-46.4579061144
194187500.0	-19.1953847635	35.5410705253	3.57751463294	3.21939645342	-58.0385533946	30.3515047956	-32.5123180651	-48.398893119
194875000.0	-19.2073052087	33.3083694323	3.59254467778	1.9463280257	-58.8876808718	18.119435405	-32.5525333794	-50.6753784888
195562500.0	-19.2043391748	30.9181699601	3.60782859173	0.689269407691	-58.7972422638	18.0545976247	-32.5874127875	-52.9376136877
196250000.0	-19.2311953	28.586055893	3.62221778444	-0.565430021961	-58.784411315	18.8470389092	-32.5750215528	-55.2133925186
196937500.0	-19.2536725545	26.2020406631	3.63798043498	-1.82091297527	-58.4375619453	17.8341711123	-32.564969115	-57.1245189453
197625000.0	-19.2970408619	23.8114233109	3.65461073376	-3.06274709615	-58.5543023533	19.3578474549	-32.4841248603	-59.2108389682
198312500.0	-19.3308411581	21.4418775265	3.67232386336	-4.30002438951	-58.9212728633	18.6046248832	-32.3867726696	-61.3351363538
199000000.0	-19.3938888619	18.9862901774	3.69066369589	-5.54927757545	-58.8737744627	9.1087225842	-32.2171002535	-63.2775548101
199687500.0	-19.4455623775	16.542820057	3.70921892124	-6.78365697545	-58.6836754327	7.96894647703	-32.0542503171	-65.3091034225
200375000.0	-19.5119185874	14.0710478603	3.72835730993	-8.02309195361	-58.7159997553	2.88755480542	-31.8356468229	-67.0928016803
201062500.0	-19.5827384597	11.5187752268	3.74787063726	-9.25227819976	-59.0069131135	4.05425144313	-31.613611454	-68.8525312007
201750000.0	-19.6534030453	8.91459911097	3.76756882948	-10.4935576283	-59.2231637296	8.6015343075	-31.3649047214	-70.3489494998
202437500.0	-19.7241608362	6.36274253262	3.78751309759	-11.7292183692	-59.6158472782	7.50820782137	-31.1023648708	-72.092451269
203125000.0	-19.787631455	3.71006660315	3.80958367009	-12.9720261028	-59.4702105537	6.20530027039	-30.842036293	-73.3033899009
203812500.0	-19.8507972723	1.07665322732	3.82957693261	-14.2044014028	-59.3628277286	6.93102729101	-30.5265132657	-74.7295668186
204500000.0	-19.9242729787	-1.68076409295	3.85082830359	-15.4477961488	-59.4638456465	8.98198001814	-30.2484190302	-75.8159430372
205187500.0	-19.9992445786	-4.34316950634	3.87250291043	-16.6771008333	-59.4669764366	10.3652345143	-29.923330203	-76.9717980506
205875000.0	-20.0591453559	-7.0501853218	3.89724227531	-17.9215655909	-59.4502380641	7.15272038251	-29.6082434881	-77.6992764404
