#Frequency	|S11|	<S11	|S21|	<S21	|S12|	<S12	|S22|	<S22
100000000.0	-18.842477664	141.77730042	-28.5928246417	-122.711911162	-59.3598398068	-143.220649847	-20.259751441	-32.5112007864
100687500.0	-18.7376336455	138.961246814	-28.3487759507	-124.342357711	-60.4020322071	-99.5073290103	-20.278999008	-32.3414180193
101375000.0	-18.6793688314	135.537535815	-27.9108776191	-125.531553677	-60.6251260095	-145.302404537	-20.3161096357	-31.9472628682
102062500.0	-18.6299965134	132.389195545	-27.5547133247	-126.856445879	-59.8252957209	151.245133751	-20.3520102309	-31.1104479401
102750000.0	-18.5748307679	129.142990482	-27.219230192	-128.241355449	-60.6380124029	118.08835181	-20.4121100384	-30.4587241605
103437500.0	-18.5146140746	126.04161769	-26.8687819393	-129.542586225	-60.009244553	92.4254308252	-20.4750781121	-29.704970219
104125000.0	-18.4744589771	122.798757452	-26.5425186396	-130.884026756	-59.965790097	31.7492392813	-20.534613581	-28.8594170518
104812500.0	-18.4378703169	119.632121865	-26.2429847882	-132.191348459	-60.1588395201	-20.7621212996	-20.6052661863	-28.2875972537
105500000.0	-18.4044523244	116.404615915	-25.9658133336	-133.589437147	-59.955568067	-90.3095579095	-20.6905052462	-27.7436969181
106187500.0	-18.3657701267	113.069309039	-25.7168525066	-134.94454527	-59.7416464375	-143.921394037	-20.7903698539	-27.1853827741
106875000.0	-18.3419764721	109.682056793	-25.5099815922	-136.268326876	-59.4832139181	155.670514405	-20.8915902079	-26.7605313571
107562500.0	-18.3290460317	106.20949749	-25.3379035329	-137.529076592	-59.3743253239	131.350718729	-21.0002662838	-26.2713228148
108250000.0	-18.3186768191	102.581308207	-25.196862035	-138.698795854	-59.5315379587	102.337685742	-21.1144976074	-25.9093757757
108937500.0	-18.2993527384	99.070279302	-25.0001016474	-139.876839434	-59.7628840753	73.8596175005	-21.2106798279	-25.4212049447
109625000.0	-18.2834956987	95.4782161056	-24.8235857281	-141.004751846	-59.9788393331	42.4021767552	-21.3047553702	-24.9814084853
110312500.0	-18.2650507577	91.8509108032	-24.6812308552	-141.995558904	-59.9091725269	18.3495519827	-21.4087952007	-24.557515121
111000000.0	-18.2610471495	88.137523379	-24.5664304315	-142.874431637	-59.7992176732	2.59013148388	-21.5126128827	-24.1032483614
111687500.0	-18.2534663893	84.3470614732	-24.4849359062	-143.639963642	-59.4872739586	-23.7441261316	-21.6293231847	-23.8309353151
112375000.0	-18.2524047414	80.4608233267	-24.4204962032	-144.085994422	-59.5603865884	-37.7698753899	-21.7431210522	-23.5791980521
113062500.0	-18.2504893159	76.513747722	-24.3824233991	-144.333257928	-59.7266415545	-50.0479912709	-21.8638839165	-23.3023538113
113750000.0	-18.2600605928	72.462994252	-24.3418004317	-144.109581102	-59.3801334563	-62.7541265168	-21.9863889839	-23.076502746
114437500.0	-18.2657508641	68.3248238027	-24.3095329387	-143.477958959	-59.5141870659	-62.7508572084	-22.1206266353	-22.9231083854
115125000.0	-18.2850645836	63.9957618268	-24.2557168555	-142.415348555	-59.5139082155	-70.3259950786	-22.2641367296	-22.8093853472
115812500.0	-18.2946844563	59.5718107368	-24.1697003041	-141.050427617	-59.8015387715	-66.977377653	-22.402402076	-22.6886631276
116500000.0	-18.3194780613	55.0233134602	-24.0223253435	-139.408351119	-59.9274018224	-50.768545825	-22.5435876779	-22.6377532202
117187500.0	-18.3348073236	50.3662179382	-23.824781281	-137.554717363	-59.6213959277	-25.1392675139	-22.6816197201	-22.7624328887
117875000.0	-18.3699685431	45.5272365302	-23.5638177949	-135.629145319	-59.7864713573	-7.88522518088	-22.8310488283	-22.6938836246
118562500.0	-18.4036129661	40.5396191848	-23.250579446	-133.704428948	-60.2075980979	9.82990765592	-22.9735928487	-22.7539547966
119250000.0	-18.4613023142	35.3978153274	-22.8871824934	-131.717586347	-60.0010165006	34.2650468952	-23.1100828603	-22.7769571122
119937500.0	-18.5273976322	30.1151370112	-22.4621944247	-129.80689262	-60.8715817397	66.2981612535	-23.2433217247	-22.8981250481
120625000.0	-18.6133978205	24.6986819813	-21.9954921844	-127.997965915	-60.8437850458	97.2350795543	-23.3873581286	-23.0214961149
121312500.0	-18.731688884	19.1107201107	-21.4830524037	-126.307325539	-61.8535664308	136.627616831	-23.51606723	-23.221546889
122000000.0	-18.8655511835	13.4024840823	-20.9250702043	-124.779662767	-61.8255650839	-179.432915612	-23.6650671473	-23.3595636327
122687500.0	-19.0453394828	7.53455858205	-20.3214079314	-123.416644381	-62.0682688111	-147.613517048	-23.7935146256	-23.606343374
123375000.0	-19.2565909393	1.62352686115	-19.6856209762	-122.267784497	-62.5035307541	-114.392089141	-23.9187001909	-23.832148363
124062500.0	-19.5332588071	-4.49266800703	-19.0132244431	-121.306629574	-62.4338433051	-92.86635001	-24.0438882779	-24.0987422251
124750000.0	-19.8607409324	-10.5445973001	-18.3151920289	-120.567412003	-62.4683556111	-59.6459254131	-24.1748502409	-24.3629791001
125437500.0	-20.2629337504	-16.6633298909	-17.5880291045	-120.06557885	-62.1790138589	-27.6422534556	-24.281532198	-24.629545109
126125000.0	-20.761076578	-22.418080821	-16.8356951676	-119.819779252	-62.7376797178	-3.97365265525	-24.3984509216	-24.9797462428
126812500.0	-21.3561411614	-27.8537074607	-16.0498510778	-119.77578389	-62.7062545549	16.6223145112	-24.5067356192	-25.2952708829
127500000.0	-21.9768903921	-31.7942462159	-15.2385566091	-120.095292853	-62.5653020939	32.1097087851	-24.6094894597	-25.6985276853
128187500.0	-22.6194256412	-35.3947087482	-14.4027768376	-120.648298829	-62.5961114572	48.0587912545	-24.6962188926	-26.0665022834
128875000.0	-23.1445680463	-38.1112566617	-13.5443851913	-121.607948874	-62.9373817843	64.043518748	-24.7717121038	-26.3861149897
129562500.0	-23.6373078054	-40.6724736706	-12.6601773157	-122.93679944	-63.1831955806	68.0582703309	-24.8529034973	-26.765343857
130250000.0	-24.0398138964	-43.0297602934	-11.7690905851	-124.712429941	-62.9691253158	81.5705487405	-24.943542369	-27.2497630519
130937500.0	-24.3943434692	-45.3286550388	-10.8674988605	-127.019039673	-62.9421768435	86.2222471888	-25.0090436561	-27.6103813287
131625000.0	-24.7085409791	-47.4921837325	-9.98834941398	-129.933792849	-63.14088649	88.9070719319	-25.0566754543	-28.1306008856
132312500.0	-24.9929697141	-49.6051093069	-9.12826935287	-133.333471904	-63.2498377078	89.4053645963	-25.0945751953	-28.5507829534
133000000.0	-25.2487371053	-51.6694484148	-8.3209851661	-137.292603453	-63.5785091038	79.3061046015	-25.1291477824	-29.1597116286
133687500.0	-25.465154601	-53.7195919728	-7.5769801466	-141.572359282	-63.8293106181	67.6800173069	-25.1592031784	-29.6458957013
134375000.0	-25.6626939738	-55.6990325465	-6.89647598613	-146.195153442	-64.0081581985	57.3508808255	-25.1728107496	-30.129049184
135062500.0	-25.820408941	-57.6533069121	-6.28280373437	-150.957655503	-63.4700609352	59.6479314483	-25.1789195961	-30.6621844812
135750000.0	-25.9772904599	-59.5250940744	-5.73393783232	-155.876069259	-62.8826751371	66.2468391851	-25.1705716212	-31.3347221464
136437500.0	-26.0839901949	-61.3216237128	-5.24557694731	-160.887585267	-62.947921417	70.9069289536	-25.1647786833	-31.9165550123
137125000.0	-26.1815318285	-63.0701340161	-4.81828960429	-165.944110212	-62.0272558469	68.6145631957	-25.1503356874	-32.5508258931
137812500.0	-26.2374555228	-64.6851470529	-4.44340917517	-170.979524487	-61.9026381821	65.9002601671	-25.118941393	-33.1646290321
138500000.0	-26.2691292794	-66.2435146252	-4.11840365911	-175.973341002	-60.9789006434	57.4823305121	-25.0757106195	-33.7808278987
139187500.0	-26.2518953687	-67.6732190147	-3.84482649904	179.101102923	-61.2804487648	55.0650516326	-25.0148399569	-34.3976143449
139875000.0	-26.1969878344	-69.0102900032	-3.61110610128	174.272375023	-61.6210751872	56.6596341655	-24.9586963229	-34.856293868
140562500.0	-26.0929450468	-70.3220798275	-3.41654775504	169.546592964	-61.142975644	57.2746267409	-24.902144005	-35.4788074544
141250000.0	-25.9347787966	-71.4453732994	-3.2558338097	164.951431142	-61.0259752455	59.688865195	-24.8217884897	-36.0464643327
141937500.0	-25.7133370538	-72.5863979973	-3.12616543493	160.483329203	-61.1172379365	53.1978224997	-24.7313411392	-36.5876145232
142625000.0	-25.4174313619	-73.6957705045	-3.01939989231	156.153468397	-61.1206956741	52.8852914976	-24.6425950724	-37.1630754069
143312500.0	-25.009122825	-75.1081051636	-2.94030632489	151.96417526	-60.5757313754	54.4055802217	-24.5378136603	-37.6323587504
144000000.0	-24.5186872205	-76.8574408914	-2.87760092059	147.900066962	-60.4133946632	57.0141481627	-24.4375968313	-38.0623826498
144687500.0	-24.0060150965	-80.0897707869	-2.83347792543	143.989102334	-60.3016373543	70.5624639319	-24.3297286696	-38.540387449
145375000.0	-23.4547592822	-83.5935672507	-2.80228401743	140.194169142	-60.1105420128	85.4745269227	-24.2280339659	-38.9803904359
146062500.0	-23.023912409	-87.9350436079	-2.78512497118	136.545825634	-59.8417557784	109.148082652	-24.1238284305	-39.3898672353
146750000.0	-22.6264814171	-92.3962786208	-2.77762409525	133.007986396	-60.3321897557	134.261267245	-24.0078594479	-39.6335147525
147437500.0	-22.3274686905	-97.0473652002	-2.78014054457	129.589907084	-61.009590761	149.209566392	-23.8583408575	-39.9080891659
148125000.0	-22.0690208232	-101.632671846	-2.78917185412	126.272315538	-60.9912277307	160.809013912	-23.732869241	-40.1260069343
148812500.0	-21.8578126532	-106.359321892	-2.80722489058	123.066161215	-61.0179554754	166.398151812	-23.586106133	-40.2517989005
149500000.0	-21.6721856276	-110.935923621	-2.82765051448	119.954089604	-60.6971114354	172.580444407	-23.4565178747	-40.3291134899
150187500.0	-21.5276941467	-115.561541467	-2.85415677462	116.94812665	-60.1938954505	178.725386878	-23.3167685148	-40.2775730256
150875000.0	-21.4105384687	-119.98833502	-2.88139735233	114.023818595	-60.1766713759	177.843852253	-23.1812962962	-40.1940321333
151562500.0	-21.3256296389	-124.513570709	-2.91158926842	111.189170618	-60.4183306475	164.648590172	-23.0392680378	-40.0597578298
152250000.0	-21.2627577288	-128.857014454	-2.94428233849	108.409643535	-60.4747822004	138.395538106	-22.9095734253	-39.8326384216
152937500.0	-21.2094008306	-133.165714622	-2.97977240845	105.710554023	-60.9346034883	117.940231635	-22.7723860486	-39.4146879709
153625000.0	-21.1875124887	-137.429192935	-3.01611707488	103.075842132	-61.0274772272	90.5059459996	-22.6558470641	-39.003802344
154312500.0	-21.1639094344	-141.60519901	-3.05379260079	100.512389705	-61.0762434695	63.1736044668	-22.5146587028	-38.5524679715
155000000.0	-21.1654521607	-145.747959813	-3.09493002272	98.0035884841	-61.2047875188	36.7894001001	-22.3893023677	-37.9982293115
155687500.0	-21.1608094387	-149.836744312	-3.13401755461	95.567387933	-61.2584405698	8.56344881892	-22.2760969777	-37.3858954695
156375000.0	-21.1998530896	-153.953519712	-3.17535373643	93.1678032291	-60.8462680098	-30.2268538308	-22.1636574478	-36.750545366
157062500.0	-21.2196558708	-157.987227167	-3.21621473283	90.832937741	-60.3597410779	-62.1908472662	-22.0454690308	-36.1059328128
157750000.0	-21.2575792489	-162.014124138	-3.25793372516	88.5510883961	-60.463088611	-101.156702881	-21.9282333011	-35.3514839528
158437500.0	-21.2802299649	-165.969272017	-3.3008194593	86.3165515264	-60.3276646368	-131.560934363	-21.8300681085	-34.533293315
159125000.0	-21.3228001106	-169.907953404	-3.34308999906	84.1239405081	-60.3820557087	-159.294525138	-21.7399959741	-33.6562693146
159812500.0	-21.358851126	-173.764157516	-3.38544194033	81.983683191	-60.3257549151	170.940825194	-21.6496274164	-32.727727516
160500000.0	-21.4138914347	-177.672498418	-3.42665273987	79.8805882991	-60.5742381044	145.824572691	-21.5713314095	-31.8412352363
161187500.0	-21.4492596835	178.516600224	-3.46901	77.8285833472	-60.383084255	114.981109438	-21.4918800628	-30.8798600831
161875000.0	-21.4944634288	174.72457262	-3.51067364258	75.8028281494	-60.5559778845	72.9454569273	-21.430981296	-29.8595336246
162562500.0	-21.542489079	171.009026932	-3.55371071565	73.8276095128	-60.6586908833	31.8910858695	-21.3651269967	-28.8372145072
163250000.0	-21.5796675108	167.360568819	-3.59423731626	71.8726598238	-60.7956835029	-15.0932605476	-21.3173800423	-27.7436553549
163937500.0	-21.6173750197	163.675369482	-3.63583876834	69.959095217	-59.7550227456	-55.6439754606	-21.2657949614	-26.7422176923
164625000.0	-21.6458837822	160.121091024	-3.67465156387	68.0784473679	-59.0465119231	-95.3509427519	-21.239094584	-25.617471324
165312500.0	-21.6892341641	156.535934516	-3.71605513176	66.2314892881	-59.0776336414	-122.484812848	-21.2110039262	-24.5539444219
166000000.0	-21.7276673263	153.09502045	-3.7539818816	64.4126936449	-58.8099715514	-140.86212411	-21.1969667229	-23.4610498159
166687500.0	-21.769651469	149.551727717	-3.79310383865	62.6214669986	-59.4231395039	-159.011599485	-21.1848617627	-22.3279478146
167375000.0	-21.8018082455	146.198349841	-3.82911158243	60.8591307387	-60.0122455455	-166.492342195	-21.1897687271	-21.2614021921
168062500.0	-21.8306979172	142.732003604	-3.86834910054	59.1304496433	-59.7059779645	-165.968592032	-21.1937626354	-20.2393732661
168750000.0	-21.8477402338	139.439643246	-3.90374266684	57.4307852645	-59.6058205716	-165.16714255	-21.2243159722	-19.1938866878
169437500.0	-21.8729619147	136.052684498	-3.94179227487	55.7704482213	-60.1665737669	-151.506823374	-21.2543578487	-18.2008274914
170125000.0	-21.8917350925	132.786217822	-3.9763666402	54.1173473503	-59.7120233388	-138.594663231	-21.2980159615	-17.2279446255
170812500.0	-21.9135065187	129.507541452	-4.01054916173	52.4952110704	-59.5436646043	-123.658498802	-21.3393127374	-16.2080372783
171500000.0	-21.933306173	126.290234862	-4.04330583528	50.9045914955	-59.7208291099	-97.5388617761	-21.41428391	-15.2542879504
172187500.0	-21.9562781166	123.007323877	-4.07276167023	49.3382929313	-59.9878724389	-79.5272470079	-21.4891038469	-14.3642932897
172875000.0	-21.9792450065	119.844772757	-4.10339136611	47.7803567796	-59.8899849272	-62.6977647894	-21.5605917396	-13.4523132219
173562500.0	-21.9779105456	116.714664187	-4.1312780494	46.254352275	-60.685507274	-35.3126100904	-21.6542575936	-12.5595041334
174250000.0	-21.9912719361	113.638432304	-4.15760142336	44.7503415372	-60.8611378527	-18.1007203149	-21.748215355	-11.6977117027
174937500.0	-21.9939540405	110.609771966	-4.18165389332	43.2580290593	-61.1918741539	5.61160363322	-21.8620498238	-10.9485686579
175625000.0	-21.9927635006	107.55313583	-4.20195035056	41.780545232	-61.3168922199	17.300324061	-21.9740122897	-10.1545740907
176312500.0	-21.980719555	104.505293343	-4.22444169619	40.3388383817	-61.5118016907	24.5145642721	-22.1029480356	-9.45956148466
177000000.0	-21.9663871469	101.449928293	-4.2439389884	38.8897679053	-61.3585319143	27.177978853	-22.2514588473	-8.81702187787
177687500.0	-21.9341109392	98.4922308181	-4.26135041852	37.4622289311	-61.188150344	31.9304492212	-22.4061456362	-8.12244624229
178375000.0	-21.9226292552	95.5012850247	-4.27642060733	36.040466796	-61.5085542605	47.4441606959	-22.5703690566	-7.4472977655
179062500.0	-21.8809054703	92.6273473544	-4.28918956819	34.6439918201	-61.5576886426	62.6041363333	-22.7254905782	-6.94443230542
179750000.0	-21.8401436888	89.6561177366	-4.30009608179	33.2507436085	-61.4878804726	77.2140973721	-22.8970985507	-6.38093767899
180437500.0	-21.7978678322	86.7084308257	-4.31159662962	31.8631654347	-61.3260126731	90.9936928333	-23.0596159558	-6.00530637313
181125000.0	-21.7613717	83.789809763	-4.31992660673	30.480318381	-61.8389431407	107.706978163	-23.2514486071	-5.48239531732
181812500.0	-21.7060328315	80.9782623921	-4.32861133612	29.1085868609	-61.9037959669	124.725067903	-23.4482779384	-5.12469322002
182500000.0	-21.6513212462	78.0975504135	-4.33394205955	27.7534430745	-61.747216309	139.083417689	-23.6555838489	-4.71819635512
183187500.0	-21.5773023754	75.2939217693	-4.33984178233	26.4048868804	-61.5607878545	142.252092136	-23.8615448785	-4.42165911249
183875000.0	-21.5048183273	72.5682258946	-4.34356476639	25.0496870255	-61.2372829015	152.963567724	-24.0740173885	-4.17402682761
184562500.0	-21.4297934012	69.8132617629	-4.3475418017	23.7184377676	-60.7011118142	152.501791584	-24.2701350875	-4.03982082416
185250000.0	-21.3594037614	67.134206504	-4.34839188718	22.38522849	-61.1702799833	139.726496457	-24.4861859774	-3.82211125306
185937500.0	-21.2865969728	64.457596222	-4.35168281099	21.0579699927	-60.8583926734	137.451845847	-24.6907062938	-3.71466529535
186625000.0	-21.2229200962	61.8827303802	-4.34791024321	19.7235639514	-60.7979972187	126.629170905	-24.9062442509	-3.59929889082
187312500.0	-21.1490631327	59.2283391726	-4.34599872374	18.4037622739	-60.6245167887	114.372454749	-25.1132612706	-3.57933606195
188000000.0	-21.0815873083	56.7326872091	-4.34330699382	17.0914761149	-60.6773050031	111.912825766	-25.3348217704	-3.70457065338
188687500.0	-21.0092811222	54.1657769343	-4.3412013888	15.7707637573	-60.7266888404	101.331880238	-25.5471883686	-3.84774217194
189375000.0	-20.932916333	51.7671520858	-4.3366481764	14.4491414418	-60.6776408121	86.123944242	-25.769618815	-3.99424208137
190062500.0	-20.8703073167	49.3171084844	-4.33145649106	13.1499370892	-60.662954896	78.104216515	-25.9830142411	-4.22715907654
190750000.0	-20.8124885296	46.9089939976	-4.32296324144	11.8505364076	-60.7053499039	65.8439954571	-26.2032984057	-4.55671979754
191437500.0	-20.7663598928	44.4679927529	-4.31764929968	10.5474173551	-60.5671633748	55.0417016832	-26.4113169688	-4.99864921994
192125000.0	-20.7189920548	42.1171834714	-4.31014622172	9.26122478829	-60.6142744331	44.6704811221	-26.6007962361	-5.43906713568
192812500.0	-20.6882031296	39.6971652326	-4.3034213942	7.98109916373	-60.3334049427	47.5548604062	-26.8035313765	-6.02848647018
193500000.0	-20.661386705	37.4010153449	-4.29316908807	6.68370048956	-60.462257422	59.3012196049	-26.9703286004	-6.65019691807
194187500.0	-20.6518500017	35.0351392454	-4.28491826651	5.4073236578	-60.6490755345	83.717163991	-27.1266580894	-7.33835653428
194875000.0	-20.6522077815	32.6703952294	-4.27474617264	4.13016946079	-60.3353231666	99.7935893385	-27.273858311	-8.26130616442
195562500.0	-20.6526310195	30.2570690339	-4.26658371981	2.84804149393	-60.4812647115	102.737775431	-27.4238546431	-9.25885403202
196250000.0	-20.6752452712	27.8251173186	-4.25761740206	1.57328525891	-60.3886770668	104.444040432	-27.5554403973	-10.3255056867
196937500.0	-20.7029952389	25.3873867398	-4.24798319725	0.305553312623	-60.6674006753	100.59505996	-27.6806276608	-11.2399356214
197625000.0	-20.7442801794	22.9067338103	-4.23547062314	-0.945842301883	-60.7187619785	100.117286944	-27.780995392	-12.3715315134
198312500.0	-20.7832874484	20.4452908641	-4.22456641553	-2.19441495694	-60.4599591129	89.9022051308	-27.858168259	-13.6456745869
199000000.0	-20.8429360893	17.8345456878	-4.21071913785	-3.44718921383	-60.4773859177	86.4582611471	-27.9117314534	-15.047291812
199687500.0	-20.8866245023	15.324007713	-4.19864021538	-4.70351746176	-60.8170529207	74.33785833	-27.9571480713	-16.4656260379
200375000.0	-20.9549604774	12.7508376673	-4.18415077577	-5.95757305628	-60.9405442875	73.1086791778	-27.9903428938	-17.887963589
201062500.0	-21.0238533187	10.1337475892	-4.17115392688	-7.19139874947	-61.0264164363	61.2364847782	-27.9995358715	-19.368058831
201750000.0	-21.0928006215	7.44392684053	-4.155480188	-8.43579594604	-61.1787437614	50.0040311546	-28.0039819954	-20.7777657391
202437500.0	-21.1542710252	4.79329619992	-4.13989043733	-9.66924091762	-60.7226674227	39.9254769972	-27.9817329374	-22.3987391837
203125000.0	-21.2351743032	2.10840710455	-4.1229604959	-10.9206878667	-61.2955584067	25.2824546644	-27.943386464	-23.8298657877
203812500.0	-21.2837767859	-0.596698250701	-4.10876112956	-12.1427310718	-60.864312864	9.04899383331	-27.8802741155	-25.4028974364
204500000.0	-21.3586041382	-3.32738164228	-4.09158174273	-13.3803683328	-61.119257028	-5.54490098982	-27.8083201954	-26.8537362996
205187500.0	-21.4146649466	-6.07501270148	-4.07444329409	-14.6012647775	-61.2584453811	-29.221655691	-27.7017520226	-28.2844443595
