#Frequency	|S11|	<S11	|S21|	<S21	|S12|	<S12	|S22|	<S22
100000000.0	-18.3569462792	125.422282153	-42.5430840912	-123.987618423	-66.5581237135	35.2951028577	-21.9580670095	-33.5780981483
100687500.0	-18.2591023131	122.773512959	-42.0535992603	-125.092815004	-63.4949554296	-34.2423904021	-21.938196463	-33.8136213215
101375000.0	-18.1781607578	119.800614095	-41.7706478223	-125.65644934	-62.0266193488	-50.3576522686	-21.9840082281	-33.7208675901
102062500.0	-18.0893198919	116.878399432	-41.6103466818	-125.556867453	-61.773963125	-90.9197708882	-22.0352004385	-33.3690673041
102750000.0	-18.0074394463	113.882132341	-41.3916078186	-126.6885625	-61.2401852295	-69.9775185828	-22.0589453186	-33.0197050461
103437500.0	-17.9303431592	111.029520251	-41.0992975331	-128.192024311	-61.6320455698	-24.5852323435	-22.084617941	-32.6911260807
104125000.0	-17.8579799692	107.976408434	-40.872660102	-128.976754645	-61.743044653	11.6400911883	-22.1321886572	-32.2586240104
104812500.0	-17.7977719402	104.882721743	-40.6063133261	-130.399805526	-61.5491389341	63.1665210017	-22.1720508664	-32.0621123492
105500000.0	-17.7441022684	101.676360132	-40.3658438737	-131.816396202	-61.799970899	102.953059232	-22.2102860554	-31.9246296356
106187500.0	-17.6980680087	98.381673954	-40.172471353	-133.058206371	-62.185234579	139.225429721	-22.2635037636	-31.8444338843
106875000.0	-17.6553251874	94.9617297083	-39.9947849056	-134.320342523	-62.8064784881	-163.22873631	-22.3140703988	-31.8354989003
107562500.0	-17.627324045	91.4403879892	-39.9161724876	-135.427854515	-62.5301154784	-102.095387627	-22.3762987822	-31.7717779898
108250000.0	-17.5913729568	87.7907776022	-39.8572639479	-136.485401699	-62.5231475629	-27.7480637872	-22.4203348014	-31.781389597
108937500.0	-17.5441397073	84.3244083523	-39.6984296067	-137.506672622	-62.1843363983	15.5549240661	-22.4570333719	-31.6779884292
109625000.0	-17.5045912035	80.771357144	-39.5932903989	-138.271726185	-62.0763733093	60.4127030427	-22.4944692786	-31.6252586266
110312500.0	-17.4580791312	77.1550764739	-39.5556739542	-138.964604319	-61.6548823618	107.635089545	-22.5346269243	-31.529836978
111000000.0	-17.4212214662	73.4297036685	-39.5101912447	-138.969289435	-61.8621871442	165.99081296	-22.5723276993	-31.5064505644
111687500.0	-17.3822408342	69.5958650345	-39.5368099629	-138.770689351	-61.9073152459	-132.872630625	-22.6116688501	-31.5768333907
112375000.0	-17.357402545	65.6784054363	-39.5122637431	-138.318474959	-62.1688233673	-62.7158559821	-22.6493380387	-31.6221206268
113062500.0	-17.3240219713	61.6558490558	-39.4673023675	-137.706828949	-62.0143201509	11.4356156844	-22.6882534146	-31.7242267208
113750000.0	-17.3044736878	57.5721595549	-39.4037171852	-136.309391336	-62.3162838964	81.0954319526	-22.7308900178	-31.7743502929
114437500.0	-17.2837418335	53.3883615403	-39.2966182054	-134.663176024	-62.7724743545	139.070861706	-22.7758187678	-31.8647363406
115125000.0	-17.2754763309	49.0496774348	-39.1239142399	-132.777906758	-62.4070291483	-175.261084191	-22.8143851804	-31.9053851469
115812500.0	-17.2603151639	44.5877908664	-38.9052879034	-130.825427672	-62.1835647797	-118.306485286	-22.8506139128	-31.9837049385
116500000.0	-17.2633786607	40.0484120823	-38.6153279992	-128.999470539	-62.2778500746	-71.201923804	-22.879700394	-32.0806400719
117187500.0	-17.2716383619	35.414264299	-38.3100346204	-127.040009246	-61.9362480645	-28.0936159546	-22.9029606978	-32.2549458236
117875000.0	-17.3019086271	30.7014685693	-37.9568838121	-124.94092768	-62.0898335947	14.2617691673	-22.9417488513	-32.2175716346
118562500.0	-17.3383302472	25.8475230363	-37.553854617	-123.039807247	-62.2437701908	43.174288683	-22.9685829458	-32.2838734968
119250000.0	-17.4024258442	20.9019513292	-37.1049002492	-121.108785055	-62.0795130769	72.9407380381	-22.9884616864	-32.2118911785
119937500.0	-17.4847691125	15.8745746521	-36.5882377965	-119.417810428	-61.8891103339	90.8273763612	-23.0066902236	-32.2534215923
120625000.0	-17.600154081	10.7938515709	-36.0643126935	-117.652166499	-61.9748958578	115.832572504	-23.0289219744	-32.2244942286
121312500.0	-17.7547351374	5.63739774693	-35.4505888542	-116.353007108	-61.301879659	130.369147755	-23.0326798324	-32.215681965
122000000.0	-17.9441096155	0.478726579555	-34.8242060324	-114.910882435	-61.0740638912	144.842504911	-23.0593561472	-32.1032793098
122687500.0	-18.1959957214	-4.68160268723	-34.1800193765	-113.961552218	-60.5044087614	151.237619875	-23.0697280132	-32.0615682158
123375000.0	-18.4984363415	-9.72918673323	-33.4894480834	-113.06694315	-60.431084632	148.756507339	-23.0685948017	-31.9646567329
124062500.0	-18.878868081	-14.5250492872	-32.7415221784	-112.4840671	-60.7386625322	135.751136712	-23.0718503254	-31.87624388
124750000.0	-19.3193693228	-18.9281353813	-31.9964154289	-111.728811668	-60.984551652	120.701246502	-23.0825325471	-31.7228670798
125437500.0	-19.8153144333	-22.8298313695	-31.1997049734	-111.794255643	-60.9782213517	92.7630227184	-23.0864780718	-31.4452914066
126125000.0	-20.329731617	-25.9719848307	-30.4259174759	-111.760801468	-61.2259699215	68.7352855532	-23.1071862788	-31.1967785163
126812500.0	-20.8171629354	-28.4862558121	-29.5802912322	-112.329883835	-61.8490912669	55.0243919025	-23.1230130544	-30.8188399571
127500000.0	-21.2367453705	-30.4558502419	-28.7220282646	-112.797292541	-61.9089419006	29.187055706	-23.1292287657	-30.5711624343
128187500.0	-21.627543978	-32.1993137807	-27.7794420831	-114.544480625	-62.0557676909	2.51940077647	-23.1389081194	-30.1533236716
128875000.0	-21.9621196054	-33.6758038249	-26.8929283139	-116.300610233	-62.0103765872	-25.8065836994	-23.1361528295	-29.6820598987
129562500.0	-22.2717061738	-35.0665062543	-25.9652741291	-119.001334135	-61.6751641237	-56.1307846815	-23.1349774694	-29.177593996
130250000.0	-22.5448163071	-36.3953696463	-25.0939949677	-121.552005595	-61.8321035068	-86.69652405	-23.1386045524	-28.6868841872
130937500.0	-22.791747825	-37.6889375835	-24.2155827062	-125.248891629	-61.4681380957	-112.471218639	-23.1405908914	-28.1309675148
131625000.0	-23.0175735117	-38.9539175865	-23.4282168082	-129.103443536	-61.0563983606	-135.578643178	-23.1385333991	-27.6264991373
132312500.0	-23.2245893156	-40.147797231	-22.6847812461	-133.456777478	-61.4378898748	-151.762155396	-23.1463222509	-27.0216452785
133000000.0	-23.416785627	-41.3211990353	-22.0358303478	-137.786807204	-61.7073944	-174.654788704	-23.1559704445	-26.5045208122
133687500.0	-23.5906544022	-42.5013794174	-21.3990964942	-142.466203359	-61.6448884888	169.404343505	-23.1660442084	-25.8451304678
134375000.0	-23.7433259398	-43.616048018	-20.8590521155	-147.236631515	-61.7319442163	155.261984619	-23.1748480047	-25.2373407569
135062500.0	-23.8730829046	-44.7941448624	-20.3431298896	-152.13870205	-61.3462120016	131.844256963	-23.1738525669	-24.7088713713
135750000.0	-23.9894555118	-45.8634691651	-19.8954052179	-156.98518151	-61.4950244087	108.392526121	-23.1790613909	-24.1382537449
136437500.0	-24.0792796399	-46.9626993933	-19.5084779046	-161.889045486	-61.5276454353	95.1739803592	-23.1921644183	-23.6433403439
137125000.0	-24.1514157051	-48.0512922445	-19.1705195306	-166.726761741	-61.6901642494	84.5921515247	-23.216310009	-23.0907130211
137812500.0	-24.1765363701	-49.037717282	-18.8773250723	-171.601475492	-61.7050045071	74.7188791662	-23.2243698513	-22.5126227674
138500000.0	-24.1787452886	-50.0429172508	-18.6267966817	-176.334490575	-61.6468069433	64.2322395436	-23.2450567443	-22.0020680421
139187500.0	-24.1270031188	-51.1016028822	-18.4185954567	179.028591506	-61.6035506962	53.3151097934	-23.2539596442	-21.4549504974
139875000.0	-24.032008534	-52.1920217787	-18.2409423131	174.478213467	-62.2557148254	44.8113810315	-23.2743183157	-20.8639117092
140562500.0	-23.8691711564	-53.4508001199	-18.090371841	170.073890794	-62.2543091115	40.3157177281	-23.3014262697	-20.3178940601
141250000.0	-23.6432829856	-54.9188937381	-17.960372383	165.766948452	-62.1982602514	42.492694898	-23.3133067991	-19.7847877093
141937500.0	-23.3543589068	-56.8366465072	-17.8653623128	161.609634635	-62.4162090163	44.5799133527	-23.328875935	-19.3024326256
142625000.0	-23.0122113808	-59.239060691	-17.784283497	157.535826262	-62.1758417074	47.0209367621	-23.3481383499	-18.8805233806
143312500.0	-22.6517984319	-62.3788347511	-17.7315437562	153.627142094	-62.0990789491	45.4618610148	-23.3612243462	-18.4475763014
144000000.0	-22.3207949759	-66.1613653851	-17.6854771832	149.794651101	-61.8668135077	39.6711412238	-23.378988217	-18.0543133837
144687500.0	-22.0729570512	-70.4643637674	-17.6649035624	146.135582741	-61.867528232	37.7591653413	-23.4086586079	-17.6096415416
145375000.0	-21.8481891208	-74.9451774361	-17.6470348775	142.560365985	-61.6014954052	35.935448657	-23.4328025286	-17.2891880801
146062500.0	-21.6812508272	-79.6369853635	-17.6453526371	139.153767274	-61.8498764146	25.0489322358	-23.4610906221	-16.9064102468
146750000.0	-21.5315095372	-84.4220418116	-17.6485732271	135.77852472	-62.0573176261	8.63525859811	-23.5015440746	-16.4919991732
147437500.0	-21.4374923947	-89.174640106	-17.6624809698	132.566998719	-61.9475384069	-3.23519523128	-23.5163593856	-16.1278643623
148125000.0	-21.3621319896	-93.9143762595	-17.6801059061	129.429859339	-61.9158335935	-19.5405370706	-23.5482367054	-15.8406283061
148812500.0	-21.3181995811	-98.7073216686	-17.7021596253	126.385027184	-62.3161937011	-37.6184188161	-23.5647257372	-15.5440931114
149500000.0	-21.2820156819	-103.420571673	-17.7300282334	123.436967146	-62.3885714891	-61.0505809201	-23.584027118	-15.2545187136
150187500.0	-21.2772331035	-108.069685116	-17.7648306324	120.570732938	-61.953056086	-90.875490237	-23.597093852	-14.9319899185
150875000.0	-21.2717180638	-112.629416742	-17.7989323597	117.823393582	-62.0676391674	-125.707620386	-23.6168633662	-14.6003393994
151562500.0	-21.2980766115	-117.218236792	-17.8306789676	115.100945953	-61.9951532177	-155.451885798	-23.6328035714	-14.3350651511
152250000.0	-21.3185454876	-121.653535699	-17.8697580424	112.496520381	-62.3936287979	177.03989528	-23.6599140918	-13.9688096165
152937500.0	-21.353376958	-126.036607426	-17.91222535	109.923223875	-61.9714131135	155.575026307	-23.671108765	-13.6964050347
153625000.0	-21.4007662371	-130.336156873	-17.9567011958	107.473154681	-61.752320566	125.378949727	-23.7021843182	-13.2468272164
154312500.0	-21.4451778662	-134.583739909	-17.9981414493	105.034354612	-61.7021451757	96.0958429469	-23.7082528042	-12.9780141628
155000000.0	-21.5042710926	-138.844827053	-18.0413769089	102.684590955	-61.6579668001	68.6122485498	-23.7245779563	-12.5394152978
155687500.0	-21.5523683081	-143.023428555	-18.080676034	100.340157377	-61.6355978579	46.9652875014	-23.7433753318	-12.1321348198
156375000.0	-21.6279139254	-147.093436648	-18.1246078377	98.1008337443	-61.8615718752	19.2113117836	-23.7595141406	-11.7153637656
157062500.0	-21.678967551	-151.114692665	-18.1613292125	95.8532822997	-61.5101268528	-11.3059819391	-23.7696035028	-11.3398206068
157750000.0	-21.7532449307	-155.080598519	-18.2044824118	93.7169143202	-61.8336031356	-34.9091548038	-23.7842436276	-10.9328978795
158437500.0	-21.805824932	-159.012379826	-18.2483824245	91.5708667838	-61.5988621098	-65.6619299867	-23.8046451633	-10.464519033
159125000.0	-21.8752699864	-162.781961198	-18.2940294481	89.5033516634	-61.356285615	-94.7857572003	-23.8325801128	-10.0231855514
159812500.0	-21.9418849349	-166.545796094	-18.3356179177	87.4490876869	-61.1191805844	-121.792753842	-23.8500970611	-9.50826502402
160500000.0	-22.0189916057	-170.250729797	-18.3728772982	85.4329095723	-61.0586272887	-138.599370565	-23.8768070437	-9.064537221
161187500.0	-22.0860570685	-173.861882263	-18.4170591124	83.4883477967	-60.799630925	-161.462190309	-23.8974813303	-8.64299118085
161875000.0	-22.1640014208	-177.375647371	-18.4601069158	81.5398270989	-60.8343048109	-176.440619867	-23.927574081	-8.20906256481
162562500.0	-22.2395163313	179.130925748	-18.5073019191	79.6728185032	-61.1875810245	158.446612953	-23.9386729984	-7.72861271136
163250000.0	-22.3203356133	175.676547633	-18.5473287498	77.8095294706	-60.710170956	141.875769392	-23.9800538251	-7.21398792445
163937500.0	-22.4125906501	172.347230352	-18.5909478834	76.0096019742	-60.42451103	122.079160775	-24.0072562698	-6.81389643225
164625000.0	-22.4885070265	169.058567855	-18.6263364581	74.194332533	-60.8779361642	104.843145178	-24.0497277176	-6.39370359086
165312500.0	-22.584936583	165.784792666	-18.6660567481	72.4671494681	-61.0420485853	81.0638640615	-24.0863627852	-5.92814477634
166000000.0	-22.6807189794	162.64729073	-18.6995482651	70.7040487936	-60.5145606628	61.6370499441	-24.1267458004	-5.59876984076
166687500.0	-22.792140514	159.444412743	-18.7367387794	69.0269393548	-60.4155144246	46.092546932	-24.1775552941	-5.19774704255
167375000.0	-22.8970045577	156.356740234	-18.7694714985	67.3480795626	-60.7899506651	31.1992261762	-24.2463366862	-4.89862037729
168062500.0	-23.0137291113	153.312994059	-18.813099154	65.7042984345	-60.9342349393	14.8086685481	-24.3020252078	-4.61339677075
168750000.0	-23.1129818157	150.272871192	-18.8459298692	64.097227157	-61.2456050912	-1.50445225533	-24.3767362938	-4.30705113029
169437500.0	-23.2447954168	147.168408813	-18.8839049868	62.4946937203	-60.9648221659	-15.220445021	-24.4462907105	-4.06132219815
170125000.0	-23.3656389356	144.117151249	-18.9103816146	60.9026482957	-61.2415150551	-32.2398554156	-24.5248886884	-3.82943953271
170812500.0	-23.5015983529	141.036269805	-18.9472153683	59.3463808741	-61.3517885347	-46.584104778	-24.5976529038	-3.7066102029
171500000.0	-23.6340687083	138.008903661	-18.9742991406	57.8369335125	-61.5394124534	-62.2798517659	-24.673835063	-3.57820208432
172187500.0	-23.7771626009	134.868980242	-19.0034397008	56.3481126388	-61.4925432489	-86.6750548712	-24.7705711145	-3.5675060104
172875000.0	-23.9192327564	131.748615799	-19.0306782705	54.8938683795	-61.5366525517	-116.615934645	-24.8574946748	-3.61978890138
173562500.0	-24.0594850839	128.412688103	-19.0605080095	53.4020719383	-61.3781876359	-144.221084806	-24.9549241366	-3.63109933877
174250000.0	-24.1953574882	125.167847462	-19.0876476091	51.9708768408	-61.138194795	-160.055533589	-25.047937891	-3.65171736937
174937500.0	-24.3236003533	121.848537847	-19.1128452556	50.5488331311	-60.7618553222	-173.838795828	-25.1438528117	-3.83530903746
175625000.0	-24.4593117211	118.415806933	-19.136226743	49.1263977837	-60.4928734901	174.217065031	-25.2309261938	-4.05989995231
176312500.0	-24.5822832587	114.898030948	-19.1608450867	47.7138373997	-60.5879607039	162.575953969	-25.3238748407	-4.32646142202
177000000.0	-24.6990709054	111.340940822	-19.178209557	46.377900008	-60.6370100519	150.182211896	-25.4252875439	-4.67497309609
177687500.0	-24.7876312727	107.72330285	-19.1952535003	45.0195565184	-60.6967093002	138.136919731	-25.5073062238	-5.05617867239
178375000.0	-24.8931522523	104.110325074	-19.2113503122	43.6952893723	-60.9966260235	125.890585048	-25.5911658998	-5.34646107651
179062500.0	-24.9645802641	100.412962655	-19.2198657204	42.3477479436	-61.034439442	113.322706597	-25.6647360917	-5.91768745346
179750000.0	-25.0485786558	96.6884750215	-19.2276908001	40.9983906925	-60.9213872711	99.2039783889	-25.763529326	-6.24909731226
180437500.0	-25.1043951452	92.910069014	-19.2327881934	39.6313009557	-60.981654	73.3317737174	-25.8175881808	-6.91384178186
181125000.0	-25.146930795	89.0528773197	-19.2394523393	38.3189202882	-60.9541956556	47.0565702018	-25.8839932792	-7.3434362968
181812500.0	-25.174557208	85.2360609101	-19.2476930774	37.0049367991	-60.452448497	9.66269218508	-25.9391561378	-7.92315704229
182500000.0	-25.1908641304	81.3630981881	-19.2553688795	35.6781107024	-60.6293001245	-18.2833732596	-26.0017473622	-8.40964251186
183187500.0	-25.1799384408	77.5425902594	-19.2609897725	34.377746774	-60.9016988432	-52.9514993668	-26.0407818516	-8.84447500924
183875000.0	-25.1632699182	73.8105434409	-19.2706814025	33.0845273256	-61.2259423165	-92.860087037	-26.0681401927	-9.34010092734
184562500.0	-25.1291368147	70.0185469802	-19.2719448508	31.7580454399	-61.0812952158	-119.724448904	-26.076842983	-9.85745897783
185250000.0	-25.089516752	66.2090283949	-19.270209389	30.4451189172	-60.8534579472	-149.032777015	-26.1044473453	-10.272895805
185937500.0	-25.0428209583	62.4566280114	-19.2764976145	29.1406726967	-60.5432446842	-175.904835542	-26.100676888	-10.7112035411
186625000.0	-24.9827810473	58.8458461738	-19.2771507043	27.8951328761	-60.5042450274	153.271433966	-26.1092635043	-11.0234107897
187312500.0	-24.9216475104	55.0693946787	-19.2807742086	26.6472203573	-60.1785606054	120.341115355	-26.0902922909	-11.3153672038
188000000.0	-24.8283235962	51.4931807227	-19.270776203	25.3763281519	-60.3961150318	83.3624763891	-26.0709873658	-11.6359533242
188687500.0	-24.740613318	47.8914724769	-19.27413318	24.0884676597	-59.8398546308	55.1339544287	-26.0642316406	-11.7968736287
189375000.0	-24.6438487972	44.4776051144	-19.2684332289	22.8077285647	-60.0229064506	27.1060337261	-26.027187542	-11.9972651011
190062500.0	-24.5493933098	40.9961474916	-19.2706991263	21.5725221487	-60.0656320103	7.62593937209	-25.9852163408	-11.9826197934
190750000.0	-24.4370742966	37.7528543139	-19.2638105151	20.3079643768	-59.9668547848	-8.6755773002	-25.9412571214	-12.1491785805
191437500.0	-24.3508188135	34.4584803713	-19.2614410444	19.0524925829	-59.9455342759	-34.686748609	-25.8927815844	-12.2072574593
192125000.0	-24.2584205528	31.2728950467	-19.2596764082	17.7709343206	-60.2323083993	-74.3371839821	-25.825868489	-12.1885281503
192812500.0	-24.1642891858	28.1497798678	-19.2551469512	16.5960331249	-60.3932872212	-105.377404337	-25.782130348	-12.0968576553
193500000.0	-24.0739816089	25.1023393157	-19.2399178482	15.3435746723	-60.5551149354	-145.457242626	-25.7149577966	-11.9948073918
194187500.0	-23.993783267	22.0740376431	-19.2419186313	14.0896699337	-60.6054551038	-176.494239129	-25.6484585401	-11.7338499896
194875000.0	-23.934558118	19.0884431446	-19.2343912263	12.8383303676	-60.7508087805	143.459007042	-25.5771008854	-11.5283457694
195562500.0	-23.8636874362	16.0728789183	-19.2273376217	11.5964564839	-60.3233044154	102.024979349	-25.5090510161	-11.2290467832
196250000.0	-23.811335187	13.0301112881	-19.2160725782	10.3981845713	-60.5493509061	60.4324014887	-25.4467508397	-10.8497502862
196937500.0	-23.7473423083	10.0061515218	-19.2134938443	9.19972036637	-60.2037906598	18.5467867644	-25.3671148571	-10.4743867151
197625000.0	-23.7028951043	7.00245989528	-19.1989548381	7.99497051436	-60.0572594683	-21.1089972927	-25.3070815843	-9.96430563129
198312500.0	-23.6594522931	4.04151838442	-19.1938982114	6.79142357052	-60.5599771221	-48.5220940538	-25.2451917682	-9.61562031685
199000000.0	-23.6455237494	1.00432479703	-19.1824479739	5.59092425377	-60.4485498509	-76.6575144515	-25.1733349441	-9.18643300805
199687500.0	-23.5981150326	-1.98968129507	-19.1718664731	4.39646614285	-60.3303960612	-103.521353111	-25.1140524003	-8.72049763956
200375000.0	-23.5897575315	-5.07716639158	-19.1631091184	3.20411549474	-60.4410396654	-129.768104033	-25.0703130452	-8.27278472736
201062500.0	-23.5528398065	-8.27094777168	-19.1456691583	1.98483825582	-60.8830360959	-145.465325297	-25.0331851498	-7.81782786816
201750000.0	-23.5310075483	-11.4584605301	-19.1364330914	0.848152726748	-60.831465917	-172.895612338	-24.9955969924	-7.28919184212
202437500.0	-23.4954446608	-14.6150602736	-19.1256111452	-0.289821162504	-60.7959175416	172.70299443	-24.9652406489	-6.85984076514
203125000.0	-23.4733535659	-17.7276730048	-19.1112987157	-1.43527798733	-60.8327773768	153.283721511	-24.9311878863	-6.39705632041
203812500.0	-23.419538019	-20.9230629049	-19.0934694339	-2.64235368788	-61.3110769343	138.434147996	-24.8991264578	-6.02415830719
204500000.0	-23.3786664579	-24.1127058063	-19.0787601025	-3.79499462296	-61.2465509688	125.587529051	-24.8762014253	-5.61589808123
205187500.0	-23.3355066067	-27.3562017897	-19.0613264912	-4.98026369847	-61.2733235836	112.001523826	-24.8491238239	-5.11785095431
