#Frequency	|S11|	<S11	|S21|	<S21	|S12|	<S12	|S22|	<S22
100000000.0	-16.1802235045	148.281839603	-27.9095060007	-125.854275675	-60.731072657	-6.14889869337	-20.2749643431	-33.8096142266
100687500.0	-16.1987599562	145.21899568	-27.3673063397	-126.986789738	-59.3132515147	49.6170465248	-20.3266049064	-33.394891925
101375000.0	-16.1932207963	142.078354151	-26.9035720574	-128.53893574	-60.3986185808	68.149232243	-20.398569367	-32.812484746
102062500.0	-16.1728302991	138.899865921	-26.5170155778	-129.860763169	-64.1269921026	80.181466989	-20.4491270373	-31.9972584571
102750000.0	-16.1607174952	135.765981818	-26.1667481568	-131.168508814	-63.335043503	105.592724869	-20.4924876919	-31.2857653293
103437500.0	-16.1527674376	132.701904756	-25.8229883239	-132.598183702	-63.4415116581	110.008978586	-20.5407794912	-30.6001871783
104125000.0	-16.1502500776	129.443810045	-25.521804658	-133.983701677	-62.2744664051	97.0675076774	-20.6142986927	-29.7920359124
104812500.0	-16.1517921651	126.227076319	-25.2353815925	-135.441660123	-62.9412950426	83.0787709938	-20.7021390256	-29.1573095815
105500000.0	-16.1641372429	122.955132658	-24.9743397385	-136.90890585	-62.2267680788	50.290477757	-20.7880908685	-28.6295595272
106187500.0	-16.1776487824	119.617331441	-24.7481746858	-138.359897426	-61.9647038863	36.8228172675	-20.8917088782	-28.0646011979
106875000.0	-16.1980807927	116.217884253	-24.5482115541	-139.766965769	-62.0067944307	34.9684309583	-21.0014105209	-27.6017285409
107562500.0	-16.2285369929	112.731798897	-24.3902523596	-141.136057072	-61.4657243489	17.4104622446	-21.1104178909	-27.0834553842
108250000.0	-16.269227488	109.075423789	-24.2658591792	-142.424165943	-61.0813043553	5.21742344956	-21.2303416504	-26.7644391353
108937500.0	-16.3055469446	105.546890826	-24.0786246778	-143.642712586	-61.1868137594	-4.27092364227	-21.3323226823	-26.2778927755
109625000.0	-16.3413434821	101.969830147	-23.9290325075	-144.887450216	-61.2392307619	-15.353584256	-21.4393313892	-25.829964864
110312500.0	-16.3774831681	98.2912490919	-23.7990477054	-145.982306278	-61.3843376135	-13.251139605	-21.5449818492	-25.397634299
111000000.0	-16.426769169	94.5608159826	-23.709559997	-147.024452648	-61.3563403994	-14.639473809	-21.65882996	-24.971936814
111687500.0	-16.476385791	90.721761058	-23.6524303927	-147.81721443	-61.2407814302	-15.4214513556	-21.7775860854	-24.6508864092
112375000.0	-16.5412708975	86.8198045569	-23.6206758196	-148.369035637	-60.8868814739	-14.769890646	-21.9013866463	-24.3849594524
113062500.0	-16.6027944531	82.8126588643	-23.6143699923	-148.579116167	-60.5433558862	-15.6318168571	-22.0231247096	-24.0909494677
113750000.0	-16.6782949784	78.6962561268	-23.6170048931	-148.401450367	-60.3979646483	-14.5038526521	-22.1605280923	-23.8902584855
114437500.0	-16.7568610501	74.485837717	-23.622903051	-147.822556156	-60.9760297126	-9.95166645047	-22.3001557249	-23.7650824968
115125000.0	-16.8459214247	70.0893065025	-23.5998266834	-146.761044371	-60.9240694849	-6.94656030734	-22.4401990285	-23.6155843237
115812500.0	-16.9298745541	65.5562088799	-23.5253449624	-145.331542666	-60.8041019028	7.28763853393	-22.5863924662	-23.5030609315
116500000.0	-17.0362370115	60.8874850886	-23.3934433731	-143.632255852	-61.0359813249	16.241196817	-22.7249078787	-23.4647392903
117187500.0	-17.1448334557	56.0931807091	-23.2068445439	-141.748603206	-61.2939470768	20.3580831213	-22.8692877725	-23.4955638148
117875000.0	-17.2752793113	51.1181042277	-22.959915467	-139.762184503	-61.4637228853	32.6046171742	-23.017720798	-23.449815995
118562500.0	-17.4076636399	45.9953349807	-22.658582841	-137.71322873	-60.7600863468	34.1848374402	-23.167090884	-23.502344111
119250000.0	-17.5686283642	40.676333124	-22.3007854579	-135.731543995	-61.2634803491	37.6640975311	-23.3067153111	-23.5195629335
119937500.0	-17.7474444228	35.1871879873	-21.8970892912	-133.765012937	-61.2240974234	52.831811196	-23.4420021359	-23.5948082667
120625000.0	-17.9533511336	29.4949316767	-21.4337360503	-131.916446443	-61.2881045945	68.6787999098	-23.5940880232	-23.6979164548
121312500.0	-18.1912212906	23.5831039768	-20.9341883495	-130.175256541	-61.254226861	73.0183245787	-23.7291342212	-23.8585117385
122000000.0	-18.4573538178	17.5501068232	-20.3843685846	-128.62155127	-61.1875715312	72.0252484869	-23.8771801664	-24.0450263991
122687500.0	-18.7869558878	11.1710288101	-19.7994124933	-127.192705571	-60.8565647327	60.2053127969	-24.015650791	-24.2922836094
123375000.0	-19.1550250235	4.70593367067	-19.1718193107	-125.972903557	-60.9354011544	50.5595108988	-24.1476368863	-24.5414788975
124062500.0	-19.6235298157	-2.21079180838	-18.5076426161	-124.925761588	-61.4048197719	41.7309083691	-24.2828474951	-24.762662602
124750000.0	-20.1796698221	-9.08620122058	-17.8164670126	-124.142218448	-61.7030040093	29.1419097849	-24.4123055044	-24.987216826
125437500.0	-20.8503994991	-16.4198191707	-17.0888864938	-123.515331137	-61.9161649294	16.2991348294	-24.5325916048	-25.1479260354
126125000.0	-21.7572465092	-24.052576331	-16.3274268447	-123.223587547	-61.8172646563	-1.35318154383	-24.6534748135	-25.4854005889
126812500.0	-23.1462171831	-32.9028000538	-15.5392521104	-123.095340869	-61.7343853881	-17.2412992068	-24.7687146865	-25.7340515938
127500000.0	-24.1331626319	-47.368966036	-14.7230087994	-123.349539446	-61.4519138456	-45.9920408626	-24.8717849332	-26.1015791486
128187500.0	-24.8692438945	-62.5809918997	-13.8757977343	-123.784437101	-61.4268862664	-71.8707762835	-24.9645562432	-26.4360345493
128875000.0	-25.4659679047	-77.7912652882	-13.0039468577	-124.671502321	-61.5167956919	-86.8399794449	-25.0417663604	-26.8280904187
129562500.0	-25.980547824	-93.3913778568	-12.1044131776	-125.961453433	-61.4341739164	-115.714431845	-25.1239863345	-27.2241129133
130250000.0	-26.4117642281	-109.055900314	-11.1947475657	-127.782263919	-61.2123453606	-144.935278713	-25.2016792964	-27.7255724605
130937500.0	-26.8013689302	-124.941046916	-10.2747679142	-130.123463805	-61.0886253629	173.647638004	-25.2660943952	-28.1198117608
131625000.0	-27.1426008471	-140.826222678	-9.36729048754	-133.039254492	-60.7904297718	131.768906589	-25.3108054851	-28.5818560036
132312500.0	-27.4586624348	-156.795812883	-8.49980248834	-136.503775619	-60.8326546654	98.4206263925	-25.3565054122	-28.9954134913
133000000.0	-27.7346752872	-172.853587228	-7.68780510237	-140.529641512	-60.7117658002	56.8855653468	-25.3950578221	-29.517388435
133687500.0	-27.9859859876	171.058649442	-6.93777500571	-144.919666261	-60.8598396041	26.7715072486	-25.4345880825	-29.9936875053
134375000.0	-28.2009501614	154.951750748	-6.26064519044	-149.618247467	-60.7075216664	-2.10634836357	-25.4465003403	-30.5679555117
135062500.0	-28.3757708366	138.729410631	-5.6475317177	-154.513176752	-61.0241714154	-29.6369514368	-25.450807467	-31.0899935816
135750000.0	-28.5312196992	122.596170596	-5.10332100896	-159.53270691	-61.047303391	-56.9939009464	-25.4368662217	-31.6728124965
136437500.0	-28.6370428613	106.492309248	-4.61668629268	-164.60669911	-60.4285579218	-83.3778100048	-25.4331189243	-32.2969005169
137125000.0	-28.7201062908	90.3833795968	-4.19378915008	-169.727516372	-60.6934149989	-122.011691202	-25.433748803	-32.9135215438
137812500.0	-28.7529067095	74.4899617953	-3.82230068443	-174.830853412	-60.694089365	-161.505517488	-25.3937127828	-33.4961708098
138500000.0	-28.7535719331	58.6203879388	-3.50570663069	-179.894501823	-60.5579885372	169.922333987	-25.351174456	-34.1493151382
139187500.0	-28.7019125874	42.8803062138	-3.23465923465	175.11251974	-60.8184009629	145.430753141	-25.2901980365	-34.7523611425
139875000.0	-28.5897657285	27.3028011441	-3.01029519364	170.217257125	-60.7385112208	133.884123149	-25.237714461	-35.2504670259
140562500.0	-28.4195959747	11.8473057716	-2.82239576486	165.419641476	-60.8415808987	130.218978029	-25.1794747384	-35.8995556906
141250000.0	-28.1509334103	-3.24366639706	-2.67353731874	160.754817106	-60.9002567169	126.810854542	-25.1064743018	-36.5235833046
141937500.0	-27.7863158218	-18.3340744253	-2.55566105697	156.213645773	-60.6256297135	126.998830226	-25.0209643509	-37.1731832395
142625000.0	-27.3006947422	-33.0031967928	-2.46580190453	151.825042521	-60.564881458	126.04408503	-24.9271906667	-37.7693790483
143312500.0	-26.5632067102	-47.3514673742	-2.40217904804	147.578786016	-60.6724435716	131.23886957	-24.8224204107	-38.2615180055
144000000.0	-25.3411730968	-60.5448010615	-2.35751024874	143.485907233	-60.8465821834	130.433564307	-24.7152555761	-38.7372844359
144687500.0	-24.5178340321	-68.0706804187	-2.33196844275	139.54855636	-60.9241740552	130.850135463	-24.6106564835	-39.1896407489
145375000.0	-23.9338595357	-74.8346667169	-2.32095976706	135.764904605	-61.4119903446	118.216496137	-24.4950883192	-39.5987683631
146062500.0	-23.4909951341	-81.5932023949	-2.32365496123	132.119521869	-61.6227517423	105.894869165	-24.3883462007	-39.9291179329
146750000.0	-23.1136608754	-87.8548956607	-2.33643805008	128.594591645	-61.6974665695	106.999560155	-24.2697406909	-40.2204476392
147437500.0	-22.8268696745	-94.0422478086	-2.35899706847	125.216849041	-61.7369988142	109.899918776	-24.1353550337	-40.4511320566
148125000.0	-22.5633396865	-99.9303990588	-2.38602275143	121.940018839	-61.8845974023	112.76947581	-24.0035872458	-40.6520873885
148812500.0	-22.3564684049	-105.796821923	-2.42134587931	118.78629345	-61.5157333366	102.226964987	-23.871261373	-40.7769981704
149500000.0	-22.1575210903	-111.391188822	-2.45749381929	115.726345351	-61.5241832086	90.3738781164	-23.7475803752	-40.8480192496
150187500.0	-22.0051872386	-116.884270424	-2.50088340312	112.774235521	-61.4307961241	74.3560319317	-23.6110706907	-40.7911073629
150875000.0	-21.8566556944	-122.130563731	-2.54350558852	109.90502578	-60.9728720402	47.7274878034	-23.4786845209	-40.6878559349
151562500.0	-21.7427072341	-127.369163452	-2.58928699953	107.128030228	-61.0363679287	18.7359299245	-23.3466461476	-40.4593315702
152250000.0	-21.6473122531	-132.29383972	-2.63506443189	104.425139634	-60.769563401	-21.3109136986	-23.2201562449	-40.2576219002
152937500.0	-21.5662131396	-137.151969662	-2.68405503116	101.807698449	-60.4820593173	-50.8264307026	-23.0962739364	-39.9083971339
153625000.0	-21.5057702124	-141.849754694	-2.73178507376	99.2586738516	-60.7049321917	-74.6546363092	-22.9740848651	-39.4829798405
154312500.0	-21.4433997342	-146.435271245	-2.78023745581	96.772450706	-60.6117387958	-92.2431786315	-22.8331256561	-38.9630813086
155000000.0	-21.4058355316	-151.039832366	-2.82933024414	94.3542570024	-60.4176950661	-119.165164608	-22.7147420873	-38.4612253059
155687500.0	-21.3599506725	-155.428331897	-2.87788116906	91.9960861063	-60.6004897202	-149.454821092	-22.6057154479	-37.8072053982
156375000.0	-21.343188391	-159.840017118	-2.92948901187	89.69594798	-60.7263138314	-179.41088468	-22.4975878801	-37.1383184968
157062500.0	-21.3046535226	-164.060206862	-2.97735749747	87.4589605739	-60.8229684183	149.286302157	-22.3824206645	-36.4172858492
157750000.0	-21.2908159861	-168.33735467	-3.02631057028	85.2583957355	-60.8794901124	108.631863866	-22.2679573117	-35.633327673
158437500.0	-21.2620574343	-172.452227939	-3.07321118516	83.1126756368	-60.715624863	67.5151692226	-22.1660282536	-34.7579101715
159125000.0	-21.2433558226	-176.563229973	-3.11997411932	81.0275341626	-60.6262961332	14.354970732	-22.078551228	-33.8069529873
159812500.0	-21.2199202809	179.428526373	-3.1644272595	78.9832448286	-60.6503812598	-30.4937631852	-21.9934345174	-32.8722612849
160500000.0	-21.2038398861	175.422449204	-3.20833525892	76.9679539813	-60.2891941907	-74.2441072286	-21.914730167	-31.9401417788
161187500.0	-21.1787498377	171.568851755	-3.25306126715	74.9866127785	-60.347030874	-114.501671177	-21.8422296239	-30.9969140502
161875000.0	-21.1636451727	167.746506903	-3.29711184448	73.0405676288	-60.3222175001	-156.082467458	-21.7823816884	-29.9973561117
162562500.0	-21.1477178833	163.970067607	-3.33920388875	71.1107772712	-59.7909541212	170.755087936	-21.73408543	-28.9402921769
163250000.0	-21.1210083112	160.320317038	-3.38184534535	69.2130553745	-59.5387346135	128.10803237	-21.6846566975	-27.8184831774
163937500.0	-21.0985250341	156.648949187	-3.42275539717	67.3644339593	-59.4880532127	73.9990475609	-21.6416282695	-26.6812189926
164625000.0	-21.0680476069	153.105355257	-3.46252215467	65.5290439785	-59.3594448256	30.0276686389	-21.6150572776	-25.5419250755
165312500.0	-21.0515618248	149.576111416	-3.50229741708	63.7447711967	-59.4018541998	-11.2643497206	-21.592013117	-24.3754143274
166000000.0	-21.0243070689	146.219801772	-3.54088786279	61.9919179541	-59.5918517414	-52.6800927692	-21.5801941949	-23.2467328976
166687500.0	-21.0069570436	142.735724662	-3.58042735781	60.262996782	-59.4363951274	-97.4545306454	-21.5712414171	-22.1187370159
167375000.0	-20.976603766	139.504308244	-3.616892215	58.5649474722	-59.7214997955	-138.536699469	-21.5782966453	-21.0051403193
168062500.0	-20.9552932708	136.155581894	-3.65269886341	56.904792805	-59.7445935298	-179.590838142	-21.5829380682	-19.9162706114
168750000.0	-20.9212720297	133.016183686	-3.68788229785	55.2839330171	-59.6410611097	152.391729139	-21.6085911247	-18.8738629039
169437500.0	-20.8935750177	129.814369776	-3.72409811956	53.6809660052	-59.2200538888	134.056544314	-21.6346453797	-17.775996861
170125000.0	-20.8609123273	126.707253327	-3.75473367019	52.083185369	-59.8552011304	108.867069211	-21.6830345293	-16.7357756547
170812500.0	-20.8346041082	123.528904191	-3.78623292651	50.5290538239	-59.6366860137	85.6858768907	-21.7344956997	-15.6850651518
171500000.0	-20.8105572888	120.570419858	-3.81599112631	49.0031613136	-59.681432356	57.6088469081	-21.8016930651	-14.7268560073
172187500.0	-20.7873248837	117.590217748	-3.84374740639	47.4934713672	-59.8550670535	28.0298687086	-21.8797620752	-13.758766774
172875000.0	-20.7679728044	114.638766627	-3.87059386145	46.0030943622	-59.6887690779	-7.17151757025	-21.9554391915	-12.8137747561
173562500.0	-20.7354984938	111.739717615	-3.89493449782	44.537757802	-59.3591299954	-33.5082500062	-22.0460605759	-11.8638071085
174250000.0	-20.7175021917	108.91943972	-3.91658342516	43.0799703318	-59.5019008945	-68.5227115786	-22.1408790829	-10.9335603417
174937500.0	-20.6816342892	106.13173839	-3.93707981861	41.6504623331	-59.3486209179	-95.4672071673	-22.2547419009	-10.1028077213
175625000.0	-20.6508043935	103.283615037	-3.95479928724	40.2237604744	-59.1033196146	-112.161793642	-22.3701121993	-9.30360407753
176312500.0	-20.6113751321	100.505314737	-3.97247999737	38.8136424844	-59.5747660217	-127.102980109	-22.4953553325	-8.58053584197
177000000.0	-20.5652262148	97.7425153451	-3.98828120603	37.4057582519	-59.7637466483	-138.74734604	-22.6492466747	-7.83426283657
177687500.0	-20.5167056305	95.0530730305	-4.00166085021	36.0343397086	-59.9935656458	-157.194916142	-22.8123862505	-7.11418927
178375000.0	-20.4853036517	92.3446712553	-4.01231483528	34.6558857319	-60.2684438762	-175.98508323	-22.9755574832	-6.37062470256
179062500.0	-20.4312233434	89.7259251064	-4.02136961006	33.2998917037	-60.3740060174	171.451049818	-23.1494470811	-5.79987243044
179750000.0	-20.3782128995	87.0448356547	-4.02982959954	31.9502461428	-60.7083692684	152.531646305	-23.3281069936	-5.25553691942
180437500.0	-20.3269274658	84.382504125	-4.03451460801	30.6135679697	-60.530976606	141.979602949	-23.5109460188	-4.8821210132
181125000.0	-20.2778009662	81.7253987849	-4.03859548539	29.2732933338	-60.1622154112	141.882119331	-23.7077218798	-4.41960148855
181812500.0	-20.2131980451	79.1236458284	-4.04129244882	27.9519236863	-60.0218993762	140.152676	-23.9118764117	-4.00153002639
182500000.0	-20.1483743076	76.4869753282	-4.04333498433	26.6242593012	-59.6903545999	138.193351904	-24.1324170517	-3.57154274334
183187500.0	-20.0716183385	73.8676647925	-4.04308456014	25.3014792826	-59.921572393	137.268168923	-24.3467827036	-3.17177261656
183875000.0	-20.0026866897	71.3710356991	-4.04106685909	23.9821059159	-59.6828612015	130.23142105	-24.5652275462	-2.84443733433
184562500.0	-19.9299870448	68.8096850864	-4.03802391316	22.6789689569	-60.0343089808	132.901586413	-24.7864776791	-2.74818966064
185250000.0	-19.8545132143	66.3337438362	-4.03478457902	21.3753903298	-59.8713769735	148.339875893	-25.0168678945	-2.5617639282
185937500.0	-19.7793786855	63.8473267026	-4.02999030996	20.0604730524	-59.8303256468	158.693755287	-25.2423865007	-2.39913074841
186625000.0	-19.7115946726	61.492345018	-4.02270185759	18.7581215196	-60.5052563105	162.908920382	-25.487921203	-2.36597424327
187312500.0	-19.6376128517	58.9993155489	-4.01444730044	17.4644801437	-60.0238069077	163.043642768	-25.7040742148	-2.25530043529
188000000.0	-19.5646157988	56.695573334	-4.00625974139	16.1628808837	-60.2077657142	152.856807861	-25.9244951076	-2.39789643437
188687500.0	-19.4955738573	54.2189663158	-3.99732090882	14.8662871385	-60.2779466941	150.366324675	-26.1776777862	-2.49748427382
189375000.0	-19.4268691292	51.9132470229	-3.98809050273	13.5683082996	-60.1752814558	152.730251417	-26.4014923713	-2.7647012053
190062500.0	-19.3679282244	49.5372690053	-3.97679688195	12.2805162593	-59.9774564766	155.944941787	-26.6237332139	-2.98863193668
190750000.0	-19.3157351103	47.2392951247	-3.96398154216	10.9911655183	-60.0749638043	154.5092561	-26.8615535111	-3.39197244126
191437500.0	-19.2705889206	44.8643013582	-3.95309664143	9.71365419505	-59.9746056394	151.947459503	-27.0859356823	-3.7739505683
192125000.0	-19.2339901398	42.6458555893	-3.94218865878	8.4380409074	-60.2635987177	151.642377012	-27.2851737572	-4.28846530417
192812500.0	-19.2134229693	40.304650222	-3.93062922094	7.16913961624	-60.3238785822	143.260303633	-27.489474399	-4.8615931168
193500000.0	-19.1987536345	38.0423529389	-3.9169105146	5.90166130257	-60.0553055809	141.409216053	-27.694457696	-5.66881711738
194187500.0	-19.199261367	35.717260792	-3.90441063936	4.63574791009	-59.669532142	130.257379561	-27.847626046	-6.34585938929
194875000.0	-19.206628067	33.4369882336	-3.89033749369	3.36350321305	-59.7168580398	132.437125396	-28.0125692099	-7.28304228903
195562500.0	-19.2166349425	31.0538753278	-3.87539444186	2.10308020661	-59.2981720015	127.947342195	-28.1638112699	-8.32112541437
196250000.0	-19.2380277709	28.69407683	-3.86137086233	0.843510628346	-59.2350193986	124.888571254	-28.303965309	-9.49018445655
196937500.0	-19.2693324522	26.305712474	-3.84642147295	-0.413417054486	-58.8339183701	128.163643465	-28.4249893008	-10.5347115925
197625000.0	-19.3124096169	23.8764606679	-3.83140747385	-1.668707655	-58.8970341725	125.48363063	-28.5264066006	-11.6543960112
198312500.0	-19.3556532048	21.4341827035	-3.81589765601	-2.91227128094	-59.3374257772	116.802624505	-28.6091365222	-13.0898426939
199000000.0	-19.418488505	18.9696463382	-3.79768200518	-4.16869463505	-59.2215024589	109.018787417	-28.6792894224	-14.5016930729
199687500.0	-19.4688344915	16.5442521063	-3.78007955829	-5.41124117399	-59.2701397199	110.698321279	-28.7244019113	-16.0730908858
200375000.0	-19.5309989148	14.0313225837	-3.76160681575	-6.65881342543	-59.4055416751	124.864682679	-28.7604487201	-17.6281672516
201062500.0	-19.586644592	11.4837780935	-3.74412759429	-7.88968073006	-59.4405865076	137.726671251	-28.768427621	-19.3070453974
201750000.0	-19.6587376713	8.87753893249	-3.72432794306	-9.12590706056	-58.9309878884	147.939337422	-28.7607640458	-20.7629205319
202437500.0	-19.7215031429	6.30469599443	-3.70429598135	-10.3563172444	-59.5622716501	147.335178289	-28.7217607399	-22.463085784
203125000.0	-19.797727899	3.67796147208	-3.68356122866	-11.5832298062	-59.7537549482	141.555172237	-28.670894012	-23.9689042912
203812500.0	-19.8538573011	0.992719185492	-3.663319592	-12.799044103	-59.2218407156	140.777580663	-28.583215352	-25.687535083
204500000.0	-19.9339994649	-1.67532482166	-3.64361120455	-14.0291211996	-59.872589113	143.424583037	-28.4971309856	-27.2553405622
205187500.0	-19.9989759648	-4.3429703687	-3.62248887471	-15.2426237447	-59.7676037082	158.375395653	-28.3988216523	-28.7553257604
