#Frequency	|S11|	<S11	|S21|	<S21	|S12|	<S12	|S22|	<S22
100000000.0	-17.6649254539	145.133381063	-20.9065010042	-125.494729138	-56.1921537944	-90.101091618	-20.8099044355	-50.9713586526
100687500.0	-17.6280546248	141.987718655	-20.4838942731	-126.811337475	-56.3642612811	-139.481058003	-20.9156263618	-50.7767051017
101375000.0	-17.6212228934	138.91459232	-20.0637079048	-127.993151837	-59.5698449149	-134.554694102	-20.9749372362	-50.0282852461
102062500.0	-17.5981918617	135.780949318	-19.6769096497	-129.267967954	-59.3049262116	-171.040150579	-21.0875764208	-49.3650723882
102750000.0	-17.5747828019	132.635988392	-19.318059202	-130.637284567	-58.6624902641	173.581834956	-21.1827258593	-48.8200509373
103437500.0	-17.5529027425	129.482098784	-18.9851623661	-131.994027544	-59.1351090178	-172.580553332	-21.2885227575	-48.1905853416
104125000.0	-17.5378393496	126.219936756	-18.6766020368	-133.362531875	-59.430202765	175.832405521	-21.4261711008	-47.5168595914
104812500.0	-17.5264341419	123.052951058	-18.393600608	-134.720458597	-60.4086067865	122.534877546	-21.5604203007	-47.0398876406
105500000.0	-17.5180458927	119.787667805	-18.1276500509	-136.118870418	-60.3827620899	102.392948994	-21.6947800033	-46.5284338424
106187500.0	-17.5170896058	116.455576679	-17.8950078668	-137.526786143	-60.4965806261	105.880220566	-21.8493582756	-46.192993679
106875000.0	-17.5241890338	113.056410877	-17.6929996634	-138.869197874	-60.6166796546	99.2338014539	-22.0027361797	-45.9606360537
107562500.0	-17.5477819257	109.546058631	-17.5251068538	-140.154920064	-60.8980299652	97.6085035694	-22.1736757434	-45.7183690087
108250000.0	-17.5666065797	105.898115423	-17.3906540549	-141.350460449	-60.6790329694	93.9172521062	-22.3434431761	-45.5518192623
108937500.0	-17.5756566981	102.386522192	-17.1995970916	-142.56189697	-60.6688544052	81.3236777391	-22.4992706548	-45.2043481947
109625000.0	-17.5967978675	98.8303093808	-17.0385906779	-143.695557678	-60.9251104144	67.3400065068	-22.6595683461	-44.892182687
110312500.0	-17.6103977338	95.1842588033	-16.9011229401	-144.749430537	-61.0205964656	52.6324508352	-22.8250101463	-44.6823882082
111000000.0	-17.6369374172	91.4253570819	-16.7970222124	-145.691712	-60.8279204017	36.3606733003	-22.9856643011	-44.4704979035
111687500.0	-17.6642078029	87.6121636521	-16.7205126794	-146.448491559	-60.5187357685	13.5638556651	-23.1562653336	-44.3322365479
112375000.0	-17.6980378501	83.721513102	-16.6725651076	-146.977078814	-60.9090023325	-6.06782229367	-23.31961571	-44.2489785422
113062500.0	-17.7322541908	79.7002177911	-16.6511763019	-147.196681961	-60.9986945098	-21.1979772066	-23.4993678135	-44.2085322175
113750000.0	-17.7717418762	75.6002855462	-16.6379749172	-147.003548954	-61.2257361714	-49.45447828	-23.6837403351	-44.1956437371
114437500.0	-17.8186862015	71.3724294487	-16.6222561057	-146.367298687	-61.3542021722	-79.1520866363	-23.8736109055	-44.2917884093
115125000.0	-17.8677640231	67.0064600183	-16.5803795624	-145.355358147	-61.147911355	-106.74936635	-24.0689928201	-44.4076119736
115812500.0	-17.9149626717	62.4797488413	-16.4985827809	-143.939323542	-61.1790343897	-144.133268242	-24.2580218344	-44.5249034441
116500000.0	-17.9743649203	57.8852924978	-16.3613196953	-142.261792002	-60.9178817656	-171.630559043	-24.4420842255	-44.7225288559
117187500.0	-18.0360694708	53.1079699637	-16.1688715257	-140.395235487	-61.0468899589	173.849014403	-24.6185784635	-44.9763342811
117875000.0	-18.1129869948	48.1928051532	-15.9148670431	-138.456710726	-60.6062200802	163.929131641	-24.8228618242	-45.1123281431
118562500.0	-18.1991689541	43.0986203366	-15.6063609644	-136.463754485	-60.4277298272	163.940051351	-25.0074431601	-45.2789512885
119250000.0	-18.3009856049	37.8234054356	-15.2466065025	-134.478885639	-60.3255246485	151.033683192	-25.1970257978	-45.4554864052
119937500.0	-18.4167333377	32.3886231856	-14.83365254	-132.552260318	-60.2151617139	125.16674303	-25.362667321	-45.7033521817
120625000.0	-18.5503830672	26.7954539235	-14.3718921583	-130.722259484	-60.1270330136	96.7672304976	-25.5469566457	-45.9044087737
121312500.0	-18.7186578247	20.9942611764	-13.8632565294	-128.996005075	-60.2682000201	72.4373543304	-25.6997992132	-46.1679681183
122000000.0	-18.913320141	15.0396426343	-13.3106484956	-127.455820535	-59.9991754804	58.028241977	-25.8826309359	-46.399322231
122687500.0	-19.1402063429	8.88693301682	-12.7172442425	-126.064580282	-60.0160767478	30.592729452	-26.0265015283	-46.7351752478
123375000.0	-19.4063204207	2.59410434316	-12.0875305852	-124.881574665	-59.5130562181	0.644274626563	-26.1568665171	-46.8649335309
124062500.0	-19.7368797169	-3.87331159337	-11.4236716187	-123.888067762	-59.4121510688	-27.1751504577	-26.286914836	-47.204406009
124750000.0	-20.1530447541	-10.4354655048	-10.7299984116	-123.127293647	-60.1132403934	-45.3470926804	-26.4098318573	-47.4424146164
125437500.0	-20.6310524606	-16.8900455294	-10.0047727389	-122.59197245	-60.0506406438	-70.5857508654	-26.5104162846	-47.6144720314
126125000.0	-21.245732021	-23.3234947184	-9.24865473585	-122.295228737	-60.0910918304	-84.1848918444	-26.6102301679	-47.979497908
126812500.0	-21.9698319797	-29.2374802109	-8.46178856447	-122.240711525	-59.8695091231	-94.4418094972	-26.6862653341	-48.2795810645
127500000.0	-22.8349615218	-32.9981736879	-7.6536907586	-122.506251774	-59.6843050308	-103.96314341	-26.7421704109	-48.5748491792
128187500.0	-23.6219755032	-35.9438635876	-6.81615015624	-123.047743922	-59.8722252681	-100.991516332	-26.7973609551	-48.9056108496
128875000.0	-24.2221791486	-38.2088676568	-5.95609177937	-123.968679295	-59.7883599	-99.3282689785	-26.8318997805	-49.2460782166
129562500.0	-24.7517736487	-40.2396640916	-5.07082808309	-125.258144304	-59.418621676	-91.4458537346	-26.861213055	-49.5797240615
130250000.0	-25.2171360957	-42.442699695	-4.16967888282	-127.040173959	-59.2926728772	-80.8219662529	-26.8768274189	-49.9935851335
130937500.0	-25.6050566202	-44.5046350981	-3.26529026115	-129.35514786	-59.9929554504	-63.8300829056	-26.879111532	-50.3194627285
131625000.0	-25.9567391874	-46.541006888	-2.37317231812	-132.279244609	-60.0741647434	-46.1261285774	-26.8505059304	-50.762993609
132312500.0	-26.2639991056	-48.5426579681	-1.51379554563	-135.7037928	-60.0129827363	-30.0415776946	-26.8270386772	-51.0780282659
133000000.0	-26.5380788847	-50.5392332377	-0.704139134669	-139.6480737	-59.6770971432	-13.2150310635	-26.7645208395	-51.6057278694
133687500.0	-26.7765504608	-52.570709182	0.0424972333947	-143.978459404	-60.0118117776	0.692065262664	-26.7122649809	-52.0095435503
134375000.0	-26.9857045702	-54.5416879457	0.723029206217	-148.611636296	-59.7719929465	4.56056336809	-26.6377534419	-52.4853110584
135062500.0	-27.1572862876	-56.566315792	1.33718886957	-153.426443544	-60.1049071524	15.0373334851	-26.5384955065	-52.9921920809
135750000.0	-27.297690366	-58.4604535393	1.88551487875	-158.384265103	-59.9226439804	16.969312131	-26.4340172242	-53.5764442771
136437500.0	-27.4140155953	-60.2998242866	2.37368225615	-163.423730252	-59.8560623686	19.5447872685	-26.3303109649	-54.2006173257
137125000.0	-27.5042402233	-62.0449137752	2.80260207062	-168.49925288	-59.6704194377	35.0608587807	-26.2211502082	-54.7649886788
137812500.0	-27.5541280247	-63.6918466971	3.17701848475	-173.557642115	-59.6330800966	49.2004894529	-26.0919521667	-55.3316605223
138500000.0	-27.5698238019	-65.1845567989	3.50107742247	-178.581839371	-59.2240177353	62.5146869487	-25.9495803745	-55.9460779093
139187500.0	-27.5382706415	-66.586168273	3.77543123197	176.468819848	-59.2134176278	71.8604095584	-25.7899311337	-56.4987856384
139875000.0	-27.4670023045	-67.8485652378	4.00782931272	171.612891281	-58.9147070088	84.0204944781	-25.6479495589	-57.0125307755
140562500.0	-27.3504968875	-69.0205665881	4.20176382655	166.863562482	-58.7219079068	100.547377313	-25.5100517155	-57.7272305003
141250000.0	-27.1538199573	-69.9800935494	4.36122603719	162.234864349	-59.0777160623	115.098014106	-25.3542573966	-58.1806093314
141937500.0	-26.882765196	-70.8728917772	4.48653578715	157.744510173	-58.3649038255	122.718231135	-25.1907801968	-58.7829554067
142625000.0	-26.5330875181	-71.8466557107	4.58663117014	153.392656798	-58.5827530565	136.572247287	-25.0436451465	-59.3134192009
143312500.0	-26.0357289052	-72.8621523151	4.66120237289	149.192310857	-58.4118774388	141.468899169	-24.8827843641	-59.7497445647
144000000.0	-25.423514873	-74.3830062462	4.71801571195	145.11629557	-58.590073322	152.712539166	-24.729479854	-60.1676110941
144687500.0	-24.6748384037	-78.0517032513	4.75642082685	141.185635985	-58.7263449527	156.544510437	-24.5715355533	-60.6393574513
145375000.0	-23.992333273	-82.4760825057	4.78124218264	137.394173954	-59.0905644362	158.281902808	-24.423124947	-60.9746802455
146062500.0	-23.4900257476	-87.5535111954	4.79146974065	133.740178589	-59.194870854	156.368450959	-24.2675225951	-61.2951262055
146750000.0	-23.0588724304	-92.7739090965	4.79185225658	130.200312831	-59.7195414345	154.781523498	-24.1341884645	-61.5065400199
147437500.0	-22.6958609437	-97.7202443417	4.78333427463	126.788528644	-59.3723314883	147.505194272	-23.9731332523	-61.6282728503
148125000.0	-22.4106371479	-102.787717927	4.76974863861	123.482784373	-58.413828521	143.36612813	-23.8246159103	-61.6935662044
148812500.0	-22.1540317718	-107.87132019	4.74753013165	120.298185404	-58.1140203701	141.981518875	-23.6753298845	-61.6930715796
149500000.0	-21.9426338486	-112.767118458	4.72315378009	117.205211355	-58.1336850044	137.018497826	-23.537042795	-61.6150188084
150187500.0	-21.7694058948	-117.598567874	4.6916002022	114.208946252	-58.2193203751	137.062999731	-23.4111012455	-61.3851665253
150875000.0	-21.6213139769	-122.280674865	4.6604121439	111.30063437	-57.9120202156	138.427157288	-23.2894146826	-61.1159555084
151562500.0	-21.5027286185	-126.979797228	4.6243526903	108.484251248	-58.0198179179	137.575435119	-23.176058837	-60.8038620001
152250000.0	-21.4092840884	-131.506741989	4.58809887191	105.740656294	-57.6182740143	129.997371733	-23.0747647867	-60.362932602
152937500.0	-21.3382584332	-135.977861056	4.54809373698	103.072960617	-57.6789582093	130.621698311	-22.9654742217	-59.896909777
153625000.0	-21.2853653152	-140.346895476	4.50884635333	100.474788164	-57.6461092328	136.605074425	-22.8669467714	-59.2880664555
154312500.0	-21.234237197	-144.628619891	4.46734042161	97.9485353418	-57.8727045735	136.846824941	-22.7704212354	-58.7130138729
155000000.0	-21.2095698639	-148.853731763	4.42511250406	95.4723272593	-57.7728430482	127.342820731	-22.6838005783	-58.0352410786
155687500.0	-21.1826613611	-153.056157765	4.38324534417	93.0641633097	-58.1878741388	127.808925243	-22.6182978604	-57.2238768734
156375000.0	-21.1810794586	-157.189012414	4.34017357932	90.6975121304	-58.0385759373	120.501992013	-22.5468370444	-56.416117459
157062500.0	-21.1721679495	-161.250265337	4.2974180165	88.3918990917	-58.3626234702	121.54745922	-22.4831739533	-55.5029902648
157750000.0	-21.1725410216	-165.264224273	4.25357416708	86.1355804225	-58.6874312819	121.12468649	-22.4196447805	-54.5712733597
158437500.0	-21.1838384909	-169.288908424	4.20948517917	83.9303682776	-58.5418195655	119.943763052	-22.3694070104	-53.6571068739
159125000.0	-21.185081642	-173.21884834	4.16673256978	81.7703323217	-58.5000979222	117.829978338	-22.3352269658	-52.6897041005
159812500.0	-21.1956208893	-177.119052904	4.12477063791	79.6586078374	-58.377234535	117.105317298	-22.3020193684	-51.6425137715
160500000.0	-21.216420549	179.027795919	4.08335733665	77.581733966	-58.542770155	114.979723601	-22.2755040223	-50.5981817349
161187500.0	-21.2325075321	175.209367549	4.0409643556	75.5520762164	-58.351420906	114.917194313	-22.2618853582	-49.4899463808
161875000.0	-21.2539123153	171.525986431	4.00025307751	73.5601769112	-58.2600660106	113.239269586	-22.2719507416	-48.3333063675
162562500.0	-21.2760218978	167.831844368	3.95840102534	71.5997038867	-57.5351338789	100.785038618	-22.2799834887	-47.2121037791
163250000.0	-21.2905670313	164.231659602	3.91881953769	69.6649329294	-57.6406343345	86.0104533247	-22.3199894044	-46.064246554
163937500.0	-21.3112908692	160.618094547	3.87810910384	67.7738028784	-56.9680945262	72.5912157507	-22.3381284612	-44.8724140055
164625000.0	-21.3224618353	157.028775271	3.84033397073	65.9055468843	-57.3682650653	59.5507167475	-22.3791487503	-43.7080645164
165312500.0	-21.3351883146	153.536484416	3.79939033612	64.0809087501	-57.3818848871	37.4636172083	-22.4308900961	-42.5423358013
166000000.0	-21.3487705362	150.126699092	3.76301865612	62.2754875088	-58.1778166443	22.8858201644	-22.5001063445	-41.3570778391
166687500.0	-21.3647913064	146.689818108	3.72522713466	60.4980252301	-58.4503541146	6.37738118271	-22.5658650967	-40.194879683
167375000.0	-21.3742966315	143.335567399	3.68928567683	58.7567729068	-58.7039115705	-9.95023069721	-22.6630281008	-39.1123696789
168062500.0	-21.3779386553	139.979231806	3.65284444414	57.0520428809	-58.5117035483	-32.3467204022	-22.7501941023	-37.9893483271
168750000.0	-21.383575025	136.773704051	3.61926941435	55.3668483662	-58.5084429033	-46.4094236393	-22.8548028978	-36.9471993546
169437500.0	-21.383069907	133.551632837	3.58323357229	53.708698297	-58.4363647094	-61.9801578069	-22.9699318359	-35.9278849741
170125000.0	-21.3869796216	130.366454992	3.55231049093	52.0630122068	-58.9318916562	-76.6756012743	-23.1013512408	-34.936080798
170812500.0	-21.3836343973	127.222248227	3.52066829531	50.4499040083	-59.1592193885	-94.7903332903	-23.2355496488	-33.9238009668
171500000.0	-21.390548176	124.101642266	3.49084165341	48.8558782158	-59.2799340988	-108.500364071	-23.390426574	-33.0272919234
172187500.0	-21.3870402265	121.002417634	3.46326408527	47.2992324221	-59.326122806	-120.545936681	-23.5513063278	-32.1333044006
172875000.0	-21.3903210794	117.93637864	3.43610388604	45.7488831796	-59.1887493087	-138.056467176	-23.7144222325	-31.294333457
173562500.0	-21.3763937699	114.954627639	3.41014457808	44.2340974026	-59.2235228363	-150.986525519	-23.9283407169	-30.4810229528
174250000.0	-21.3803705454	112.012283161	3.3865140506	42.7289712741	-59.1357959302	-167.957407166	-24.1198141153	-29.7078327383
174937500.0	-21.3679615505	109.090247239	3.36551080177	41.2391293019	-58.9038830788	178.022317667	-24.3292267311	-29.0533939901
175625000.0	-21.3460531178	106.193141507	3.34617429078	39.7664631832	-59.2364915181	162.29259794	-24.5452153917	-28.3474075065
176312500.0	-21.3295753351	103.31157413	3.32719218709	38.3209708548	-59.6842101762	149.781456142	-24.7799277455	-27.7449051551
177000000.0	-21.3010145364	100.495384854	3.3110169822	36.8720779907	-60.3640104848	132.988300783	-25.0341805107	-27.2857324262
177687500.0	-21.2740169957	97.6796353607	3.29510388372	35.4406691692	-60.2810802872	118.102009188	-25.3116206205	-26.8128357161
178375000.0	-21.2451519711	94.9273493459	3.28182803172	34.0183864078	-60.1691043009	97.1607239616	-25.5905275263	-26.442115423
179062500.0	-21.2053106374	92.1465629811	3.26831413137	32.6177477091	-60.5061732224	83.267066355	-25.8707942468	-26.3016178861
179750000.0	-21.1654559275	89.4214911986	3.25823871059	31.2222763289	-60.7970404623	71.3114451929	-26.1806230313	-26.0639611842
180437500.0	-21.1262921652	86.6358524627	3.24914345424	29.8411379161	-60.8505447329	70.0318200752	-26.4503334702	-26.1355757912
181125000.0	-21.0736134389	83.8528055027	3.24176402972	28.4574969694	-60.860825772	62.0254345588	-26.7837232526	-26.0658108402
181812500.0	-21.0281948083	81.1593055372	3.23393119365	27.0982913072	-60.9146792697	60.8094143811	-27.0886329998	-26.2191713993
182500000.0	-20.9731095553	78.4498456614	3.23088304431	25.738092907	-61.0555422648	62.2674937389	-27.4313579046	-26.331556486
183187500.0	-20.9112164746	75.8020873869	3.22625815783	24.3879631695	-60.8112817131	64.0927401313	-27.7439690208	-26.7469866161
183875000.0	-20.8484265793	73.1916571407	3.22394140686	23.0406054178	-60.4258613981	59.6636620686	-28.0918649998	-27.1524335518
184562500.0	-20.7790088813	70.6023112145	3.22308287958	21.7068231916	-60.3413941557	60.8912330374	-28.3893574005	-27.8416176383
185250000.0	-20.7113415635	68.0748752989	3.22362793064	20.3638116137	-60.5234395879	60.2265846119	-28.7197464196	-28.5459113662
185937500.0	-20.6450987917	65.5469942637	3.22287337875	19.0305695523	-60.8614584823	61.0582681066	-29.0202712962	-29.2341591603
186625000.0	-20.5865290928	63.1189319734	3.22836520395	17.700967458	-60.9251469419	60.3031599576	-29.3569321927	-30.1827953623
187312500.0	-20.5171166223	60.6524051816	3.23074697555	16.3808991889	-60.4861342817	57.3571790499	-29.6593897391	-31.1217002508
188000000.0	-20.4559826591	58.2572686268	3.23551091441	15.0653663506	-60.4386739689	57.6052226635	-29.9547422191	-32.2714782498
188687500.0	-20.3912068764	55.8241005398	3.2394704188	13.7537371198	-60.1497093054	48.2799893208	-30.223823051	-33.3867838433
189375000.0	-20.3375879359	53.4401771455	3.24437866226	12.441893224	-60.2791578953	47.572177993	-30.52476066	-34.8054878936
190062500.0	-20.2815926084	51.1145652927	3.24924279868	11.1478857077	-60.0476160254	42.318545308	-30.7945995628	-36.1933322546
190750000.0	-20.2391126735	48.7236307114	3.25846291354	9.84672996272	-60.340918973	42.3099319673	-31.025536538	-37.885740227
191437500.0	-20.1954692429	46.3841444507	3.26518652756	8.56221825304	-60.1331885286	37.1686020999	-31.256990275	-39.5053929736
192125000.0	-20.1650790728	44.0863656606	3.27363513955	7.27433984076	-60.2831533804	38.2364080512	-31.4261318801	-41.2579108122
192812500.0	-20.1503993254	41.7455055173	3.28306272847	5.99980316018	-59.7448105067	34.7689221542	-31.5891031744	-43.1324867214
193500000.0	-20.1431549367	39.4739162134	3.29320362195	4.71036372629	-59.3513100757	33.2276127456	-31.7208088604	-45.1081573983
194187500.0	-20.1435131494	37.0971829468	3.30135910496	3.43828635647	-58.757303956	30.3855505887	-31.8111057652	-46.8263753921
194875000.0	-20.1600892353	34.7588596172	3.31271649665	2.16309206326	-59.0434738357	31.2518680746	-31.864392276	-48.9149588956
195562500.0	-20.17545688	32.3528118751	3.32494241989	0.899500721241	-59.0521885501	32.1003294115	-31.921214686	-50.8534474527
196250000.0	-20.2120948988	29.9095348845	3.33764746441	-0.364705653136	-58.9242668254	33.0946976913	-31.912731647	-52.9224139919
196937500.0	-20.2440596747	27.4527577225	3.34960326017	-1.62895910096	-58.4828521558	34.4110430489	-31.9061407071	-54.7685833575
197625000.0	-20.2935832721	25.0267360004	3.36285902299	-2.88694471884	-58.4486316294	32.2886552494	-31.8628135973	-56.5254624112
198312500.0	-20.3427325462	22.607066118	3.37758538109	-4.12546634163	-58.4333632512	30.3363012277	-31.7654749951	-58.3982793389
199000000.0	-20.4104470213	20.1133958554	3.39342542951	-5.38563514969	-58.0947431701	29.3849203057	-31.6506426204	-60.321254863
199687500.0	-20.4686633558	17.5166440934	3.4081842998	-6.63209215189	-57.9180863483	29.5895063472	-31.4971622315	-62.2103377705
200375000.0	-20.5474420642	14.9501682205	3.4238193774	-7.88525654055	-57.8956993486	19.3708342242	-31.3423505295	-63.8565463073
201062500.0	-20.619173833	12.3500643708	3.4389631446	-9.11600831748	-58.0084406294	20.6077471633	-31.1518346452	-65.6753429284
201750000.0	-20.700200639	9.64503548894	3.45599319683	-10.3676423251	-57.7805593857	10.9859456733	-30.9621317562	-67.0608236209
202437500.0	-20.7752222118	6.94360231505	3.47333457787	-11.6042466024	-57.9241478707	8.68162538625	-30.7238031827	-68.6049523524
203125000.0	-20.853909344	4.22067525184	3.4928328278	-12.8495340914	-57.6065498944	-1.06887682907	-30.4925007106	-69.8804304813
203812500.0	-20.9266759068	1.4211455817	3.50925170302	-14.078052526	-57.7114616069	-1.26077171892	-30.2008866519	-71.1330820266
204500000.0	-21.0161374968	-1.34366477948	3.52893534814	-15.3159529166	-57.73411298	-3.54506588766	-29.9266238104	-72.1994879195
205187500.0	-21.0897373039	-4.12756733841	3.54744933888	-16.5417621635	-58.1644980437	-3.53729355466	-29.6462272737	-73.236044591
205875000.0	-21.1573099221	-6.85241820749	3.56843091335	-17.7782414348	-58.1224674938	0.413299198176	-29.3700683985	-73.9949250674
