#Frequency	|S11|	<S11	|S21|	<S21	|S12|	<S12	|S22|	<S22
100000000.0	-15.1655806559	157.473573701	-43.6364973044	-105.734923189	-64.9193825704	137.551414082	-20.5188901021	-37.9761646951
100687500.0	-15.1107444202	155.381680961	-42.7364727939	-119.127064412	-59.7939512276	137.794348106	-20.5212303657	-36.933629483
101375000.0	-15.1165772176	152.911270436	-42.3245167361	-121.366346173	-60.3802904634	-144.07178898	-20.5177273625	-36.3314671088
102062500.0	-15.1238288283	150.415095348	-41.8544652488	-121.943348041	-60.8057560583	-105.303329363	-20.5668317611	-35.4603915675
102750000.0	-15.1363373347	147.827357701	-41.5347417044	-122.591308871	-60.288828597	-41.3246394607	-20.6093994419	-34.7048523093
103437500.0	-15.1521535349	145.197311878	-41.2448886453	-124.212050257	-60.0721931465	-31.0885755515	-20.6454623685	-34.0114786518
104125000.0	-15.1877339671	142.456572334	-40.9568212831	-125.91285071	-62.7954204789	-40.1632621205	-20.701459025	-33.2105052732
104812500.0	-15.2254078292	139.673873398	-40.657077512	-127.492355359	-62.255715816	-53.2469557081	-20.7647259118	-32.5808806093
105500000.0	-15.2805791659	136.762168969	-40.407276494	-128.847588094	-61.4889764105	-75.8486857942	-20.8296655833	-32.0579596048
106187500.0	-15.3388842243	133.745086386	-40.1551423916	-130.576621502	-61.6178802896	-76.0968435581	-20.907562834	-31.5108022934
106875000.0	-15.4095396343	130.619242398	-39.9474347907	-131.64869996	-61.5509108709	-63.9286185151	-21.005351993	-31.059021063
107562500.0	-15.4938369253	127.389556664	-39.7705240155	-133.124405714	-61.5080938887	-60.7402369198	-21.0962238304	-30.5796156937
108250000.0	-15.5825989898	123.928444054	-39.6396446417	-134.439110396	-62.0738306609	-50.0901309624	-21.1881119239	-30.208235648
108937500.0	-15.6483183198	120.716206407	-39.4406388652	-136.205990506	-62.1108576197	-44.6227647375	-21.2646195973	-29.7041134442
109625000.0	-15.7276782956	117.396831669	-39.3001203367	-137.181604834	-62.2727779815	-42.3303084802	-21.3420457553	-29.3197223169
110312500.0	-15.8018161883	113.978537794	-39.1664894708	-138.182196895	-62.2823505685	-43.6500400586	-21.4262872294	-28.8787640522
111000000.0	-15.8950040626	110.452302289	-39.0770207358	-139.15236069	-62.6556010095	-58.2068816138	-21.5177623601	-28.4638065182
111687500.0	-15.9820253717	106.799057849	-38.9576504574	-140.259434918	-62.5288379119	-67.9576353978	-21.6156935068	-28.1697522159
112375000.0	-16.0807936472	103.042588453	-38.939372892	-141.287006422	-62.4563306143	-79.55942056	-21.7128173696	-27.9111827236
113062500.0	-16.1790525787	99.1379572606	-38.9306240436	-142.003380083	-62.2814915476	-94.9358600547	-21.8134092676	-27.6316944808
113750000.0	-16.2865936104	95.1238242849	-38.9389380005	-142.645538359	-62.7460682003	-122.726979716	-21.9172745607	-27.4278608355
114437500.0	-16.3942152037	91.0003559042	-38.9527001369	-142.674298696	-62.6486258652	-162.767047996	-22.0279093923	-27.1807522055
115125000.0	-16.5163421421	86.707125915	-38.9591876081	-142.148310588	-62.4340105874	165.746806927	-22.1418855925	-26.9812651183
115812500.0	-16.6387928562	82.2290096913	-38.9326187994	-141.077409386	-62.5746595317	138.122849738	-22.2503068472	-26.7420647034
116500000.0	-16.7642424768	77.6471088548	-38.8441769667	-139.828469817	-62.4114759514	105.529842043	-22.3636208382	-26.7108018579
117187500.0	-16.8917947142	72.9061359515	-38.7636133923	-137.972275769	-61.4454192992	64.864615184	-22.4748153669	-26.60807509
117875000.0	-17.0396573949	68.0352772144	-38.6090690596	-136.161922253	-61.4099504254	35.4111083516	-22.5902906195	-26.5092450089
118562500.0	-17.1982728097	62.9518593791	-38.3892619669	-133.968566435	-61.2474044144	7.23493706425	-22.698165169	-26.4056419019
119250000.0	-17.3565244596	57.7149229024	-38.1125358507	-132.044251735	-61.552408846	-18.5524412257	-22.8116056009	-26.2845388091
119937500.0	-17.5433815656	52.3273865402	-37.810799047	-130.002147982	-61.5864936843	-46.2402297281	-22.921456099	-26.2039338222
120625000.0	-17.7391864946	46.7205328394	-37.4334078239	-127.871694908	-61.4304147871	-72.9118749638	-23.0320263034	-26.1911507682
121312500.0	-17.9697979201	40.945327355	-37.0250511996	-125.908684579	-61.5225248973	-100.659058092	-23.1369104586	-26.1875781382
122000000.0	-18.2134524241	34.9776682232	-36.552627674	-124.300150436	-61.9661509097	-126.448665143	-23.2605225799	-26.2372068203
122687500.0	-18.5070167172	28.7513017643	-36.0493525567	-122.633167367	-62.0887539839	-141.397057505	-23.35053615	-26.2723362584
123375000.0	-18.8280008027	22.2507682655	-35.478524047	-121.050179781	-61.8372845575	-157.303382075	-23.4532993135	-26.3839213641
124062500.0	-19.2072654851	15.4778678044	-34.9081470044	-119.51538722	-61.6475485016	176.382467859	-23.5627716357	-26.4036804167
124750000.0	-19.6575973947	8.4255885674	-34.2981362881	-118.431755322	-61.3341968437	152.690368669	-23.6654522133	-26.4902791655
125437500.0	-20.16297054	0.85842193059	-33.6132210279	-117.142338859	-60.6316083911	137.311437181	-23.7623760813	-26.4901622015
126125000.0	-20.7862846975	-7.24801874502	-32.8956699371	-116.277028509	-60.3596043914	122.367205526	-23.8758136172	-26.5443460708
126812500.0	-21.4425940768	-16.2559317742	-32.1363739435	-115.4480764	-60.6064943874	119.601871137	-23.9802305004	-26.5342510828
127500000.0	-22.2204668376	-26.5510780089	-31.383488175	-115.213876832	-60.5343685016	109.511339472	-24.0829816553	-26.696015044
128187500.0	-22.9261798642	-37.9893452708	-30.5929176897	-114.928999827	-60.2459855231	99.1086174005	-24.1728304399	-26.7379668309
128875000.0	-23.5525837881	-50.2574391519	-29.7720742389	-115.054535204	-59.9026843094	94.5142929165	-24.2591070613	-26.7532766409
129562500.0	-24.1148536806	-63.0353830848	-28.909521698	-115.134581968	-60.2742204484	81.7437394378	-24.3373816202	-26.8084798795
130250000.0	-24.6278394086	-76.1840405547	-28.0009886431	-116.238337163	-60.5279830382	69.4487668133	-24.4234118324	-26.8542836933
130937500.0	-25.0917845874	-89.8366002222	-27.0900787898	-117.368734983	-60.4150170643	58.0462580758	-24.4987135652	-26.8750313273
131625000.0	-25.5160165241	-103.634839911	-26.1605847397	-119.225035244	-60.5911628105	51.8889096566	-24.5647904832	-27.0015546932
132312500.0	-25.9091722521	-117.65213224	-25.2458443606	-121.434970258	-60.6869546799	43.5866409452	-24.6356294708	-27.0757824448
133000000.0	-26.2846760684	-131.899720525	-24.3724242246	-124.789071218	-60.8198872036	30.9149017568	-24.6947329352	-27.2244457621
133687500.0	-26.6477853312	-146.290944521	-23.535084785	-128.137842781	-60.7080313272	19.0946012545	-24.7602828667	-27.2867495469
134375000.0	-26.9902889259	-160.905087391	-22.7667691749	-132.281859333	-60.6839657093	7.54682086794	-24.810015352	-27.5284925352
135062500.0	-27.2979080605	-175.795169995	-22.0429295645	-136.585413693	-61.0683450149	-18.0270056348	-24.8515652539	-27.7397823856
135750000.0	-27.5899435325	169.244438388	-21.4114400351	-141.200334846	-61.1585449557	-42.7617748471	-24.8958858858	-27.950684948
136437500.0	-27.8589459844	154.163377996	-20.8010485781	-145.81212674	-60.87206242	-71.8172820234	-24.9342927303	-28.2826205333
137125000.0	-28.1001564274	138.88968134	-20.2713014148	-150.668903807	-61.0408670357	-102.97457038	-24.9728892417	-28.5242080661
137812500.0	-28.284824674	123.611136355	-19.794989212	-155.482931391	-61.3262696421	-146.150113002	-25.0017173002	-28.8191274525
138500000.0	-28.4307772274	108.322965399	-19.3799003921	-160.369264653	-61.2063857355	169.256384312	-25.0159618452	-29.1685317547
139187500.0	-28.5304722325	92.9861448482	-19.0040860109	-165.223170335	-60.8475690295	114.364650428	-25.0226457176	-29.4580682059
139875000.0	-28.571493515	77.7332782434	-18.6879848758	-170.0734952	-60.4282755489	59.7051559739	-25.0345912043	-29.7158462021
140562500.0	-28.5615921049	62.5398599533	-18.40104124	-174.939906307	-60.9268915071	1.39341691476	-25.0445897618	-30.0169063971
141250000.0	-28.4637644308	47.5459723502	-18.17096805	-179.647177736	-61.4721309001	-45.0178521718	-25.022380964	-30.3516349289
141937500.0	-28.2802888528	32.7183330541	-17.967133605	175.655669199	-61.7480112601	-100.960579672	-25.0115464988	-30.6602277952
142625000.0	-28.0172680987	18.4278473762	-17.8000498977	171.148099095	-62.0324882151	-169.816611689	-24.9902004554	-30.9980790712
143312500.0	-27.620958698	4.62836430332	-17.6676911725	166.689682685	-62.1612667258	131.802161864	-24.9564397727	-31.3204149772
144000000.0	-27.1665261432	-8.34884202863	-17.5592189004	162.417255465	-62.1813407842	65.5008350653	-24.9135327303	-31.6657147796
144687500.0	-26.5895871663	-20.005646035	-17.4741472668	158.191451735	-62.4792621428	-3.48287829999	-24.86908651	-31.9233739452
145375000.0	-26.0443098293	-30.4842635697	-17.4118648407	154.146375441	-63.0734953833	-60.5199454405	-24.8185307326	-32.2801322653
146062500.0	-25.5782020463	-40.0922295485	-17.3706577587	150.20399457	-63.2823065088	-116.77450632	-24.7651495354	-32.5532887376
146750000.0	-25.1487440338	-49.1319538275	-17.3428110881	146.425951719	-62.826848874	-163.684698675	-24.7202101238	-32.7530224432
147437500.0	-24.7692759607	-57.7392998286	-17.3403283413	142.759766783	-62.4647666648	154.105521985	-24.6408797687	-32.9895907045
148125000.0	-24.42447673	-65.7366472935	-17.339744957	139.176686174	-62.5560142683	124.556733603	-24.5761872309	-33.2631149922
148812500.0	-24.1189784645	-73.5721816365	-17.3585808881	135.738697324	-62.7454417713	95.2414783077	-24.4924075746	-33.4408543905
149500000.0	-23.8160426837	-80.9744901305	-17.3824405505	132.430091283	-62.5840065166	67.3762476253	-24.4146700262	-33.6299409304
150187500.0	-23.5219203205	-88.0439141722	-17.4139565563	129.233343749	-62.2174474794	52.7104087765	-24.3313419676	-33.7445964102
150875000.0	-23.2315018631	-94.853457457	-17.4477581731	126.111288347	-62.0505411255	37.1285502753	-24.2393682087	-33.7597199401
151562500.0	-22.9551587873	-101.285320261	-17.4909389737	123.106101057	-62.0649121133	20.8372730922	-24.149278582	-33.7203994251
152250000.0	-22.6926353211	-107.307804937	-17.5344029398	120.184464494	-62.155826844	18.6683680157	-24.0718049006	-33.6189715516
152937500.0	-22.4301408401	-113.003832862	-17.584200851	117.388568596	-61.9274784451	16.231707363	-23.9753037018	-33.4903231735
153625000.0	-22.1859668251	-118.374360764	-17.6303501766	114.665962642	-62.20110413	19.1064236084	-23.8960963307	-33.2316190796
154312500.0	-21.9315132903	-123.377777887	-17.6851930437	112.074277294	-62.0432982944	22.7824404067	-23.7912619053	-33.0034747403
155000000.0	-21.7225680185	-128.154381505	-17.740253187	109.499639052	-61.8141886395	34.9312523993	-23.704750919	-32.6182133358
155687500.0	-21.5138241144	-132.690047658	-17.7934391762	107.042197067	-61.4295071174	37.0057048413	-23.6205812995	-32.1714889733
156375000.0	-21.332809147	-136.934075934	-17.8535503461	104.590701101	-61.4390660746	50.0462395924	-23.5268510001	-31.7226995428
157062500.0	-21.1557800072	-141.006359965	-17.905733991	102.25992751	-61.5064851616	51.2520057058	-23.4356998418	-31.1940353426
157750000.0	-21.0051374322	-144.774065216	-17.9672901989	99.9966498538	-61.0769125773	53.9039023093	-23.3411729245	-30.6354499313
158437500.0	-20.8715754044	-148.399879079	-18.0232678888	97.7968881321	-60.4369223699	44.5099048005	-23.2680693929	-30.0322646193
159125000.0	-20.7564848604	-151.818660225	-18.0801116866	95.6323606857	-60.2740947885	43.5490840082	-23.1932248743	-29.3835906412
159812500.0	-20.6605967381	-155.158860498	-18.1339306765	93.5154382795	-60.1459745072	47.4574383766	-23.11965264	-28.7208012772
160500000.0	-20.5776760023	-158.335554692	-18.1888235536	91.4328891546	-60.2949205364	50.7785277609	-23.0486246496	-28.0720678262
161187500.0	-20.5118356593	-161.382989447	-18.2412171814	89.4230831347	-59.7938875364	49.4056092037	-22.9811590956	-27.2953538546
161875000.0	-20.4611224726	-164.288129114	-18.2998858346	87.4581575922	-59.6278518932	48.3327509238	-22.9306112576	-26.4898825072
162562500.0	-20.4469246381	-167.178897684	-18.351063835	85.517272873	-59.0672148318	37.6074534772	-22.8857423533	-25.6795852176
163250000.0	-20.429229116	-169.973074725	-18.4079782215	83.6101561491	-58.9647382006	24.6065341725	-22.8501062235	-24.8062153694
163937500.0	-20.4377413651	-172.685214466	-18.4537740659	81.7204647691	-59.2830861616	1.4536722679	-22.8087527978	-24.0075777406
164625000.0	-20.4507671868	-175.287743535	-18.4996492909	79.9179803901	-59.368904053	-27.6692687476	-22.7853805472	-23.1684664623
165312500.0	-20.48043325	-177.846410514	-18.5494476492	78.1528217804	-59.2991766698	-68.7676575032	-22.7636236065	-22.2882741635
166000000.0	-20.5181382925	179.693906626	-18.5948762498	76.4363697608	-58.9849168519	-104.843485635	-22.7555156344	-21.4368351637
166687500.0	-20.5827986194	177.142539513	-18.6349674922	74.7169552873	-59.1468475718	-146.924085826	-22.7486298796	-20.5186039175
167375000.0	-20.6507400487	174.719853653	-18.6806464716	73.0469126384	-59.1910391879	158.262844604	-22.7619608229	-19.6932081173
168062500.0	-20.7449761663	172.298623746	-18.7272030699	71.3996859208	-59.1313554403	116.785823868	-22.7676635977	-18.857970936
168750000.0	-20.8455666913	169.873256531	-18.7657566087	69.7843680326	-58.9329034537	77.5872651198	-22.7946527341	-18.0295837538
169437500.0	-20.9538463231	167.382269598	-18.8106366903	68.2112402365	-58.5294708218	37.4150080136	-22.82316041	-17.2042088565
170125000.0	-21.0751415819	164.86616392	-18.8461553525	66.6550295857	-59.1416478078	-5.00502769253	-22.8685352271	-16.4376591067
170812500.0	-21.2126114615	162.264028136	-18.8877054565	65.0884852171	-58.6831638996	-50.1814388731	-22.9077550101	-15.6680783287
171500000.0	-21.362942682	159.61668387	-18.9199616384	63.5676159261	-58.6674758093	-96.7810807125	-22.9749412188	-15.0008181577
172187500.0	-21.5260833079	156.896427847	-18.958546449	62.0807515633	-58.742043049	-151.38397107	-23.0484809742	-14.340600462
172875000.0	-21.6937316034	154.080119866	-18.990229786	60.5840949882	-59.5255001464	155.090822093	-23.1195537374	-13.6779749637
173562500.0	-21.8561154531	151.122420275	-19.0213686639	59.1530179595	-60.1320999902	99.3165731965	-23.2091298959	-13.0740022655
174250000.0	-22.0311364643	148.160488163	-19.0512476361	57.7422528814	-60.2746202992	56.798913333	-23.2939367255	-12.4764082979
174937500.0	-22.1777389751	144.93731332	-19.0808297938	56.3208439467	-60.1334305505	26.6104899254	-23.4015870211	-11.9445116859
175625000.0	-22.3498694585	141.650273286	-19.1041904631	54.9141922072	-60.6657153417	-0.917826608514	-23.4941249604	-11.4306835305
176312500.0	-22.494904028	138.249551481	-19.1345264978	53.5392644895	-60.8610519526	-28.9088102486	-23.6115609384	-11.0172558968
177000000.0	-22.6293726163	134.746895158	-19.1584536135	52.1815544759	-61.1167025105	-60.542141797	-23.7458004544	-10.6525529534
177687500.0	-22.7532347123	131.118617398	-19.1823988313	50.8654511846	-60.5796123859	-102.839502625	-23.8861504515	-10.2302522514
178375000.0	-22.8714698747	127.486456482	-19.1964131146	49.4888683834	-60.6303654906	-132.27560365	-24.0265995013	-9.91430063811
179062500.0	-22.9523419579	123.739951249	-19.2143323362	48.1726656214	-60.5969668654	-148.428201587	-24.1697555393	-9.69795933922
179750000.0	-23.0232257571	119.91340343	-19.2293580923	46.8296340524	-60.4657701227	-165.311253448	-24.3247392622	-9.4934774111
180437500.0	-23.0815300806	116.035786301	-19.236949238	45.5376048816	-60.5279353397	170.703288837	-24.4643201092	-9.42002229377
181125000.0	-23.1207151244	112.098771554	-19.2545923964	44.2279943807	-60.4395774431	157.952729843	-24.629298776	-9.22403195611
181812500.0	-23.1341555457	108.127278292	-19.2718653657	42.9543822209	-60.3420429718	145.658419203	-24.7822190002	-9.11512472015
182500000.0	-23.131444309	104.100377793	-19.285739022	41.6637045334	-60.0782790079	132.196708095	-24.9499368613	-9.04565167924
183187500.0	-23.0955547003	100.110250475	-19.2937226051	40.3794279629	-60.0826900618	119.176799364	-25.1065074976	-8.94829141353
183875000.0	-23.0407933182	96.1714063535	-19.3102767923	39.1192701072	-60.6747435118	117.690186867	-25.2742574094	-9.10880261659
184562500.0	-22.9854851426	92.1841734699	-19.3158735431	37.8871873288	-61.3108440603	118.334168596	-25.4256936112	-9.15292607289
185250000.0	-22.8814245301	88.2055823763	-19.3211919883	36.5851031895	-61.2736934816	115.529582896	-25.5947544685	-9.33851502105
185937500.0	-22.7739448857	84.3161926289	-19.3256363307	35.3605378934	-61.5939834087	116.133285156	-25.7483430308	-9.48239858816
186625000.0	-22.6543339596	80.5298884181	-19.3289342084	34.078785402	-61.5238179949	115.128928678	-25.9244656879	-9.63512073864
187312500.0	-22.5168543412	76.7396441487	-19.3284746199	32.8401890251	-61.0373372798	106.680672204	-26.0680291529	-9.77282305168
188000000.0	-22.3480742242	73.0914808032	-19.3321006528	31.6184422229	-61.2598532381	108.265279749	-26.2208030462	-10.0882558361
188687500.0	-22.1724184402	69.4595168742	-19.3366737394	30.3747484977	-61.5183775243	110.344718471	-26.3676380685	-10.3156579663
189375000.0	-21.9689943035	65.9977690245	-19.3367221595	29.1565259878	-61.3135218828	112.052977863	-26.5039140468	-10.6272003631
190062500.0	-21.7723636621	62.6365953468	-19.3399457532	27.9439961559	-60.7485201114	113.33047302	-26.6450124933	-10.9245321681
190750000.0	-21.5678491383	59.4190119167	-19.3403628503	26.7388600196	-60.0354411949	115.264398538	-26.7927786744	-11.227201627
191437500.0	-21.3548681706	56.2843471596	-19.3360013433	25.527184604	-59.9692734663	104.137118316	-26.9310123443	-11.6685389364
192125000.0	-21.1544779638	53.4370229467	-19.3357866331	24.3338222616	-60.2536246316	93.5080861009	-27.0334948388	-12.1327692758
192812500.0	-20.9330091144	50.6619839376	-19.3332809908	23.1202798223	-60.136223674	81.4208361699	-27.1755097625	-12.6326061757
193500000.0	-20.7293854828	48.0591646379	-19.3241890842	21.915797355	-60.0001078469	70.0164189612	-27.2812787238	-13.1245208911
194187500.0	-20.5305054324	45.5251206935	-19.3214693331	20.667046098	-59.4956432406	57.1794263696	-27.3680394667	-13.6184966354
194875000.0	-20.3517789619	43.13848783	-19.3189000252	19.4824777792	-59.5895945642	44.9760740666	-27.4354491244	-14.2300832342
195562500.0	-20.1726348476	40.7902783691	-19.3177762491	18.3110704563	-59.6399947276	33.1348718778	-27.5385774521	-14.8298528201
196250000.0	-20.0220122493	38.5572695745	-19.3103557365	17.130595303	-59.7058352819	21.1633340965	-27.5984872896	-15.4823908556
196937500.0	-19.8672459598	36.4285730802	-19.3064618758	15.9728472234	-59.9125306008	8.13101723824	-27.6495873428	-16.0282141972
197625000.0	-19.7350972599	34.3667638662	-19.2990568697	14.814225547	-60.1618283412	3.77427446655	-27.6888297757	-16.6900417043
198312500.0	-19.6037389914	32.3308360388	-19.2937289469	13.6484857223	-59.8830982632	-6.3744853743	-27.7127757606	-17.5055542982
199000000.0	-19.5105467562	30.3522113055	-19.2770668488	12.4813218548	-60.326718931	-6.91092932544	-27.733981302	-18.3954468654
199687500.0	-19.4079526696	28.3951623773	-19.2676321163	11.3197305331	-60.3469380308	-6.22360360461	-27.7359237217	-19.2816486898
200375000.0	-19.3339803024	26.453537459	-19.2544684656	10.1675538029	-60.1842527722	-3.44047892635	-27.7469953139	-20.1963465847
201062500.0	-19.2660427571	24.5557118616	-19.2422774811	9.02122985327	-59.9778132409	-0.288668293927	-27.7421551154	-20.9554137458
201750000.0	-19.2092354925	22.6450538124	-19.2332283481	7.84135310321	-59.5389856714	13.4915492847	-27.7149749576	-21.8010770883
202437500.0	-19.1653827831	20.7674257034	-19.2230525073	6.76846841951	-59.5838358805	20.3730602397	-27.686221341	-22.72256483
203125000.0	-19.1310929687	18.8361231043	-19.211080468	5.62233004674	-59.3804973554	27.8126636175	-27.6378071653	-23.5774621593
203812500.0	-19.088410164	16.8708282637	-19.1988852581	4.53818831332	-59.4534916992	34.0311335105	-27.5552663168	-24.5206866072
204500000.0	-19.0717211197	14.9550229485	-19.187020623	3.41550219289	-59.5769764768	47.7720264475	-27.4974675128	-25.4923637316
205187500.0	-19.0646989586	13.0265254687	-19.1717484795	2.317369194	-59.4783034009	55.8107787283	-27.4135248724	-26.2648153329
