#Frequency	|S11|	<S11	|S21|	<S21	|S12|	<S12	|S22|	<S22
100000000.0	-19.7969354877	125.964982182	-17.9193444185	-126.403660883	-64.8125521633	174.019666178	-21.4239331619	-66.1055663842
100687500.0	-19.6234289674	122.87211606	-17.5141842068	-127.552274065	-61.4798700248	34.9886253871	-21.5153493462	-66.6321736488
101375000.0	-19.5429512876	119.552036732	-17.1396897634	-128.928545277	-62.2865202862	4.48574932876	-21.569944003	-66.6732593838
102062500.0	-19.4587063469	116.444550617	-16.7716837693	-130.221700986	-62.1493628611	47.3519741515	-21.6269111349	-66.7293877984
102750000.0	-19.3791362496	113.205353561	-16.4402833008	-131.566161102	-61.8686054188	81.6493357811	-21.6829227065	-66.5430523563
103437500.0	-19.3139073077	110.091990855	-16.1231678431	-132.95056978	-62.0846232539	128.683928353	-21.746707279	-66.4886713753
104125000.0	-19.2639589058	106.740580326	-15.8289986522	-134.331677675	-61.3721661512	162.545538971	-21.8418744262	-66.3761061672
104812500.0	-19.2202136851	103.358312559	-15.5595909331	-135.667231092	-61.8401332981	147.618498737	-21.9109329371	-66.3960705631
105500000.0	-19.1829153564	99.8508134164	-15.3166788427	-137.040206888	-61.9579564962	103.552745562	-21.9733530857	-66.4691424536
106187500.0	-19.1425902678	96.2255086905	-15.1057786001	-138.39055898	-61.3514833703	72.0235319522	-22.0508899777	-66.6027080102
106875000.0	-19.1167888982	92.484961576	-14.9269598666	-139.689433689	-61.4296389308	59.6640589892	-22.1256777453	-66.7328502942
107562500.0	-19.0940419062	88.5902417125	-14.7876648414	-140.920898273	-61.3722223569	74.5083107353	-22.2090003986	-66.7809790368
108250000.0	-19.0596568763	84.4768802148	-14.690652701	-141.97622986	-61.3723173448	87.3394981793	-22.2791530971	-66.9751250009
108937500.0	-19.0165259511	80.5910471176	-14.5286708842	-143.051854753	-61.2348140989	89.0150085488	-22.3546415265	-67.0505426242
109625000.0	-18.9824541247	76.710528486	-14.396760367	-143.997850881	-61.312197669	92.0571009585	-22.4199325251	-67.0830938334
110312500.0	-18.9335052422	72.6712665647	-14.2930403167	-144.803328348	-61.2962041426	94.3649377442	-22.4949254673	-67.1541949855
111000000.0	-18.8978460367	68.5483475443	-14.2150156344	-145.34478821	-61.1712848665	94.2261643646	-22.5688237543	-67.2033891635
111687500.0	-18.8490802999	64.3382781551	-14.1637893233	-145.595330291	-61.3430946104	95.6051851276	-22.6421798006	-67.3252587546
112375000.0	-18.8138476512	60.0112809947	-14.1214944187	-145.483383234	-61.8539948283	95.6026237237	-22.7161463814	-67.4187466473
113062500.0	-18.7670997085	55.5525937274	-14.0774155623	-144.994232963	-61.5670533037	83.8418679711	-22.7986749842	-67.4558820722
113750000.0	-18.7326759283	50.9699309318	-14.0097041163	-144.065398461	-61.4146691833	68.0717372898	-22.8715467508	-67.4494839887
114437500.0	-18.6935557446	46.3341584468	-13.9008568659	-142.81234188	-61.493553333	40.6768630183	-22.9552771324	-67.4918918781
115125000.0	-18.6600835373	41.4788610781	-13.7451701397	-141.275661781	-61.6732966775	13.005958496	-23.0362826089	-67.4692599978
115812500.0	-18.6221446131	36.6022239937	-13.5337067471	-139.542224815	-61.2186779845	-14.3288660551	-23.1246665824	-67.4379655557
116500000.0	-18.5881595051	31.5173176013	-13.2646501121	-137.735675825	-61.2762460722	-51.6320229538	-23.199314885	-67.336344863
117187500.0	-18.5554675571	26.4348013591	-12.9419588862	-135.871872308	-61.4616447355	-78.3949910349	-23.2698520017	-67.2446161965
117875000.0	-18.5318104531	21.1169672788	-12.5624434124	-134.064404967	-61.1015346001	-106.37920673	-23.3555484219	-67.0466515334
118562500.0	-18.5276946191	15.7414418097	-12.1369847451	-132.300359883	-60.9336441256	-134.472873638	-23.4380168283	-66.7356376435
119250000.0	-18.529231689	10.2188940502	-11.6613693335	-130.634537965	-60.6149587244	-152.239247433	-23.5165083422	-66.3064572654
119937500.0	-18.5565552783	4.58112410098	-11.1415309624	-129.079784274	-60.5598532784	-170.043767426	-23.5917044887	-65.8990830505
120625000.0	-18.5948764087	-1.12818847668	-10.5773537806	-127.688659935	-60.5190376805	163.865955257	-23.6668027241	-65.4803789684
121312500.0	-18.6866788732	-6.8983228866	-9.97950758152	-126.459033401	-60.7717393676	142.534344646	-23.7267831429	-64.870542404
122000000.0	-18.7817113717	-12.7053014223	-9.34325314817	-125.416556079	-60.9880420067	114.64521419	-23.7865677927	-64.3190962476
122687500.0	-18.9394333369	-18.5406437418	-8.67462750789	-124.589178226	-60.7899388259	84.0678963273	-23.8394174504	-63.6399733998
123375000.0	-19.1295377406	-24.2832037745	-7.97461790289	-123.952011448	-60.6215948409	43.1487319119	-23.8832273086	-62.943077378
124062500.0	-19.3934519715	-29.9883091153	-7.24677705638	-123.550620589	-61.1002193833	-5.74825137536	-23.9177214812	-62.1887736702
124750000.0	-19.7106989128	-35.2751472015	-6.49475505817	-123.385291329	-61.1084896037	-46.919351551	-23.9485074338	-61.3550059565
125437500.0	-20.070839037	-40.3632545405	-5.71397398629	-123.492622804	-60.9665629997	-92.2376329221	-23.9718954078	-60.4594531189
126125000.0	-20.4597946779	-44.7744745829	-4.91007431157	-123.860713682	-60.7686492892	-135.097809377	-23.9962805996	-59.6611264787
126812500.0	-20.8575573147	-48.7565697941	-4.08000020761	-124.536548381	-61.0065818411	-171.38527607	-24.016472662	-58.795260153
127500000.0	-21.2256058387	-52.0358659871	-3.22742383567	-125.548988538	-60.9090910059	158.626998707	-24.0191189668	-57.9492085437
128187500.0	-21.5587474607	-55.1496000905	-2.35301919011	-126.98118118	-60.8659567796	131.564892242	-24.0244194166	-57.0421359914
128875000.0	-21.8588887802	-57.7644645788	-1.46147388944	-128.853953072	-60.5636076017	98.1417525956	-24.0160506276	-56.1041494896
129562500.0	-22.1285927617	-60.3680388946	-0.567526524519	-131.252859589	-59.8870873015	58.8117138304	-24.0020063062	-55.1803905466
130250000.0	-22.3726653623	-62.7725687603	0.313155985071	-134.176483501	-59.874703705	28.1396222518	-23.9971107925	-54.3408293497
130937500.0	-22.5732560665	-65.0842145604	1.16535898503	-137.678425956	-60.0310961388	1.78110095704	-23.9836382047	-53.5298653915
131625000.0	-22.7642453026	-67.2407117966	1.96624084088	-141.616023147	-60.1373016257	-13.2734069505	-23.9533101165	-52.7426192001
132312500.0	-22.930590056	-69.3558966481	2.71208230984	-145.972850439	-59.7737444818	-38.6327396348	-23.9166863448	-51.9399864654
133000000.0	-23.0852570395	-71.3937362441	3.39213118971	-150.613097763	-60.0335105098	-59.8712954108	-23.8738017308	-51.2771994728
133687500.0	-23.215083409	-73.3503134089	4.00511328321	-155.469147285	-59.8929470918	-74.7336461477	-23.8390085341	-50.6322550773
134375000.0	-23.3421421851	-75.2250832573	4.55610588828	-160.456804181	-59.5824599971	-96.257345141	-23.7959545047	-50.0690318266
135062500.0	-23.4313862657	-77.0314802289	5.04490995994	-165.522274858	-59.333535738	-110.047975936	-23.7481086828	-49.603856573
135750000.0	-23.5097079541	-78.7569579077	5.47600523989	-170.607943504	-59.300019854	-117.390348891	-23.6850780373	-49.2521099061
136437500.0	-23.5663822623	-80.3828914902	5.85168915608	-175.706402022	-59.1603536278	-129.864157585	-23.6364990187	-49.0266185295
137125000.0	-23.6020243772	-81.9517225817	6.17633118591	179.245694089	-59.0215609548	-138.137322689	-23.5913051739	-48.8528373386
137812500.0	-23.6016207959	-83.3730213885	6.45437387935	174.258853445	-59.0366445206	-141.246956123	-23.5450856563	-48.6643288546
138500000.0	-23.5729880211	-84.7974478106	6.69164392521	169.366989523	-58.8124590608	-152.095732801	-23.487823475	-48.6641545994
139187500.0	-23.5147263912	-86.1277250135	6.88772025632	164.572705004	-58.5174938741	-153.170141776	-23.4464302558	-48.6535432267
139875000.0	-23.402087712	-87.5030989322	7.05036804193	159.910514255	-58.3141621146	-161.86427214	-23.413871739	-48.7151386941
140562500.0	-23.2497685214	-88.8842325986	7.18164292171	155.361208995	-58.4236980789	-166.66961509	-23.3875667784	-48.9131062786
141250000.0	-23.0310292414	-90.3466920983	7.28779256468	150.95835656	-57.6938560364	-165.881569907	-23.3498506626	-49.1121009811
141937500.0	-22.7680266507	-92.0552212395	7.37004879699	146.679475608	-57.7308640209	-168.987892944	-23.3251513442	-49.4581453823
142625000.0	-22.4569770003	-93.9930402031	7.43234117385	142.544793181	-57.4021709375	-170.780265855	-23.3011800033	-49.7628610038
143312500.0	-22.118902077	-96.4864796793	7.47493907395	138.540345543	-57.8428035565	-172.165372274	-23.2792534596	-50.097971627
144000000.0	-21.7748345041	-99.4813719157	7.50426772042	134.670297764	-57.4189550985	-179.125717858	-23.2599733858	-50.4673088526
144687500.0	-21.47851545	-103.08655508	7.52069692755	130.92743749	-57.9194979643	174.439800411	-23.2477068836	-50.9177001706
145375000.0	-21.2049191225	-106.748446627	7.5268112505	127.316863079	-57.5563346017	163.129559759	-23.2327052375	-51.4264809409
146062500.0	-20.9860744278	-110.801816955	7.5224369495	123.816062352	-58.0060568048	155.884840221	-23.230165105	-51.9065697275
146750000.0	-20.7887625583	-114.830888582	7.51089755336	120.425693015	-58.236630383	154.800103288	-23.2361432586	-52.3441702305
147437500.0	-20.6483762897	-118.9242411	7.49067910705	117.149939588	-58.5257933258	149.184142802	-23.2234648812	-52.8009861497
148125000.0	-20.5394523638	-123.009407836	7.46790534167	113.970993658	-58.1774335131	147.646969607	-23.2251867267	-53.2803298803
148812500.0	-20.4561462246	-127.264321729	7.43844722513	110.879379674	-57.9781876197	138.641437558	-23.2199994857	-53.7210475198
149500000.0	-20.3909892362	-131.351865796	7.40660580984	107.891580468	-58.1137060964	135.343794503	-23.2425904978	-54.1570636674
150187500.0	-20.355160077	-135.570936413	7.36982575368	104.972741902	-57.9893800696	130.794477393	-23.2482573164	-54.4428312948
150875000.0	-20.3430742434	-139.558275624	7.33243749292	102.148880261	-58.2202996811	129.668477643	-23.2614717344	-54.7549541711
151562500.0	-20.3379540856	-143.69525266	7.29206369356	99.389560822	-58.0802371513	128.038348288	-23.2602344548	-55.0242879112
152250000.0	-20.3670779373	-147.624455832	7.25118773551	96.7062119672	-58.5226932904	118.760814738	-23.2845712709	-55.2469387313
152937500.0	-20.3992190407	-151.590099792	7.20565306434	94.0913098468	-58.5136777204	115.87346414	-23.299440825	-55.433252668
153625000.0	-20.4541800751	-155.485910591	7.16297079859	91.5496294252	-58.8630766366	114.191031726	-23.3254682623	-55.5693338964
154312500.0	-20.5000308757	-159.375244587	7.11762262934	89.0581657053	-58.7765704307	112.666536814	-23.326135006	-55.6646301428
155000000.0	-20.5759311356	-163.286630066	7.07196361871	86.633998878	-58.810960193	113.458927004	-23.3521637599	-55.7481326961
155687500.0	-20.63429383	-167.131229636	7.02569076568	84.2560944924	-58.7313533888	113.275010259	-23.3782726085	-55.763271425
156375000.0	-20.7313355816	-171.013342571	6.97940342033	81.9356921449	-59.0341347442	110.132916096	-23.3974598498	-55.7819801497
157062500.0	-20.8077147809	-174.735608826	6.93210955614	79.6532283765	-58.8542700714	107.869188498	-23.4071597364	-55.7457282197
157750000.0	-20.9037289244	-178.540715735	6.88640256852	77.4292801799	-58.8804975138	104.655129548	-23.4280915612	-55.7096033895
158437500.0	-20.9957363087	177.827628987	6.83861531273	75.2399277805	-59.0251501391	98.6362645645	-23.4554525583	-55.6361898467
159125000.0	-21.0912784092	174.116012892	6.7932837789	73.1219934537	-58.9550331635	92.2063949706	-23.4964971262	-55.4937361571
159812500.0	-21.1885682674	170.526228621	6.7480980121	71.0240397944	-59.1827304351	88.6897289054	-23.5332655362	-55.285020576
160500000.0	-21.291727765	166.882667075	6.70489891023	68.9844961414	-58.6458616097	80.8267406015	-23.5740797762	-55.144259221
161187500.0	-21.398891378	163.401635603	6.65926762863	66.9616996305	-58.5370558702	80.4672171812	-23.6143267741	-54.9289314966
161875000.0	-21.5046268808	159.905752695	6.61496559355	64.9866406654	-57.7597410502	76.8968172899	-23.671419533	-54.7403205302
162562500.0	-21.6266099045	156.414979928	6.57147327586	63.0335658157	-57.9075130356	75.4170745954	-23.730911771	-54.5176630602
163250000.0	-21.7190411785	152.865184914	6.52889705942	61.1232525526	-57.5747482069	77.0807523992	-23.7914478982	-54.3217057643
163937500.0	-21.8379803064	149.507882322	6.48671202309	59.2424837245	-57.4694292698	72.17708277	-23.8391264865	-54.1673561985
164625000.0	-21.9335186692	146.079810662	6.44762	57.3907714936	-56.9678840168	71.0580972776	-23.8892743308	-53.9673316486
165312500.0	-22.0526936552	142.702489833	6.40648874332	55.5787711325	-56.9971289439	62.441886922	-23.9475051551	-53.7397793127
166000000.0	-22.1577142872	139.462364765	6.36917997003	53.7963103782	-56.7724327611	61.6915388521	-24.0162369344	-53.6012265904
166687500.0	-22.2825909204	136.101496073	6.32938166202	52.0281347517	-56.865993908	61.6523050354	-24.0770550393	-53.3945480174
167375000.0	-22.3946191136	132.920497103	6.2921208903	50.3034854332	-56.391022343	62.8590634932	-24.1626061807	-53.3544185893
168062500.0	-22.5158531679	129.585163574	6.25621016209	48.6000521557	-56.6853050131	61.9828162543	-24.2375253061	-53.3166355811
168750000.0	-22.6317984333	126.429378609	6.22101387774	46.9391571775	-56.6603006278	59.4184959411	-24.3237582701	-53.3291742791
169437500.0	-22.7433355324	123.11099575	6.18511300717	45.2859592185	-56.4804323258	66.9102154256	-24.4129444374	-53.3459035148
170125000.0	-22.8559803341	119.984150564	6.15545010456	43.655771181	-56.4689662698	67.5683413499	-24.5056197429	-53.3254513234
170812500.0	-22.976582358	116.70479017	6.12315117964	42.0453441565	-56.3098637304	63.8289638642	-24.6112784427	-53.3961297585
171500000.0	-23.0962902666	113.583417463	6.09425393451	40.4668739129	-56.4732749039	63.2214556664	-24.7014143907	-53.467536151
172187500.0	-23.2166315887	110.265461625	6.06711653016	38.9050350211	-57.089496021	54.8991032905	-24.7888138276	-53.7094249633
172875000.0	-23.3494753588	107.004050927	6.04077435197	37.3690449059	-57.0413727616	54.1747980844	-24.8803627281	-53.8137447647
173562500.0	-23.4443006773	103.731335597	6.01666307992	35.8475083265	-57.5188261035	49.9592485685	-25.0040555435	-54.0548822177
174250000.0	-23.5779111051	100.519444361	5.99665810242	34.3565347653	-57.7275509006	49.9894388916	-25.1107905382	-54.1907839958
174937500.0	-23.6653544732	97.1411835682	5.9784892303	32.8643960576	-57.4971675601	50.3710920367	-25.2013794512	-54.5240041296
175625000.0	-23.7679360702	93.7761229455	5.96163808267	31.3920497838	-57.7928474469	51.1157479906	-25.3026679504	-54.6928115594
176312500.0	-23.8490645257	90.3589034552	5.94493362212	29.9261547468	-58.5956844944	51.4661541021	-25.395944146	-55.0348038771
177000000.0	-23.935647552	86.9448945245	5.93127756588	28.4892534616	-58.9116190139	53.7636801637	-25.5017830316	-55.4418290246
177687500.0	-24.0002020371	83.5431288528	5.9171989037	27.0409856962	-59.1071762262	56.1802868881	-25.5964738064	-55.7910094946
178375000.0	-24.083116123	80.0073960148	5.90781226392	25.6210224873	-59.3183076867	57.3377150508	-25.6959531594	-56.1418819838
179062500.0	-24.1303187423	76.6320870882	5.89790568265	24.1972098345	-59.4798656206	56.7281486375	-25.7695926955	-56.5581706615
179750000.0	-24.1771730821	73.0427132912	5.89068882426	22.7964722486	-59.5932358186	59.5294817431	-25.8546238596	-56.8671987873
180437500.0	-24.2252396983	69.6033141816	5.88515625505	21.3812977216	-59.5997455269	58.5472585109	-25.9224736175	-57.1876534407
181125000.0	-24.2523276934	65.87934205	5.88179779092	19.9851780716	-60.1502363468	63.8056826958	-26.0159157388	-57.4573033721
181812500.0	-24.2766835537	62.3429811492	5.87777758304	18.5930164695	-60.1920064834	62.4652974218	-26.0952719339	-57.7165134999
182500000.0	-24.2897207437	58.697386656	5.87599789444	17.2133603086	-60.3147411862	70.8340326216	-26.2022339626	-58.060199023
183187500.0	-24.2973332106	55.1160488835	5.87375786659	15.8282549038	-60.3236737412	71.430925058	-26.2869993089	-58.2274463106
183875000.0	-24.2848856457	51.4751859447	5.87507636412	14.4603362105	-60.5524247692	70.7532273637	-26.3737166154	-58.5622688349
184562500.0	-24.2731734404	47.8805547133	5.87530658562	13.0846313242	-60.927229703	71.1133632485	-26.414110615	-58.7560514858
185250000.0	-24.2390886903	44.2629645117	5.87822504782	11.7244467128	-60.5348238613	66.6290474205	-26.4886293215	-58.9531744514
185937500.0	-24.2133245786	40.679240525	5.87933090908	10.3572042103	-60.7498403811	66.5139001543	-26.5382769408	-58.9943091323
186625000.0	-24.1817260626	37.0987093805	5.88546743507	9.00366600452	-60.7140322458	58.4017768385	-26.6056834957	-59.1776095551
187312500.0	-24.1524071852	33.435568302	5.88911423486	7.64663385636	-60.623633315	57.0744306921	-26.6557476292	-59.2206055346
188000000.0	-24.0849248842	29.864429561	5.89556236684	6.30049535038	-60.5248394531	54.699111516	-26.7034720948	-59.2859220355
188687500.0	-24.0418139232	26.159172428	5.90073120436	4.94557607195	-60.6522775787	54.9518725921	-26.7676045003	-59.2128442
189375000.0	-23.9738239335	22.6955008	5.90724424518	3.61046688411	-60.154485901	57.3784335215	-26.8375251398	-59.0854566329
190062500.0	-23.90794949	19.1090667216	5.91451685947	2.26568503416	-60.7819303202	55.869763164	-26.8940096529	-58.9562709345
190750000.0	-23.839442667	15.6151136533	5.92423616167	0.935721446546	-60.0932377141	55.2983889548	-26.9410045107	-58.8480429224
191437500.0	-23.7588106737	11.9387289779	5.93144493063	-0.39663905145	-60.367497865	53.2711704672	-26.9864919883	-58.7876831391
192125000.0	-23.7010002428	8.52863987557	5.93971394222	-1.7150211142	-60.1932469638	51.3142955864	-27.050724402	-58.4347387439
192812500.0	-23.6146121972	4.89637793991	5.94913173666	-3.02987027541	-60.0776939023	50.6801987963	-27.1136872063	-58.3769042406
193500000.0	-23.5427133616	1.45048510523	5.95927917645	-4.3448660781	-59.1559374109	48.7748652338	-27.1821286192	-58.1456111702
194187500.0	-23.463284276	-2.11571150722	5.96880705801	-5.66150298306	-58.9747810848	49.2659009041	-27.2270736837	-57.7677196074
194875000.0	-23.393513877	-5.63735222576	5.98200531352	-6.96171310347	-58.8466868936	59.7610652679	-27.2834651368	-57.427161241
195562500.0	-23.2801025795	-9.13758196502	5.99347531681	-8.26388764519	-59.1218128547	63.6701608479	-27.3513241387	-57.1904446252
196250000.0	-23.2116208837	-12.7006428981	6.0068261892	-9.55072212424	-59.0351710094	76.890874247	-27.4259778526	-56.8719870919
196937500.0	-23.1121238812	-16.1385752782	6.01890313331	-10.8465396854	-59.3932923899	83.420509549	-27.4927947105	-56.5213268413
197625000.0	-23.0269192408	-19.584994747	6.03210734583	-12.1151658483	-59.2072613964	96.3455162174	-27.5589159598	-56.1928087825
198312500.0	-22.9173006329	-22.8806346566	6.04554932442	-13.3862678609	-58.8989662574	101.297958538	-27.6235258962	-56.044141002
199000000.0	-22.8239362634	-26.2904947535	6.06213665937	-14.657382741	-59.0526454356	115.396483824	-27.6735279237	-55.8515263531
199687500.0	-22.7061100611	-29.5730321916	6.07733120946	-15.9345757604	-59.4397450137	122.524601036	-27.7326487442	-55.7065072809
200375000.0	-22.5994034134	-32.8919581589	6.0940768246	-17.1998718016	-59.6027976154	135.162625522	-27.7978507389	-55.6566730966
201062500.0	-22.4854152684	-36.013623147	6.11043929307	-18.4630862979	-59.3231551256	142.562046688	-27.8726324454	-55.5172692839
201750000.0	-22.360770976	-39.2464246228	6.12929022966	-19.7216689332	-59.0938168591	154.521098909	-27.9415872798	-55.3411904907
202437500.0	-22.2361203709	-42.309035308	6.14678424183	-20.9826534091	-59.0852505188	166.083534789	-28.018333186	-55.3545413787
203125000.0	-22.1044585735	-45.4526730561	6.16796058948	-22.2412040333	-59.008657618	-179.104012193	-28.0831288221	-55.3496323987
203812500.0	-21.9583247101	-48.3926759237	6.18634281384	-23.4884505624	-58.8703515705	-163.07386465	-28.1262788707	-55.4588005977
204500000.0	-21.8080440554	-51.4068793763	6.20813399587	-24.7362858514	-58.9726317968	-150.969926527	-28.1850538037	-55.5290727887
205187500.0	-21.675465965	-54.199837188	6.22950245372	-25.9755055023	-58.8628951694	-137.849499292	-28.2425900416	-55.6445125661
205875000.0	-21.5205685276	-56.9204696189	6.25368887305	-27.2117826632	-58.9319636261	-129.493384906	-28.287919468	-55.7989450213
