#Frequency	|S11|	<S11	|S21|	<S21	|S12|	<S12	|S22|	<S22
100000000.0	-16.2440007679	148.968289764	-42.6365398492	-121.647652137	-59.3232580344	40.95588788	-20.0049308871	-30.5890941987
100687500.0	-16.1872583052	145.495056776	-42.0349968542	-123.547340569	-62.5015410152	173.288441975	-20.0808359748	-29.6987988795
101375000.0	-16.1761600869	142.183284747	-41.6923963045	-122.78900779	-64.8256844206	-165.641779585	-20.1206032216	-28.8384180998
102062500.0	-16.1652669748	139.078248294	-41.5724142547	-123.965388706	-63.5253688712	-156.438902915	-20.1325684467	-27.920751913
102750000.0	-16.1496376254	135.911151449	-41.1557095111	-125.312673147	-61.7366895496	-156.083415799	-20.1736550363	-27.2138384459
103437500.0	-16.1337807605	132.769425325	-40.8886729638	-126.436045	-61.2832746458	-175.597959182	-20.2128538344	-26.4509762676
104125000.0	-16.1254226732	129.555339098	-40.561983588	-128.22808034	-61.4654818875	128.505733768	-20.2767811197	-25.6072282169
104812500.0	-16.1258343604	126.364751866	-40.2880505004	-129.681455379	-60.9812575888	81.0006419108	-20.3409422887	-24.9606581535
105500000.0	-16.139923186	123.093678141	-40.0853035949	-131.122794317	-60.7173241211	41.2365832578	-20.415492892	-24.3515380778
106187500.0	-16.1582181556	119.756597314	-39.8810173086	-132.309158492	-60.7892988968	-16.8183078908	-20.4949125729	-23.802857125
106875000.0	-16.1843636411	116.338820739	-39.7176371977	-133.680536177	-61.3458279834	-64.3438248978	-20.586144544	-23.2619426564
107562500.0	-16.2296366042	112.858356682	-39.5334627588	-135.152928331	-62.1967423444	-104.968665776	-20.6886063996	-22.7728938823
108250000.0	-16.2708700728	109.23013922	-39.4257128597	-136.457994202	-61.9517361462	-123.330637443	-20.7894899446	-22.3925779919
108937500.0	-16.3016488973	105.690978522	-39.2415353173	-137.710779856	-61.7838439852	-136.499354827	-20.8717602663	-21.8433273945
109625000.0	-16.3434679595	102.106678571	-39.0870865462	-139.369659264	-61.3049833542	-150.022170749	-20.9576338719	-21.3780162522
110312500.0	-16.3783629061	98.4407361087	-38.9856785114	-140.030531463	-61.1627970459	-163.089194495	-21.0502101603	-20.910402984
111000000.0	-16.4309915269	94.733726531	-38.9016704297	-141.084365222	-61.0955226952	-175.634372784	-21.1418558582	-20.4764804077
111687500.0	-16.4815912182	90.8691785729	-38.8252195254	-141.884067046	-60.807405527	167.671578816	-21.2423728555	-20.1739729668
112375000.0	-16.5471118674	86.9787152467	-38.7745436832	-142.303056432	-61.1631869277	153.93743286	-21.3532783501	-19.9090528615
113062500.0	-16.6103969211	82.9393030192	-38.7948243946	-142.392869161	-61.1796731297	142.036264309	-21.4618946701	-19.6076627704
113750000.0	-16.6856829527	78.8190201369	-38.7856768579	-142.07874421	-61.2322385669	141.781475479	-21.5807760808	-19.4212781649
114437500.0	-16.7694764531	74.5813413654	-38.7693158072	-141.3715869	-61.2817010402	131.892262651	-21.707464855	-19.202562526
115125000.0	-16.8597104395	70.1808153132	-38.7229095336	-140.325579087	-61.3625414614	118.167089499	-21.8396673487	-19.0502579367
115812500.0	-16.950613665	65.6363783575	-38.6375342773	-138.762154578	-61.325804398	105.633800381	-21.9700091554	-18.9017976259
116500000.0	-17.0522150528	60.9705694302	-38.5191355873	-136.93682253	-61.2504450201	103.668464084	-22.095167853	-18.8762099422
117187500.0	-17.1683356291	56.1867146824	-38.3406894111	-135.033826074	-61.1224712972	102.547267146	-22.2248397506	-18.8768625169
117875000.0	-17.2989318687	51.1858796654	-38.0990317279	-133.105300858	-61.2244855515	101.606079416	-22.3609486914	-18.8848141569
118562500.0	-17.4448021148	46.059936072	-37.788837278	-130.96229371	-61.1497827874	102.559141687	-22.4956494888	-18.8130813391
119250000.0	-17.6015613511	40.6814834812	-37.4125607631	-128.9399174	-61.0227067308	105.063199338	-22.6282981764	-18.8413219816
119937500.0	-17.7873860185	35.1976211587	-36.9904765548	-126.907042997	-61.0389212312	119.832789632	-22.75774999	-18.9096222922
120625000.0	-17.9880987847	29.4328640367	-36.5399298337	-124.944407767	-61.552962655	133.914846126	-22.900049575	-18.9525514639
121312500.0	-18.2344212679	23.5630104239	-36.014117655	-123.390038864	-61.1671813598	147.493780048	-23.0218167869	-19.118484265
122000000.0	-18.5013603798	17.3995492894	-35.4588459996	-121.715878917	-61.5317716707	162.132061111	-23.1617897822	-19.2641033554
122687500.0	-18.8286110328	11.0566340982	-34.8439254318	-120.38018522	-61.1310266406	176.393651289	-23.2931451981	-19.5080358959
123375000.0	-19.1941442999	4.51299522423	-34.2361194949	-119.068615618	-60.6324571717	-177.846012353	-23.4137659081	-19.7274496764
124062500.0	-19.6372700358	-2.28765642039	-33.5703909364	-117.969901126	-60.2588215652	-178.239721718	-23.5413873987	-20.0231475742
124750000.0	-20.1863603506	-9.2755115797	-32.8756422571	-117.114384363	-60.0912675783	175.020335061	-23.6708466969	-20.2645411743
125437500.0	-20.8400348748	-16.5721101959	-32.1261395019	-116.466416524	-60.4466477281	161.316521743	-23.7905601528	-20.4791308167
126125000.0	-21.7967537506	-23.9614797404	-31.3743144746	-116.06118432	-60.3977623674	145.753934445	-23.919529189	-20.7650829524
126812500.0	-23.1445319565	-33.4491045133	-30.5852257346	-115.7491102	-60.3847859374	132.684352001	-24.0372721636	-21.016694049
127500000.0	-24.0667019688	-48.6822111096	-29.786217108	-115.892680045	-60.7322670056	117.816255268	-24.1532912167	-21.3799398988
128187500.0	-24.8277367368	-63.8662299971	-28.9228947393	-116.630097732	-60.5370333683	115.749764036	-24.2643195678	-21.6916137463
128875000.0	-25.421497821	-79.2501089516	-28.0949723621	-117.40346867	-60.3846854245	107.566636934	-24.3599113982	-21.9881165887
129562500.0	-25.9237914191	-94.7953286153	-27.1612114875	-118.901008537	-60.0469671775	107.271916694	-24.4530980742	-22.3880805116
130250000.0	-26.3778691895	-110.504877609	-26.2321069875	-120.671267857	-59.7989237828	96.1636428424	-24.5552741946	-22.7572699207
130937500.0	-26.7621802841	-126.361285206	-25.3325452273	-123.167131687	-59.8525558852	84.667505335	-24.6334316919	-23.0638409707
131625000.0	-27.1131460422	-142.261620674	-24.4638055815	-126.089829744	-59.9119684068	85.5618921871	-24.6962480431	-23.5533078926
132312500.0	-27.4202800374	-158.283418413	-23.5943690224	-129.795073779	-60.1432177973	88.9873193506	-24.7521174925	-23.9545475899
133000000.0	-27.7013871737	-174.3140262	-22.789641705	-133.696392072	-60.4650071893	90.9711528824	-24.8040884936	-24.4542003987
133687500.0	-27.9500096162	169.497475133	-22.0298027124	-138.116967926	-60.6391555032	91.5467515739	-24.8482621978	-24.9009271857
134375000.0	-28.1665595137	153.345777012	-21.355007452	-142.642656078	-60.7734566205	92.3563221215	-24.875264234	-25.3916364907
135062500.0	-28.338536054	137.075864223	-20.7283419588	-147.540469792	-61.0982411579	85.099478504	-24.8936332607	-25.8610829816
135750000.0	-28.4950055099	120.930914627	-20.1993839302	-152.427870252	-61.3198443365	86.2266340024	-24.9125266083	-26.4878154697
136437500.0	-28.6102327664	104.806111111	-19.7202778638	-157.550398336	-61.5883337587	87.7682965801	-24.9229827056	-27.0448699129
137125000.0	-28.6905128707	88.7048232666	-19.2867213043	-162.598843975	-61.79834577	77.7426572523	-24.932524243	-27.597591409
137812500.0	-28.7325813263	72.8278550826	-18.9121590039	-167.718805673	-62.4135286287	78.4366355118	-24.9127773509	-28.1681929379
138500000.0	-28.7316114918	56.9530473293	-18.589560547	-172.747352044	-62.3266323406	92.4394504949	-24.8951119042	-28.762024925
139187500.0	-28.6890147535	41.3229002707	-18.3223297426	-177.680041064	-62.3485411684	104.983549102	-24.8598294737	-29.3031486297
139875000.0	-28.5743604041	25.7304237869	-18.0930294477	177.445097332	-62.1935723868	121.089395686	-24.8190125783	-29.9064405582
140562500.0	-28.4126440187	10.3077482305	-17.9095769169	172.712401932	-62.0062895387	147.79238278	-24.7687908954	-30.4749652943
141250000.0	-28.163992964	-4.88409253623	-17.7542195323	168.079369556	-61.8719524473	175.338566196	-24.7101597026	-31.0216423921
141937500.0	-27.8142770552	-19.8928864161	-17.6434739445	163.61205735	-61.7630285864	-161.737638529	-24.6392505048	-31.556137751
142625000.0	-27.3405034355	-34.6512357116	-17.547584412	159.236307663	-61.4132261203	-143.522820852	-24.5619270617	-32.0765446253
143312500.0	-26.5635985477	-49.2399010228	-17.4830626336	155.072134093	-61.6722459318	-116.17999886	-24.4661179656	-32.5376732325
144000000.0	-25.3774306312	-61.8014504383	-17.4267963746	150.998775757	-61.7684994561	-88.8354687642	-24.3817684461	-33.0676724194
144687500.0	-24.6209578249	-68.5319975055	-17.4034761538	147.126539772	-61.5425474932	-60.2055891216	-24.2781644387	-33.4773420188
145375000.0	-24.0021722802	-75.3351458839	-17.3879123544	143.36666012	-61.6265993156	-42.6270534314	-24.1724552293	-33.9501080949
146062500.0	-23.555759538	-81.8124926803	-17.3939676417	139.769763487	-61.403866418	-23.899298384	-24.0685263568	-34.2993536017
146750000.0	-23.1846219379	-88.1879078056	-17.4035077293	136.252155992	-61.3292965385	-5.49358510965	-23.9575994094	-34.5729022753
147437500.0	-22.86600325	-94.3057891918	-17.4213623721	132.921051466	-61.1707643446	9.69317511865	-23.8207087816	-34.8399430087
148125000.0	-22.606841118	-100.222805744	-17.4485512222	129.691431364	-61.5699265392	24.6057177443	-23.6897756336	-35.0724365448
148812500.0	-22.3731481432	-106.046197823	-17.4845043553	126.585519068	-61.9189986536	27.9156403154	-23.5600096872	-35.2067880676
149500000.0	-22.1805691214	-111.608901125	-17.5253547637	123.562536405	-61.6445632668	28.5218808895	-23.4289050801	-35.2857385121
150187500.0	-22.0027214024	-117.075954055	-17.5663692	120.612229734	-61.4737625039	30.6536112893	-23.2922713776	-35.3097689745
150875000.0	-21.8613921447	-122.237391371	-17.609141829	117.83111709	-61.3126076111	32.2822252307	-23.1600584458	-35.2123118325
151562500.0	-21.7248877899	-127.459042729	-17.6547856445	115.084936426	-61.7299491145	44.17376078	-23.026597216	-35.1140887021
152250000.0	-21.6246603424	-132.305774943	-17.7045529276	112.418752629	-61.198185654	56.3431150731	-22.9000060868	-34.8991779888
152937500.0	-21.5173591759	-137.170659445	-17.749976843	109.816368725	-60.7756556457	58.1554153135	-22.7615817698	-34.6255397995
153625000.0	-21.452135287	-141.817959279	-17.800958695	107.342640751	-60.5840184408	59.2251980627	-22.630301965	-34.2672224433
154312500.0	-21.3888933537	-146.435560099	-17.8534468543	104.865749382	-60.4651184058	59.0328222358	-22.4850054572	-33.9428066951
155000000.0	-21.3463504171	-151.00211408	-17.9056546526	102.500782162	-59.4369978683	50.9573005385	-22.3592793707	-33.5280015994
155687500.0	-21.2956573153	-155.453809756	-17.9507748016	100.169034761	-59.4183655191	36.5642175331	-22.2419595896	-32.940133236
156375000.0	-21.2703268519	-159.885268406	-18.0028926308	97.9031654455	-59.2078281133	22.0930608747	-22.1135704515	-32.3540071267
157062500.0	-21.2471381735	-164.114618319	-18.0501984233	95.6893021501	-59.4102514647	8.93511014676	-21.9898787721	-31.630521427
157750000.0	-21.218290351	-168.315141382	-18.1008628811	93.5224676276	-59.8070368682	-4.61776148059	-21.8755171808	-30.9033484671
158437500.0	-21.1939656136	-172.450738112	-18.1495579369	91.4084765414	-60.1172284933	-13.8886756682	-21.7643334589	-30.1340144387
159125000.0	-21.1627207142	-176.564418952	-18.1974246292	89.3487236051	-60.3314821156	-10.3381497033	-21.6604251864	-29.3135568604
159812500.0	-21.1461445226	179.489070863	-18.2443367108	87.3573170616	-60.4462140265	-5.42228236542	-21.5610200027	-28.4770344866
160500000.0	-21.1203971855	175.518579383	-18.2895203207	85.3817002278	-60.5591257672	-2.6818481904	-21.4764039941	-27.6703108042
161187500.0	-21.1079552224	171.687607471	-18.3395730692	83.4120061406	-60.7694013324	-13.1965813776	-21.3816769219	-26.7424886566
161875000.0	-21.0942677896	167.881231798	-18.3794215828	81.4835606616	-60.5690142574	-24.4563102879	-21.3078833061	-25.7876425266
162562500.0	-21.0876314585	164.146084041	-18.4239050956	79.631742093	-60.6104437781	-37.3216903227	-21.2373344857	-24.8003771707
163250000.0	-21.0674189906	160.397248666	-18.4604499107	77.7847602469	-60.4797015164	-53.100804811	-21.1775187603	-23.7818182424
163937500.0	-21.0627816935	156.797143192	-18.5033854179	75.9769483055	-60.5277709727	-67.9520203601	-21.1146116543	-22.7591672092
164625000.0	-21.0379302308	153.229244682	-18.5457182193	74.1562295078	-60.7547204074	-80.3518857609	-21.0719075195	-21.7546051606
165312500.0	-21.0270560857	149.756031015	-18.5881396438	72.4109375126	-60.3853794723	-96.4309990719	-21.0368746778	-20.7182815829
166000000.0	-21.0123240159	146.326673809	-18.6237401873	70.6412931325	-60.0512087211	-109.710247664	-21.0044890812	-19.6777875541
166687500.0	-21.0012696237	142.933174615	-18.6651764239	68.9799498917	-60.0127141936	-122.646919685	-20.9832254857	-18.6033550494
167375000.0	-20.9942894816	139.635709539	-18.7013211247	67.2952200882	-59.846465565	-126.344158915	-20.9787606407	-17.5403037016
168062500.0	-20.9731578564	136.368024123	-18.7385695948	65.6689934893	-59.9558795813	-140.631213715	-20.9757103245	-16.5347929886
168750000.0	-20.9607775152	133.248112663	-18.7727297483	64.0501087523	-59.2187146311	-160.137329683	-20.9940918265	-15.4817080618
169437500.0	-20.9346850239	130.085717035	-18.8076692675	62.4884928569	-59.3636890206	179.929878135	-21.0105983726	-14.4763574309
170125000.0	-20.9240447531	127.000496508	-18.8341759573	60.9165194315	-59.7667713991	165.254864411	-21.037702069	-13.4789251531
170812500.0	-20.8942889286	123.930461562	-18.8606224186	59.3862796776	-59.6337083497	138.997162777	-21.0621306736	-12.4966162717
171500000.0	-20.8662731451	121.004972426	-18.885062234	57.8963702093	-59.4910551319	121.774532817	-21.1152722433	-11.5347596318
172187500.0	-20.8394378392	118.026761693	-18.9150648034	56.4310319109	-59.7627394898	104.054479715	-21.1742017982	-10.591288315
172875000.0	-20.8229171669	115.086823497	-18.9399582989	54.965592569	-60.007789813	91.1870437816	-21.2367867798	-9.70433794579
173562500.0	-20.7870647877	112.182672475	-18.9636158978	53.5490618325	-60.5079596457	69.8440889033	-21.3183969565	-8.83945795882
174250000.0	-20.7615577287	109.357318106	-18.9873679941	52.1341234721	-60.5225139456	52.5793668861	-21.4015841809	-8.013415657
174937500.0	-20.7316574675	106.460891253	-19.0059463239	50.7325852285	-60.415668185	28.3197064312	-21.5022832385	-7.23182236643
175625000.0	-20.6967540167	103.638802481	-19.022167646	49.362426003	-60.1055426639	-1.80486432406	-21.5961949319	-6.43089514465
176312500.0	-20.6648775391	100.834920044	-19.0333955235	47.9881727787	-59.8851208706	-30.6010486948	-21.7112217852	-5.73941048403
177000000.0	-20.626112392	98.0637584472	-19.0506281704	46.6296759046	-59.6842839323	-62.5577605291	-21.8474243654	-5.07569200017
177687500.0	-20.5754844798	95.2460391131	-19.0612060566	45.2801146696	-59.3742994393	-102.804528916	-21.9776661429	-4.35929846663
178375000.0	-20.5300241042	92.5059726084	-19.0785135472	43.99001569	-59.5269343194	-133.290819124	-22.1158149214	-3.66230158349
179062500.0	-20.4771715457	89.8069744004	-19.0864759541	42.6665848793	-59.7334156047	-172.529346808	-22.2704833871	-3.085559057
179750000.0	-20.4219745688	87.1129937457	-19.0934269571	41.3704807167	-59.6691489951	160.355676295	-22.4242151862	-2.5308127518
180437500.0	-20.3702301607	84.440450151	-19.1001335617	40.0265539922	-59.8134093179	140.708638071	-22.5780996722	-2.09912771929
181125000.0	-20.3034906051	81.7203182725	-19.1035961159	38.7598595563	-59.9203437367	114.462492385	-22.7545788933	-1.61737418374
181812500.0	-20.2486441875	79.1241005671	-19.1008591763	37.4396566261	-59.8869312973	97.5102119513	-22.9354166882	-1.14306136939
182500000.0	-20.1761257773	76.4440695494	-19.1030627267	36.1786184013	-59.8169922066	72.714151669	-23.1256919065	-0.723164402332
183187500.0	-20.1068573283	73.8927464361	-19.0990332613	34.9324651313	-59.6088718127	56.1830023476	-23.3089441395	-0.308586406367
183875000.0	-20.0301122978	71.3310562996	-19.0948376449	33.668618223	-59.5859231952	42.6841854353	-23.5053177382	-0.0749657113597
184562500.0	-19.9600267755	68.7851658064	-19.0908661699	32.3898350562	-59.5056631586	31.0707073707	-23.6886158521	0.0767302079225
185250000.0	-19.8816621085	66.2096105214	-19.0861043353	31.1281558534	-59.2737399023	22.4902044899	-23.8885028254	0.318696350384
185937500.0	-19.8104721645	63.7280151831	-19.0762469608	29.8694105244	-59.1951820625	14.4934490495	-24.0939660804	0.44985858168
186625000.0	-19.7418034537	61.2610292679	-19.0688498263	28.5972311255	-59.1624175966	7.48630223883	-24.3008336675	0.621179272234
187312500.0	-19.6686848778	58.7982528003	-19.060667778	27.3602333142	-59.0567769648	3.335346249	-24.5051180907	0.704937452954
188000000.0	-19.5994555866	56.3504809733	-19.0536011547	26.0693298105	-59.2254314432	3.55255587878	-24.7205320411	0.66120310585
188687500.0	-19.5344484189	53.918343902	-19.0483536465	24.7866551015	-59.2499358176	-5.77145309327	-24.9299601846	0.584833030943
189375000.0	-19.4640364612	51.5616655651	-19.0286828504	23.5307051967	-59.2520728967	-5.27301017082	-25.1303119573	0.427552883457
190062500.0	-19.3984717728	49.2550331275	-19.0231643095	22.3048139106	-59.0432120372	-4.96023031593	-25.333919744	0.234680371588
190750000.0	-19.3443881499	46.9539094178	-19.0069261146	21.0399541438	-58.5845133271	0.683367461771	-25.5310254024	0.0796623613631
191437500.0	-19.2936205319	44.63640828	-18.9964987828	19.8225914251	-58.4611412022	5.13280118272	-25.7384074496	-0.187630788654
192125000.0	-19.2538301962	42.3999043945	-18.9771649292	18.574330101	-58.3137926343	20.1162385306	-25.9202045726	-0.48356252611
192812500.0	-19.2280525514	40.1078126609	-18.9681612951	17.3133100551	-58.5199137785	37.4727454992	-26.1312421167	-0.986977400751
193500000.0	-19.2080922452	37.8804126586	-18.9518985966	16.0462677165	-58.5398310217	48.4311188896	-26.311382906	-1.49509476331
194187500.0	-19.1883147928	35.5907295448	-18.9405489067	14.8196675251	-58.8455431758	68.2557972839	-26.4711501612	-2.09623352464
194875000.0	-19.2021529438	33.3565527187	-18.9244086223	13.5680176751	-59.0365603282	96.064218293	-26.6337534848	-2.87009575944
195562500.0	-19.2040749304	31.0317866402	-18.9068140626	12.3327931389	-58.8536462331	123.668576545	-26.7816498919	-3.72012769913
196250000.0	-19.2295909228	28.688427957	-18.8897109122	11.1214237805	-58.8830870345	149.765085673	-26.9224484181	-4.68332662388
196937500.0	-19.2545556052	26.3094716013	-18.8759502115	9.88262623457	-59.017831556	165.454820057	-27.0447279543	-5.51539462215
197625000.0	-19.2923553283	23.9532865868	-18.8542645379	8.68599201685	-59.2196544937	-174.683203182	-27.1581955224	-6.51195257015
198312500.0	-19.3287587776	21.5358023274	-18.8372995465	7.47741437359	-59.0663152556	-158.235369647	-27.2479337101	-7.70338936326
199000000.0	-19.3892857014	19.0803413249	-18.8212737611	6.29882958046	-59.1290295699	-142.454175224	-27.3150401578	-9.01814930671
199687500.0	-19.437917344	16.5927719301	-18.8006155004	5.10356221137	-59.3276107779	-114.694150567	-27.3687587913	-10.2280947574
200375000.0	-19.4989252847	14.0944240698	-18.7835941564	3.88356705063	-59.4640356965	-86.3167212053	-27.430053019	-11.6208225511
201062500.0	-19.561956404	11.55131673	-18.7649822553	2.65895394184	-59.5964136315	-57.1760077938	-27.4637694242	-12.9499814965
201750000.0	-19.6273046729	9.00542047598	-18.7464218403	1.46963620386	-59.6879696912	-27.9001290465	-27.4930007093	-14.3103912342
202437500.0	-19.6923522823	6.44768949977	-18.727191394	0.246412359654	-59.9135691432	1.68688461494	-27.4773997267	-15.8255049304
203125000.0	-19.7543629396	3.80469976091	-18.7121302159	-0.92331808587	-60.2588110511	34.8768602245	-27.4433617626	-17.3215154782
203812500.0	-19.8162272202	1.13106767235	-18.6890551738	-2.12666481425	-60.285166032	64.3508137832	-27.3856783876	-18.8751142913
204500000.0	-19.8872563839	-1.50234440011	-18.6727714182	-3.33854551281	-60.5112628125	87.8578180111	-27.3176290674	-20.4134743073
205187500.0	-19.9546837818	-4.12194819777	-18.6532388206	-4.4965110608	-60.3903299898	117.829741588	-27.2417141391	-21.8230773562
