#Frequency	|S11|	<S11	|S21|	<S21	|S12|	<S12	|S22|	<S22
100000000.0	-17.3487047184	132.402649969	-14.5742917631	-129.863026605	-57.7845653351	-104.305780197	-19.8489483268	-71.0605135548
100687500.0	-17.2821227164	129.318858655	-14.1902439145	-131.170918189	-62.225125817	99.2783031008	-19.8750055676	-71.7780616721
101375000.0	-17.2487782663	126.182057332	-13.8336421264	-132.472463356	-64.5854607994	73.455758695	-19.9549433144	-71.7641970754
102062500.0	-17.2273345792	123.013212508	-13.4795673331	-133.824539203	-63.280498728	74.4162416669	-20.0233127997	-71.7540336483
102750000.0	-17.1978422941	119.90051369	-13.1472400612	-135.221373648	-62.0759683141	107.424543885	-20.0914227747	-71.7888115664
103437500.0	-17.1906003836	116.789878784	-12.8368228847	-136.653847078	-62.1441807366	143.271148803	-20.1687022109	-71.7909965816
104125000.0	-17.1871183486	113.442938902	-12.547828581	-138.132640329	-62.7409367071	132.653771549	-20.2623250461	-71.7646660145
104812500.0	-17.1994327139	110.143656723	-12.2873133533	-139.580193775	-61.8519633894	126.52145848	-20.3452652046	-71.8995076277
105500000.0	-17.2203773398	106.68012139	-12.0535552415	-141.030268994	-62.0912962298	109.7472348	-20.4160325639	-72.0075453336
106187500.0	-17.2424374381	103.088706179	-11.8510713205	-142.476955579	-61.7623692816	97.6304124376	-20.5031869097	-72.1230922297
106875000.0	-17.2726078628	99.3429369461	-11.6861046759	-143.865930693	-61.3869516085	74.9915799725	-20.59162916	-72.307989699
107562500.0	-17.3140716646	95.4434025721	-11.5606980312	-145.160974403	-60.8370850493	50.372053036	-20.6901811954	-72.3794509923
108250000.0	-17.3572726778	91.3238901549	-11.4804021803	-146.291246176	-60.8779620946	29.7037881152	-20.7859576555	-72.5106404246
108937500.0	-17.3817082856	87.4451065774	-11.3373354286	-147.444660788	-60.7743410235	4.06883063297	-20.8798837208	-72.6454891731
109625000.0	-17.4149227748	83.5062924542	-11.2222250284	-148.478140723	-60.8211737538	-9.66524982637	-20.9694804882	-72.6852812032
110312500.0	-17.4347885572	79.4268763451	-11.1373212201	-149.342869925	-60.3446759475	-22.9585915578	-21.0667333443	-72.7519095324
111000000.0	-17.4763588445	75.2557787874	-11.0788090772	-149.989693098	-60.434705576	-36.2152380408	-21.1711499723	-72.8011160351
111687500.0	-17.5020108003	70.9244101526	-11.0445483792	-150.303967837	-59.6114682088	-52.0268244458	-21.2600771813	-72.9152986596
112375000.0	-17.5439155127	66.4898847923	-11.0255814853	-150.256220793	-59.8414120504	-76.725855293	-21.3596206437	-72.9637440966
113062500.0	-17.5769700848	61.9690027812	-11.0028029265	-149.780129925	-59.7278378271	-96.0324221104	-21.4677051082	-73.0015920421
113750000.0	-17.6264729902	57.2664166254	-10.9556229509	-148.881570705	-60.2310774872	-123.468534974	-21.5732446833	-72.999248877
114437500.0	-17.6719480931	52.4912054917	-10.8695723252	-147.615816474	-60.902259321	-152.605717406	-21.6818881883	-72.972947814
115125000.0	-17.7189924909	47.4550885381	-10.7314643976	-146.078166218	-60.7570896172	175.185291758	-21.7999132448	-72.9433268609
115812500.0	-17.765691207	42.3536090969	-10.5388733818	-144.351759947	-60.4984603958	137.476344065	-21.9207590351	-72.8297853373
116500000.0	-17.8208143793	37.0893179482	-10.288717068	-142.525409949	-60.3129445288	112.928072161	-22.0389747279	-72.6827952657
117187500.0	-17.8836837403	31.7702564223	-9.98302188658	-140.647366729	-60.046348874	101.968175266	-22.1545655065	-72.4930483453
117875000.0	-17.9560308036	26.1787367952	-9.6232366458	-138.800844412	-60.3962634177	89.4618724508	-22.2829491175	-72.1141917385
118562500.0	-18.04303214	20.5096931304	-9.21324917368	-137.007337537	-60.5327243325	75.9143312641	-22.401182087	-71.6567402291
119250000.0	-18.1347644322	14.655881117	-8.75459449265	-135.300348235	-60.5534849483	60.5998642099	-22.5325705772	-71.0755916098
119937500.0	-18.2633119762	8.71203512224	-8.25174452634	-133.705244341	-60.8059736643	40.0252543219	-22.6436533497	-70.4401016112
120625000.0	-18.4025235896	2.599587901	-7.70607767713	-132.245477405	-60.8759856692	25.2827774608	-22.7705823817	-69.7119149574
121312500.0	-18.5916120609	-3.58349051949	-7.12170700237	-130.944508734	-60.6770164198	5.29335427893	-22.8634151347	-68.9027951474
122000000.0	-18.8000508559	-9.80455894043	-6.4982138594	-129.826718044	-60.651589568	-9.23490629819	-22.9676431953	-67.9609686661
122687500.0	-19.0816543323	-16.2093597421	-5.83926031854	-128.913991413	-60.7358241256	-25.378692121	-23.0455569546	-66.9656585492
123375000.0	-19.3963125313	-22.4913934405	-5.14933949755	-128.206715007	-60.8109218626	-34.9525970514	-23.1102514728	-65.9262477156
124062500.0	-19.8073553111	-28.7595571133	-4.42713796352	-127.717932673	-61.2971722817	-45.3761533894	-23.1601730516	-64.8096984704
124750000.0	-20.2835719684	-34.5863400374	-3.67882578138	-127.481417258	-61.1577316685	-57.7289043986	-23.1975784271	-63.6109429024
125437500.0	-20.8234442519	-40.0240629689	-2.90129767533	-127.48836007	-60.8591097123	-68.6363877773	-23.2264960722	-62.378718272
126125000.0	-21.4224170799	-44.3851564904	-2.09392273178	-127.771820687	-60.9347635962	-71.3411974943	-23.2457487415	-61.1522166377
126812500.0	-22.0199585564	-48.0022576671	-1.25999259625	-128.351763836	-60.6904979459	-81.8298440684	-23.2546508086	-59.9225754618
127500000.0	-22.5349590347	-50.8465988197	-0.402100461251	-129.30260578	-60.7551265101	-85.828913816	-23.2372269388	-58.7691585305
128187500.0	-22.9731167665	-53.6655115486	0.479413185083	-130.646933763	-60.4159283438	-97.5453363705	-23.2137264826	-57.5807368131
128875000.0	-23.3385439827	-55.9479893535	1.37677603649	-132.472237352	-60.440694805	-98.7412348793	-23.182767923	-56.3468827996
129562500.0	-23.6659670781	-58.2664920513	2.2807696047	-134.818329661	-59.8873213404	-100.088039885	-23.1357036928	-55.1860666029
130250000.0	-23.9487872595	-60.3996980992	3.17225253232	-137.737190307	-60.0664057733	-103.767619311	-23.0853327418	-54.0746678961
130937500.0	-24.1796654823	-62.5468004942	4.03160889804	-141.215203226	-59.5492190593	-105.933576132	-23.0281998701	-53.0178212982
131625000.0	-24.3972514632	-64.5374251193	4.84028137418	-145.198690954	-58.7222884251	-107.12850151	-22.9544154998	-52.0469594697
132312500.0	-24.5875405804	-66.5152371366	5.58874491088	-149.557329735	-58.5646445698	-108.24311467	-22.8742339016	-51.0285415423
133000000.0	-24.7557294901	-68.4242847715	6.2727690677	-154.232158344	-58.2277800545	-104.676062782	-22.7827389932	-50.2032854275
133687500.0	-24.894518628	-70.3424378522	6.88828798951	-159.10150018	-58.0779665261	-107.026183809	-22.6859698133	-49.432403359
134375000.0	-25.0225566773	-72.1592216855	7.44108130985	-164.126564418	-57.8072807362	-118.194555046	-22.5815414602	-48.7675297557
135062500.0	-25.1040031293	-73.9337479166	7.93105620381	-169.208001929	-57.3446597531	-133.456391702	-22.4664185548	-48.2647309291
135750000.0	-25.178136939	-75.5757979885	8.36146836407	-174.333668806	-57.0832387743	-144.014169583	-22.360611815	-47.869352965
136437500.0	-25.2273695594	-77.1411236543	8.73658543712	-179.455096824	-56.4980571937	-145.449141956	-22.2440525076	-47.6729191358
137125000.0	-25.2405526438	-78.6610646768	9.06053011788	175.4421823	-55.8283546369	-149.928604682	-22.14705351	-47.5024065046
137812500.0	-25.2208200791	-80.0023511853	9.33648582375	170.421797754	-55.9655852345	-152.904230126	-22.0317294377	-47.4920610493
138500000.0	-25.1601100836	-81.3332559351	9.56889227187	165.473822892	-55.6018074596	-156.652892151	-21.9318815508	-47.5316967231
139187500.0	-25.0611733542	-82.5973819958	9.75988528368	160.645334575	-56.1826566274	-162.133386374	-21.8275166997	-47.7444743125
139875000.0	-24.8878475263	-83.7333925737	9.91602039185	155.92508282	-55.8710271932	-161.692923864	-21.7415808491	-48.0310202443
140562500.0	-24.6715001405	-84.9191223624	10.0405539468	151.343136941	-55.92998983	-167.645840728	-21.6651063004	-48.5060542384
141250000.0	-24.3660885345	-86.1547186781	10.1366546107	146.883918459	-55.277769614	-170.575861238	-21.5972513389	-48.9939858995
141937500.0	-23.9876107668	-87.7330893999	10.2076175923	142.585643583	-55.5900909261	-178.095510384	-21.532026109	-49.5818699527
142625000.0	-23.5403903648	-89.7144515402	10.259141568	138.413200962	-55.6077340807	-179.825996174	-21.4854863258	-50.1700870102
143312500.0	-23.0358208464	-92.6091324151	10.2893779664	134.402872722	-55.737717449	171.765977761	-21.4365292773	-50.8097066562
144000000.0	-22.527068901	-96.2603371692	10.3052885636	130.513389891	-55.7219499899	169.518734278	-21.4047943144	-51.4551721489
144687500.0	-22.11307344	-100.588685095	10.3068391351	126.790696506	-55.8280022799	163.128268011	-21.3781645814	-52.1085728922
145375000.0	-21.7613102355	-104.886794976	10.2982245487	123.186151133	-55.8127372028	161.695934968	-21.3595033328	-52.8286309471
146062500.0	-21.5015525999	-109.557746504	10.2789321779	119.714273902	-55.7447868883	155.06675005	-21.3527664376	-53.5561388472
146750000.0	-21.2634494508	-114.15489364	10.252789705	116.348119415	-55.8606063069	153.03727574	-21.3639802014	-54.2756692356
147437500.0	-21.0823823528	-118.830370124	10.2187276073	113.108724204	-55.352642211	149.514533728	-21.3572873022	-54.9426177794
148125000.0	-20.9446261701	-123.404106055	10.1828894823	109.970173532	-55.4067326137	149.13102217	-21.3677400993	-55.5760145592
148812500.0	-20.8318651187	-128.081057071	10.139584473	106.946317152	-55.2495909013	143.826411306	-21.3714347851	-56.1973798714
149500000.0	-20.7386710753	-132.527070034	10.0967651475	104.008223665	-55.3529271922	143.33056858	-21.3956814942	-56.8319493002
150187500.0	-20.673125807	-137.039909343	10.0501965828	101.166693365	-55.5764947739	140.012703374	-21.4055365552	-57.3201020943
150875000.0	-20.6368763203	-141.304014067	10.0035028728	98.4095619614	-55.9734119878	136.440729714	-21.4352346756	-57.7737481687
151562500.0	-20.6051108572	-145.690271031	9.95515079639	95.7340535548	-56.2322270837	135.219889291	-21.4544612843	-58.1858173151
152250000.0	-20.6120122128	-149.820922736	9.90628080675	93.1256910433	-56.3196430717	129.765462781	-21.4951944862	-58.5743345304
152937500.0	-20.6101216692	-154.005101707	9.85629853158	90.5986793935	-56.5232600667	129.649164731	-21.5094135431	-58.8840082052
153625000.0	-20.635835931	-158.087530906	9.80737749501	88.1415601638	-56.884533584	122.740053395	-21.5463067698	-59.2006449236
154312500.0	-20.6537256035	-162.11697356	9.75826590744	85.742662488	-57.0338068337	120.99020641	-21.55824206	-59.4274170953
155000000.0	-20.7000654031	-166.147530329	9.70864612317	83.3861189298	-56.8453063893	113.848857117	-21.5926200746	-59.662844766
155687500.0	-20.736339784	-170.052487149	9.66153014661	81.1001905513	-57.0338942161	113.502603653	-21.6258873658	-59.8546240247
156375000.0	-20.7984274537	-173.987685211	9.61384052456	78.8536489378	-56.4886658522	109.444087752	-21.6604515891	-60.0091136513
157062500.0	-20.8548723277	-177.780740699	9.56625339442	76.6679372795	-56.7340294511	109.139339356	-21.6936000969	-60.0424700042
157750000.0	-20.9195877521	178.376003229	9.51868502218	74.5151503091	-56.4704935506	103.773241453	-21.7294511569	-60.0853339625
158437500.0	-20.974412729	174.64635805	9.47114715196	72.4192238678	-56.6216879723	103.138329552	-21.7688500639	-60.0758249418
159125000.0	-21.040620603	170.90117598	9.42591162271	70.3680024851	-56.1709581916	101.608230266	-21.8230158714	-60.1104854357
159812500.0	-21.110650474	167.318662794	9.38089558816	68.3518491065	-56.2873187924	100.126909257	-21.8684586311	-60.0495105096
160500000.0	-21.1757936307	163.639387788	9.33863727756	66.3680060145	-55.9238275234	100.62294659	-21.9226531894	-60.0247797235
161187500.0	-21.2453374242	160.123515977	9.2951886792	64.4333613923	-56.095102058	98.3080247949	-21.9756626291	-59.9734081492
161875000.0	-21.3140991658	156.570845278	9.25372354444	62.5118864999	-55.9337864211	97.2510797958	-22.045683386	-59.9335216259
162562500.0	-21.395387258	153.094771348	9.2125974675	60.6411197209	-56.0829705811	95.6237344873	-22.1108635215	-59.836509372
163250000.0	-21.4540574929	149.565930708	9.17399546389	58.782784328	-55.9751501172	94.4332531578	-22.1886423396	-59.7500629603
163937500.0	-21.5418256345	146.186570593	9.13652685553	56.9763673499	-56.1638176261	90.6032527575	-22.2491515578	-59.6434047873
164625000.0	-21.6120445373	142.827078089	9.10269039297	55.1840733025	-56.1810311459	92.0039734883	-22.3192718411	-59.5718228938
165312500.0	-21.6961851912	139.514560455	9.06610935006	53.4273825036	-56.2056306459	85.9179183556	-22.3885948425	-59.5176097871
166000000.0	-21.7688117013	136.244432059	9.03373172667	51.6875269016	-56.3071470724	84.2393800169	-22.4684174111	-59.4691572679
166687500.0	-21.8616555049	132.905913824	8.99743325855	49.9859768382	-56.6054304149	79.3224907361	-22.5442849139	-59.4542870605
167375000.0	-21.9457268887	129.788037023	8.96428086332	48.3046732503	-56.7075640914	79.5428903103	-22.6337630745	-59.5038871328
168062500.0	-22.0316528909	126.538836063	8.93186180247	46.6599275025	-56.1742941613	75.8369732935	-22.7117505501	-59.5488372163
168750000.0	-22.112774682	123.458581157	8.90166156446	45.0339444207	-56.0387580319	74.2807217812	-22.8086147475	-59.6946428842
169437500.0	-22.1986509206	120.227113271	8.87148284397	43.4357875157	-55.8493294224	73.5208242554	-22.9010140291	-59.9019537568
170125000.0	-22.2833905835	117.148854381	8.84629959052	41.8366053916	-55.6635564043	74.1370130356	-22.9989957763	-60.0192705238
170812500.0	-22.3689737186	113.943600352	8.81990532186	40.2648733842	-55.4874293816	72.6005474398	-23.0968651355	-60.173537313
171500000.0	-22.4612004693	110.860746217	8.79520146951	38.719677998	-55.5760696278	73.7204892802	-23.2075954119	-60.435434241
172187500.0	-22.5462322726	107.671026183	8.7742636737	37.2035461576	-55.5041996506	73.7333002914	-23.3080757078	-60.7246424316
172875000.0	-22.6380702908	104.549104952	8.75306859502	35.6910410906	-56.0367017696	69.3442474418	-23.4096132219	-60.9606343605
173562500.0	-22.7070509331	101.345312592	8.73416820387	34.210347566	-55.7640454448	70.4497933003	-23.5255637057	-61.3195050335
174250000.0	-22.8025647355	98.2478460198	8.71828438209	32.7371405013	-55.7126679196	66.7336981822	-23.6308502419	-61.614126607
174937500.0	-22.8615875771	94.9875759197	8.70378664807	31.2800721048	-55.7029737674	65.9410775478	-23.7288975087	-61.9881338235
175625000.0	-22.9398926014	91.7212743296	8.69316690976	29.8258248537	-56.0762609372	55.5058569005	-23.8374885725	-62.3117675178
176312500.0	-22.9985019061	88.4131507465	8.68259984078	28.3932570905	-55.9876373092	55.5841100313	-23.9314989011	-62.7512245237
177000000.0	-23.0597167505	85.0797908596	8.67411067161	26.9687646949	-56.0442892134	55.4505206904	-24.0421506624	-63.2398036417
177687500.0	-23.1005022561	81.7749229486	8.66623318017	25.557537346	-56.0340838618	54.7803037422	-24.1370293475	-63.6845005723
178375000.0	-23.1619871656	78.323716911	8.66180636793	24.1440556392	-56.4142903072	50.8113986339	-24.2453732124	-64.1597774697
179062500.0	-23.2014803376	75.0078192018	8.65791214452	22.7530330638	-56.3439665635	51.6716523097	-24.3267734917	-64.642535325
179750000.0	-23.2396304616	71.54902694	8.65725718155	21.3581039794	-56.2617093491	50.1818462939	-24.4253821259	-65.088523635
180437500.0	-23.2736962247	68.1740526986	8.6554783634	19.9766020539	-56.1999660419	49.3888223871	-24.4918312558	-65.4881008935
181125000.0	-23.2807372528	64.606871967	8.655645582	18.5894467509	-56.5851394263	47.9449050829	-24.5949737559	-65.8825380888
181812500.0	-23.2985607768	61.1713418808	8.65516894787	17.2187176531	-56.7793828081	47.7973672552	-24.6843907775	-66.2347296511
182500000.0	-23.2904201225	57.6174235065	8.6591792032	15.8401600078	-56.5962375272	47.935638874	-24.7852779073	-66.6223559982
183187500.0	-23.286032897	54.1780049344	8.66179397369	14.483865635	-57.0928152328	50.1766120612	-24.8750655858	-66.853933775
183875000.0	-23.2580180056	50.7017127633	8.66825865983	13.1101840914	-56.7613637362	48.9587774272	-24.9630649291	-67.1786450272
184562500.0	-23.2481909545	47.1993000564	8.67391333562	11.7574040849	-56.9131002391	47.5453855146	-25.0344118565	-67.3639980249
185250000.0	-23.2048859496	43.6764067341	8.68184085645	10.3966774322	-56.8535816172	46.7904024382	-25.1169411776	-67.6085185608
185937500.0	-23.1747627837	40.1730458309	8.68722895401	9.04314979521	-56.9676141995	48.0996159167	-25.1896259907	-67.663820677
186625000.0	-23.131303881	36.7053565534	8.69789359297	7.68394412635	-57.0171971909	45.7267667978	-25.2656258572	-67.832127057
187312500.0	-23.0972557383	33.1052948553	8.70539811772	6.33803566824	-57.9565843387	42.7633439297	-25.3476413727	-67.8753870341
188000000.0	-23.0359229893	29.6666075367	8.71622880459	4.98609954449	-57.7794122925	43.5137954766	-25.4153896447	-67.9614510052
188687500.0	-22.9868281765	26.1149474768	8.72564402314	3.64724083609	-57.7713744413	34.7495741444	-25.488180531	-67.9286008269
189375000.0	-22.9177014361	22.7349768687	8.73705461494	2.3013783112	-57.8202494542	33.345047792	-25.5621696397	-67.9245691998
190062500.0	-22.8520669897	19.161629078	8.74821226536	0.969710699064	-57.5002165283	31.9143881501	-25.6402194466	-67.7903656958
190750000.0	-22.787829712	15.7660254945	8.76157981538	-0.368107142548	-57.6480230018	30.6273013788	-25.705694032	-67.6561373087
191437500.0	-22.7090329856	12.1353667743	8.77351807538	-1.69060483917	-57.7741687385	26.4871946763	-25.7856861302	-67.5408842452
192125000.0	-22.6460397315	8.77387918944	8.78591030894	-3.01169248631	-57.9138893247	28.4453614513	-25.8666707472	-67.3828836087
192812500.0	-22.5679711191	5.28028452797	8.79845032274	-4.31082181099	-57.9300387301	31.4908287332	-25.9409975958	-67.2607099655
193500000.0	-22.5008355521	1.92509434006	8.81170445346	-5.63488263437	-58.0267871774	32.3893746764	-26.0242383924	-67.1059771715
194187500.0	-22.4225447854	-1.49092225119	8.82358879819	-6.93657605503	-58.1999210358	27.2947371225	-26.0947661829	-66.8248990191
194875000.0	-22.3603157138	-4.96467458801	8.83890559715	-8.24470006453	-58.4860296273	24.7618761888	-26.1766835189	-66.5752463968
195562500.0	-22.2613633292	-8.37761538174	8.85381437855	-9.53946004505	-58.0254200523	23.628845232	-26.2523973871	-66.38955971
196250000.0	-22.1859250646	-11.804040226	8.8690626309	-10.841745442	-58.0647300171	20.7692843076	-26.337065273	-66.1507056161
196937500.0	-22.0796029257	-15.1617063808	8.88329331206	-12.13420041	-58.0831043086	18.2703206646	-26.4182018716	-65.7975560369
197625000.0	-21.9987973927	-18.5467115714	8.90001135737	-13.4211844112	-58.4428277161	17.6198908044	-26.5122687855	-65.5197453069
198312500.0	-21.9028062671	-21.808261904	8.91714830004	-14.693144452	-57.7805511561	16.1589183854	-26.5847482207	-65.3832326027
199000000.0	-21.8073654589	-25.2142871567	8.93652691053	-15.9837639085	-58.0535099294	13.3490911128	-26.6402614726	-65.2336111011
199687500.0	-21.7010986969	-28.4500920868	8.9536362371	-17.251653856	-58.0865215436	12.2687796175	-26.7088433629	-65.1360652552
200375000.0	-21.6008533224	-31.7383656593	8.97289844341	-18.5313141041	-57.6593890934	5.57938697187	-26.787483142	-65.1275545986
201062500.0	-21.4935207727	-34.885394287	8.9923183309	-19.7871657929	-57.6387123128	5.98238750635	-26.8657742443	-65.1604866027
201750000.0	-21.3666373268	-38.1013314536	9.01341170013	-21.0589934919	-57.1471694387	1.20240749894	-26.9597786607	-65.0757732994
202437500.0	-21.2517882333	-41.1475127642	9.03335410626	-22.3122795307	-57.1246293008	0.323804459636	-27.0212027206	-65.1765789847
203125000.0	-21.1321195161	-44.2575336988	9.05614989574	-23.5769915611	-57.6459612352	-6.36703547236	-27.086433059	-65.2236610937
203812500.0	-20.9998046754	-47.2135646511	9.07747138516	-24.8213539693	-57.5192426939	-5.28999150559	-27.1472874018	-65.3876488179
204500000.0	-20.8638501854	-50.1320438754	9.1018901154	-26.0786152171	-56.7078709432	-11.9719057902	-27.2098191136	-65.4928728974
205187500.0	-20.7395611127	-52.9405873422	9.12617562828	-27.3165738326	-57.4525148377	-13.0297378257	-27.2724967429	-65.694743461
205875000.0	-20.5952217813	-55.7045026194	9.15347788237	-28.5736694154	-57.3785501253	-10.7717976307	-27.3262526501	-65.8316800786
