#Frequency	|S11|	<S11	|S21|	<S21	|S12|	<S12	|S22|	<S22
100000000.0	-16.0552375395	138.776816659	-34.3589371315	-124.355949634	-55.196593078	174.097327398	-21.6168332858	-34.8144708941
100687500.0	-15.969011338	136.019831633	-34.1083140315	-125.935896432	-59.3428845011	-116.308396559	-21.8265531343	-34.894123877
101375000.0	-15.9384522883	132.938568768	-33.5907347151	-127.577407758	-59.7696882335	-140.827115224	-21.8810835216	-34.5990252563
102062500.0	-15.8944563921	129.991130669	-33.218328913	-129.093843721	-61.2609090682	-130.213682621	-21.9374407905	-34.2637289364
102750000.0	-15.8543496717	126.906068353	-32.892679648	-130.461282631	-60.7820013993	-100.763304419	-21.9887022359	-33.8240904191
103437500.0	-15.8199381587	123.913122875	-32.5523161616	-131.822796632	-62.0273133515	-94.1547428989	-22.0283867515	-33.3742448009
104125000.0	-15.801604692	120.850858186	-32.2409760318	-133.479160554	-61.8965115426	-74.0580820797	-22.0867275504	-32.9174032787
104812500.0	-15.7943244453	117.752217493	-31.9859129657	-135.1770658	-62.2470353977	-57.2570312417	-22.1453675205	-32.7650915671
105500000.0	-15.8020376315	114.538266197	-31.7886730799	-136.630296087	-62.1058626129	-22.2314329596	-22.2022649579	-32.6287818748
106187500.0	-15.8221291337	111.217214166	-31.6014616573	-138.206408352	-62.2250155676	0.754168421499	-22.2681483751	-32.4308835602
106875000.0	-15.8499190892	107.753009697	-31.4375298924	-139.66072036	-61.7443413005	25.0722947102	-22.3293270044	-32.4043320881
107562500.0	-15.8939773349	104.144017463	-31.3205863814	-141.002559901	-61.6808966342	47.4091075222	-22.3830611857	-32.2464206784
108250000.0	-15.9379187047	100.359289464	-31.2572218189	-142.188838016	-61.5689555865	59.0859015947	-22.4309256116	-32.3111829395
108937500.0	-15.9660360996	96.76522286	-31.1160322628	-143.524616811	-62.1040784754	72.3449154934	-22.4771374927	-32.1725892982
109625000.0	-15.9986560119	93.1402901797	-31.0223360472	-144.6530259	-62.376322203	75.4233511097	-22.5202910746	-32.0518627011
110312500.0	-16.0312220824	89.3873557163	-30.9371675833	-145.578387967	-62.5244960153	78.6239049541	-22.5680474805	-32.0040085044
111000000.0	-16.0796510422	85.5293386979	-30.9360109217	-146.21703266	-62.6230128658	92.2367342457	-22.6130617331	-31.9453933897
111687500.0	-16.1295057758	81.5600487495	-30.9420797037	-146.439514513	-62.696597821	92.9911903966	-22.6563266743	-31.9689301015
112375000.0	-16.1924741871	77.4450395772	-30.9449688327	-146.23902262	-62.6013041429	88.0669976256	-22.6946829319	-31.9451547324
113062500.0	-16.2529999858	73.2428064356	-30.9350413597	-145.55410819	-62.5292854642	75.8448503832	-22.7442451327	-31.9506860093
113750000.0	-16.3379802243	68.898424736	-30.8814727464	-144.486410504	-62.779356685	64.1905519274	-22.780734941	-32.0309974921
114437500.0	-16.4231317052	64.4681095043	-30.7937013169	-143.070322688	-62.737311015	54.8678923314	-22.8288469713	-32.1000737914
115125000.0	-16.5251944351	59.8399136985	-30.6679574993	-141.547733389	-62.5572650413	50.2360965425	-22.871167204	-32.184027272
115812500.0	-16.6268101218	55.0604431614	-30.483024199	-139.712975612	-62.0859572387	36.5228261834	-22.9097765228	-32.2060720447
116500000.0	-16.7545156825	50.1243066518	-30.2393616905	-137.739640682	-61.9891191232	15.205612336	-22.9338039205	-32.3091150716
117187500.0	-16.8838415675	45.1024029529	-29.9420892708	-135.794749849	-61.7108078293	-2.38978236747	-22.9735765976	-32.4119659777
117875000.0	-17.0536935601	39.8952438822	-29.5876680368	-133.849497617	-61.237275805	-29.1260813359	-23.0028546406	-32.3850103363
118562500.0	-17.2311883258	34.5018029245	-29.1949141297	-131.868963913	-61.027435354	-45.5022625651	-23.0325388865	-32.3793388039
119250000.0	-17.4421875127	28.9685959217	-28.7316492525	-130.143466823	-61.2589384294	-71.6800233653	-23.045568162	-32.2882450617
119937500.0	-17.6818168771	23.2589589751	-28.2423791124	-128.406433299	-61.0668464551	-97.5082030586	-23.0658274254	-32.2731854185
120625000.0	-17.9616417593	17.4152369437	-27.6995686421	-126.854474498	-61.1552251874	-124.537139113	-23.0825606382	-32.238150155
121312500.0	-18.3044114829	11.3808092485	-27.135109433	-125.339677593	-60.9038669173	-160.858905374	-23.0890173929	-32.2246766307
122000000.0	-18.6773506715	5.30552606264	-26.5266509247	-124.070316942	-61.0995391365	165.123855564	-23.1035924436	-32.1078053979
122687500.0	-19.1523448616	-0.857065898572	-25.8894947661	-122.996417659	-61.0923263545	126.238344943	-23.1153532864	-31.9672840921
123375000.0	-19.7052293636	-6.96748974344	-25.2115863951	-122.138775961	-60.8695461732	97.5422005581	-23.1159246881	-31.8794764349
124062500.0	-20.4491329152	-13.1258539163	-24.505974185	-121.399909591	-60.8681569717	71.10969	-23.1242794666	-31.7196376228
124750000.0	-21.4641539842	-18.2586011987	-23.7728593905	-120.903008539	-60.6432246284	44.1357743141	-23.1279001284	-31.5113021096
125437500.0	-22.5865787116	-20.1383176601	-22.9982979977	-120.693513433	-60.787129623	21.7846813229	-23.1302030665	-31.1431507778
126125000.0	-23.3497155123	-20.8040144397	-22.2032033483	-120.609062775	-60.275568555	-0.226234396928	-23.1556843152	-30.850154042
126812500.0	-23.9561127362	-21.4377932205	-21.3586613561	-120.911312294	-59.9375340412	-16.0815757442	-23.164416707	-30.4352099473
127500000.0	-24.4336441987	-21.9057106532	-20.496416272	-121.583927399	-59.5882325907	-28.8976986827	-23.1735260492	-30.0673944199
128187500.0	-24.8670343375	-22.4717705017	-19.5790493118	-122.747828058	-59.4074622403	-55.0021613466	-23.183809253	-29.583056427
128875000.0	-25.2279423627	-23.0709982781	-18.6569902457	-124.38135557	-59.2787295175	-70.9880868237	-23.1860763114	-29.0988853696
129562500.0	-25.5494036277	-23.7635456497	-17.7358681858	-126.638950857	-59.3614461448	-81.3390290164	-23.1877416617	-28.5877219206
130250000.0	-25.8475766095	-24.4636564697	-16.8429321308	-129.528437595	-59.2458965229	-83.5077700301	-23.1955781732	-28.0607133075
130937500.0	-26.1032946419	-25.2625928541	-15.9974864782	-132.9767624	-59.4529136578	-98.0187273037	-23.1903642241	-27.3954385415
131625000.0	-26.3370817131	-25.9986848409	-15.1913570834	-136.863921868	-59.6925042743	-104.464005306	-23.1882584108	-26.8309692079
132312500.0	-26.5459694593	-26.8004056544	-14.4347773694	-141.101242258	-59.545569618	-119.505454379	-23.1891062526	-26.2319017311
133000000.0	-26.7399392769	-27.6345475403	-13.7582712332	-145.59051314	-59.5474748084	-134.495970074	-23.1964454042	-25.7139619848
133687500.0	-26.9168001042	-28.4175739964	-13.1418650586	-150.350643506	-59.5476177041	-151.80204124	-23.2026072547	-25.0508076033
134375000.0	-27.0682275174	-29.2244933715	-12.5968578629	-155.197724078	-60.102824164	-174.949692683	-23.2116706173	-24.4635253821
135062500.0	-27.1849173261	-30.126941643	-12.0927686234	-160.173968414	-60.6465468597	170.855317186	-23.2140687731	-23.8557406929
135750000.0	-27.2921772165	-30.9473403069	-11.6583757875	-165.125225427	-60.9395330959	149.823424874	-23.2213916159	-23.274178814
136437500.0	-27.3531130722	-31.7668085906	-11.2677579027	-170.128488184	-60.4024941924	135.640158461	-23.2347555515	-22.7334507143
137125000.0	-27.3865864925	-32.5484265102	-10.9322993304	-175.075699991	-60.4712636309	109.861979658	-23.2546544493	-22.1402594351
137812500.0	-27.3690794633	-33.2465025863	-10.6407914551	179.988934562	-60.3116065056	96.6211741526	-23.2710313958	-21.560719798
138500000.0	-27.3006145474	-33.8970001109	-10.3954082783	175.162878536	-60.3350024926	88.1995420591	-23.2911285168	-20.9891594257
139187500.0	-27.1789932124	-34.5394763	-10.1878596717	170.397077112	-60.2969504834	82.541068467	-23.3031315336	-20.4041704477
139875000.0	-26.9681859449	-35.2713098972	-10.0167098894	165.767855948	-60.1625505044	69.7325289	-23.3222468338	-19.8157442709
140562500.0	-26.6593829443	-36.0863507779	-9.87709819207	161.206222588	-60.1725105218	53.8474478334	-23.3616509001	-19.2921244586
141250000.0	-26.1677045094	-36.9477691937	-9.76795957517	156.791016539	-60.2713516562	27.7071500175	-23.3776623468	-18.7534343946
141937500.0	-25.3975051966	-38.8202956808	-9.68315708462	152.497196505	-60.27921625	12.4298901134	-23.4033177129	-18.2465115202
142625000.0	-24.5121923298	-43.9931627582	-9.62119143016	148.326803376	-60.41011699	-7.82951820136	-23.4268103583	-17.7594885494
143312500.0	-23.9729515119	-50.3114833915	-9.5797047889	144.285757502	-60.3246596335	-26.1745633937	-23.4468081197	-17.3170745596
144000000.0	-23.5992262118	-56.7895316504	-9.55546725886	140.394145908	-60.4691691896	-53.0281861078	-23.4663256661	-16.9248195566
144687500.0	-23.3554939518	-63.4203987142	-9.54821347082	136.638035472	-60.5725185194	-77.5404134491	-23.4969481425	-16.5291489218
145375000.0	-23.1318982408	-69.868185772	-9.55221414369	133.014180179	-60.8092994557	-96.3357396314	-23.5183489851	-16.1917535404
146062500.0	-22.9803126035	-76.3105853944	-9.57024431777	129.511123734	-60.9988331995	-121.957217413	-23.5478403699	-15.7554080655
146750000.0	-22.8534061211	-82.5125748951	-9.59432129017	126.112415984	-60.7522415817	-152.56830872	-23.5805631754	-15.3802222503
147437500.0	-22.7585459378	-88.7142712726	-9.63106077923	122.870877328	-60.7507425123	172.481357718	-23.6004417307	-15.0581968535
148125000.0	-22.6823170568	-94.6845728092	-9.66825459571	119.7066277	-60.3473366792	144.26869655	-23.6384248655	-14.7571419171
148812500.0	-22.6282779093	-100.787911225	-9.7131900645	116.662120125	-60.1047808163	116.901070362	-23.6655850656	-14.48662576
149500000.0	-22.577306213	-106.565659474	-9.76065636058	113.719687391	-60.1322075456	91.6194620236	-23.6907366721	-14.0457117742
150187500.0	-22.5466821279	-112.314565973	-9.81320123919	110.885116798	-60.0654255812	74.2785254812	-23.7195572702	-13.6548263297
150875000.0	-22.5070030724	-117.935085712	-9.86443026764	108.134026121	-60.2866829464	60.5671187584	-23.7419146123	-13.3008474536
151562500.0	-22.4775200171	-123.553055407	-9.91912481806	105.471665394	-59.8495413937	57.2671970738	-23.7515453861	-12.9462573461
152250000.0	-22.4529237211	-128.848842735	-9.97589660286	102.881258308	-59.6327002709	55.9809328521	-23.7708006671	-12.5795624592
152937500.0	-22.41926805	-134.072677268	-10.0342405237	100.354769037	-59.4473995951	50.1845361835	-23.7908342423	-12.1880045429
153625000.0	-22.3973345247	-139.150480651	-10.0912607489	97.9146722646	-59.9272139707	34.1768264148	-23.8244483188	-11.6695220903
154312500.0	-22.3653229684	-144.093062717	-10.1489265101	95.5358278799	-60.3633009362	22.5459742188	-23.839529761	-11.2875308333
155000000.0	-22.3430028681	-148.960193985	-10.2051332365	93.2296419416	-61.1330161724	5.8061557941	-23.8481689409	-10.8842910117
155687500.0	-22.303398869	-153.679810049	-10.2596786019	90.9708349754	-61.054091868	-10.370731904	-23.8763951506	-10.3773630658
156375000.0	-22.2880015389	-158.341383189	-10.3165212207	88.7826046581	-61.0824774536	-28.2013765133	-23.8949310737	-9.9809372169
157062500.0	-22.2448453439	-162.74223025	-10.3694877732	86.6227472211	-61.0375020343	-45.3111798417	-23.9152511648	-9.48760320831
157750000.0	-22.2321376588	-167.1189381	-10.4247798433	84.5471202321	-60.8535705846	-59.9761345501	-23.9231130468	-8.99938232626
158437500.0	-22.1924759629	-171.234105751	-10.4772100325	82.4720648828	-60.794241113	-73.5546816572	-23.9449766442	-8.54598986513
159125000.0	-22.1641889123	-175.318349065	-10.5300763054	80.4757694286	-60.6518907717	-87.9385085739	-23.9703358982	-8.0366669031
159812500.0	-22.1385590485	-179.289349719	-10.5762684742	78.5125507964	-60.85543965	-103.772608065	-23.9882185003	-7.48085414552
160500000.0	-22.1247201819	176.776734101	-10.6255090001	76.606216634	-61.0887763364	-114.989954896	-24.0114425269	-7.04436618607
161187500.0	-22.0903271424	173.020940156	-10.6750870502	74.7092712449	-60.8137183386	-127.085405265	-24.029262252	-6.52924687276
161875000.0	-22.07084835	169.390778239	-10.7197489249	72.8567536496	-60.7916618715	-144.239057845	-24.0583559172	-5.95868822501
162562500.0	-22.060698935	165.80212495	-10.7640322818	71.0283650441	-60.78182171	-157.074070734	-24.0845153196	-5.38560728728
163250000.0	-22.0432773373	162.406376562	-10.8091309806	69.2434529931	-60.3572819291	-172.466110786	-24.1318454972	-4.87439752172
163937500.0	-22.0368300246	159.017092144	-10.8522744129	67.4811074105	-60.8048024086	-175.881245753	-24.1600916317	-4.39550721042
164625000.0	-22.0152683726	155.719262135	-10.8939146145	65.745697278	-60.6626995671	-177.98479249	-24.209017029	-3.8449194308
165312500.0	-22.0159459083	152.437386033	-10.9342002039	64.0448542749	-60.7275621237	178.743870469	-24.2532871495	-3.36521809632
166000000.0	-22.0188658777	149.405382241	-10.9756176131	62.3671393789	-60.8952724967	171.777199909	-24.2993127206	-2.85812407459
166687500.0	-22.0331776662	146.228031459	-11.014588203	60.7075039675	-61.2556158015	168.996655165	-24.3594910846	-2.37576016291
167375000.0	-22.0466970681	143.308089673	-11.0537043459	59.0797193523	-61.1140489234	161.443972985	-24.4317527696	-1.95740754823
168062500.0	-22.0671325603	140.28356672	-11.0926890775	57.4864559361	-60.8738460991	157.208956549	-24.4944657322	-1.57980228366
168750000.0	-22.0879689375	137.451486181	-11.1267199608	55.9194126835	-60.9631466294	147.946414966	-24.5862602237	-1.2419324339
169437500.0	-22.1153832962	134.506451477	-11.1623054167	54.3840515338	-60.6170950695	137.564458591	-24.6678254222	-0.956318743791
170125000.0	-22.1448876752	131.658763739	-11.1913937577	52.8531872376	-60.4562791876	127.492923456	-24.7581766239	-0.691502189586
170812500.0	-22.1882689023	128.709776087	-11.2260721815	51.3532647159	-60.0666149216	127.056084928	-24.8258398159	-0.552696319917
171500000.0	-22.2348221595	125.865237523	-11.2537412407	49.8718261333	-59.7133302226	124.549526266	-24.9154345505	-0.422481588012
172187500.0	-22.2781451018	122.930883413	-11.2818549317	48.4105449959	-59.0775645636	114.484450012	-25.0129934491	-0.359096555474
172875000.0	-22.3286355678	120.042107192	-11.3069107431	46.9700365028	-59.1986748869	110.663890195	-25.1000687123	-0.280714751599
173562500.0	-22.3706202116	117.108285546	-11.3314132245	45.5583989398	-59.5742810975	99.3744326748	-25.1964010002	-0.256637120199
174250000.0	-22.4295466542	114.143714692	-11.3534951144	44.1593836026	-59.9464911436	86.7023620271	-25.2819733103	-0.359360633004
174937500.0	-22.4626962119	111.162335693	-11.3738800243	42.7636195531	-59.8829599485	63.967418262	-25.3861264961	-0.562574246369
175625000.0	-22.5057060917	108.07033298	-11.3923212298	41.3919212548	-59.7448001112	51.5363228084	-25.4766564012	-0.657455891427
176312500.0	-22.5414487859	105.016725798	-11.408675724	40.0252859029	-59.6972424183	27.8220724458	-25.5882552517	-0.963968719858
177000000.0	-22.5713374141	101.887693441	-11.4241912227	38.6703064886	-59.5741230936	15.3083171316	-25.6962208046	-1.32049025109
177687500.0	-22.5789147935	98.7772322257	-11.4399555671	37.3161569327	-59.4081723309	3.18107325631	-25.8047124598	-1.6374514434
178375000.0	-22.6142075836	95.6076419114	-11.4512283295	35.9936157276	-59.5837264544	3.67433056113	-25.8963262217	-1.88735010062
179062500.0	-22.6122373535	92.4628147967	-11.462826093	34.6751820454	-59.6942895798	3.49653875694	-25.9969229049	-2.43699585298
179750000.0	-22.6124713008	89.2473050254	-11.4728543826	33.3848824375	-59.4493950741	5.11939042985	-26.0775249485	-2.8669068118
180437500.0	-22.6008475113	86.0292085049	-11.4804019074	32.0755921789	-59.4799176482	8.47689241669	-26.1432935887	-3.4332682248
181125000.0	-22.5906706826	82.6966120387	-11.4871897911	30.7974238848	-59.3072577111	12.3739591124	-26.2175641351	-3.86860444629
181812500.0	-22.5747032835	79.5117167972	-11.4918847724	29.48234365	-59.1802550866	23.3160057577	-26.2839224523	-4.38272205184
182500000.0	-22.5380324081	76.2574907136	-11.4975767888	28.2129905107	-59.4323100115	30.7002646856	-26.3531236842	-4.78726894991
183187500.0	-22.4863867839	73.0434198792	-11.4980910785	26.9311843903	-59.8425517866	31.0980755244	-26.4148292892	-5.22412977332
183875000.0	-22.4380627341	69.8460680786	-11.4987725778	25.6683814749	-59.7026558496	33.2140655669	-26.4471972064	-5.85719622597
184562500.0	-22.3727641375	66.5566133461	-11.4945189391	24.3677877934	-59.9163497678	32.3592284965	-26.4622407338	-6.35295233793
185250000.0	-22.2993135637	63.4024544969	-11.4917931982	23.099730719	-59.9135043094	24.1997588602	-26.4985014583	-6.85880047555
185937500.0	-22.2271944904	60.2322121531	-11.4902273059	21.8201541831	-59.7871184893	10.6723242438	-26.5012351314	-7.25151490191
186625000.0	-22.1478522052	57.1953909892	-11.4844302313	20.5697590134	-59.7357407322	-4.11650726322	-26.5207392913	-7.5992917579
187312500.0	-22.0622111261	54.0360660159	-11.4801958106	19.305710435	-59.9717375494	-16.3297657158	-26.5147053794	-7.87290496171
188000000.0	-21.9607444923	51.1017922974	-11.4714972624	18.0531712478	-60.128160176	-29.2471483522	-26.5074173151	-8.22323937387
188687500.0	-21.8653842169	48.0432495597	-11.4654279032	16.7840001899	-60.0824498637	-41.217759627	-26.4928377824	-8.36759631148
189375000.0	-21.7711486563	45.1676883395	-11.4594891426	15.5442945778	-60.0962667198	-52.7799064864	-26.4704766281	-8.51066320189
190062500.0	-21.6789525867	42.2333073233	-11.45238167	14.2777935637	-60.1256626133	-62.2193304678	-26.4322330851	-8.59678852812
190750000.0	-21.5871310496	39.436636445	-11.4421297127	13.0331563296	-59.7300018893	-61.3715836405	-26.4054387914	-8.66510943303
191437500.0	-21.5018073341	36.5943582189	-11.4320777258	11.7932865526	-59.7529846856	-58.2241719325	-26.3592787855	-8.64113492848
192125000.0	-21.413927031	33.8993662161	-11.4216233504	10.5532126366	-59.8404504701	-43.7806106521	-26.3073125998	-8.56184786637
192812500.0	-21.3388439413	31.1330291101	-11.4113644279	9.33384255891	-60.0756723755	-41.5853132888	-26.2632102245	-8.49380776644
193500000.0	-21.2661864967	28.4530519586	-11.4010494176	8.1000328639	-59.9370442847	-40.687930052	-26.2019051503	-8.32394171061
194187500.0	-21.2082567582	25.8174101921	-11.3918153726	6.86745460073	-60.2238783407	-40.70484802	-26.1312155342	-8.08080325164
194875000.0	-21.1633784249	23.2075085055	-11.3787463706	5.64829106946	-60.3460448654	-53.6107088362	-26.0563991157	-7.78959838745
195562500.0	-21.1049563834	20.524373991	-11.3649829939	4.42515965646	-60.3329209505	-79.3276359398	-25.9972322652	-7.52704617702
196250000.0	-21.074707067	17.8940535101	-11.3522895271	3.19674712557	-59.9899737007	-93.0771742395	-25.9254282096	-7.0492516417
196937500.0	-21.0402536588	15.2794684023	-11.3389983191	1.96059887631	-59.9445537328	-105.214317395	-25.8575002607	-6.65076486478
197625000.0	-21.0231699556	12.5747454607	-11.32377487	0.761085701078	-60.1505152301	-117.998676049	-25.8012974263	-6.17030076253
198312500.0	-21.0039250493	9.93422534967	-11.3103899054	-0.446851746444	-60.0794957047	-138.997722942	-25.7384766384	-5.78987148814
199000000.0	-21.0020130318	7.18930817536	-11.2946002525	-1.64922322412	-60.0713063147	-173.030182173	-25.6696154613	-5.40356158948
199687500.0	-20.9878929145	4.4935564028	-11.2788220237	-2.85452187411	-59.8705387837	159.310556292	-25.6058592848	-5.04622842842
200375000.0	-20.9938714534	1.7482987287	-11.2621329123	-4.07200951993	-59.1597814246	141.292479832	-25.5486652715	-4.59015932736
201062500.0	-20.9828213557	-0.956869056574	-11.2461862897	-5.2676659505	-59.0863400586	113.933107616	-25.5152887145	-4.06755237999
201750000.0	-20.9838229489	-3.76621694861	-11.2285986723	-6.44658956797	-59.7586699341	88.4574954246	-25.4719386594	-3.55942403292
202437500.0	-20.9775854649	-6.52298144866	-11.2115326372	-7.6365521816	-59.6865118111	74.7343303587	-25.4319085787	-3.07680247584
203125000.0	-20.9828664033	-9.36891366141	-11.1909084294	-8.82027540109	-59.9806597059	61.8689662977	-25.3917366965	-2.54570392981
203812500.0	-20.9666763585	-12.2650972256	-11.1734192746	-10.0135578903	-60.1336930753	45.9604071338	-25.3585948254	-2.17919145356
204500000.0	-20.9729267735	-15.1284728689	-11.1524000501	-11.2075390326	-60.1278495022	30.5488333369	-25.3187710077	-1.72088292121
205187500.0	-20.9730403841	-18.0310511543	-11.1336656181	-12.3843416616	-60.2101554525	19.136453052	-25.3015488486	-1.18734939423
