#Frequency	|S11|	<S11	|S21|	<S21	|S12|	<S12	|S22|	<S22
100000000.0	-15.5972792988	154.364921897	-18.2669750642	-124.16977521	-56.4410741275	84.3658078864	-20.2039599048	-62.8231535971
100687500.0	-15.5846827242	152.133719165	-17.9202312735	-125.65667227	-58.0631759572	85.6503596187	-20.2295896584	-63.0929066695
101375000.0	-15.5972569166	149.572678735	-17.489328552	-127.051130945	-59.8468931581	101.750778638	-20.3129871426	-62.7699637822
102062500.0	-15.6119333115	147.048072033	-17.1099554376	-128.330044132	-58.8857691964	114.753239464	-20.4286630049	-62.3606319217
102750000.0	-15.620285158	144.516752536	-16.7423754231	-129.690862455	-59.332698282	120.337909284	-20.5265716507	-61.9483851069
103437500.0	-15.6334244504	141.88513253	-16.4004590384	-131.107376252	-58.9920890265	127.032898704	-20.6316004426	-61.5795331761
104125000.0	-15.665539514	139.17832013	-16.0768258944	-132.522169683	-59.2488177072	145.736240723	-20.7801070629	-61.1307901744
104812500.0	-15.7029681696	136.3871863	-15.7784453665	-133.886733237	-59.6516113346	161.156192273	-20.8937580221	-60.853945905
105500000.0	-15.748010867	133.45250448	-15.5033194597	-135.3248243	-60.8714222	165.750508188	-21.0267484875	-60.6388452523
106187500.0	-15.8002605597	130.421165057	-15.2577007325	-136.770257343	-60.6623799244	152.995586662	-21.175899626	-60.5357147216
106875000.0	-15.8652653912	127.286266886	-15.0408452956	-138.205472488	-60.4103168113	162.505415131	-21.3343115247	-60.3971925133
107562500.0	-15.93689348	123.993142757	-14.854274198	-139.61316539	-60.3447488328	172.33377858	-21.5052286992	-60.2836709007
108250000.0	-16.0137091214	120.564717271	-14.7035033276	-140.982416628	-60.4038645152	-176.628482529	-21.6644970594	-60.3030663181
108937500.0	-16.071802776	117.350687607	-14.5008589208	-142.328501754	-60.9465259436	-176.292654585	-21.8084718073	-60.1161637767
109625000.0	-16.1359772341	114.028262256	-14.3133872095	-143.612697533	-60.8976351193	-169.381176592	-21.9538960394	-60.0270786963
110312500.0	-16.2007733357	110.593173279	-14.1608284888	-144.864635657	-61.1275855277	-155.561917566	-22.1118774906	-59.9231273852
111000000.0	-16.2754935561	107.062078452	-14.0341416744	-146.013355038	-61.0840497132	-153.457204394	-22.2739403273	-59.8015230616
111687500.0	-16.347749819	103.428188024	-13.9415524359	-147.050113653	-61.0418222115	-138.306441884	-22.4377036442	-59.811668041
112375000.0	-16.4275149454	99.6837735976	-13.8731810367	-147.924074368	-61.3297927666	-123.058933376	-22.6083359658	-59.817228991
113062500.0	-16.5077793171	95.7922495886	-13.8405651741	-148.599980114	-61.7043707237	-108.303077741	-22.7645166691	-59.8640893841
113750000.0	-16.5929506029	91.8111652385	-13.8340572224	-148.986380629	-61.638532552	-102.635499163	-22.9355282904	-59.8610850399
114437500.0	-16.6835701746	87.7006477663	-13.8424134831	-148.970294643	-61.8866271715	-90.4014260917	-23.1039696912	-59.9324622606
115125000.0	-16.7776152196	83.4494211958	-13.8516432167	-148.546356865	-61.870445542	-82.1942952668	-23.2821766104	-60.00198014
115812500.0	-16.874155762	79.0285552676	-13.847691121	-147.67549669	-61.9729901157	-67.3458561073	-23.4529844369	-60.0335317792
116500000.0	-16.9717939994	74.5182537338	-13.8039682877	-146.413880171	-61.9025307941	-64.4489078193	-23.6177751218	-60.1521418596
117187500.0	-17.0745095679	69.8562448749	-13.7144409125	-144.853176715	-62.6049202533	-56.6120241048	-23.7799131352	-60.3027868613
117875000.0	-17.1875600046	65.0508703968	-13.5657955963	-143.11832455	-62.6780996882	-55.3014840973	-23.9771165336	-60.2890413772
118562500.0	-17.3055715931	60.1006791824	-13.365367006	-141.21316073	-62.3303757334	-53.4075850182	-24.161309294	-60.404574186
119250000.0	-17.436235933	55.0150805675	-13.1060950632	-139.257932252	-61.7297035347	-52.2005009815	-24.338714975	-60.3075560509
119937500.0	-17.5764419915	49.7633013369	-12.7972776172	-137.270848409	-61.3496644859	-47.3578007083	-24.4942944844	-60.2804386995
120625000.0	-17.745006372	44.3579455847	-12.4332151011	-135.317167007	-61.5322653384	-30.8762871023	-24.6638721348	-60.1864735667
121312500.0	-17.9299523683	38.7927541171	-12.0243194305	-133.422017371	-61.4290541411	-16.5593406646	-24.8047315334	-60.1299691408
122000000.0	-18.1335581055	33.0428793321	-11.5651608655	-131.620059372	-61.28090576	-12.9459136872	-24.9709715246	-60.0500871606
122687500.0	-18.3740867295	27.1351266599	-11.0655499645	-129.935150823	-61.4609036456	-10.6933470164	-25.1120665927	-59.9839828921
123375000.0	-18.659432239	21.0567066238	-10.5243154341	-128.389761764	-61.219347747	-8.447436966	-25.2378803305	-59.7972266703
124062500.0	-18.9908844277	14.7223133531	-9.94528656305	-126.98425003	-61.9006542454	-6.33596773128	-25.3635753006	-59.6587726842
124750000.0	-19.4005949509	8.19118610376	-9.32845903043	-125.764715758	-62.0367040877	-14.0474541385	-25.4852178825	-59.4290885191
125437500.0	-19.8590168012	1.25442964157	-8.67980195704	-124.702730194	-62.0372905434	-12.2797323548	-25.5984450542	-59.053973978
126125000.0	-20.4455266824	-6.14390611075	-7.99159590196	-123.849154802	-61.5382665115	-4.82430440139	-25.7023738771	-58.917315547
126812500.0	-21.142550868	-14.073273701	-7.27450987837	-123.204347858	-62.0037395249	-3.7321506821	-25.797116208	-58.5216520633
127500000.0	-22.0660724579	-23.4349873226	-6.5217739744	-122.809561714	-61.6638431407	-10.9479289158	-25.8633579572	-58.2531022878
128187500.0	-22.9752086564	-34.5883727588	-5.74082164206	-122.662397855	-61.6972856834	-10.7201985972	-25.9214787459	-57.9016970431
128875000.0	-23.7387327946	-47.2404249905	-4.92500633715	-122.822034485	-61.3945265502	-20.7416305597	-25.951980305	-57.54496514
129562500.0	-24.3815768474	-60.5446581496	-4.08352214046	-123.299489376	-61.0215227907	-34.6360347854	-25.9642205115	-57.1764804821
130250000.0	-24.9713364007	-74.1868250287	-3.2055541506	-124.175741283	-60.68368151	-44.8983922445	-25.9986949857	-56.9023188946
130937500.0	-25.4836319862	-88.3086965395	-2.30939812041	-125.480147442	-60.8854515537	-47.1220533863	-26.0086855686	-56.6152101937
131625000.0	-25.9346631274	-102.446464768	-1.39881988273	-127.340954303	-60.3137285988	-55.4772488257	-25.9961525681	-56.3740341024
132312500.0	-26.3413537846	-116.747495478	-0.494089291565	-129.74932579	-60.2342469511	-64.3202523485	-25.9749715209	-56.082136925
133000000.0	-26.7250047047	-131.322990932	0.391603456501	-132.750182625	-60.2603689023	-75.592281356	-25.9355476915	-56.0094926803
133687500.0	-27.0807237364	-146.094566031	1.22722848439	-136.271888667	-59.6521559526	-79.1887034094	-25.8961013187	-55.8476996149
134375000.0	-27.4030317356	-160.980078773	2.0138848945	-140.228687078	-59.6359041025	-88.2973817868	-25.8378275275	-55.7831655832
135062500.0	-27.7082545578	-176.046863105	2.73353301011	-144.505568296	-59.5556031762	-96.0315511131	-25.7603594826	-55.7844953779
135750000.0	-27.9879332886	168.815848081	3.3931829319	-149.028384281	-59.8028773439	-97.9753516042	-25.6637895843	-55.8810080201
136437500.0	-28.2470785434	153.606003596	3.98606267607	-153.722273233	-59.5435182798	-104.599409151	-25.5720207617	-56.1075089544
137125000.0	-28.4799241794	138.248888309	4.52307151386	-158.539080844	-59.5198069075	-106.391880098	-25.4839691932	-56.3150221043
137812500.0	-28.6542061632	122.892610172	4.99961755395	-163.414400164	-59.1870686594	-114.662883779	-25.3738338347	-56.5885746894
138500000.0	-28.7993761732	107.560510271	5.42666713356	-168.333400067	-59.0902647849	-125.780181088	-25.2676751979	-56.8320204357
139187500.0	-28.8927841891	92.1277889735	5.79783625872	-173.232456163	-59.3929024566	-135.964290182	-25.1332284949	-57.2040343996
139875000.0	-28.9393804445	76.7165756582	6.12440201058	-178.102281312	-59.1783151147	-139.953579303	-25.011425168	-57.5438534086
140562500.0	-28.92488328	61.336977588	6.40473476602	177.075333197	-59.4561496813	-150.225460345	-24.8943379104	-58.0889755042
141250000.0	-28.8493172586	46.1414870855	6.64663639444	172.329381131	-58.852874831	-154.429699144	-24.7604626068	-58.5401696178
141937500.0	-28.6779533744	31.0340051394	6.85006614422	167.680603687	-58.9703224264	-156.487815095	-24.6254084038	-59.1252088373
142625000.0	-28.4373826983	16.3118592234	7.02377654864	163.117196353	-58.5584606063	-156.664352313	-24.4938097275	-59.7043215221
143312500.0	-28.0543951397	2.05133302335	7.16108787348	158.670741958	-58.7035232026	-163.313277432	-24.3574448894	-60.2201735267
144000000.0	-27.5466134502	-11.7009316538	7.27500972846	154.332200637	-58.0771354357	-165.365827787	-24.2353691465	-60.8060307766
144687500.0	-26.8040143326	-24.0357371994	7.36137678159	150.133841946	-58.3619264373	-169.983674566	-24.1087880312	-61.453217787
145375000.0	-26.0585989028	-34.5207894654	7.42756495456	146.047564538	-58.2037545721	-175.045111737	-23.9855411196	-62.0655839914
146062500.0	-25.4437841114	-43.4887520427	7.47301321578	142.095244006	-58.4674138495	-176.463018994	-23.8851946493	-62.6615315705
146750000.0	-24.9397554971	-51.7789041301	7.50314445759	138.252227464	-58.4652259042	174.763378416	-23.7963733727	-63.2091410477
147437500.0	-24.4783750911	-59.5810400661	7.51537920747	134.552679539	-58.5415794147	173.539456745	-23.6673883422	-63.7212221826
148125000.0	-24.0851310866	-66.873073399	7.51884956616	130.961218295	-58.2508322641	163.371933772	-23.5697460982	-64.184008954
148812500.0	-23.7429351309	-74.0712381176	7.50796068171	127.499540307	-58.4997197309	161.219316752	-23.4656933414	-64.61441303
149500000.0	-23.4367690499	-80.9816843227	7.49213382743	124.150124988	-58.2961937641	158.036974433	-23.3886877304	-65.0059506107
150187500.0	-23.1441073683	-87.4724663414	7.46459095706	120.916645599	-59.182199101	162.669975423	-23.3071239394	-65.2820963636
150875000.0	-22.8717195747	-93.6681615562	7.43515750945	117.779603878	-59.4005893566	172.333591421	-23.2367426098	-65.4461464094
151562500.0	-22.6253644528	-99.6177416924	7.3977717536	114.745559128	-59.1444011463	-174.96663874	-23.1616779245	-65.5619994023
152250000.0	-22.3791873126	-105.23264286	7.358110399	111.80122368	-59.0839787114	-164.34196003	-23.1030471974	-65.6044707257
152937500.0	-22.1491762977	-110.616679096	7.31113993772	108.953227833	-58.9748292738	-151.808988037	-23.0457303492	-65.5121153073
153625000.0	-21.9288251128	-115.751763447	7.26645741543	106.196018566	-59.2163541088	-137.643145976	-23.0097748295	-65.458138103
154312500.0	-21.717705367	-120.554104263	7.21666358013	103.516385543	-59.272511912	-128.405596272	-22.9564484287	-65.3473936522
155000000.0	-21.5356243102	-125.186582441	7.16692892643	100.902971388	-59.7140833838	-114.79726701	-22.9230973513	-65.143256021
155687500.0	-21.3629626863	-129.596467229	7.1119932897	98.3799778694	-59.4589547253	-103.244079241	-22.9029881049	-64.9434793063
156375000.0	-21.2221725122	-133.707848071	7.0602748498	95.9054628957	-59.4130945437	-90.3802717063	-22.8850892454	-64.5712204398
157062500.0	-21.0845099798	-137.645155459	7.00581902721	93.5169681265	-59.3100556319	-84.4773126281	-22.8739189269	-64.1252172553
157750000.0	-20.9676201954	-141.395852719	6.95344861817	91.1804661405	-59.0072279026	-70.5070339962	-22.8635220027	-63.6249641345
158437500.0	-20.8535118981	-144.9734952	6.89790120326	88.9006803978	-58.8512363377	-62.7798500799	-22.874347041	-63.1461400721
159125000.0	-20.7642726646	-148.379356241	6.8459644833	86.6861412283	-58.976317359	-50.5686525678	-22.8918976426	-62.5906695525
159812500.0	-20.6884067343	-151.692496746	6.79076883484	84.5218866123	-59.0075233313	-41.0064010526	-22.9108196485	-62.0202903264
160500000.0	-20.630424222	-154.872991541	6.74071448505	82.4015989213	-58.836952173	-26.7507560826	-22.9390013316	-61.4707947583
161187500.0	-20.581441709	-157.959272033	6.68699418074	80.3255329376	-58.7437119941	-22.0956435727	-22.9687688768	-60.8679761602
161875000.0	-20.5491458247	-160.843300055	6.63809458517	78.2889220954	-58.5959002966	-8.420389082	-23.0260060552	-60.2382938884
162562500.0	-20.5416210531	-163.696326241	6.58623037644	76.3079893417	-58.669816006	1.11952299534	-23.0810387878	-59.6401598383
163250000.0	-20.543791037	-166.52254228	6.53788155694	74.3520997987	-58.3352661469	14.0219263923	-23.1551723041	-59.033891871
163937500.0	-20.5528639878	-169.203592036	6.48785043878	72.4535995549	-58.261014541	30.2929100729	-23.231521614	-58.3471576333
164625000.0	-20.5889690538	-171.897287942	6.44240463671	70.5771957157	-58.3967867499	43.5374662001	-23.3289572877	-57.7207753075
165312500.0	-20.6348301867	-174.504119899	6.39336246883	68.7456715576	-58.4149092243	58.5734019659	-23.426206961	-57.0532344739
166000000.0	-20.7035119763	-177.015921094	6.35052776099	66.9376624646	-58.5456515519	73.9534908336	-23.532427538	-56.5170777694
166687500.0	-20.7850174084	-179.542919379	6.30445738117	65.1649348896	-58.7489875542	85.6659810944	-23.6437738896	-55.8744743409
167375000.0	-20.8804541804	177.997224251	6.26333683166	63.4203668469	-57.6941055952	94.9520553401	-23.7726912935	-55.3514036011
168062500.0	-20.9886510387	175.469848892	6.21952516005	61.7124661918	-57.8195011337	93.3090968571	-23.9108757669	-54.8972040239
168750000.0	-21.1105965696	173.02116843	6.1803163322	60.0337064843	-57.4151731839	93.5482629141	-24.0597351756	-54.548360115
169437500.0	-21.2491836817	170.479218885	6.13913263927	58.3824076971	-57.6732084114	93.7704311794	-24.2183544937	-54.2801838189
170125000.0	-21.4049025033	167.929896001	6.10328208502	56.7400177267	-57.4585096217	88.9999302093	-24.3828885838	-53.9750527291
170812500.0	-21.5669740955	165.339482451	6.06475177497	55.1245254805	-57.3527048442	85.9325027924	-24.5569407321	-53.6473038682
171500000.0	-21.7379262033	162.74039472	6.03081631958	53.5374438401	-57.2566655931	79.7609439683	-24.7360017601	-53.3995264536
172187500.0	-21.917404142	159.973169316	5.99675200743	51.9899734039	-56.9388335015	63.7858452507	-24.9290538681	-53.309283309
172875000.0	-22.1199599411	157.098441387	5.96671858137	50.4454767689	-57.1520261407	54.66512235	-25.1131962442	-53.2118643451
173562500.0	-22.3109347201	154.159812885	5.93518346632	48.9286568743	-56.8397902678	40.7254184718	-25.3221578274	-53.274594496
174250000.0	-22.5082940802	151.095689191	5.90834410563	47.4166251604	-56.9237289692	30.8968304233	-25.532240127	-53.3683215245
174937500.0	-22.6959710227	147.838025499	5.88093299172	45.9337324996	-57.0739412676	15.6846829171	-25.7351157998	-53.6037006491
175625000.0	-22.8919350806	144.429346701	5.85774660447	44.4633971558	-57.0427739138	4.68832558471	-25.9439644865	-53.7020755087
176312500.0	-23.0721018372	140.908954612	5.83212981167	43.0120710682	-56.5940607817	-8.98063100516	-26.1533811561	-54.0512997789
177000000.0	-23.2414334222	137.25547949	5.81046103566	41.5714849512	-56.5703047088	-27.347991109	-26.3767627027	-54.5026303787
177687500.0	-23.3858067138	133.476366594	5.78702439778	40.1432325799	-56.5769305011	-41.2709682068	-26.6037853393	-55.0615189557
178375000.0	-23.5302296036	129.591469787	5.76924335815	38.7305076063	-56.6651211032	-54.1464751317	-26.83096772	-55.5365372258
179062500.0	-23.6382709576	125.655386211	5.74880106792	37.3328921327	-56.4297156305	-71.2295945158	-27.0274265495	-56.2979723536
179750000.0	-23.7306030216	121.670820278	5.73405437452	35.9385468534	-56.7471383003	-86.1396186958	-27.2446303018	-56.872382151
180437500.0	-23.7993068341	117.582585107	5.71658700629	34.5574817304	-56.8615019971	-97.8697171634	-27.4211624273	-57.7767719603
181125000.0	-23.8544306564	113.398864768	5.70456187959	33.1753112668	-57.3116357428	-114.664863537	-27.6269649579	-58.6760587472
181812500.0	-23.8760426661	109.286314143	5.68914628023	31.8173004639	-57.1224865836	-138.164985122	-27.8108614049	-59.6589465327
182500000.0	-23.8874591967	105.061329444	5.67982111918	30.460670641	-57.371721035	-153.431274493	-28.0403588079	-60.6338858184
183187500.0	-23.8552254384	100.849940524	5.66666542669	29.1219670522	-56.9211028093	-170.713985539	-28.2210390811	-61.5180769096
183875000.0	-23.8099893133	96.7093400677	5.65748882993	27.7828939557	-57.4216239514	174.895134953	-28.4007319019	-62.5329681123
184562500.0	-23.7345676724	92.4903046886	5.64605852471	26.4575845042	-57.3566740651	160.166583641	-28.5474555829	-63.512527656
185250000.0	-23.6425621997	88.36976029	5.63967413128	25.1322184892	-57.0875648873	145.040511293	-28.6896262064	-64.6362466361
185937500.0	-23.5252610315	84.224697467	5.62858658458	23.8208722037	-57.2277099552	119.775338879	-28.8218913757	-65.5405780046
186625000.0	-23.395809725	80.2764826419	5.62575491117	22.5125439403	-57.0293662286	103.83850277	-28.9413651446	-66.5618942658
187312500.0	-23.2341409787	76.3105754025	5.61906516208	21.2204417834	-57.077012882	88.2421942171	-29.0604365315	-67.5337329297
188000000.0	-23.0590816219	72.4522873601	5.61689396104	19.9285075015	-57.3195451102	73.9603804266	-29.1487261846	-68.6318021338
188687500.0	-22.8767225705	68.569602022	5.61036216593	18.6548901249	-57.3707669226	64.2882783081	-29.2608489594	-69.5970301572
189375000.0	-22.6797507835	64.9184395742	5.60868573175	17.3663508672	-57.4738849467	62.030632662	-29.3312294513	-70.7136863133
190062500.0	-22.4576092875	61.3815176597	5.60499778014	16.0994009396	-57.5287275999	51.620603065	-29.4049832856	-71.5904107902
190750000.0	-22.2357340481	57.9787800678	5.60623138307	14.8357503982	-57.7005742309	49.7319105291	-29.4509893779	-72.721151851
191437500.0	-22.0079465232	54.7077910595	5.60312919354	13.5777630738	-57.9053800156	47.4962524441	-29.482161536	-73.7380847569
192125000.0	-21.7792391071	51.7470646337	5.604249141	12.3228650224	-58.1031710355	44.4692171921	-29.4995582388	-74.645435552
192812500.0	-21.5445844176	48.8264318912	5.6042961401	11.0836297338	-58.5627620383	38.8001801073	-29.5177057565	-75.6964654985
193500000.0	-21.3174150379	46.1381470602	5.60655561908	9.83341313488	-58.8389447527	38.0440515306	-29.5236215605	-76.6959775899
194187500.0	-21.097712821	43.5861736734	5.60643606807	8.59522229269	-58.9857663215	36.0591969775	-29.504848064	-77.3630556649
194875000.0	-20.8995862303	41.1561052265	5.61219498988	7.36195639474	-58.9821400824	37.1982805515	-29.4610477443	-78.20797537
195562500.0	-20.7005460115	38.8502682983	5.61524179461	6.13859522283	-59.0561259864	37.327329586	-29.4223870281	-79.0455301068
196250000.0	-20.5316503975	36.5909863868	5.62082761488	4.92029691007	-59.2559038104	30.094076984	-29.369679079	-79.7884258887
196937500.0	-20.3593258026	34.3646891603	5.62377904925	3.70817310943	-59.7566436849	30.7775286819	-29.3208668461	-80.4987171859
197625000.0	-20.2160931239	32.3233474532	5.63198592545	2.50765285128	-59.6371168372	19.9778058868	-29.2560223433	-80.97926412
198312500.0	-20.0811305054	30.2986563236	5.63702050382	1.31320907932	-59.3163169164	17.8815585934	-29.157702745	-81.5661819984
199000000.0	-19.9708683126	28.2931273222	5.64746260344	0.105315119494	-59.2929618743	19.7039258421	-29.054900578	-81.9903274556
199687500.0	-19.8574966416	26.3266665178	5.65441348659	-1.08615315838	-59.3426319887	20.6907786974	-28.900562561	-82.5888335066
200375000.0	-19.7734223525	24.3806169983	5.66473541191	-2.28286033396	-59.3544284694	17.1609959012	-28.7989048197	-83.1373389885
201062500.0	-19.696004011	22.4193175809	5.67363584772	-3.46482327514	-58.8973202768	16.7694583956	-28.6702516303	-83.7371568806
201750000.0	-19.6341996911	20.4939578001	5.68627354731	-4.65244662311	-59.0263469439	9.09481780753	-28.552999214	-84.0815956573
202437500.0	-19.584809617	18.5743933929	5.69612015752	-5.82665753237	-59.0672702845	8.61687154138	-28.4110096922	-84.4779383701
203125000.0	-19.546265259	16.6760410442	5.71127057026	-7.0093995947	-59.1679042593	9.38604560229	-28.2835452232	-84.7817438284
203812500.0	-19.5039180017	14.6717418536	5.72137731299	-8.18049892959	-59.0904710773	10.597593809	-28.1280917161	-85.1198540967
204500000.0	-19.4886072944	12.7104999959	5.73625939396	-9.36487055411	-59.8202106972	9.65810181507	-27.9752426019	-85.2724170754
205187500.0	-19.4771275669	10.7216566576	5.74802855019	-10.5266862379	-59.5715175971	8.27791942763	-27.8285494798	-85.4843235788
205875000.0	-19.4637635447	8.78410824167	5.76661694604	-11.7121268466	-59.9776074354	6.82173866246	-27.6615121893	-85.6305302937
