#Frequency	|S11|	<S11	|S21|	<S21	|S12|	<S12	|S22|	<S22
100000000.0	-17.3907755935	130.765275403	-14.834815885	-127.337482105	-58.0586645863	156.427029635	-19.7483601312	-67.1532709555
100687500.0	-17.2644435834	127.962527038	-14.4037638328	-128.518352064	-64.4877906848	-104.347056301	-19.836616819	-67.7285997249
101375000.0	-17.1892369762	125.035498139	-14.016551118	-129.906023879	-67.6996597057	-68.2109037119	-19.9118307355	-67.3653087266
102062500.0	-17.1262968703	122.151156937	-13.6695001498	-131.263913931	-64.8422199385	-77.9623504336	-20.0150751506	-67.3533316318
102750000.0	-17.0573072526	119.166842707	-13.3407662955	-132.650640393	-62.9725870587	-69.8382532769	-20.1256090846	-67.2657791982
103437500.0	-17.0123024464	116.246890546	-13.0364393195	-134.083835961	-62.0861613599	-76.0483193158	-20.2179350588	-67.1012833036
104125000.0	-16.9750937553	113.156186645	-12.7638911066	-135.549485874	-61.9926562976	-85.0426423095	-20.3326282666	-67.0631752871
104812500.0	-16.9416417779	110.044554669	-12.5142597713	-136.997829702	-62.4594927843	-111.819796083	-20.4428416633	-67.2008721441
105500000.0	-16.9228523755	106.823871187	-12.2909163123	-138.439653831	-62.0435533092	-135.987030322	-20.5434224441	-67.2676555445
106187500.0	-16.9103717666	103.449487609	-12.0999574249	-139.881009996	-61.9134360603	-148.107659313	-20.6552335008	-67.3615833504
106875000.0	-16.9024616888	99.9685566269	-11.9472244186	-141.246397371	-62.1734160303	-146.162771421	-20.7696421816	-67.5039626248
107562500.0	-16.9026140175	96.3670124794	-11.8352314524	-142.500439914	-61.8281799425	-152.806941057	-20.8871207472	-67.5833827723
108250000.0	-16.9061204661	92.6343681762	-11.7715800772	-143.594291863	-61.8646579554	-144.251098595	-20.9923657938	-67.7377635382
108937500.0	-16.892845444	89.069278746	-11.6366552243	-144.694409031	-62.5951894077	-145.20632277	-21.0986791051	-67.7527049452
109625000.0	-16.8876968462	85.458724717	-11.5381934183	-145.686418634	-61.9198976095	-146.58407345	-21.2068999596	-67.7580610854
110312500.0	-16.8772968835	81.7352725946	-11.4665821833	-146.481747928	-61.9685916666	-159.801129339	-21.3157221162	-67.7710006997
111000000.0	-16.8784264659	77.9112637091	-11.4255882908	-147.062225556	-61.8116184292	-176.1838083	-21.4261300335	-67.8115768682
111687500.0	-16.8740307491	73.9853679384	-11.4054768083	-147.29664227	-61.3633973647	159.097154038	-21.5338912049	-67.9449543302
112375000.0	-16.8857675471	69.9320162203	-11.3985616167	-147.159744992	-61.297505258	142.336608812	-21.6431495174	-67.9708947628
113062500.0	-16.8861197427	65.8101521234	-11.3856304326	-146.597340107	-61.1419202337	129.792575306	-21.7578676401	-67.9743334372
113750000.0	-16.9087651887	61.5729343789	-11.3486661957	-145.600110582	-61.5468793476	114.240461906	-21.8660913004	-67.9801449103
114437500.0	-16.9292209888	57.2418577573	-11.2698917672	-144.269151003	-61.6350348253	90.6262190773	-21.9791279733	-67.9631766031
115125000.0	-16.9581581816	52.7272441114	-11.1397714927	-142.676651912	-61.7334465513	73.7255873013	-22.0971893836	-67.9176132218
115812500.0	-16.9862435718	48.1572329536	-10.9562360453	-140.895548533	-62.0519256655	55.2246302353	-22.2114697461	-67.8101044119
116500000.0	-17.0334434673	43.4577710614	-10.7123581194	-139.01514978	-62.1467969873	29.9941783373	-22.3220341984	-67.6314189929
117187500.0	-17.086940776	38.6809313715	-10.4150798356	-137.087615079	-61.6923614013	15.986831666	-22.4280256301	-67.4185143912
117875000.0	-17.158935073	33.7497886439	-10.064789554	-135.188613172	-61.7553800077	14.833619992	-22.5485987857	-67.0120542748
118562500.0	-17.2489585641	28.6835022692	-9.66868730021	-133.34028915	-61.0934019072	3.52152614166	-22.6596271328	-66.5806015989
119250000.0	-17.3557650243	23.5135376838	-9.22411324158	-131.577143804	-61.2954683903	0.0420397579834	-22.7696766219	-66.02811669
119937500.0	-17.4978410968	18.2427760294	-8.73583250389	-129.9182177	-61.3502254907	-8.76887300265	-22.8658587952	-65.4184517673
120625000.0	-17.657947029	12.9310201983	-8.20522700005	-128.376501899	-61.2871357524	-10.7235457371	-22.9625856027	-64.7087583212
121312500.0	-17.8767673643	7.52612075328	-7.63573442454	-126.987382402	-61.1166789872	-22.7547031502	-23.0395683633	-63.9622571754
122000000.0	-18.1191430124	2.14171343307	-7.02782239211	-125.785467072	-60.8297128498	-38.2220554298	-23.1122812981	-63.0940913218
122687500.0	-18.4552753253	-3.32589476275	-6.3845701976	-124.759041644	-60.9427847291	-48.8746804509	-23.1707205864	-62.1970923687
123375000.0	-18.8308065246	-8.6098143077	-5.70962294638	-123.944180294	-61.0645003736	-53.7622239043	-23.2095149751	-61.1774325255
124062500.0	-19.3267704706	-13.7616576603	-5.0006461084	-123.330318913	-60.8016805354	-67.051252437	-23.2449397341	-60.1315627625
124750000.0	-19.9022938179	-18.2483929012	-4.26196668912	-122.951237517	-60.6679833972	-90.3735757326	-23.2638376868	-58.9659600072
125437500.0	-20.5374625434	-22.1131569091	-3.49446640904	-122.808851554	-60.3769679307	-106.209461654	-23.2805070834	-57.802803637
126125000.0	-21.1470592625	-24.6187556523	-2.69656772085	-122.95541411	-59.446638507	-120.659042288	-23.2860537208	-56.7041912383
126812500.0	-21.7157766852	-26.6343497062	-1.86751495103	-123.388321757	-59.3831453523	-133.362488158	-23.2759361135	-55.4694777505
127500000.0	-22.1725698171	-28.0018092711	-1.01211402539	-124.19331947	-59.1288863713	-141.195564039	-23.2424302438	-54.3178668141
128187500.0	-22.6022626914	-29.3315596288	-0.134793804857	-125.373367744	-58.4526477644	-141.634297574	-23.2096233058	-53.1199676926
128875000.0	-22.965659969	-30.4710075724	0.761953269142	-127.048994017	-58.1662439551	-138.970764285	-23.1660184754	-51.8999026289
129562500.0	-23.2805408277	-31.6462214705	1.66560529168	-129.254877751	-58.0968643904	-140.886263683	-23.1103819298	-50.7396822475
130250000.0	-23.5741389378	-32.7322938741	2.55483437429	-132.033503417	-58.3283599715	-143.141509591	-23.0487857525	-49.6535272329
130937500.0	-23.8285320003	-33.8557277081	3.4119394353	-135.374201368	-57.9210382347	-140.36726688	-22.9798238895	-48.5422689029
131625000.0	-24.0574615753	-34.8792706362	4.21883316956	-139.179858423	-57.7332152395	-138.089312948	-22.8960810037	-47.4862472543
132312500.0	-24.2682165073	-35.9430410479	4.96758151398	-143.356947929	-57.4139273278	-135.76460541	-22.8129792284	-46.4334730084
133000000.0	-24.4619397388	-36.9789780882	5.65429032228	-147.834303934	-57.215798068	-134.299510493	-22.7189790734	-45.5522980118
133687500.0	-24.6276114619	-38.0253867419	6.27372279201	-152.517226127	-57.2535772557	-127.199753091	-22.629387626	-44.6784388865
134375000.0	-24.7907576911	-39.0741701645	6.83269970038	-157.351872083	-57.3925664574	-126.083348953	-22.5320910389	-43.9333638747
135062500.0	-24.9211133596	-40.1734833511	7.33352473372	-162.248867661	-57.1542828252	-133.178307814	-22.4170812077	-43.2981094471
135750000.0	-25.0320086632	-41.2011978189	7.77619803657	-167.195546463	-56.9395165609	-134.752247834	-22.3078255004	-42.7557239899
136437500.0	-25.1154165366	-42.1872491677	8.16659536441	-172.135736971	-56.7451999741	-141.661283569	-22.1995585017	-42.3400548304
137125000.0	-25.1790267012	-43.1690950032	8.50638756359	-177.068607735	-56.3872753097	-143.10955239	-22.1052208897	-42.0262160639
137812500.0	-25.1976677457	-44.1167743928	8.80173541994	178.060941863	-56.3264507379	-151.717743674	-22.0082963736	-41.8174552128
138500000.0	-25.1774211074	-45.0920255951	9.05342042856	173.244336046	-56.2130778838	-153.593821513	-21.9154224914	-41.6862999932
139187500.0	-25.1149896274	-46.1117460772	9.26734619162	168.542754691	-56.5982848111	-159.634206131	-21.8344606374	-41.6877475531
139875000.0	-24.9704515409	-47.1426935248	9.44447254654	163.9279254	-55.7354754848	-162.707079636	-21.761655075	-41.6784446605
140562500.0	-24.7801869405	-48.3424362567	9.59203713375	159.438172929	-55.9496879795	-170.263858539	-21.7118874745	-41.8725761856
141250000.0	-24.4728462617	-49.7336559253	9.70883427884	155.054481411	-55.8109662606	-173.844676462	-21.6515142921	-42.0637775898
141937500.0	-24.0863311138	-51.7585452552	9.80214051243	150.816229853	-56.2945082415	-172.635891395	-21.6081800935	-42.365454397
142625000.0	-23.639350506	-54.4459777437	9.87371922085	146.690127953	-56.2799376691	-177.941649072	-21.5695908366	-42.6615520447
143312500.0	-23.2105282531	-58.4211467112	9.92467319389	142.699173707	-56.6352386267	-178.494224763	-21.5346182915	-43.0161942126
144000000.0	-22.821533585	-62.991605034	9.95902362946	138.82847652	-56.6492020898	175.260587685	-21.5210956689	-43.4294615809
144687500.0	-22.560893889	-68.1843112441	9.97939776473	135.111676135	-56.7562709158	172.423631243	-21.5247647935	-43.883988287
145375000.0	-22.3083493246	-73.3346449932	9.98741243914	131.498916709	-57.2249568381	163.35126219	-21.5183322398	-44.3142274588
146062500.0	-22.1375283775	-78.6334931794	9.98455475369	128.016970358	-57.250607607	159.911977314	-21.5352930654	-44.7730411861
146750000.0	-21.9956090162	-83.8280063785	9.97264009228	124.62847481	-57.3402441937	162.555705459	-21.5593266225	-45.1564447907
147437500.0	-21.8973836952	-89.141158711	9.95244278145	121.369617111	-56.989452729	159.993794337	-21.5784641563	-45.6405507725
148125000.0	-21.8201523141	-94.2710627111	9.92841701344	118.20825472	-57.080685923	152.335454998	-21.6134586687	-46.0473840069
148812500.0	-21.7831437265	-99.5485433282	9.89765171805	115.140096152	-57.0519210345	150.609069656	-21.6569955565	-46.4963376422
149500000.0	-21.7437273066	-104.612736523	9.86324242772	112.164669259	-57.225994226	145.372003999	-21.7080813063	-46.8811698402
150187500.0	-21.7305348266	-109.74095038	9.82333386995	109.28148035	-56.8213112894	142.964633857	-21.7561949631	-47.2713273686
150875000.0	-21.7258316356	-114.680762058	9.78400862605	106.484022441	-56.7065971287	137.033537849	-21.8115842302	-47.5844157967
151562500.0	-21.7257842518	-119.651910724	9.74142139749	103.776108963	-56.7044496029	134.659593122	-21.8681984359	-47.8946007846
152250000.0	-21.7408390251	-124.35540525	9.69759312279	101.137526376	-56.845849611	131.272253238	-21.9372599796	-48.1088488248
152937500.0	-21.7625833953	-129.001763537	9.65070050876	98.5734828389	-56.8460295858	127.685732676	-22.0079405787	-48.3743704015
153625000.0	-21.7862994034	-133.61488617	9.60566398661	96.0705442902	-56.7233857852	126.36857443	-22.0858238868	-48.6071001306
154312500.0	-21.7959139053	-138.10587213	9.55904456703	93.6474829003	-56.7778547865	123.160815583	-22.1506579014	-48.8117991974
155000000.0	-21.8293869591	-142.571387787	9.51004675216	91.2624576362	-57.3164854726	120.782963368	-22.2194652828	-49.0068287281
155687500.0	-21.8475718198	-146.889505968	9.46387370411	88.9589002207	-57.4659035417	117.827696433	-22.3014184985	-49.1142351898
156375000.0	-21.8929775457	-151.160256755	9.41697288738	86.6864472693	-57.408336172	116.598638981	-22.3708617877	-49.1753625752
157062500.0	-21.9129217161	-155.317581899	9.3702693294	84.4801307323	-57.5308205556	117.082782261	-22.4467499575	-49.2378303705
157750000.0	-21.9555285493	-159.424424511	9.32252458379	82.3047114522	-57.2715263941	116.560520567	-22.5171871972	-49.2362742404
158437500.0	-21.9794778146	-163.376213272	9.27668728313	80.1918552368	-57.3899303476	112.124933427	-22.6028096628	-49.2051251298
159125000.0	-22.005359538	-167.349606375	9.23082839599	78.1116863935	-56.9107613629	110.197922032	-22.6908400449	-49.214231493
159812500.0	-22.0307142529	-171.168226939	9.18556748817	76.0850920549	-57.3432565349	106.919219814	-22.789351864	-49.1400539614
160500000.0	-22.0777381479	-174.96526062	9.1408491913	74.0920114782	-56.9830769802	105.413496638	-22.8897377516	-49.1481142083
161187500.0	-22.1178292047	-178.596933292	9.09724822666	72.1352648673	-56.9167002108	104.589558858	-22.9917139176	-49.1234656383
161875000.0	-22.1535598404	177.8549796	9.05373090558	70.1985108478	-56.7577756	104.475298439	-23.0970601967	-49.1566061262
162562500.0	-22.2139284536	174.341692651	9.01078961075	68.3146953313	-56.7125852069	106.363782796	-23.2116627176	-49.1764359373
163250000.0	-22.2479310278	170.885731245	8.96910714372	66.4463334384	-56.7666692591	104.388989707	-23.3241079502	-49.1712010809
163937500.0	-22.3167365023	167.503113148	8.9279939487	64.6341332699	-56.6612109835	95.1393704116	-23.4229844296	-49.1627417997
164625000.0	-22.3576052297	164.213020195	8.88869413753	62.8337164431	-56.7355555294	94.2194858441	-23.543469036	-49.208687888
165312500.0	-22.4280297459	160.934130596	8.84828259325	61.0738810484	-56.575632824	92.3696658122	-23.6541526276	-49.2339223151
166000000.0	-22.4778353563	157.79810336	8.81092164942	59.3315277233	-56.5217107728	89.4218315657	-23.7560458996	-49.3501143221
166687500.0	-22.5662053106	154.63863008	8.77336729563	57.6266814254	-56.3399057775	87.0473348702	-23.8743036625	-49.4303737532
167375000.0	-22.6328873018	151.694322415	8.73824382831	55.9433751349	-56.5019279044	87.5242794317	-23.9952620596	-49.6660902761
168062500.0	-22.7242692956	148.607914881	8.70315094294	54.2939263619	-56.4795343828	87.9584081665	-24.0995364299	-49.8772147753
168750000.0	-22.8041770902	145.765762855	8.66872631902	52.6532046908	-56.278566234	87.9037997547	-24.2210643368	-50.1864277388
169437500.0	-22.8953089264	142.688054421	8.63443790542	51.0538139309	-56.270316915	87.8308549093	-24.3450532311	-50.5747284164
170125000.0	-22.9758639307	139.751276887	8.60487902087	49.4605317412	-56.4539022312	86.6071103372	-24.4551101305	-50.9507855893
170812500.0	-23.0730777537	136.690857568	8.57448545085	47.8955968192	-56.3360346891	85.5383829505	-24.5796207175	-51.3551669103
171500000.0	-23.1788843814	133.712473809	8.54557245499	46.3481413234	-56.2472989933	84.8069396196	-24.6997294745	-51.8150871797
172187500.0	-23.2926621939	130.630626143	8.52074610748	44.8374470076	-55.6126185881	85.4494167208	-24.8178250054	-52.3716886906
172875000.0	-23.4102410018	127.521960835	8.49445128754	43.3255422539	-55.7671155584	84.0967539097	-24.9247304199	-52.8940448425
173562500.0	-23.50672353	124.352220947	8.46987745666	41.8466936691	-55.3263109185	82.4744019052	-25.0355850113	-53.5183332448
174250000.0	-23.6275700438	121.251338249	8.4482420203	40.376138181	-55.7037081154	74.3650867959	-25.1404718725	-54.1425540036
174937500.0	-23.7099728801	117.990837104	8.42856445282	38.934603828	-55.7617757774	73.943057163	-25.2404620841	-54.8522850875
175625000.0	-23.8115163014	114.669303534	8.41001628497	37.4911939644	-56.2981871902	73.4564889289	-25.3347138329	-55.5089282733
176312500.0	-23.9003650504	111.3674911	8.39243822586	36.0784345993	-56.2021408319	73.9051296274	-25.4295751563	-56.2926131387
177000000.0	-23.9950122969	107.899701329	8.37685563904	34.6556959248	-56.1821378482	73.8570859895	-25.5048333442	-57.0643178716
177687500.0	-24.0461658612	104.469614276	8.36305163658	33.2613773462	-56.1866566889	75.7183958928	-25.586062352	-57.8688452672
178375000.0	-24.1196970545	101.003584796	8.35061355886	31.8665940647	-56.4026094763	73.9049956635	-25.6571160408	-58.5622201914
179062500.0	-24.1748403621	97.6039750054	8.33978586288	30.4881913252	-56.3477837152	71.8992909117	-25.710399849	-59.4042683397
179750000.0	-24.216550068	94.0089509564	8.33117768429	29.1118611499	-56.5137602378	71.8078773543	-25.7693223237	-60.0932318035
180437500.0	-24.2548606206	90.4541303091	8.32325919405	27.7428893345	-56.4305143701	74.3485340646	-25.8139462524	-60.830974964
181125000.0	-24.2653898127	86.75919354	8.31631041618	26.3750622695	-56.9839226325	74.1423060674	-25.8667744526	-61.508972394
181812500.0	-24.274596639	83.2666434871	8.3099281401	25.0304290601	-56.8957459235	68.5782103949	-25.9086938348	-62.1386385595
182500000.0	-24.2655262694	79.5562510536	8.30648441401	23.6837247413	-56.8175719527	58.5096959439	-25.9619481908	-62.7329918845
183187500.0	-24.2446836304	75.9895917263	8.30180074965	22.3535078875	-56.9917788287	41.349350258	-26.0073023026	-63.2159882046
183875000.0	-24.1949680572	72.4580026073	8.29999944827	21.0082133804	-57.0132412465	24.6542827355	-26.0192649514	-63.754341208
184562500.0	-24.1571710936	68.8223045274	8.29762302996	19.681569805	-57.0120133745	4.3018883792	-26.02993063	-64.1306448245
185250000.0	-24.0897696466	65.2802464377	8.29652010284	18.3532141354	-56.9617102674	-11.3175461613	-26.0480272317	-64.4756845168
185937500.0	-24.0313774431	61.6908430936	8.29566229358	17.0454570139	-57.8324538755	-31.8541039907	-26.0586201311	-64.6601340154
186625000.0	-23.9549476325	58.2755954486	8.2982055239	15.7172046001	-57.7935651928	-47.1583427139	-26.0631677437	-64.8906219077
187312500.0	-23.8828866766	54.7224809621	8.29969831407	14.4106145187	-57.8620526378	-64.3917676647	-26.0724306488	-64.8688314679
188000000.0	-23.7872364209	51.4005593611	8.30230542559	13.0982818953	-57.8965573983	-77.5190204331	-26.0460012325	-64.8834170708
188687500.0	-23.7035611707	47.9479358245	8.30520429266	11.8007200954	-58.4754178675	-95.4811631183	-26.0465656906	-64.7224221598
189375000.0	-23.5940102096	44.7014273904	8.30766759874	10.4971737428	-58.3767349278	-110.972092797	-26.0405700075	-64.4640878508
190062500.0	-23.4980308047	41.4132152297	8.31270893748	9.20832914932	-58.4313196719	-128.457438793	-26.0381622479	-64.2073927406
190750000.0	-23.3960876858	38.3310945292	8.31853340064	7.91492588739	-58.5604064494	-139.720761883	-26.0469667022	-63.8917868928
191437500.0	-23.3058916842	35.1419517357	8.32286073357	6.64018954474	-58.3908805622	-155.036999008	-26.0439067413	-63.4744686111
192125000.0	-23.2153821841	32.1776961395	8.32767809565	5.35820968232	-58.2285700211	-168.49165834	-26.0367188377	-63.0678994917
192812500.0	-23.1300396894	29.110589974	8.33446933597	4.09467974311	-57.6360615729	176.2278206	-26.034797911	-62.665208769
193500000.0	-23.0575846871	26.1879926018	8.34071863756	2.81114745683	-57.478074319	159.885605622	-26.0379775833	-62.1447622531
194187500.0	-22.9779184519	23.2961840812	8.34681708161	1.55846890059	-57.1830046751	145.118110901	-26.0472301578	-61.5133829119
194875000.0	-22.9339638071	20.4311091336	8.3558887434	0.295843986422	-57.2495936126	130.627500669	-26.0541559138	-60.807956682
195562500.0	-22.8629171989	17.4883481953	8.3649305825	-0.953467206717	-57.0005309222	125.571792765	-26.0620190101	-60.1935778075
196250000.0	-22.8080609869	14.4756489896	8.37341455494	-2.20155054285	-57.0519617282	120.280064667	-26.0838835297	-59.4414615379
196937500.0	-22.7523483456	11.6091517269	8.38269090657	-3.4443231443	-56.5549962134	118.588337795	-26.1075173388	-58.5523680944
197625000.0	-22.7253227683	8.71850168732	8.39332980465	-4.67844944734	-56.5524761783	109.083836889	-26.1321350547	-57.7711877779
198312500.0	-22.6879468273	5.84745138964	8.40487864993	-5.89454518435	-56.1180404593	107.565022787	-26.1396079949	-57.0190599112
199000000.0	-22.6769473953	2.81606581806	8.41887738244	-7.13229977232	-56.6938342953	109.397335774	-26.1489344023	-56.2634045824
199687500.0	-22.6439591046	-0.00477090351453	8.43017280516	-8.35977447362	-56.8755680732	117.77230096	-26.1550509288	-55.5261778796
200375000.0	-22.6350654135	-3.01115633653	8.44496223078	-9.59289524748	-57.1749087981	128.860118111	-26.1923144816	-54.8316655936
201062500.0	-22.6199080592	-6.04686467032	8.45827230108	-10.7994763048	-57.4054457862	145.719432787	-26.22538756	-54.2200030421
201750000.0	-22.608218388	-9.13753581991	8.4735628216	-12.019681771	-57.3964296125	161.71278936	-26.2747051556	-53.4613555482
202437500.0	-22.5849443492	-12.1454531807	8.48883757811	-13.2269434547	-57.3825668347	174.771279922	-26.3153817227	-52.9299068314
203125000.0	-22.5725389398	-15.2812084238	8.50599300705	-14.4474817148	-56.6741123131	-170.278671832	-26.3592477958	-52.2410729014
203812500.0	-22.5393499797	-18.345008079	8.52270666833	-15.6537149076	-56.8321060575	-156.216166396	-26.4007490618	-51.6157577283
204500000.0	-22.5189086361	-21.4582849731	8.54015815858	-16.8688069756	-57.3132268344	-141.997167844	-26.4561826663	-51.0470964298
205187500.0	-22.5036866822	-24.5764294139	8.55833336639	-18.0614940865	-57.3344197738	-128.979032402	-26.5227094886	-50.5019533173
