#Frequency	|S11|	<S11	|S21|	<S21	|S12|	<S12	|S22|	<S22
100000000.0	-17.2667454898	132.392963611	-17.0923572394	-129.479790142	-58.1738851751	-138.590121311	-21.3956270824	-65.9601223804
100687500.0	-17.2677591134	129.315312663	-16.7443078079	-131.044290954	-59.7414316118	53.1923124502	-21.3384652388	-66.4465107546
101375000.0	-17.2388547454	126.232242028	-16.3466060418	-132.148803143	-61.5101998489	-46.9402002229	-21.3499012744	-66.2477612754
102062500.0	-17.2219074372	123.068506588	-15.9891346369	-133.548952866	-59.8433604738	-41.4362245594	-21.3919180618	-66.1749442543
102750000.0	-17.210561435	119.908883575	-15.6586065632	-134.991923098	-60.7213844728	-37.1496331386	-21.4357022317	-66.1789625426
103437500.0	-17.2034378309	116.77757732	-15.3455924803	-136.448132802	-59.8177331601	-49.2517424473	-21.4938591939	-66.0133033876
104125000.0	-17.2069090559	113.438500593	-15.0599866738	-137.973138159	-60.3365414986	-26.5012235593	-21.5867008744	-65.9013196565
104812500.0	-17.2142884272	110.058008816	-14.7992683791	-139.452667006	-59.8913767482	-7.83966558266	-21.6492783236	-65.9574568051
105500000.0	-17.2216993656	106.554874325	-14.560926975	-140.951729587	-60.5015194607	22.9532850643	-21.705989403	-66.0320728287
106187500.0	-17.2398752442	102.958094892	-14.3571494179	-142.417382723	-60.8122400797	27.9753224662	-21.7861932757	-66.1703306314
106875000.0	-17.2682359828	99.2160041584	-14.1937678654	-143.805400286	-60.6028828264	14.0243702864	-21.8556801583	-66.3490893407
107562500.0	-17.3129457504	95.3274964642	-14.0678212782	-145.112408327	-61.1907716371	3.36964668878	-21.9317594121	-66.4290168399
108250000.0	-17.3502648555	91.2328936096	-13.9887134142	-146.251736123	-61.2435838247	-1.14777999707	-22.0011145478	-66.5967859014
108937500.0	-17.3761677404	87.3683761346	-13.8446021513	-147.426678449	-61.1449152622	-13.680587812	-22.0727451992	-66.6016927853
109625000.0	-17.4037118986	83.4317540474	-13.7258365081	-148.433266713	-61.1234474767	-13.4079306272	-22.1423561401	-66.6312430145
110312500.0	-17.4268752555	79.3735396331	-13.6407544194	-149.296025355	-61.543362071	-1.95775737446	-22.2219296315	-66.6806950942
111000000.0	-17.460983001	75.1829741045	-13.5845590726	-149.934429862	-61.222833335	17.1536670355	-22.3019011258	-66.732446312
111687500.0	-17.4901666643	70.8737056212	-13.5528787915	-150.284564847	-60.9959884541	32.5102319913	-22.3751827075	-66.7941584907
112375000.0	-17.5286952943	66.4513150408	-13.5350178982	-150.229019732	-61.1896889161	36.5383461249	-22.4450497636	-66.8388693304
113062500.0	-17.5634903681	61.9210680097	-13.5134221749	-149.765595556	-61.1969538973	49.3530330158	-22.5270651667	-66.842318995
113750000.0	-17.6097228579	57.2746755538	-13.467348204	-148.873077237	-60.9146423322	48.3750018133	-22.6041098494	-66.8429437882
114437500.0	-17.6523903408	52.4676057247	-13.3802779283	-147.604831551	-60.8326900952	48.3102830227	-22.6907571191	-66.8500720463
115125000.0	-17.7077213783	47.4801535009	-13.2407778732	-146.081307828	-60.9898255283	44.6593904489	-22.7847543432	-66.8478738569
115812500.0	-17.7466854941	42.390417604	-13.049145643	-144.350024166	-60.9767536946	41.8461292656	-22.8695229258	-66.8004369713
116500000.0	-17.8083859496	37.130541156	-12.7962868952	-142.512614184	-61.0823265497	36.0352206556	-22.9435879695	-66.6789576189
117187500.0	-17.8628488419	31.8089425164	-12.4905987711	-140.626722048	-60.9591944072	24.6349578255	-23.0149064785	-66.5664167794
117875000.0	-17.9387674028	26.235421351	-12.1289067149	-138.775491992	-60.982331466	10.8529233497	-23.1121182061	-66.3217048766
118562500.0	-18.0215783155	20.6173380029	-11.7197854081	-136.962158164	-60.9773561288	-7.230941281	-23.1930093584	-66.0068450151
119250000.0	-18.1287542908	14.7737648236	-11.2616633096	-135.221896878	-60.3907509098	-36.3089354529	-23.2799309952	-65.5492706305
119937500.0	-18.2497986185	8.86819989729	-10.762178434	-133.624007166	-60.2476183725	-75.5591873764	-23.3549582982	-65.1495045224
120625000.0	-18.3932946606	2.72094970324	-10.2165231613	-132.151649867	-59.7795102953	-102.006318499	-23.4315521597	-64.6983133626
121312500.0	-18.58483718	-3.4458927259	-9.63257411904	-130.845495185	-59.7791527543	-116.539315864	-23.4898258326	-64.0869674982
122000000.0	-18.7952459668	-9.74674317354	-9.0095050793	-129.726656985	-59.8828469662	-128.259138763	-23.5625049332	-63.4370885176
122687500.0	-19.0782620681	-16.042143195	-8.35041865773	-128.814631527	-60.3087738552	-144.953394239	-23.6175461645	-62.8141157929
123375000.0	-19.3911854644	-22.3988286341	-7.65988539222	-128.097713558	-60.0212893869	-156.632085971	-23.658245152	-62.0399826994
124062500.0	-19.7967427961	-28.6544610333	-6.93853836138	-127.596655495	-59.5020283948	-171.497390403	-23.7043560472	-61.2508592388
124750000.0	-20.2823646294	-34.5037373997	-6.19132005723	-127.345490665	-59.455800771	174.460040691	-23.737054826	-60.4004686223
125437500.0	-20.8377372153	-39.9374422661	-5.41218482476	-127.353146641	-59.3193784964	150.087448474	-23.7691055762	-59.4390173215
126125000.0	-21.441892348	-44.3554671027	-4.60449493036	-127.622712024	-59.2227099362	134.609144066	-23.7965858071	-58.6077045143
126812500.0	-22.0367919362	-48.0558666875	-3.77021979145	-128.21198272	-59.2917503902	111.784121339	-23.8122994733	-57.6543447915
127500000.0	-22.5457649156	-50.8546912525	-2.91165999739	-129.162882332	-58.5072087331	85.9068850699	-23.8036907841	-56.7828432012
128187500.0	-23.0024331733	-53.4520349324	-2.02937743574	-130.536769528	-58.750054035	56.8509160364	-23.805991518	-55.8692463417
128875000.0	-23.38562199	-55.7839120805	-1.13211867577	-132.341250161	-58.6724295794	27.6594258172	-23.7984671361	-54.9321280358
129562500.0	-23.7133011166	-58.0393477046	-0.225064880102	-134.697505169	-58.252103437	0.124896006972	-23.7834284743	-54.01720284
130250000.0	-23.9928870278	-60.2621106653	0.667043139883	-137.603083558	-58.2297687468	-27.1986248476	-23.7669798024	-53.2126126202
130937500.0	-24.2364216305	-62.4445138119	1.52695222503	-141.091880731	-58.0537840597	-50.2493125118	-23.7459092119	-52.3503308141
131625000.0	-24.4529539489	-64.5004904569	2.33620046589	-145.056457976	-58.3110618612	-65.832572827	-23.7113086882	-51.5677646625
132312500.0	-24.636384011	-66.5115965468	3.0849389094	-149.421659372	-58.0650515334	-76.7020798557	-23.6750274045	-50.7545053085
133000000.0	-24.8074225219	-68.4504651027	3.76797930062	-154.078245219	-58.2882208571	-94.7111006122	-23.6323721049	-50.1048242206
133687500.0	-24.9426389784	-70.3318593452	4.38335905908	-158.965357597	-57.8718794855	-112.242287619	-23.5964369996	-49.5030832127
134375000.0	-25.0710510738	-72.1657431692	4.93480175036	-163.974348291	-57.7390194001	-130.726101955	-23.5514420564	-48.9801248165
135062500.0	-25.1506380271	-73.947028651	5.42472262032	-169.075608998	-57.5675955611	-144.803934811	-23.5044599445	-48.4844805555
135750000.0	-25.222593126	-75.6135582431	5.85556713305	-174.190240641	-57.4342138288	-157.367077237	-23.4481399427	-48.1137432359
136437500.0	-25.2584217823	-77.1936830897	6.23150043581	-179.328491908	-57.4863325339	-157.608319783	-23.4051658672	-47.9328361549
137125000.0	-25.2767751654	-78.7526799159	6.55575015212	175.589006397	-57.5961124246	-154.088410167	-23.3623306051	-47.7847499296
137812500.0	-25.251992803	-80.0786407468	6.83176203603	170.552138974	-57.4992151091	-156.49859054	-23.3132900047	-47.5834793014
138500000.0	-25.1905720945	-81.3852197802	7.06538945424	165.616412187	-57.3736697345	-166.825941218	-23.2681971125	-47.6048596806
139187500.0	-25.0844980246	-82.5459818899	7.25824605752	160.771131439	-57.2272563652	-168.131411451	-23.2314573836	-47.6276594539
139875000.0	-24.9176393264	-83.7764691203	7.4149010892	156.061500778	-56.5752583705	-173.68703143	-23.1989040959	-47.6724985884
140562500.0	-24.699304741	-84.9131019639	7.53907005897	151.457273707	-56.605515561	-176.0062269	-23.1769020752	-47.9088141837
141250000.0	-24.3970945715	-86.1179512997	7.63504744124	147.012426837	-57.3296787163	174.752344289	-23.1533894538	-48.171695926
141937500.0	-24.0108958676	-87.64812923	7.70663921668	142.710123011	-57.55655482	172.596303846	-23.1324592908	-48.5262546335
142625000.0	-23.556119297	-89.6144255859	7.75773175679	138.551762453	-57.2154056227	171.426843936	-23.1119655282	-48.9051885784
143312500.0	-23.0434411516	-92.4898729066	7.78746564187	134.528295636	-57.627463851	168.841987601	-23.0793587013	-49.2862293453
144000000.0	-22.5384472578	-96.100866273	7.80283493937	130.644471298	-57.3645708982	165.363252401	-23.074414256	-49.758770453
144687500.0	-22.126279036	-100.451448848	7.80411474598	126.905712522	-58.074657453	162.293277123	-23.0732398507	-50.240273325
145375000.0	-21.7614168743	-104.948550372	7.79563101546	123.311592135	-57.7328916938	158.920540681	-23.0704165579	-50.7720573408
146062500.0	-21.4813024737	-109.616326148	7.77690989389	119.83170393	-57.7375797707	150.745325297	-23.0771552586	-51.2897284173
146750000.0	-21.2424757053	-114.266865181	7.750939638	116.467765368	-57.8582136008	148.139331762	-23.1030659845	-51.8176239608
147437500.0	-21.0649493862	-118.849002396	7.71707081739	113.227561345	-58.0661013422	139.999452153	-23.1132434798	-52.2704430969
148125000.0	-20.9147573758	-123.430537389	7.68137971443	110.098400964	-58.0949433919	138.388453863	-23.1278190273	-52.7597477222
148812500.0	-20.8053589838	-128.015698484	7.63916490407	107.062075244	-57.7907751652	132.86014704	-23.1317954713	-53.1850273845
149500000.0	-20.713880844	-132.451257302	7.59508130981	104.126539878	-57.9777488419	130.415918415	-23.1531637299	-53.6363946321
150187500.0	-20.653651777	-136.905918363	7.54836678585	101.279336214	-57.6987929296	126.001081184	-23.1657482691	-53.9392057812
150875000.0	-20.615835036	-141.190011295	7.50172547131	98.5382011025	-58.0226813756	126.191353434	-23.1886223975	-54.1796186882
151562500.0	-20.5845362044	-145.56498656	7.45320958734	95.8563123399	-58.0159740143	124.376813415	-23.2015640193	-54.4371619562
152250000.0	-20.5877341506	-149.720895409	7.40378919913	93.2519769772	-58.3748357211	124.562899214	-23.2178131712	-54.685994541
152937500.0	-20.5972051299	-153.911246524	7.35186722316	90.7163419254	-58.377519068	126.481936251	-23.2426265792	-54.8917750536
153625000.0	-20.6262109406	-157.981529911	7.30334600172	88.2642816318	-58.6759960961	127.560685953	-23.271478605	-54.9489620835
154312500.0	-20.6494894654	-161.971537452	7.25344992943	85.858989548	-58.4385527586	125.179911603	-23.2779949862	-55.0886806884
155000000.0	-20.6980380442	-165.959740343	7.20399869989	83.5206205046	-58.7366450869	120.646803894	-23.3042559882	-55.1629966745
155687500.0	-20.7335977318	-169.931160931	7.15477767095	81.2206723597	-58.725875219	120.853303775	-23.3380555604	-55.2085411463
156375000.0	-20.8011474329	-173.884638926	7.10596396845	78.9889261356	-59.0178159039	115.240800337	-23.3581307124	-55.2281391597
157062500.0	-20.8475232046	-177.718626773	7.05761498217	76.79840376	-59.0903488718	113.703383112	-23.3834764733	-55.137399299
157750000.0	-20.9174597841	178.445884294	7.01073934093	74.661932488	-59.3924316555	107.031798931	-23.4101973868	-55.0133839833
158437500.0	-20.9725948897	174.696791384	6.96390339773	72.5481912647	-58.4996525567	106.844492129	-23.4351023461	-54.909778425
159125000.0	-21.0415592563	170.921170965	6.91880757035	70.4965838199	-58.3573732674	101.1061567	-23.477895225	-54.7034944451
159812500.0	-21.1022516837	167.291043808	6.8740750179	68.46880872	-58.3303455469	100.652822239	-23.5221389763	-54.5481569004
160500000.0	-21.1796216456	163.628940818	6.83185803028	66.4991720881	-58.1205799087	94.7858985578	-23.5755269793	-54.3964395619
161187500.0	-21.2528280064	160.101505933	6.78961577676	64.5507171833	-58.1314041105	94.6044370804	-23.6199137899	-54.1706522662
161875000.0	-21.3324827305	156.498855888	6.74964505327	62.6446282934	-57.7234792747	89.1652784038	-23.6787542931	-53.9883021066
162562500.0	-21.4095234148	152.989019738	6.70878318301	60.7554157631	-58.0330081509	87.6485719097	-23.729529064	-53.7636644513
163250000.0	-21.47371972	149.491791467	6.66931281268	58.9063963437	-58.0518504213	87.6994209859	-23.7960435124	-53.5165854967
163937500.0	-21.5532830822	146.110484754	6.62958118128	57.0859864314	-58.5995868414	87.5579519807	-23.8507542636	-53.2329648787
164625000.0	-21.6267774429	142.711338031	6.59365607862	55.3019619583	-58.4205421878	87.9070851911	-23.9159211718	-53.0544136952
165312500.0	-21.7092931305	139.371291662	6.55555284526	53.5405833653	-58.5993155825	78.6757114747	-23.9878993797	-52.8176908708
166000000.0	-21.7791315807	136.081531343	6.52205646094	51.8162018362	-58.462623844	76.8805752999	-24.0676520275	-52.5839290582
166687500.0	-21.8646505469	132.740665115	6.4874494933	50.1109068641	-58.5942547477	79.4198984505	-24.1569563225	-52.3852664284
167375000.0	-21.9503331577	129.492647987	6.45387130572	48.4338850977	-58.9547773087	78.9819036744	-24.2478609035	-52.4447547286
168062500.0	-22.0288716785	126.234450966	6.42142359471	46.7682714433	-59.348985646	73.7768297478	-24.3326485903	-52.3646502428
168750000.0	-22.1055266172	123.076676162	6.39147181598	45.15357006	-59.24227263	70.2267918689	-24.4325614225	-52.3800529585
169437500.0	-22.1892413396	119.850831926	6.36135644041	43.5484637796	-58.8797372502	68.1975448685	-24.5306671504	-52.3452167278
170125000.0	-22.2678165104	116.771859191	6.33704270704	41.9555145111	-58.7311886346	66.3531422839	-24.6254123039	-52.3612982962
170812500.0	-22.3495595606	113.621853874	6.30976217617	40.3815037352	-58.6609060889	64.7091202347	-24.7236197381	-52.3679176843
171500000.0	-22.4295491604	110.483455223	6.28577818364	38.8375082121	-58.5878827869	64.1792349344	-24.8307131576	-52.4221830474
172187500.0	-22.5087638533	107.257609179	6.26423986754	37.3147632933	-58.4047405415	63.6086189073	-24.9364434157	-52.5708149203
172875000.0	-22.5963472388	104.13171545	6.24334659492	35.8177253853	-58.4082508782	60.3613894683	-25.0292293264	-52.7216358552
173562500.0	-22.6627600277	100.911455072	6.22399380633	34.3289327166	-58.3863276562	61.179224476	-25.1370582855	-52.9024913414
174250000.0	-22.7540072711	97.8400584909	6.20854030902	32.859435164	-58.3322632708	61.9617142055	-25.239823858	-53.1749391637
174937500.0	-22.8233096885	94.6190059945	6.19392243556	31.3924793883	-57.9453539062	59.2890632143	-25.3353237295	-53.4777483339
175625000.0	-22.894443985	91.3897408797	6.18183707021	29.9462089529	-57.9847240039	59.6181073581	-25.4464150408	-53.7133392402
176312500.0	-22.9607743953	88.0688564322	6.1711617485	28.5117489258	-58.1083770618	58.4916532279	-25.5431303604	-54.0903453399
177000000.0	-23.0224593446	84.831175595	6.16145950144	27.0959329215	-58.1796137619	58.6571668917	-25.6577681752	-54.5134007402
177687500.0	-23.0584683259	81.501128459	6.15198242843	25.6804484668	-58.1683965312	58.1229982492	-25.7528720684	-54.9348089867
178375000.0	-23.1111032951	78.1957975563	6.14660676843	24.2783014904	-58.2646047535	55.8277814107	-25.8517791	-55.2593032862
179062500.0	-23.1473909023	74.9154647337	6.14148499485	22.882555	-58.0428774358	56.9706800424	-25.9354720625	-55.652895808
179750000.0	-23.1856422981	71.5343862773	6.13967627341	21.5109923289	-58.4256492088	60.2993544772	-26.0459562801	-55.9654108236
180437500.0	-23.2050411144	68.1820440429	6.13799839916	20.1241008718	-58.2682438261	59.6417384574	-26.1132589464	-56.36534216
181125000.0	-23.2312846194	64.6144448082	6.13894195546	18.7476235424	-57.8603132611	62.7490888704	-26.2098677435	-56.7170242746
181812500.0	-23.2398982045	61.2241332834	6.1396837239	17.3618573347	-57.7230606299	63.2532466771	-26.2914716133	-57.0425420377
182500000.0	-23.2432885892	57.7387833222	6.14377242644	16.0002882318	-57.7451295301	66.1260567803	-26.3953440709	-57.360519612
183187500.0	-23.2391584181	54.303845147	6.14605965795	14.6296415047	-57.656957143	66.5436844426	-26.4701814366	-57.6535075362
183875000.0	-23.2268117656	50.8985115408	6.15176907105	13.2708064225	-57.5596575063	58.5673314235	-26.5285145363	-57.9348315009
184562500.0	-23.2048352222	47.4511493858	6.15770152208	11.911386315	-57.2071138109	58.9007920992	-26.5803066712	-58.067938733
185250000.0	-23.1801054258	43.9271060277	6.16461982126	10.5661481592	-57.0817050638	57.6339751274	-26.6552861391	-58.2072448255
185937500.0	-23.156169151	40.5196180585	6.16998887753	9.20005468005	-56.8674429831	59.4784534551	-26.7167728615	-58.3014421171
186625000.0	-23.1221051878	37.0276383146	6.18054002224	7.85770015671	-56.992253523	54.6256365545	-26.7794285611	-58.3977633528
187312500.0	-23.0779284814	33.4655850287	6.18942810418	6.50472455066	-57.0998355875	54.9194115022	-26.8378368254	-58.4247730957
188000000.0	-23.0292308602	29.9831087927	6.19999747043	5.16149870271	-56.9211300965	48.9018227492	-26.888024445	-58.4706962658
188687500.0	-22.9892304529	26.5090870006	6.2095538461	3.81817010697	-57.0587074153	49.0594530923	-26.9485347757	-58.436949844
189375000.0	-22.9309099021	23.0498932301	6.21968693287	2.48271444701	-57.026204326	47.4615871138	-27.0098876148	-58.4378657443
190062500.0	-22.8745733287	19.5328611713	6.23070575081	1.14498448139	-57.1179668515	51.0784133315	-27.0797212662	-58.2052858514
190750000.0	-22.8213400091	16.0944176273	6.24485315466	-0.177648772705	-56.8167525852	47.602608379	-27.149201895	-58.1226612654
191437500.0	-22.75668472	12.487487219	6.25703976758	-1.49925601529	-57.0135892573	37.3673230985	-27.2250073547	-57.9425305934
192125000.0	-22.6905882071	9.07204212236	6.26970408255	-2.8149728061	-56.8267293876	39.3274850486	-27.2959289948	-57.7154939045
192812500.0	-22.6231384051	5.54157194486	6.28194316933	-4.12308606108	-57.098832776	38.1942683578	-27.3590211	-57.4994592398
193500000.0	-22.5493349104	2.19001079846	6.29537142068	-5.43924581909	-57.059594664	37.0770787527	-27.4367869891	-57.2220021695
194187500.0	-22.4740920451	-1.34788789475	6.30824032566	-6.74933549502	-57.5767583959	33.6561398719	-27.489023258	-56.7362677737
194875000.0	-22.4066909656	-4.76791003245	6.32421620525	-8.05101589383	-57.4392662137	33.4009936699	-27.5663034671	-56.3426164584
195562500.0	-22.3153090773	-8.29404855789	6.33876697508	-9.35543318849	-57.6649746499	31.9906323943	-27.6584233439	-56.0554417937
196250000.0	-22.2358342016	-11.7791015927	6.35393832115	-10.6532436514	-57.7950135203	29.1514982098	-27.7335497328	-55.7973859524
196937500.0	-22.1402966767	-15.2063426978	6.36943851099	-11.9602643934	-57.1459716796	16.7492142578	-27.811500305	-55.319030371
197625000.0	-22.0595330188	-18.6236457693	6.38584913937	-13.2392643904	-57.2278103981	13.2945384352	-27.8774571867	-54.9723974089
198312500.0	-21.9521428471	-21.925582807	6.40325116049	-14.5128785669	-57.4325366351	3.32038152838	-27.9359993955	-54.7140772115
199000000.0	-21.8606835712	-25.3121072517	6.42256019348	-15.7867143936	-57.5563090772	1.82112390235	-27.9965518635	-54.4998894659
199687500.0	-21.7444231169	-28.5764812689	6.4396150687	-17.0667038145	-57.3093499443	1.78039204659	-28.0619761569	-54.2618550327
200375000.0	-21.6465160416	-31.8575538416	6.45876262072	-18.3378066909	-57.4203331889	0.142663443377	-28.1474315058	-54.1725913535
201062500.0	-21.5261250044	-35.1068431025	6.47792891526	-19.6113118661	-57.1995168263	-0.468850332392	-28.2324195109	-54.1135220172
201750000.0	-21.4084478762	-38.2928320213	6.49916958587	-20.8740825927	-57.2174753504	-1.35917217356	-28.3205624299	-54.0805495383
202437500.0	-21.2802082809	-41.348577492	6.51976358555	-22.1394159081	-56.6846060117	-3.15036277425	-28.3852188266	-54.1991594275
203125000.0	-21.1593040335	-44.4642962989	6.54293806673	-23.3979001938	-56.9087770869	-3.77303536163	-28.4659843554	-54.2886211081
203812500.0	-21.0191472457	-47.3549014027	6.56397892515	-24.6598189621	-56.8417195118	-6.09168638211	-28.5194829784	-54.4761812433
204500000.0	-20.8922981096	-50.3001636034	6.58732690696	-25.9083327549	-57.0325881103	-8.13367692426	-28.5902269961	-54.6851130676
205187500.0	-20.7562674112	-53.1294395006	6.61155968304	-27.1561556861	-57.0871991883	-11.2869955863	-28.6612363552	-54.9317889081
205875000.0	-20.6077247784	-55.9330387408	6.637858844	-28.4062692146	-57.2735157827	-13.1958034657	-28.7152415699	-55.1525843122
