#Frequency	|S11|	<S11	|S21|	<S21	|S12|	<S12	|S22|	<S22
100000000.0	-16.5736269149	134.824327535	-34.4066635829	-126.132831255	-58.9726294347	-2.8596944584	-21.8660836875	-34.7864247057
100687500.0	-16.5152130237	132.110249201	-34.0605490515	-126.328804958	-64.997175529	5.49100694296	-21.8764961322	-35.0382301805
101375000.0	-16.4626663268	129.105540817	-33.7162804956	-127.552798326	-65.1812151729	53.6748586252	-21.8935418222	-34.6397330109
102062500.0	-16.4166702597	126.186176857	-33.346638883	-128.912339259	-64.9353881983	-10.1653225032	-21.9435427344	-34.0438192883
102750000.0	-16.372446812	123.195102649	-32.9668472451	-130.460702912	-64.3233665827	-85.4330020301	-22.004895839	-33.7064498303
103437500.0	-16.3337771972	120.183289961	-32.6497170049	-131.588611882	-63.846213563	-161.250597578	-22.0523548274	-33.2848568867
104125000.0	-16.2908329723	116.98444104	-32.3922911039	-133.171024494	-63.0683390183	150.879824102	-22.1080681082	-32.8659701329
104812500.0	-16.2519864312	113.848214994	-32.1392894497	-134.585285622	-63.2439919145	124.84130448	-22.1542101518	-32.640098185
105500000.0	-16.2335233096	110.601276935	-31.9241384219	-136.237787044	-63.0172050979	96.6322805294	-22.2047431694	-32.4898970052
106187500.0	-16.2241929356	107.197204796	-31.7460501853	-137.72787323	-63.3680989925	78.3938325955	-22.2612241539	-32.3713871127
106875000.0	-16.2296071966	103.694473511	-31.6116532544	-139.2318767	-62.8216978422	78.1082386407	-22.3154745255	-32.2963803098
107562500.0	-16.2538256442	100.031749108	-31.5112296351	-140.553009953	-62.8338292231	62.123881148	-22.3787740599	-32.1609064613
108250000.0	-16.2798594832	96.2271451959	-31.4431934366	-141.720225415	-62.7026131386	35.4385392458	-22.4286743706	-32.1832177911
108937500.0	-16.2860353504	92.6164725452	-31.3172864151	-142.752822443	-62.5689101351	9.65157236306	-22.4713849978	-32.0051141006
109625000.0	-16.2979537071	88.9318121478	-31.2249146437	-143.861468482	-61.9788265334	-10.9303617271	-22.5218691336	-31.8956315468
110312500.0	-16.311276482	85.1415687684	-31.1365983166	-144.600852838	-61.5779895992	-34.2028131327	-22.5650289656	-31.7915910979
111000000.0	-16.3352158838	81.2316275744	-31.0814834531	-145.186888439	-61.4055850307	-59.7213961229	-22.6113903098	-31.6744189602
111687500.0	-16.3622955027	77.2461057859	-31.0998092149	-145.475983256	-61.3697373051	-75.9328957566	-22.6640032392	-31.7112675868
112375000.0	-16.399261774	73.15131957	-31.0909181642	-145.216475457	-60.9845273501	-89.6836285359	-22.7148316587	-31.7513736359
113062500.0	-16.4364756599	68.9610389489	-31.0884317122	-144.573233932	-61.0729767608	-104.267780395	-22.7587278373	-31.7715004932
113750000.0	-16.4863552736	64.6427653633	-31.0587021089	-143.465253823	-61.2147793367	-106.456446904	-22.8017692452	-31.7986580822
114437500.0	-16.5450202589	60.2353726259	-30.9897771283	-142.194602741	-60.9253114013	-111.586035218	-22.8417762283	-31.8475355142
115125000.0	-16.6162320817	55.6576988351	-30.8504851631	-140.731888758	-61.8870172336	-109.547434754	-22.8919704545	-31.8999662296
115812500.0	-16.6895224588	50.9836348001	-30.6789865753	-138.951302175	-61.7300766926	-98.0214933139	-22.9305649333	-31.9442114963
116500000.0	-16.7796246844	46.1667173541	-30.4336578589	-137.045556606	-61.7004814437	-97.9001175352	-22.9732546884	-31.9699004861
117187500.0	-16.8863804294	41.2943804029	-30.1332475986	-135.135973493	-62.0296614373	-98.0079928388	-23.0042649083	-32.1210670651
117875000.0	-17.0165509659	36.2341160922	-29.7869976957	-133.223122972	-61.8508270394	-96.433920733	-23.045074428	-32.084392067
118562500.0	-17.1654409234	31.0353571631	-29.3845920006	-131.386498598	-61.5327805081	-89.5958122385	-23.0712577532	-32.0717314464
119250000.0	-17.3386798121	25.7378749719	-28.9401867796	-129.445858844	-61.7991270472	-85.7261775485	-23.0926334008	-32.0314132554
119937500.0	-17.5431014684	20.2758180273	-28.4510344407	-127.789088279	-61.7233721599	-85.4863449493	-23.1116594746	-31.9631447332
120625000.0	-17.7651818066	14.8025670437	-27.9267366483	-126.178208724	-61.6627056496	-85.0708208292	-23.1342696834	-31.9301692226
121312500.0	-18.0359405333	9.17056449082	-27.3463166528	-124.802282236	-61.3598354188	-84.2909210384	-23.147074363	-31.8644650397
122000000.0	-18.3593249889	3.56125363779	-26.7401964859	-123.44382523	-61.3001287025	-83.9695181987	-23.1643879559	-31.8247342026
122687500.0	-18.7568392652	-2.14533058069	-26.0861485799	-122.394682128	-61.5444591341	-81.9877024422	-23.1815789223	-31.6712767571
123375000.0	-19.2404647289	-7.66694392961	-25.4121503884	-121.583634923	-61.3543622451	-77.1317294428	-23.1941214221	-31.5842069536
124062500.0	-19.8412031522	-13.0756115774	-24.6961223253	-120.827842258	-61.371554935	-58.7065270278	-23.1975498327	-31.4084815674
124750000.0	-20.5956374443	-17.7583842815	-23.9655493946	-120.359391511	-61.4116760604	-29.3958824694	-23.2153666966	-31.2209126205
125437500.0	-21.3799388228	-21.528160572	-23.1950821876	-120.157263908	-61.2974147021	4.85451098266	-23.2202848603	-30.8587405579
126125000.0	-22.0883563686	-23.1867604439	-22.3922752754	-120.291987347	-61.4003478918	34.855279959	-23.2449843862	-30.6718510334
126812500.0	-22.6956710416	-24.5823398239	-21.5529169811	-120.618016793	-61.4604062662	54.8398541918	-23.2522992002	-30.2933004842
127500000.0	-23.177355124	-25.5001194047	-20.7160196197	-121.454059976	-61.5343999989	79.1335522008	-23.2595397842	-29.9934871738
128187500.0	-23.6064507578	-26.3937633629	-19.825228035	-122.605034749	-61.4975615707	94.4901901167	-23.2699938831	-29.5859921406
128875000.0	-23.9749660779	-27.2104617646	-18.9088939726	-124.237622114	-61.7133962387	108.597563197	-23.2724668344	-29.1485516995
129562500.0	-24.2974305276	-28.1377018875	-17.9998998167	-126.49889142	-61.6774475046	123.804388255	-23.2730046949	-28.6573622163
130250000.0	-24.5828578203	-28.9598103857	-17.1082088533	-129.398661944	-61.7928191088	140.467658062	-23.2814178951	-28.1543908456
130937500.0	-24.8323142393	-29.9160969536	-16.2382692418	-132.750192175	-61.4970472679	156.729898061	-23.2802351182	-27.6099776686
131625000.0	-25.0630205763	-30.8256450915	-15.4430965883	-136.514971916	-61.8032531047	166.928795769	-23.2822857758	-27.0710606773
132312500.0	-25.2620634443	-31.756540685	-14.6979916634	-140.656245938	-60.8319214765	-179.121930421	-23.278890563	-26.4723356321
133000000.0	-25.449235428	-32.63680005	-14.014185098	-145.143849772	-60.782875455	-162.639713497	-23.2802035864	-25.8809145358
133687500.0	-25.6179118481	-33.5690550523	-13.3929467931	-149.759628998	-60.9319134677	-134.546866687	-23.2886994152	-25.2775220119
134375000.0	-25.766830533	-34.456105898	-12.8397820572	-154.619243971	-60.580582764	-104.67396034	-23.2873528604	-24.6723259922
135062500.0	-25.8870614273	-35.4596521505	-12.3455519794	-159.517383655	-60.6458531146	-78.4631202279	-23.2984003338	-24.1182430695
135750000.0	-25.9889195474	-36.3488306351	-11.9065403658	-164.496770213	-60.5670251167	-59.9471484297	-23.3002671912	-23.6125343204
136437500.0	-26.0600737668	-37.2701556088	-11.5181279392	-169.442953543	-60.2289631528	-43.5916736226	-23.3206906427	-23.0719109074
137125000.0	-26.0971444418	-38.1771999634	-11.1790247177	-174.416066547	-60.1405998012	-15.8616175885	-23.3407553785	-22.5064967497
137812500.0	-26.1014067236	-39.0383828981	-10.8895958651	-179.265856583	-60.0384574956	1.0128673266	-23.3509056965	-21.8790182982
138500000.0	-26.0716352571	-39.9158535713	-10.635345431	175.902706623	-59.7076074887	20.3858801779	-23.369471621	-21.3362512311
139187500.0	-25.9770331375	-40.8148416566	-10.4237276569	171.186339388	-59.6899433017	35.6920473845	-23.3881978307	-20.7628416515
139875000.0	-25.8092487503	-41.7671743792	-10.2468250105	166.546896534	-59.530592525	40.408276076	-23.4034019074	-20.2026303639
140562500.0	-25.5503666308	-42.8839457698	-10.1034674367	162.045108567	-59.6634609225	50.8792728021	-23.425799256	-19.6702493654
141250000.0	-25.1697618704	-44.2064407479	-9.98666294449	157.637080136	-59.5402860379	49.1235459819	-23.4414582302	-19.2057224307
141937500.0	-24.6375207819	-46.2508319654	-9.90194115944	153.390044485	-59.4928939234	35.0330084231	-23.4545904935	-18.712833176
142625000.0	-24.0726280121	-49.2798972065	-9.832302473	149.243306197	-59.5161633908	17.9081250579	-23.4701257351	-18.2935266888
143312500.0	-23.5734550011	-54.3523517339	-9.78708354304	145.237495287	-59.6903266321	4.15541461848	-23.484792207	-17.8119116208
144000000.0	-23.1823861822	-59.7018586525	-9.75642837026	141.357265976	-60.0510072326	4.26812918579	-23.5092175816	-17.4084080771
144687500.0	-22.9118660536	-65.5892327937	-9.7442280185	137.627633861	-60.2737260715	-9.43929989245	-23.535494935	-16.9925823123
145375000.0	-22.689637386	-71.4265076966	-9.7405884709	134.014545779	-60.4839511824	-11.138902948	-23.5651636898	-16.6238086574
146062500.0	-22.5205242901	-77.293391255	-9.7518295865	130.52171557	-60.1787366729	-20.192872595	-23.5902771169	-16.2077204965
146750000.0	-22.3935509867	-83.0032214795	-9.77129597379	127.144259078	-60.0892823541	-19.2036533265	-23.6187828902	-15.7892607695
147437500.0	-22.3038302918	-88.796838146	-9.80122009169	123.893506837	-59.7997294321	-19.5948197787	-23.6367734584	-15.4825669863
148125000.0	-22.234148558	-94.3474264355	-9.83239643368	120.759770469	-60.1256732386	-31.6658611066	-23.6695870098	-15.14542918
148812500.0	-22.1813886581	-100.001383834	-9.8707732401	117.694512091	-59.9909016112	-45.1698989198	-23.6889620295	-14.8556391964
149500000.0	-22.149592229	-105.406084807	-9.91240041467	114.742333323	-59.8391386526	-58.4761910279	-23.7160922192	-14.5152190204
150187500.0	-22.124928125	-110.879061124	-9.95829295383	111.867940095	-60.1518644568	-71.6061572468	-23.7294591647	-14.1991720654
150875000.0	-22.1088950154	-116.116353963	-10.0041060581	109.100603386	-59.8060237968	-94.0498990475	-23.7527717729	-13.8489435771
151562500.0	-22.0956791715	-121.453734462	-10.0503858301	106.414135437	-59.724513353	-119.404258164	-23.7700091212	-13.5288869567
152250000.0	-22.0881548456	-126.427666386	-10.100875051	103.814245457	-59.8692941794	-142.601158186	-23.7938131978	-13.1429811
152937500.0	-22.0788330186	-131.447899506	-10.1531480531	101.286208977	-59.688503897	-161.15143525	-23.8076336574	-12.7630308394
153625000.0	-22.0809992562	-136.319944916	-10.2019531852	98.8277145541	-59.7976802407	-176.863503601	-23.8369451992	-12.3470140273
154312500.0	-22.0774250358	-141.043555688	-10.2531640055	96.4396846331	-59.7716449341	168.379006145	-23.8472429201	-12.0191942885
155000000.0	-22.0893748132	-145.765535367	-10.3055003642	94.0833730979	-60.140049083	152.248906995	-23.8686073846	-11.6605970197
155687500.0	-22.0870049132	-150.248733553	-10.3554412204	91.8234659899	-60.3262247986	133.848416048	-23.8915975825	-11.2212514769
156375000.0	-22.1010200506	-154.715524694	-10.4081044939	89.5961895679	-60.1794850828	119.46853868	-23.9126111819	-10.8085146342
157062500.0	-22.0947888601	-159.045206568	-10.4574790864	87.4350081826	-60.5061984249	108.159308144	-23.923430941	-10.3251767918
157750000.0	-22.0965699435	-163.33500506	-10.5088406559	85.3071169457	-60.6245712097	97.025585846	-23.9325513698	-9.8995350061
158437500.0	-22.1003720359	-167.380270053	-10.5570009169	83.233277631	-60.9596186692	89.7767228643	-23.9527374082	-9.38120557461
159125000.0	-22.096823216	-171.399984305	-10.6023896217	81.1958440204	-61.0465339067	89.4060810629	-23.9733984354	-8.85557608493
159812500.0	-22.0986872287	-175.22426251	-10.6502974254	79.2303712536	-60.9438207548	78.0630051361	-23.9896003745	-8.33068510379
160500000.0	-22.1061360023	-179.09970269	-10.6966264796	77.2635034485	-60.8551458784	63.2224268278	-24.0121324355	-7.89143230252
161187500.0	-22.1043228364	177.165728612	-10.7444962434	75.3615096004	-60.4279948282	37.6424662601	-24.026331734	-7.35919301483
161875000.0	-22.1193831189	173.633181557	-10.7897226335	73.4709251096	-60.3270856946	24.0684512616	-24.0612383437	-6.80460399291
162562500.0	-22.1376499092	170.094441133	-10.8335025813	71.6425888487	-59.7560711217	1.26928022499	-24.0832825476	-6.27763917705
163250000.0	-22.1509702243	166.655567465	-10.8755651661	69.821369981	-59.7863148176	-16.3709076791	-24.1160296906	-5.71301507828
163937500.0	-22.166076236	163.251929847	-10.9196347425	68.0522391862	-59.9135913286	-46.4335377468	-24.138501111	-5.22800354182
164625000.0	-22.1829728177	159.97832565	-10.9576980544	66.2777341911	-59.8170043686	-67.2422045435	-24.1841141967	-4.75417332314
165312500.0	-22.2152583416	156.712835081	-11.0014228662	64.5576221469	-59.7048808521	-79.3846956	-24.2142499889	-4.23305760465
166000000.0	-22.2485031065	153.661606109	-11.0390632765	62.8604469267	-59.6009739928	-84.5167219653	-24.2557484903	-3.77908398937
166687500.0	-22.2901486087	150.424937139	-11.0767194239	61.1880824914	-59.7872452412	-91.8615993317	-24.3117206747	-3.32814559322
167375000.0	-22.3408120231	147.478207381	-11.1126196551	59.5512793712	-60.1116418157	-109.562116496	-24.3806938543	-2.95596639465
168062500.0	-22.3866995846	144.408226394	-11.149913499	57.9455097017	-60.692822122	-125.9810221	-24.4408239818	-2.60288529012
168750000.0	-22.4431889581	141.558165121	-11.1850661338	56.3606958847	-60.8944352384	-142.060649621	-24.5137401769	-2.23714575574
169437500.0	-22.5084945923	138.561389422	-11.2214302682	54.7795646728	-60.8628675719	-168.536551464	-24.5788910668	-1.88094560964
170125000.0	-22.577103373	135.726510993	-11.2530778089	53.2228588966	-61.0461153056	166.962749331	-24.6589322806	-1.63736808383
170812500.0	-22.6454256244	132.716958509	-11.2873188618	51.6912374771	-61.0031857448	152.699807993	-24.7247200523	-1.44181419946
171500000.0	-22.7214982054	129.849440895	-11.3158460179	50.1973271417	-61.1670862093	127.355044101	-24.8072979073	-1.17931959469
172187500.0	-22.7964202768	126.840591186	-11.3439314974	48.7272468446	-60.7518215165	100.615237404	-24.9033291154	-1.09896584871
172875000.0	-22.8837547921	123.78408079	-11.3712566392	47.2533171743	-61.0265598783	85.6220246651	-24.9836575273	-1.05321607692
173562500.0	-22.9515284985	120.677784451	-11.3963848915	45.8126935063	-61.0483177144	70.8110044344	-25.0778841948	-1.04234575207
174250000.0	-23.0391394914	117.672797473	-11.4197625503	44.3879723575	-60.8954610075	53.0905314027	-25.1730930648	-1.09104713995
174937500.0	-23.1100552663	114.591835175	-11.4410221354	42.973843297	-60.7983881866	38.4553520161	-25.2713936538	-1.1976005245
175625000.0	-23.1890054812	111.344707659	-11.4612096516	41.578599114	-60.2160313505	18.821474918	-25.3564933849	-1.36132502845
176312500.0	-23.264004316	108.117017186	-11.4808680438	40.1988478725	-60.1371116472	-7.90477384766	-25.4662947598	-1.75727434282
177000000.0	-23.3176282305	104.771216788	-11.4986070981	38.821106665	-60.0334193969	-31.6310132454	-25.5748679837	-2.0747765383
177687500.0	-23.3643711157	101.550423883	-11.5129155368	37.4705898552	-59.8001346745	-43.1914714753	-25.6703871186	-2.31569784119
178375000.0	-23.4066090196	98.2110581176	-11.5263865939	36.1228728532	-60.1381237745	-44.4212081248	-25.7764838014	-2.56092454501
179062500.0	-23.4397765192	94.903254044	-11.536364907	34.7827755364	-59.9950345727	-57.4479533525	-25.8618280728	-3.05015526988
179750000.0	-23.4510350641	91.5048931355	-11.5487012514	33.4493874164	-60.5000992515	-73.4760679962	-25.9515025732	-3.50604311471
180437500.0	-23.4620361357	88.104606262	-11.5574360821	32.129075191	-60.5127542865	-84.081129673	-26.0297275342	-4.10112334625
181125000.0	-23.4614851534	84.5910865266	-11.5637158975	30.8126939754	-60.4252831492	-91.9126460727	-26.1179681049	-4.51375102056
181812500.0	-23.4557941153	81.2118065018	-11.570067868	29.5227737042	-60.4671859336	-100.338188771	-26.1716634686	-4.96073847584
182500000.0	-23.4343257472	77.733142233	-11.5732025841	28.2088449012	-60.9175427087	-114.554085039	-26.2525478907	-5.35335248575
183187500.0	-23.3965434087	74.2309218616	-11.5770093453	26.9199293425	-60.691332261	-123.383256922	-26.313612155	-5.81507056615
183875000.0	-23.3496861686	70.8811039022	-11.5786856616	25.6238977167	-60.825464773	-140.004256655	-26.3571953961	-6.32444384989
184562500.0	-23.2918550688	67.4003049267	-11.5798904376	24.3605984807	-60.3541272359	-146.028512913	-26.3851308024	-6.77795300978
185250000.0	-23.2290400166	64.0530451015	-11.5779122751	23.0523011755	-60.0314044156	-147.684183507	-26.412487932	-7.23424759252
185937500.0	-23.15487621	60.6498379798	-11.578777151	21.7819693744	-60.2702608563	-148.419541353	-26.4266933696	-7.62646960715
186625000.0	-23.0725920139	57.3712800806	-11.572249556	20.5081042663	-60.015231205	-147.415018906	-26.4592826166	-8.10917119968
187312500.0	-22.9809425502	53.9951015054	-11.5670306339	19.2561710111	-60.4777508476	-149.466820873	-26.4551872079	-8.33155795675
188000000.0	-22.8902612919	50.8618889763	-11.5619687316	17.9727162907	-60.728706708	-162.561068917	-26.4552369078	-8.64303709152
188687500.0	-22.7950666017	47.558772443	-11.5598019702	16.7066309282	-60.990070993	-172.763177063	-26.446608204	-8.97416312362
189375000.0	-22.7011149421	44.4919128914	-11.5513069575	15.4381301649	-61.3913472049	-169.52522052	-26.4262805374	-9.1286752834
190062500.0	-22.5932570075	41.436224188	-11.5471316883	14.1916672077	-60.7351593195	-178.386473053	-26.3959585902	-9.1781216567
190750000.0	-22.5025342685	38.4741873403	-11.536249687	12.9110413807	-60.9215324442	161.458221406	-26.3728849085	-9.25904628871
191437500.0	-22.4055419932	35.4396038374	-11.5312243346	11.6654409658	-60.9162242034	148.019676799	-26.3305251777	-9.27056896931
192125000.0	-22.324483571	32.5927791458	-11.5215693112	10.4072624159	-60.7542606395	124.257282885	-26.2767911085	-9.24331704556
192812500.0	-22.2250863174	29.7283146443	-11.514407767	9.17623241773	-60.9525956659	100.551440082	-26.2470583227	-9.13798259288
193500000.0	-22.1538935608	27.0071608918	-11.501659476	7.90964027647	-61.2375834407	88.8346783272	-26.1820637498	-8.91138970984
194187500.0	-22.0812981954	24.2439776038	-11.4935239173	6.67490429769	-61.4762114454	85.7958050101	-26.1181388664	-8.69055481136
194875000.0	-22.0287035912	21.453694308	-11.4804737745	5.43367243018	-61.680190193	71.6111761901	-26.0573501292	-8.54193210908
195562500.0	-21.973733271	18.67049622	-11.4691177875	4.2008792624	-61.9027810535	44.3729686096	-25.991931412	-8.36737813164
196250000.0	-21.9295042825	15.8768306424	-11.4552280741	2.97737733634	-61.8012646418	18.5524246316	-25.929199415	-8.02433513088
196937500.0	-21.890359762	13.1603324561	-11.4445336199	1.74616532306	-61.2644708499	-7.06346921922	-25.8602723713	-7.58091446832
197625000.0	-21.8691761359	10.3776619572	-11.4314823969	0.528568202764	-61.6613352113	-45.4134650652	-25.7888659332	-7.10684047877
198312500.0	-21.8488129818	7.71208711551	-11.4182293829	-0.68230653678	-61.593587407	-76.8784383288	-25.7245200484	-6.79403767887
199000000.0	-21.83597315	4.83574044257	-11.4032989939	-1.90163985724	-61.3863303787	-115.705763042	-25.6688633266	-6.38973355616
199687500.0	-21.8208041891	2.07905019373	-11.389279387	-3.11610959838	-60.6752207053	-148.588563311	-25.6155483893	-6.08728855298
200375000.0	-21.8119148286	-0.759445085106	-11.3746942787	-4.32409849642	-60.7215236639	169.585310849	-25.5662041721	-5.61543380663
201062500.0	-21.8118712046	-3.57797700661	-11.3598498379	-5.52420021811	-60.2599873892	126.786387245	-25.5176456976	-5.1472709611
201750000.0	-21.8038581455	-6.47456965258	-11.3440986378	-6.72190394614	-60.3004006594	82.3930894725	-25.477177985	-4.66480069045
202437500.0	-21.8044755442	-9.32566443543	-11.3277253258	-7.90923737529	-60.079392055	28.3829753053	-25.4345970776	-4.25309639782
203125000.0	-21.7985753616	-12.2655956276	-11.3095743587	-9.10336645906	-60.0981654235	-26.7247125234	-25.3986061703	-3.73529833956
203812500.0	-21.7835414577	-15.2022639644	-11.2919047922	-10.2924759558	-60.331235892	-83.0574588415	-25.3561352352	-3.31200611072
204500000.0	-21.7872328242	-18.1943916385	-11.2750821162	-11.4965027095	-59.7274132757	-135.78584521	-25.3282035366	-2.91905036277
205187500.0	-21.7758291732	-21.2060911721	-11.2551991851	-12.6677982731	-59.8085046662	173.32416156	-25.2972805645	-2.50240013364
