#Frequency	|S11|	<S11	|S21|	<S21	|S12|	<S12	|S22|	<S22
100000000.0	-19.9532715874	137.909020889	-35.996119273	-124.957835436	-59.8496288025	-178.67588179	-20.251916904	-29.3743185929
100687500.0	-19.7997836868	134.696630143	-36.1663045858	-121.591441794	-62.2007423698	60.7765702593	-20.2404857422	-29.0084282072
101375000.0	-19.6824973991	131.445811411	-35.7309868233	-122.427447706	-62.4798751254	91.4515341179	-20.2545979307	-28.3469737438
102062500.0	-19.5856827619	128.246863677	-35.2888541037	-122.908840689	-62.2208271353	107.945685663	-20.2892248001	-27.639819755
102750000.0	-19.4884037317	125.126761523	-34.9824436349	-124.318311006	-63.3577864415	123.968279982	-20.3228126823	-26.9296841581
103437500.0	-19.4009587459	122.030290797	-34.6800331817	-125.817566434	-62.702420983	99.1285137518	-20.3584011172	-26.2085466518
104125000.0	-19.3291643784	118.807512454	-34.3382869144	-127.086601576	-62.9235312789	68.3154383151	-20.4270697241	-25.4419164627
104812500.0	-19.2650481883	115.618572177	-33.9776334252	-128.380902438	-62.5292276006	27.2947318305	-20.5015452593	-24.8698776966
105500000.0	-19.189040635	112.357646701	-33.7008478314	-129.761278363	-62.3624814677	-13.8905930197	-20.5766552674	-24.3102578679
106187500.0	-19.1232391664	109.098581106	-33.4644878627	-131.115041999	-61.9718118657	-60.3458131615	-20.6528429333	-23.7981601544
106875000.0	-19.068483957	105.734672824	-33.2389041785	-132.391573033	-62.027947242	-104.804355403	-20.7305552312	-23.3377261553
107562500.0	-19.0256120862	102.329871265	-33.0701313831	-133.607528276	-61.6694176169	-144.896267129	-20.8244372801	-22.8631002492
108250000.0	-18.9818023653	98.7374836204	-32.9199558695	-134.909753059	-61.8881332134	-165.175894951	-20.9202977994	-22.5122768762
108937500.0	-18.9243383927	95.2316020762	-32.7342323974	-135.85269716	-61.798405143	168.739548922	-20.997051212	-22.022019945
109625000.0	-18.8788133974	91.6873668581	-32.532688742	-137.209012452	-61.6104983972	153.571201865	-21.082047915	-21.5793670724
110312500.0	-18.8198916196	88.0980698752	-32.368791671	-138.007164374	-61.4112503753	140.710362063	-21.174362601	-21.1533974657
111000000.0	-18.7818981549	84.4281480083	-32.2388727604	-138.985339986	-61.0324287526	124.894761013	-21.2717226344	-20.7522734311
111687500.0	-18.7344885349	80.6881868316	-32.1492960086	-139.596841533	-61.1039258554	103.347316607	-21.3715835515	-20.4558003652
112375000.0	-18.7007066254	76.8774719339	-32.0720380203	-140.228658922	-61.2387025085	87.8156823336	-21.47442591	-20.2020552995
113062500.0	-18.6593912173	72.9861931593	-32.046308095	-140.329377712	-61.0402291859	76.3098198169	-21.5780490114	-19.9068064445
113750000.0	-18.6304343401	68.9787378634	-32.0062003282	-140.219155765	-60.8560733354	61.8171253951	-21.6912309846	-19.6935546698
114437500.0	-18.6015055167	64.9195916191	-31.9559916511	-139.663167751	-60.1855563751	49.372880047	-21.8138974851	-19.5557594796
115125000.0	-18.571587067	60.7032099751	-31.8850048423	-138.670464715	-60.1182061905	38.3474324168	-21.9423639142	-19.4349571754
115812500.0	-18.5456402203	56.3553976394	-31.7923629623	-137.288734577	-59.9816494547	39.4456347301	-22.0739757418	-19.3455230623
116500000.0	-18.5211551848	51.9127061108	-31.6379832011	-135.524394006	-60.0216825247	50.9432370646	-22.1991587278	-19.3778525407
117187500.0	-18.5024768218	47.3834630947	-31.4231208743	-133.814905253	-59.6595553037	51.9130820521	-22.3269038438	-19.3628748032
117875000.0	-18.4898534077	42.6847824694	-31.173770581	-131.810102103	-59.4039584359	63.9746802384	-22.4625665875	-19.3249887057
118562500.0	-18.4881692878	37.8398075212	-30.8577463443	-129.890041127	-59.7941366528	76.2596828777	-22.5949290589	-19.3229571837
119250000.0	-18.4985046609	32.8896538424	-30.4881309786	-127.865650742	-59.4633225674	92.8837969503	-22.723124402	-19.401210578
119937500.0	-18.5253965215	27.7740032201	-30.0463673149	-126.037171387	-59.4963272528	110.299098454	-22.8469796587	-19.472932833
120625000.0	-18.5602972563	22.5231240707	-29.5618849623	-124.209811444	-59.8282956424	138.888923473	-22.9871854083	-19.5973935382
121312500.0	-18.6375869041	17.0895434069	-29.0298450808	-122.567008966	-59.6871290321	169.965641888	-23.1103838282	-19.772678034
122000000.0	-18.7217460059	11.6024360648	-28.4692835651	-121.089930068	-59.5655529974	-161.33240401	-23.2456336001	-19.985458367
122687500.0	-18.8488096559	5.96688923323	-27.8644802488	-119.775150066	-59.2792832836	-136.777557928	-23.3759072944	-20.2633943319
123375000.0	-19.0027684367	0.228623806285	-27.2098770224	-118.644357587	-59.5045790024	-120.441539568	-23.4975868454	-20.5383078304
124062500.0	-19.2179603707	-5.62574682989	-26.5358697051	-117.726146448	-59.4686045145	-93.1096142277	-23.6235669489	-20.7623458971
124750000.0	-19.4939596593	-11.3346214042	-25.8363040985	-116.905958894	-59.3130715634	-77.8605951008	-23.7446938157	-21.0176262191
125437500.0	-19.8138064201	-17.0457056874	-25.1034560866	-116.423862925	-59.9666526369	-61.8317695209	-23.8538632342	-21.2734294931
126125000.0	-20.2156004094	-22.3095081515	-24.3461947298	-116.182735733	-60.0333049012	-41.6402104955	-23.9833304847	-21.5890834351
126812500.0	-20.6777025549	-27.3611408527	-23.5679347814	-116.156039663	-60.133254811	-28.319665838	-24.091499892	-21.8946287871
127500000.0	-21.1795718435	-31.5185102646	-22.7591295939	-116.568040215	-59.9920701344	-12.334435374	-24.1973166686	-22.2641262136
128187500.0	-21.6712891151	-35.2732204637	-21.9366894622	-117.149392879	-60.1514554389	7.05433347437	-24.2979514012	-22.6535781666
128875000.0	-22.1372888744	-38.4043451961	-21.0680905948	-118.143246864	-60.416895847	31.687997725	-24.3799365084	-22.9598655837
129562500.0	-22.5439838907	-41.2465107027	-20.2046538446	-119.486731566	-60.3287599545	59.5482165573	-24.4671358286	-23.3440171391
130250000.0	-22.9256308253	-43.8093629578	-19.2974060923	-121.411120934	-60.3929653544	77.3804628428	-24.5560509684	-23.7362673197
130937500.0	-23.240747982	-46.3034671475	-18.402304627	-123.563778607	-60.6087608585	103.557119168	-24.6291127582	-24.1289572807
131625000.0	-23.5420275421	-48.570293317	-17.5118021145	-126.44351032	-60.4785117768	124.664738074	-24.6841187825	-24.6059984309
132312500.0	-23.7980120421	-50.7614227864	-16.6570350385	-129.683784279	-60.4223191178	153.499622928	-24.7323873533	-24.9986305716
133000000.0	-24.0376721652	-52.9432021548	-15.8301580163	-133.658769651	-60.9457318974	-177.935929537	-24.7776945826	-25.5120052758
133687500.0	-24.2413971015	-55.0667516715	-15.0997988918	-138.011128834	-60.8881623693	-162.251554442	-24.8203688837	-25.9019846383
134375000.0	-24.4375914354	-57.0811092983	-14.4160598267	-142.546837463	-60.7503415466	-145.7629688	-24.8415590325	-26.450103588
135062500.0	-24.589045143	-59.095545001	-13.813153548	-147.322831228	-60.6632830358	-132.961061233	-24.8504391501	-26.9760081319
135750000.0	-24.7253124714	-60.991226272	-13.2579657253	-152.315766818	-60.6708870545	-117.208669653	-24.8458128309	-27.5588258682
136437500.0	-24.8431912739	-62.8371242261	-12.7803469989	-157.305576067	-60.8845587652	-101.915929242	-24.8499770752	-28.0984727892
137125000.0	-24.9443698383	-64.624639731	-12.3450363687	-162.337042721	-60.6150035795	-74.9682171137	-24.8562381216	-28.662922004
137812500.0	-25.0094332952	-66.2530585562	-11.9799456459	-167.318618777	-60.5495719091	-61.6210451827	-24.8325179693	-29.1773359367
138500000.0	-25.0402466155	-67.7747142452	-11.6535343948	-172.326203508	-60.7342749239	-57.6794642154	-24.8088197744	-29.7529140198
139187500.0	-25.0499992202	-69.2153561928	-11.3797282384	-177.185914863	-61.1084158461	-44.3724357924	-24.7684574783	-30.2516529057
139875000.0	-25.0085889873	-70.6210689369	-11.1412529231	177.986821475	-61.0684595586	-30.1851258891	-24.7261968143	-30.7751820883
140562500.0	-24.9420402339	-71.9079620779	-10.947354881	173.294421996	-60.8977874418	-6.34539406724	-24.6789612461	-31.2976424932
141250000.0	-24.8077368832	-73.1270300975	-10.7807379838	168.696390534	-60.7425273812	15.5052321677	-24.6154465663	-31.8826120801
141937500.0	-24.6177927963	-74.4287729799	-10.6488929063	164.280170116	-60.7854361405	44.0932684578	-24.5455798612	-32.4329922934
142625000.0	-24.3804063109	-75.7443972798	-10.5394983139	159.976040744	-60.1696665883	61.0871824288	-24.4691460803	-32.9785145161
143312500.0	-24.0589251921	-77.4480106417	-10.4572449791	155.810740372	-60.2186175577	84.7042613096	-24.3610771289	-33.4575781915
144000000.0	-23.6725545632	-79.3916891835	-10.3900211927	151.772400517	-60.1331402108	115.973330429	-24.2693298768	-33.9411429102
144687500.0	-23.2624958865	-82.2071662598	-10.3409617593	147.877300365	-60.846062377	141.939124957	-24.166513415	-34.3650396017
145375000.0	-22.8503531378	-85.3206266496	-10.305134166	144.112941975	-60.8505967736	155.808665801	-24.0574609041	-34.7430631526
146062500.0	-22.4762256488	-89.0912030689	-10.2821770462	140.462562629	-60.6326991588	165.715988793	-23.9568051677	-35.1193997331
146750000.0	-22.1575290302	-93.0651189073	-10.267720573	136.933363891	-60.4625669819	165.4098916	-23.845196207	-35.3903697055
147437500.0	-21.872019495	-97.2800678014	-10.2648051008	133.531498969	-60.6807802612	165.801847852	-23.7159053133	-35.6889336752
148125000.0	-21.6495292076	-101.471836433	-10.2671931335	130.222046479	-60.5133752639	165.338568011	-23.5867826331	-35.9161260835
148812500.0	-21.4531720886	-105.908888212	-10.2783121183	127.003589721	-60.8828847403	160.710342286	-23.4583261232	-36.0294228316
149500000.0	-21.3047646601	-110.234253737	-10.2933389188	123.883463988	-60.9761155715	147.694700987	-23.3338093615	-36.1118263031
150187500.0	-21.1793205034	-114.56300194	-10.3174744205	120.852404668	-60.705106344	123.022515085	-23.1944450301	-36.084743128
150875000.0	-21.097738642	-118.711144462	-10.3375584603	117.91304048	-60.5532758579	109.229018607	-23.0564638014	-35.986090771
151562500.0	-21.0241839549	-123.040757643	-10.3651482897	115.053559127	-60.6077089845	96.2419348935	-22.923804254	-35.8164790411
152250000.0	-20.995575388	-127.139601334	-10.3956356013	112.26969045	-61.0218132912	84.6420160884	-22.7943834841	-35.5938577314
152937500.0	-20.9719658272	-131.275172816	-10.4316961828	109.568231387	-60.882370804	74.8714677133	-22.6685319407	-35.3185481085
153625000.0	-20.9806744106	-135.328821725	-10.4627989986	106.922310152	-60.6933304665	61.8901817605	-22.5472643059	-34.9301933305
154312500.0	-20.9741879301	-139.340536443	-10.501322781	104.352618096	-61.1257115286	35.5328032018	-22.4026110669	-34.5731674341
155000000.0	-21.0041805129	-143.391652844	-10.5379764536	101.831910951	-60.9114744215	18.2979093313	-22.273834476	-34.104280753
155687500.0	-21.0339270331	-147.402867372	-10.5785422801	99.3825566649	-60.8061926226	1.97886003258	-22.1578758425	-33.568087554
156375000.0	-21.0868984262	-151.420062121	-10.6193350113	96.9686041925	-60.625908268	-24.402470241	-22.0385626424	-32.9819758091
157062500.0	-21.1413204024	-155.31505448	-10.6630834022	94.6234978614	-60.7312173798	-50.3903989083	-21.9274807221	-32.3036723073
157750000.0	-21.200363402	-159.268829677	-10.7016047342	92.3159497785	-60.9937346798	-75.8194449806	-21.8084728656	-31.6164479808
158437500.0	-21.2626967644	-163.123718017	-10.7459431967	90.0803147885	-61.2233982594	-109.256106474	-21.6974898918	-30.8345819229
159125000.0	-21.3280990682	-166.983465225	-10.7859852609	87.8606243399	-60.9937681757	-150.042487793	-21.5990625646	-29.9746368455
159812500.0	-21.3988862549	-170.799201497	-10.8285361431	85.7108549902	-61.0576814203	169.657019713	-21.5016713688	-29.1134991454
160500000.0	-21.470686257	-174.621213704	-10.8662479539	83.5696931525	-61.0175524506	119.29316075	-21.4219632506	-28.2775724815
161187500.0	-21.5450146023	-178.360925713	-10.9114674213	81.5101029186	-61.1459689136	61.3154914687	-21.3334307173	-27.3452480867
161875000.0	-21.61598358	177.941959217	-10.9500095519	79.4587391035	-60.4413967566	6.84531122293	-21.263021153	-26.3481696451
162562500.0	-21.701699043	174.195839073	-10.9955228109	77.4707187195	-60.1582956174	-39.3413550205	-21.1942859806	-25.3945785498
163250000.0	-21.7635724726	170.560121212	-11.0363357396	75.48769963	-60.003697393	-89.1774482062	-21.1370386302	-24.344226307
163937500.0	-21.8398956423	166.934944032	-11.0808413196	73.5690137211	-59.876280814	-133.155639942	-21.0784981983	-23.2773048946
164625000.0	-21.9088492959	163.321584528	-11.1187955333	71.6440712728	-59.8327377426	-173.241962672	-21.0383172327	-22.2391599011
165312500.0	-21.9915324099	159.683690938	-11.1628733718	69.781768641	-59.9687320459	148.816995291	-21.0010566146	-21.2089390741
166000000.0	-22.052902695	156.211781817	-11.2001853935	67.9433697235	-59.8248570458	110.208426415	-20.9739054468	-20.1612537139
166687500.0	-22.1240945854	152.613359998	-11.2408012172	66.1355906906	-59.9881204329	79.3109745772	-20.9550019816	-19.0855024106
167375000.0	-22.189862812	149.250839068	-11.2791044141	64.357081866	-60.0406834353	49.4788387336	-20.9490140736	-18.1130588783
168062500.0	-22.2397920909	145.672882816	-11.3224887482	62.6208466908	-60.0713867495	21.1080310158	-20.9408542709	-17.200654199
168750000.0	-22.293034765	142.274482571	-11.3615234939	60.9182295284	-60.2239120881	-6.94524878193	-20.9582329364	-16.2065518322
169437500.0	-22.3380605351	138.754172991	-11.4004309715	59.2463626932	-59.7992484185	-39.9861681674	-20.9772574027	-15.2252618467
170125000.0	-22.392285681	135.41051154	-11.4352774493	57.5899785021	-60.0024603457	-72.6253591884	-21.0099389517	-14.285016555
170812500.0	-22.4204997819	131.964850537	-11.4738523484	55.9548157267	-60.5440538729	-112.122789804	-21.0327973566	-13.3337628553
171500000.0	-22.4701945243	128.597318657	-11.5086091476	54.3484250679	-60.2845029938	-139.781941521	-21.0835985339	-12.3818316498
172187500.0	-22.5112695888	125.179233837	-11.5399870976	52.7750354086	-60.405949354	-174.5696351	-21.1349089606	-11.4838328375
172875000.0	-22.557366174	121.892578449	-11.5709584495	51.207264806	-60.8512964477	158.035378538	-21.1962842377	-10.6219723301
173562500.0	-22.5782668313	118.582032935	-11.6012114475	49.6814060503	-61.0754813594	131.751375111	-21.2706792827	-9.77654574789
174250000.0	-22.6073086249	115.342311999	-11.6272231258	48.1716759268	-60.9278769597	116.319179863	-21.3496761641	-9.00527079545
174937500.0	-22.6180642725	112.122736114	-11.6551364988	46.6773857887	-60.7281354449	90.4609366805	-21.4466003977	-8.25096579943
175625000.0	-22.6271871476	108.872373209	-11.6804860745	45.1983690922	-60.7760901695	62.5925925555	-21.5475366612	-7.5087787336
176312500.0	-22.6272846907	105.665771015	-11.7039006264	43.740712985	-60.7676782425	40.3479088514	-21.6599501543	-6.84044182303
177000000.0	-22.6225114128	102.468846441	-11.7238276527	42.2918270048	-60.3030386861	24.0401573874	-21.7911539203	-6.20844422295
177687500.0	-22.5997238418	99.3290689702	-11.7457174185	40.8794097053	-60.1956901884	8.4709198823	-21.9242649266	-5.56711724775
178375000.0	-22.588712245	96.1612306576	-11.7601773341	39.4537803285	-60.1453035768	-2.18241469146	-22.0632194895	-4.97637336196
179062500.0	-22.5658258699	93.1288304281	-11.7788367091	38.0578681838	-60.2339026926	-4.58550581619	-22.2137846062	-4.5231527054
179750000.0	-22.5234960912	89.9925215846	-11.7899619054	36.6567610928	-60.9025702526	-2.76634330083	-22.3778994081	-4.01358641748
180437500.0	-22.4915474339	86.9165645554	-11.8042101287	35.2911597947	-61.2047915914	-2.48968927143	-22.5343465763	-3.62080771
181125000.0	-22.441301511	83.7774884015	-11.8144495961	33.9037375324	-61.4918283203	-7.51730781221	-22.7124904175	-3.24854100761
181812500.0	-22.3933891194	80.8158235921	-11.8284087952	32.5784721969	-61.5334589927	-7.30400722784	-22.8866687187	-2.91577701121
182500000.0	-22.3269072609	77.8074203392	-11.8347894287	31.2270748046	-61.243103631	-18.1678042047	-23.0768406848	-2.52448489981
183187500.0	-22.2671553287	74.8443750248	-11.844667932	29.8892554208	-61.1072916904	-17.3849244161	-23.25765533	-2.17892712121
183875000.0	-22.1907560505	71.9721073391	-11.8490019986	28.5511246337	-60.7646677875	-24.7331934258	-23.4451647443	-1.98031173453
184562500.0	-22.1183333559	69.031903671	-11.8546181705	27.2382045407	-60.6631390141	-22.0062412732	-23.6384729999	-1.82725981812
185250000.0	-22.0332816432	66.2286358408	-11.8537908038	25.9171201853	-61.0504399421	-32.1463233246	-23.828442826	-1.61806324994
185937500.0	-21.9596678084	63.4467049804	-11.858575977	24.6071630184	-60.9907457737	-44.8084941667	-24.0203148092	-1.55384634538
186625000.0	-21.8772991532	60.7896878091	-11.856381577	23.2638536529	-61.1480147742	-50.0071914586	-24.2124956626	-1.51059532894
187312500.0	-21.7949443221	58.0055855826	-11.8572249409	21.9598731206	-60.4933969598	-59.0759478359	-24.4006308158	-1.38560271609
188000000.0	-21.7191743172	55.4220722519	-11.8545051743	20.6416219247	-60.3803045135	-62.4659644835	-24.592451288	-1.45025911766
188687500.0	-21.6436922384	52.8015901712	-11.855435082	19.3417049163	-60.7969415031	-76.3663456266	-24.7859690063	-1.62565128183
189375000.0	-21.5663972087	50.3211135756	-11.8509183757	18.0164692351	-61.0688899118	-78.693022195	-24.9844407043	-1.7570902782
190062500.0	-21.4918097502	47.7469929001	-11.8487831518	16.7247685414	-60.499501233	-92.3827647831	-25.1731014054	-1.88409817391
190750000.0	-21.4291525077	45.2939704945	-11.841822965	15.427207843	-60.2835182172	-106.235406583	-25.3558871182	-2.09758377184
191437500.0	-21.3795962779	42.7615153516	-11.8395934966	14.1437223725	-60.3342122665	-121.401174425	-25.5375110264	-2.34023688056
192125000.0	-21.3339680189	40.3983367145	-11.8323818604	12.8412568001	-60.2922410986	-133.107499343	-25.7009259606	-2.73105180186
192812500.0	-21.2970173143	37.9217844229	-11.8254479213	11.570589657	-59.9873560777	-130.980588278	-25.8793754091	-3.28717941964
193500000.0	-21.2784450873	35.5633586299	-11.8192296773	10.2937177587	-60.0334346002	-135.902773859	-26.0483102225	-3.81134945038
194187500.0	-21.2464367159	33.1139777533	-11.8156038984	9.02966212163	-60.3801578539	-146.925981729	-26.180804819	-4.41631151847
194875000.0	-21.2518572964	30.6907874831	-11.8088518593	7.75128957121	-60.4891373696	-149.851786845	-26.31082368	-5.08418660279
195562500.0	-21.2382055949	28.193743634	-11.8028836017	6.48615593593	-60.8991774886	-151.340513324	-26.4536135719	-5.8400208333
196250000.0	-21.249910798	25.6705749622	-11.7933036288	5.22244987198	-60.7312049617	-162.156204184	-26.5837238062	-6.71773612898
196937500.0	-21.2648269866	23.1725037614	-11.7849706993	3.9690733319	-59.9873241763	175.326182347	-26.6720572157	-7.46630828747
197625000.0	-21.2992888634	20.6078134828	-11.7757366752	2.71170335647	-59.488832846	159.312140055	-26.7696495593	-8.40320562464
198312500.0	-21.3234318119	18.1299364218	-11.7641613173	1.47242070066	-59.2003681209	141.806422	-26.8457409989	-9.43466709823
199000000.0	-21.3736551992	15.4879746698	-11.7537815328	0.219618953139	-59.1700697836	112.928803952	-26.8938922171	-10.6032795461
199687500.0	-21.4122189279	12.9001746183	-11.7429932694	-1.02652877368	-59.4092362834	83.0900887367	-26.9432054444	-11.7425646374
200375000.0	-21.4661369287	10.2380975336	-11.7302655817	-2.2611384571	-59.4370969383	50.2540696304	-26.9916843926	-13.0474812563
201062500.0	-21.5228887216	7.57577557818	-11.71843374	-3.49599162884	-59.8289618778	21.0156223581	-27.0087199981	-14.3092890835
201750000.0	-21.5773020378	4.86091338142	-11.7043522388	-4.7346648424	-60.0085868701	-7.11707129022	-27.0079498229	-15.5801077842
202437500.0	-21.641352778	2.17104431315	-11.6919476057	-5.98079071407	-59.7159777045	-34.4196309831	-26.9961068164	-16.9088651323
203125000.0	-21.6933857809	-0.587158467121	-11.6772301168	-7.21530297901	-59.6489495798	-57.4718727656	-26.9641656441	-18.1976672348
203812500.0	-21.7476984124	-3.35733209946	-11.6625617122	-8.414591403	-59.662464114	-87.6625184762	-26.9088929262	-19.5378135806
204500000.0	-21.8036664247	-6.15187177581	-11.6472059662	-9.64291079348	-59.9466921982	-118.946652361	-26.8500728147	-20.992819422
205187500.0	-21.8524305175	-8.90581152671	-11.6317261385	-10.8487678693	-59.8875888859	-145.173538151	-26.7765998497	-22.2944336817
