#Frequency	|S11|	<S11	|S21|	<S21	|S12|	<S12	|S22|	<S22
100000000.0	-15.6601613528	140.380275799	-16.2894605734	-129.220234023	-60.5528783401	41.0198578991	-21.0919104871	-66.0655647071
100687500.0	-15.6580228992	137.687524588	-15.8858526786	-130.669540069	-58.6193176631	162.954746042	-21.1453518463	-66.7540889053
101375000.0	-15.6519941466	134.531907565	-15.4773738812	-132.086385853	-62.9949245386	128.634353381	-21.1856391495	-66.5907027044
102062500.0	-15.6555434166	131.507235514	-15.1105724578	-133.555403337	-61.9302643118	35.1601880971	-21.2181527231	-66.3450557541
102750000.0	-15.6612662675	128.336424089	-14.7649443915	-135.129063059	-61.9789598173	-8.04877920615	-21.2742929353	-66.2827864628
103437500.0	-15.66504428	125.113961898	-14.4439860609	-136.668154106	-61.9756150013	-6.49632704545	-21.3179987252	-66.0808888245
104125000.0	-15.6908491426	121.756634846	-14.1549465968	-138.274817721	-61.5728206573	30.5427264248	-21.3949177412	-66.0420667011
104812500.0	-15.7179831032	118.396594703	-13.8858368322	-139.863469375	-61.6767510424	57.2347511786	-21.4579417022	-66.1401308996
105500000.0	-15.761753772	114.896695851	-13.6515106545	-141.466273328	-61.5354791744	78.8269814651	-21.5245276589	-66.1938661533
106187500.0	-15.8113448918	111.29330823	-13.452737356	-143.047508376	-61.0358135546	81.6137046132	-21.5995288326	-66.2208612016
106875000.0	-15.8652538401	107.531794131	-13.2908660693	-144.58848605	-61.2185540496	97.5302885795	-21.6752301602	-66.3243084962
107562500.0	-15.9413101254	103.620125087	-13.1718856926	-146.014367522	-61.3358436316	85.8154365683	-21.7585769182	-66.415298463
108250000.0	-16.0245022279	99.4687893934	-13.1016036444	-147.299741871	-61.5295591516	71.77388732	-21.8339991665	-66.5764522681
108937500.0	-16.0868220365	95.5673954774	-12.9612547257	-148.585161752	-61.7726281597	60.1747806514	-21.9067136534	-66.5882657415
109625000.0	-16.1568827572	91.5810230597	-12.8543301019	-149.738988333	-61.7089697077	48.5210502336	-21.9713745697	-66.5916637733
110312500.0	-16.2221291525	87.4263074828	-12.7750141044	-150.73556501	-61.7178951847	37.6740273614	-22.0448491006	-66.6255158963
111000000.0	-16.3079302636	83.1917286838	-12.7331835856	-151.473112464	-61.2888961947	39.3900191653	-22.1167960903	-66.6354107535
111687500.0	-16.3869697842	78.8112920413	-12.7130486883	-151.897898214	-61.0045687558	43.6967304199	-22.1894322997	-66.7623674791
112375000.0	-16.4839685187	74.2649901296	-12.7068685776	-151.897730177	-61.2627168679	61.0219668862	-22.2690114894	-66.8429752683
113062500.0	-16.5716059559	69.597146012	-12.6988295902	-151.488065047	-61.2557839167	88.9286874854	-22.3540580549	-66.8897010829
113750000.0	-16.6841442379	64.7912054329	-12.6636259958	-150.627628631	-61.2873084893	116.329316635	-22.4310781723	-66.9303828911
114437500.0	-16.789777199	59.8492600657	-12.5854267311	-149.386622822	-61.1981727138	146.467309938	-22.5187242014	-66.9509333311
115125000.0	-16.9138394949	54.6664538336	-12.4543860657	-147.894708874	-61.2443258225	175.313106243	-22.6017199179	-66.9348037885
115812500.0	-17.0393445189	49.3749295731	-12.2688452741	-146.224714237	-60.9794759042	-164.640536603	-22.6954136827	-66.9344954607
116500000.0	-17.1767907601	43.83264846	-12.0235975434	-144.448262195	-60.9803431691	-145.186557104	-22.7765521628	-66.8360313137
117187500.0	-17.3216285421	38.2241102725	-11.7240235309	-142.627503455	-61.1047506647	-124.360965469	-22.8572838139	-66.7867225021
117875000.0	-17.4856327783	32.3187901037	-11.3717969366	-140.836219668	-61.1554942678	-107.283323889	-22.9467924971	-66.5749967696
118562500.0	-17.6734170063	26.3021970368	-10.9721492482	-139.096123621	-61.4700864413	-90.9052947299	-23.0388725739	-66.2934461556
119250000.0	-17.8686013466	20.0357731143	-10.5228572071	-137.433218046	-61.1123836222	-74.414515071	-23.1328956179	-65.8893939457
119937500.0	-18.1025256308	13.5994781425	-10.0302129901	-135.870632584	-61.3863077856	-57.8134778728	-23.2095691361	-65.4597046479
120625000.0	-18.3534507924	6.95060544372	-9.49362818293	-134.447181778	-61.8974147067	-38.6621910095	-23.2917081669	-65.0452157148
121312500.0	-18.6695628294	0.184554955673	-8.91708824995	-133.17234626	-62.0660846482	-21.5922985678	-23.3654203305	-64.5415062946
122000000.0	-19.0059925521	-6.75256502727	-8.30123267823	-132.053217441	-62.5138388813	-3.89224373656	-23.4440813143	-63.9682025494
122687500.0	-19.425817011	-13.9737871339	-7.65196950678	-131.138492038	-62.1124160403	27.8039638898	-23.5027116059	-63.2707320739
123375000.0	-19.9162897018	-21.3167812952	-6.9682131644	-130.411493618	-62.4596581236	69.1852719642	-23.5540746779	-62.5462490937
124062500.0	-20.5146678433	-28.9410491917	-6.25234242448	-129.931166616	-61.8680635503	111.401616273	-23.6033656766	-61.7515002584
124750000.0	-21.2669951325	-36.5611556709	-5.50689211806	-129.656049773	-61.8535089886	153.809982351	-23.6453139467	-60.9009076942
125437500.0	-22.2693099403	-44.4390952012	-4.72967463798	-129.644415238	-61.7324755745	-160.129130398	-23.6785547739	-59.9395653446
126125000.0	-23.5673917601	-46.3186583376	-3.92063192613	-129.898121143	-61.4341440627	-103.922890882	-23.7068667808	-59.1225529493
126812500.0	-24.4580275227	-47.7936489289	-3.08264481579	-130.472373151	-61.1642418858	-45.461031512	-23.730115302	-58.1949597417
127500000.0	-25.076834293	-49.1667541556	-2.21881224378	-131.390288133	-61.0641830264	2.22704792875	-23.7368813725	-57.3482655867
128187500.0	-25.6290143187	-50.7724051323	-1.33008464605	-132.748706713	-60.9085215624	47.997555079	-23.7447316905	-56.4095726473
128875000.0	-26.0571939306	-52.357250222	-0.4229359962	-134.585659606	-60.6067813217	92.8192125997	-23.733024416	-55.3985794008
129562500.0	-26.4484165558	-54.074955806	0.489306239894	-136.994227425	-60.2893876361	134.115551393	-23.7147477737	-54.4799719968
130250000.0	-26.7857201673	-55.8429049983	1.38827323572	-139.974805592	-59.9954870631	166.95156667	-23.6966778306	-53.6384428675
130937500.0	-27.0622108126	-57.691557702	2.25174701705	-143.545418273	-59.7442056116	-163.605956865	-23.6713154293	-52.7887588337
131625000.0	-27.323961086	-59.4713889841	3.0595677868	-147.599087728	-59.358367413	-135.420678591	-23.6307517437	-51.970539477
132312500.0	-27.5311177287	-61.3036391061	3.80485989667	-152.050538319	-59.6455392679	-109.975974531	-23.5977637762	-51.1886353146
133000000.0	-27.7305910776	-63.0965967307	4.48480333065	-156.781081601	-59.2614645624	-82.7715648388	-23.5519315384	-50.5129149979
133687500.0	-27.8804635411	-64.8501491504	5.09524630956	-161.732797243	-59.4400930641	-61.5765131068	-23.5146689061	-49.8528307088
134375000.0	-28.0178422092	-66.5798301726	5.64128006543	-166.800090506	-58.8854110909	-42.1605131214	-23.4639055968	-49.3033825623
135062500.0	-28.1044426458	-68.2667997774	6.1251431837	-171.958639729	-58.6523547261	-26.8857471909	-23.413634463	-48.8034764105
135750000.0	-28.1676087646	-69.8633297027	6.54880936165	-177.119380191	-58.0899262118	-1.02731159954	-23.3566502783	-48.4094234805
136437500.0	-28.1986413427	-71.2981647859	6.91905887645	177.690202695	-58.2165683528	19.2863817388	-23.300978763	-48.2303837671
137125000.0	-28.1917654474	-72.6770258545	7.2363970898	172.547537139	-57.9779911116	45.4353798866	-23.255152359	-48.046339352
137812500.0	-28.1333877596	-73.8564077515	7.50640836309	167.462211464	-57.8146246474	74.8134994323	-23.1988112576	-47.9182419806
138500000.0	-28.0268487881	-74.9804110884	7.73096674416	162.465199209	-57.5664988536	102.475639531	-23.1341747649	-47.8912225358
139187500.0	-27.8767603063	-75.9051471655	7.91571919955	157.560437153	-56.8506143326	119.601042282	-23.0830894664	-47.9290649941
139875000.0	-27.6436886929	-76.6348873516	8.06157719733	152.78000458	-56.7824282493	133.976875612	-23.0452491615	-48.0963358497
140562500.0	-27.3231486168	-77.2113580816	8.17630612336	148.116434173	-56.3261256956	138.721579054	-23.0165244083	-48.3775090714
141250000.0	-26.8920118104	-77.5368231979	8.26049375594	143.609956835	-56.7535900576	139.777156941	-22.9749425679	-48.6523431699
141937500.0	-26.3027708372	-77.752900228	8.31781004431	139.233005877	-56.2476391052	131.456359592	-22.9496106463	-49.0408278492
142625000.0	-25.4528404653	-77.7316804981	8.35186041864	135.020498856	-56.15031289	118.977978348	-22.9237929204	-49.4322862186
143312500.0	-24.3019659469	-83.5646938956	8.36516001695	130.946785646	-55.9283600988	106.115880488	-22.9114757061	-49.8692415022
144000000.0	-23.5496498442	-89.8397792746	8.36253310482	127.02643377	-56.2622900033	93.7863307193	-22.8986974529	-50.3197820227
144687500.0	-23.0777995234	-96.1138372544	8.34667056856	123.257340471	-56.4328084244	79.2648308706	-22.8886592858	-50.8508368062
145375000.0	-22.6484556326	-102.078944589	8.3185858271	119.640599878	-56.5056472404	64.9238787713	-22.8856333877	-51.3983424414
146062500.0	-22.3545549175	-107.966770576	8.28148662745	116.155981725	-56.3499326056	48.1019880237	-22.9045441848	-52.0294932128
146750000.0	-22.071445321	-113.597921955	8.23687314728	112.796931733	-56.8196095475	24.461872593	-22.9268305684	-52.4869772936
147437500.0	-21.8648981326	-119.111575877	8.18459334284	109.564288173	-56.6421673882	7.64621792736	-22.9338530525	-53.0730312472
148125000.0	-21.6877926202	-124.412758557	8.12912392292	106.452484049	-57.8340373417	-17.6998809634	-22.9559068915	-53.5678091039
148812500.0	-21.5331259694	-129.718240284	8.06909796441	103.452903414	-57.9544547872	-31.7964749789	-22.9712618024	-54.0918775748
149500000.0	-21.4158815117	-134.686353631	8.00926254269	100.562075212	-58.5424208234	-51.0435404272	-22.9999085177	-54.5630124427
150187500.0	-21.3058519917	-139.639612858	7.94594579619	97.7602559817	-58.6286866259	-65.2194842751	-23.021963636	-54.9525853946
150875000.0	-21.2390806289	-144.340057124	7.88463487874	95.060316238	-58.5332927281	-84.3500605291	-23.0415246395	-55.295042584
151562500.0	-21.1670621521	-149.089448889	7.82237913343	92.4361322655	-59.0939842371	-98.7455673409	-23.066939876	-55.5687657648
152250000.0	-21.1341375314	-153.541334159	7.7596898585	89.9017128014	-58.9164955912	-113.724652622	-23.1101425218	-55.8474078876
152937500.0	-21.0961894621	-157.998532279	7.69703673873	87.4309801764	-58.9416283586	-127.738871559	-23.1338482144	-56.0614826643
153625000.0	-21.0857257925	-162.330670122	7.6363683846	85.0520664504	-58.762040366	-143.381987129	-23.1726578852	-56.1513881358
154312500.0	-21.0658443798	-166.576232516	7.57648898649	82.7179765202	-58.8742705353	-154.418644372	-23.1835521492	-56.3441059007
155000000.0	-21.0774834327	-170.792008627	7.51701463031	80.4560056185	-58.4986167226	-172.463713352	-23.2283706924	-56.4297204474
155687500.0	-21.0716556089	-174.88253969	7.46015552824	78.2435288832	-58.613446331	172.771664765	-23.2725755166	-56.4595091449
156375000.0	-21.0958054569	-179.02190857	7.40228936518	76.0910865476	-58.9346147063	156.224496011	-23.3125170242	-56.4697905757
157062500.0	-21.0989578608	177.027739674	7.34755588505	73.9779110303	-59.2801125003	138.227520273	-23.3393012547	-56.4022966684
157750000.0	-21.1241072662	173.077378663	7.29328870125	71.9220458071	-59.2317719562	123.586063301	-23.3740324928	-56.2711654437
158437500.0	-21.1404751865	169.296161159	7.24067750612	69.8991039102	-59.0576708759	122.962758036	-23.4167314904	-56.1578939436
159125000.0	-21.1595495594	165.506085625	7.19056816765	67.9416824371	-59.2482312523	121.388009345	-23.4735592647	-55.9955732819
159812500.0	-21.1859740137	161.811934201	7.14318664072	65.9952617722	-59.3213798496	122.953590033	-23.5132892133	-55.7778751935
160500000.0	-21.2104006417	158.069891861	7.09681578354	64.1027598596	-59.2437815649	122.111883719	-23.5649415642	-55.6178693793
161187500.0	-21.236575118	154.516235521	7.05124392998	62.2388117523	-58.8931557037	111.72986873	-23.6044711242	-55.4082249284
161875000.0	-21.2612522528	150.925621345	7.00650650208	60.4065292448	-58.8023874189	108.85836857	-23.6838162159	-55.1612168357
162562500.0	-21.2986585373	147.392506634	6.96483949772	58.5928913762	-58.8161105097	101.824501072	-23.7493272215	-54.9368305761
163250000.0	-21.3149118006	143.911999215	6.92336895419	56.8223335038	-58.9548130809	103.826744826	-23.816642379	-54.7146858235
163937500.0	-21.3619151449	140.505612033	6.88324219837	55.0767308563	-58.5349867883	104.282851754	-23.874742029	-54.4810399224
164625000.0	-21.379342341	137.183841349	6.84570105163	53.3652725682	-58.8673197583	103.577219766	-23.9506867439	-54.1782095681
165312500.0	-21.4243502502	133.900022254	6.80882112006	51.6769075373	-57.7272118328	105.972914204	-24.0248813803	-53.9292066047
166000000.0	-21.46058581	130.709126084	6.77453805659	50.0156704011	-58.0880744416	105.109975925	-24.1027579305	-53.7483548683
166687500.0	-21.5130028414	127.427764485	6.7402714329	48.3670685742	-57.0263222959	104.251361416	-24.1923368081	-53.509585327
167375000.0	-21.5562497132	124.309232139	6.70803797575	46.7603835196	-57.3760090894	99.5077045441	-24.2740595207	-53.4352336577
168062500.0	-21.5975388271	121.069497331	6.67610412137	45.168779692	-57.622452881	101.045592726	-24.3624599702	-53.3485164548
168750000.0	-21.6381169409	118.063683965	6.64623348828	43.6104157094	-57.1506580014	96.3972238819	-24.4577124257	-53.3286431265
169437500.0	-21.6767408772	114.928158841	6.61783610819	42.0640847067	-57.1419139222	98.7180774414	-24.5499038163	-53.2899374585
170125000.0	-21.7266524412	111.926992139	6.59354713856	40.5340474965	-57.3071660885	91.9676053619	-24.6427172741	-53.3298353966
170812500.0	-21.7705289331	108.771979578	6.56820011678	39.0174395478	-57.1918559191	90.1370331317	-24.7576389901	-53.3910542488
171500000.0	-21.8198089405	105.806110987	6.54616725972	37.5345712287	-57.2220976895	78.0425172168	-24.8652683508	-53.4324934244
172187500.0	-21.8643119698	102.735855285	6.52703521986	36.0560653453	-57.1015543319	77.9107534927	-24.9654429172	-53.5588362427
172875000.0	-21.9174613162	99.719039001	6.50793621414	34.5998398515	-57.0397211557	67.4909426795	-25.0631651365	-53.7074689805
173562500.0	-21.9398256362	96.6824705347	6.49169563572	33.155494733	-56.6734405818	68.2609413594	-25.1812246925	-53.8748420177
174250000.0	-21.9958565709	93.6743340493	6.47889017491	31.7336951534	-56.471873832	61.2723326881	-25.2884896093	-54.125680712
174937500.0	-22.0190530242	90.5416287903	6.4677413378	30.3188015002	-56.6536398954	62.4655473528	-25.3983554548	-54.4934305606
175625000.0	-22.0566273088	87.346496668	6.45892141231	28.9122740336	-56.6985804896	51.514466359	-25.501711442	-54.7542418347
176312500.0	-22.0762314224	84.181695516	6.45102148528	27.5170201936	-56.8947064158	51.2256944596	-25.5894982763	-55.1825608376
177000000.0	-22.1050028338	81.0293667923	6.44519431492	26.1399003323	-56.7544310315	52.8634745095	-25.6946870654	-55.5717773604
177687500.0	-22.1122849112	77.9022912781	6.44104182451	24.7537815482	-56.9496801942	52.1002972022	-25.8026873797	-55.9350976527
178375000.0	-22.1381603748	74.6665495176	6.43984358374	23.383886439	-56.9515566816	53.8801325587	-25.9283426552	-56.2469298181
179062500.0	-22.1405252428	71.584644275	6.44016268321	22.0142685018	-57.3835280078	58.5041251881	-26.0091482308	-56.8158027163
179750000.0	-22.1346766924	68.3593766892	6.44186635092	20.6660267534	-57.3186536366	57.548491302	-26.1108937502	-57.143563717
180437500.0	-22.1324551644	65.1678116118	6.44592696487	19.3083150306	-57.6297203279	54.6092669348	-26.1753812835	-57.4939090964
181125000.0	-22.110058685	61.8161662506	6.45109656148	17.9601832424	-57.6958350184	55.7879758454	-26.274831495	-57.8079062441
181812500.0	-22.1005341245	58.6346553403	6.45712852808	16.6040238823	-57.4898177022	51.3537561974	-26.3444552106	-58.1692802987
182500000.0	-22.0615869966	55.2556318556	6.46471563091	15.2685984362	-57.63721421	53.5508708838	-26.440650486	-58.4565066535
183187500.0	-22.0251142175	52.0033122415	6.4738291101	13.9291634549	-57.5645971965	47.6034604127	-26.5208307161	-58.6588148959
183875000.0	-21.9741985251	48.7445008673	6.48382377959	12.5996265919	-57.578009538	48.0791365732	-26.5962053727	-58.9493117186
184562500.0	-21.9248211636	45.4373529279	6.49444444773	11.2609293351	-57.3331773315	49.4352757219	-26.6608269092	-59.133638691
185250000.0	-21.8591659874	42.191309892	6.50642411102	9.93770583835	-56.8769586672	48.4911749712	-26.7500119804	-59.3479122533
185937500.0	-21.8171247783	38.8692061749	6.51777346206	8.59600430717	-57.1962028185	46.8697446735	-26.8083554573	-59.4139549144
186625000.0	-21.7613781537	35.584567042	6.53226712045	7.27390922569	-57.3029811597	45.6890854107	-26.8847083786	-59.4671715744
187312500.0	-21.6994374575	32.2512778452	6.54662381085	5.93839449995	-57.0577746801	47.9130735692	-26.9475763754	-59.4191248739
188000000.0	-21.6202222051	29.0582583332	6.56273350473	4.61717493102	-57.1971634374	48.7114824956	-26.9972102406	-59.4521887503
188687500.0	-21.5562567175	25.7272884951	6.57712183155	3.28927071519	-57.7098593438	50.4059899484	-27.0616271563	-59.3896814763
189375000.0	-21.4806670467	22.4737632092	6.59277492225	1.9677349242	-57.9109263173	50.1880706831	-27.1288502176	-59.3534497144
190062500.0	-21.4064766995	19.1479887468	6.6100285442	0.64072951198	-57.7603694001	53.2451445979	-27.1897163474	-59.1426017719
190750000.0	-21.3368133157	15.9346009616	6.62919380768	-0.66939536176	-58.0620310317	50.2652668558	-27.2561684222	-59.0572697186
191437500.0	-21.2607799102	12.5685860722	6.64551930451	-1.98468192653	-58.0331137347	52.4514987909	-27.3212628306	-58.7540120016
192125000.0	-21.1898538372	9.41389431057	6.66283304877	-3.29201327421	-58.1127399201	44.9308708406	-27.3908420601	-58.450109539
192812500.0	-21.1077426697	6.16439205929	6.68143504299	-4.59556657807	-57.5932404676	47.2232126406	-27.4716768257	-58.2001544318
193500000.0	-21.0385393317	2.97540603788	6.70016336086	-5.90318388662	-57.2852110964	46.1051205739	-27.5669209776	-57.9540340321
194187500.0	-20.9520585041	-0.271381283923	6.71778830262	-7.20521541034	-57.2262045571	45.1893448161	-27.6351563172	-57.5415095459
194875000.0	-20.8918152435	-3.51481872629	6.73704630512	-8.49828817903	-57.4983404552	40.2537517657	-27.6979971297	-57.216276684
195562500.0	-20.798861044	-6.744867676	6.75637897154	-9.79535560604	-57.5292949877	39.1943115604	-27.7631696782	-56.8889371548
196250000.0	-20.7270986204	-10.0255885657	6.77477011448	-11.0807594491	-57.4303229604	32.8459672645	-27.8468646006	-56.4678625304
196937500.0	-20.6374550646	-13.2350837129	6.79446918216	-12.377562107	-57.4817995717	31.3972735705	-27.9203878663	-56.0357086763
197625000.0	-20.5596736442	-16.4581940423	6.81407662133	-13.6566146458	-57.1709396705	25.0098729517	-28.0095929762	-55.6258101957
198312500.0	-20.4678717983	-19.5785693109	6.83563287623	-14.9276493249	-57.043421084	24.4235594678	-28.0795136287	-55.5016183839
199000000.0	-20.3828415746	-22.8555622678	6.85889315432	-16.2066261515	-56.9586547894	22.5264779576	-28.1484303196	-55.3032566499
199687500.0	-20.2882408431	-25.9263341657	6.88125782637	-17.4873879226	-56.5844947605	19.8542709677	-28.2263298336	-55.2303785628
200375000.0	-20.2011206147	-29.0961839627	6.9032928865	-18.7635265535	-56.2187509364	19.9656276876	-28.3130792289	-55.1985342038
201062500.0	-20.1023138816	-32.1790554421	6.92561263199	-20.0319465124	-56.1084826035	16.8097534602	-28.3924006687	-55.1386363931
201750000.0	-20.0020696739	-35.2669163735	6.95024835924	-21.2973818073	-56.0752043155	12.8352457655	-28.4791620276	-55.0179409288
202437500.0	-19.9052965209	-38.2370583792	6.9743130718	-22.5670226785	-56.9221261982	11.6150593773	-28.5502335363	-54.9884332162
203125000.0	-19.7911990688	-41.2606754727	7.00002693103	-23.8202564257	-56.610325994	9.19500561581	-28.6241207524	-55.0058388315
203812500.0	-19.6696117908	-44.1073773593	7.02462452117	-25.0855727582	-56.8956376903	8.849781293	-28.698050343	-55.2856631953
204500000.0	-19.5524572176	-47.0146825517	7.05118510218	-26.3389451409	-57.0064757883	6.86988256815	-28.7562970683	-55.3735309163
205187500.0	-19.4441227859	-49.7910697518	7.07821867765	-27.5958014304	-57.207896747	0.285186919204	-28.8252071445	-55.6062632379
