#Frequency	|S11|	<S11	|S21|	<S21	|S12|	<S12	|S22|	<S22
100000000.0	-17.3083304274	131.151871435	-17.2953029489	-127.463741104	-55.0307489319	48.9525229248	-21.2255931445	-63.215979506
100687500.0	-17.255167177	128.132457466	-16.8869166917	-128.417331872	-58.7942244181	-38.3328721429	-21.2969729656	-63.1271423934
101375000.0	-17.1678217656	125.238734763	-16.5239627322	-129.793797192	-57.4694544358	-75.7916853741	-21.353504253	-63.0260909409
102062500.0	-17.1171539172	122.271307837	-16.1755070515	-131.098766586	-59.7307423802	-134.644100418	-21.4452572791	-62.8669931221
102750000.0	-17.0603645927	119.31563157	-15.8417424484	-132.516089085	-60.2664979477	-174.317992262	-21.5298361355	-62.7359980778
103437500.0	-17.0127982637	116.36620761	-15.5390411467	-133.962031166	-60.1268992861	110.339990105	-21.6140994706	-62.6247732072
104125000.0	-16.9696760722	113.249571957	-15.2634971138	-135.441175306	-61.4305854998	81.8871688187	-21.7202709034	-62.5560193571
104812500.0	-16.9415776212	110.113924971	-15.0122491619	-136.891270816	-60.6116230737	64.8373336319	-21.8085604254	-62.6538257049
105500000.0	-16.9201455609	106.867417695	-14.7886533775	-138.326448585	-60.5158648507	70.4422102587	-21.899448878	-62.7029981564
106187500.0	-16.9056594195	103.500648067	-14.5981051447	-139.755263707	-60.6401635206	58.6458016479	-21.9980737102	-62.8037242792
106875000.0	-16.8939833362	100.011168431	-14.4414046791	-141.12128222	-60.6479798714	38.7837716148	-22.0945136359	-62.8979783353
107562500.0	-16.8980774545	96.4334368336	-14.3304324446	-142.393730455	-60.5306655517	22.793442857	-22.190881408	-62.952463984
108250000.0	-16.9030605668	92.6778498378	-14.2695943567	-143.481429965	-60.7189158553	9.17026781042	-22.2728530221	-63.0910897272
108937500.0	-16.8904996827	89.1120386709	-14.1363483795	-144.582783971	-60.8582165895	-11.0094695526	-22.3648829577	-63.0850579667
109625000.0	-16.8847433292	85.4873272525	-14.0348622955	-145.582210577	-60.7786605089	-29.4052630474	-22.4548586393	-63.1364145572
110312500.0	-16.8732944611	81.7437375404	-13.9688689867	-146.384807442	-60.4564674928	-42.3534551018	-22.5464119127	-63.1847877342
111000000.0	-16.8750182898	77.9028005663	-13.9247137949	-146.961367939	-60.8564657712	-43.7551001972	-22.6425949593	-63.2476496822
111687500.0	-16.8779151546	73.9462209004	-13.9076827324	-147.203578964	-61.1838981102	-55.4697364023	-22.7250038236	-63.3634579109
112375000.0	-16.8880782956	69.9425608151	-13.9027959334	-147.074719157	-61.1255831062	-67.8938125797	-22.8024846975	-63.497452706
113062500.0	-16.8913673366	65.814210367	-13.8901664884	-146.51522678	-60.8641008149	-68.6405767211	-22.8893989946	-63.5436409324
113750000.0	-16.9080185116	61.5780267622	-13.8539644765	-145.521215453	-60.6725220344	-80.4681495289	-22.9731597448	-63.6298798508
114437500.0	-16.9295078768	57.2625647387	-13.7772740345	-144.184375937	-60.7756218218	-92.375167032	-23.0585862883	-63.6887544665
115125000.0	-16.9583335982	52.7342504686	-13.6465179718	-142.582167462	-60.9887469046	-94.5779221395	-23.1496454849	-63.7159700384
115812500.0	-16.9888242475	48.1587401979	-13.4633498061	-140.800831381	-61.2059638073	-95.0728066305	-23.2361991811	-63.6315229911
116500000.0	-17.0318275383	43.4269463093	-13.2218582152	-138.907654162	-60.4594167229	-107.815331575	-23.3164503176	-63.6193544285
117187500.0	-17.0843377171	38.6646853534	-12.9252089117	-136.986949123	-60.5725427005	-130.593173125	-23.3914462923	-63.5395638861
117875000.0	-17.156162229	33.7057122329	-12.5767277678	-135.085306974	-60.6017245056	-143.821499552	-23.4855166292	-63.3418728207
118562500.0	-17.2375207566	28.6765428947	-12.179985598	-133.239736922	-60.8054666362	-154.76326247	-23.5582228909	-63.0379211112
119250000.0	-17.348042803	23.5030454372	-11.7347982172	-131.466200145	-61.2148012046	-178.823386593	-23.6300019599	-62.6297531994
119937500.0	-17.479618034	18.2669769645	-11.2466789525	-129.818297807	-61.2203668344	166.861104295	-23.6857840453	-62.272206489
120625000.0	-17.648938705	12.885657023	-10.7164516068	-128.28230443	-61.3895171015	151.825320455	-23.7532972814	-61.8464640924
121312500.0	-17.8586165408	7.49840423964	-10.1481004322	-126.900942139	-61.174931763	130.117541707	-23.7987585493	-61.3157376592
122000000.0	-18.1150309266	2.07713726286	-9.54303508826	-125.69092489	-61.5095540163	115.23555632	-23.8580251296	-60.7638485988
122687500.0	-18.4353394361	-3.36888407087	-8.9012061551	-124.665243823	-61.2325934467	101.197658897	-23.8934191013	-60.1629715031
123375000.0	-18.8217280938	-8.72811367449	-8.22596976825	-123.838734234	-61.8340908008	86.1455010467	-23.9296496494	-59.4351356399
124062500.0	-19.2965810293	-13.8849406594	-7.51843781363	-123.211349389	-61.4574459771	77.6338353633	-23.9571858685	-58.7341512327
124750000.0	-19.8815831123	-18.4232215573	-6.78170825605	-122.833670745	-61.1102124915	63.6204063896	-23.9817548603	-57.9609781344
125437500.0	-20.4849988843	-22.3252378602	-6.01097449074	-122.694091979	-60.9463532568	53.9412948528	-24.0018500543	-57.0789258199
126125000.0	-21.1376640503	-24.8312782989	-5.21237440189	-122.82904657	-60.7458392204	39.2820372067	-24.0100413116	-56.2148060741
126812500.0	-21.697958605	-26.7826337033	-4.38295151673	-123.255534437	-60.8433544162	26.2418552858	-24.01339745	-55.2768383154
127500000.0	-22.1699938539	-28.2368619651	-3.52672618352	-124.055294897	-60.7690149364	6.04279324371	-23.9989504306	-54.4120380308
128187500.0	-22.5849472573	-29.602250045	-2.64585748327	-125.238381058	-60.5317276426	-21.0708610467	-23.9837944458	-53.4863410358
128875000.0	-22.9531824537	-30.7598066097	-1.74907431378	-126.906948137	-60.2905267221	-40.4212835771	-23.9600276997	-52.4787539343
129562500.0	-23.2623807226	-31.8955647087	-0.843962921749	-129.107456306	-60.068372421	-54.4351137563	-23.9456077953	-51.4761984736
130250000.0	-23.548845536	-33.0155863095	0.0455752110946	-131.870230928	-59.9668687714	-72.0247959035	-23.9226371784	-50.5620547447
130937500.0	-23.7969724929	-34.131560573	0.905318456987	-135.199580123	-60.3195138304	-85.3572274378	-23.894654559	-49.6114178557
131625000.0	-24.0243913175	-35.17453969	1.71419523878	-139.008942336	-59.834017834	-92.4469933914	-23.8510767124	-48.7147328972
132312500.0	-24.2325570098	-36.2178585329	2.46362480904	-143.181601536	-60.1037561603	-103.58175738	-23.8104664702	-47.8079588584
133000000.0	-24.422915451	-37.227786345	3.14932848361	-147.669341514	-59.8557443441	-114.521306795	-23.7638641578	-47.0432560736
133687500.0	-24.60437154	-38.3217017951	3.77004425315	-152.347681886	-59.660321287	-115.428044373	-23.7238396223	-46.2092632109
134375000.0	-24.7640945522	-39.3333355894	4.3291094884	-157.178097786	-59.3295825314	-115.029751145	-23.6732136544	-45.5212111083
135062500.0	-24.8934560156	-40.4410360235	4.82906696389	-162.058081476	-59.2702592204	-117.716357515	-23.6169385619	-44.8195363328
135750000.0	-25.0139131686	-41.4184857226	5.27320705872	-167.00175688	-59.1158753821	-128.614447221	-23.5676378894	-44.2680070157
136437500.0	-25.1001336379	-42.4217789118	5.66345819739	-171.939718203	-58.6081768972	-131.733770976	-23.5261206702	-43.8450271117
137125000.0	-25.1705087572	-43.392389815	6.00375904136	-176.868888189	-58.3809165442	-142.328563188	-23.4937673454	-43.4305101105
137812500.0	-25.1836798875	-44.2858060787	6.2990578058	178.26347198	-57.9371632869	-140.860995495	-23.4453905154	-43.0115660712
138500000.0	-25.165849909	-45.1994469712	6.55334930636	173.451895099	-58.0831845876	-140.310599612	-23.4078511438	-42.7750689103
139187500.0	-25.0892044061	-46.1642161921	6.7659564911	168.745645783	-57.5590229154	-146.4274889	-23.3731338409	-42.4981924184
139875000.0	-24.9537022939	-47.2261956318	6.94513110829	164.126781113	-58.3517608003	-146.014184941	-23.3647453959	-42.3326896746
140562500.0	-24.7510623221	-48.3330810378	7.09207072364	159.634726942	-57.6940994017	-151.381536568	-23.3496900781	-42.3192871375
141250000.0	-24.4572713234	-49.7584748721	7.2099966991	155.25289858	-58.0901431791	-156.499713593	-23.3295984205	-42.2923979201
141937500.0	-24.0579516865	-51.7419858404	7.3028744145	151.016188837	-58.1213779749	-162.555222176	-23.3169815225	-42.3002224017
142625000.0	-23.6379317353	-54.4187930432	7.37502861972	146.892392395	-57.9463392798	-166.220864435	-23.3092777884	-42.3616887233
143312500.0	-23.1638517024	-58.3738329167	7.42493800091	142.913650915	-58.1594382518	-173.1795559	-23.3107201163	-42.4999851989
144000000.0	-22.7824097065	-63.0055797793	7.45983729815	139.038735933	-58.0436720403	-174.680665203	-23.3170227678	-42.6952380979
144687500.0	-22.4969738549	-68.0487220519	7.48092436206	135.310061556	-58.1410451306	-175.995351536	-23.3366263068	-42.8150816964
145375000.0	-22.2666029067	-73.1661687362	7.48836640392	131.693185663	-58.2178290961	-175.734285264	-23.3641159094	-43.0177093874
146062500.0	-22.0801194298	-78.403126096	7.4857132218	128.208747741	-58.6875068982	177.574335736	-23.4082877812	-43.2283401878
146750000.0	-21.9472598876	-83.690712808	7.4749447703	124.816483192	-58.6074883158	175.857814887	-23.4502176421	-43.4256144692
147437500.0	-21.8461645586	-88.9441069712	7.45460200556	121.549943362	-58.8386228869	170.616437445	-23.4753970193	-43.6509314589
148125000.0	-21.7826699261	-94.120520183	7.42914091436	118.379659481	-58.2524202366	170.111020526	-23.5195388	-43.849204422
148812500.0	-21.7378084354	-99.3816955728	7.39624472334	115.324870007	-58.6290106809	166.201689649	-23.5592653922	-44.0863747664
149500000.0	-21.7026323719	-104.441015094	7.3618865582	112.349389526	-57.9534395328	159.835632768	-23.6214194898	-44.3241164234
150187500.0	-21.6873562104	-109.573290036	7.32237510831	109.48081929	-58.2778834556	157.83533038	-23.6792673186	-44.4302994374
150875000.0	-21.6724550825	-114.39583417	7.28203381851	106.68491206	-58.3107082909	154.640936491	-23.7436004723	-44.5213992022
151562500.0	-21.6814626918	-119.412105688	7.23923112731	103.969726799	-58.7338205512	152.64283722	-23.8020017144	-44.6676350997
152250000.0	-21.6941021585	-124.06718268	7.19476596262	101.312468095	-58.6987486225	142.297237748	-23.8748626286	-44.7325950241
152937500.0	-21.7158548462	-128.819611883	7.14755125893	98.7471588192	-58.6685219406	139.095927455	-23.9332236709	-44.830851418
153625000.0	-21.7402735329	-133.379033063	7.10167112873	96.2435728676	-58.5712369614	133.810904779	-24.0167401803	-44.7927867434
154312500.0	-21.7566726232	-137.96247726	7.05384647656	93.8076843107	-58.6870796648	130.849204781	-24.0700514928	-44.8094549354
155000000.0	-21.7966388526	-142.405138719	7.00603196762	91.4228141681	-58.6397922702	119.702505633	-24.1488628116	-44.7907818901
155687500.0	-21.8242489792	-146.787691611	6.95806314238	89.1180842767	-58.5411303566	117.595681583	-24.2326284658	-44.7351716728
156375000.0	-21.87219037	-151.096435935	6.91057112974	86.8453345406	-58.8684772409	113.797727615	-24.3013125681	-44.6862773897
157062500.0	-21.9039619858	-155.276958084	6.86313718208	84.6428926272	-58.1070745238	112.423153583	-24.3623827201	-44.6133492469
157750000.0	-21.9403788088	-159.425746175	6.81649991385	82.4681069248	-58.008792533	107.236952415	-24.4419102613	-44.4248214315
158437500.0	-21.9810484706	-163.431532938	6.77015087824	80.3457995438	-57.5476294678	105.647111211	-24.5266274318	-44.2601487251
159125000.0	-22.0197400306	-167.385617573	6.72543198596	78.2646346118	-57.6771329144	103.791474671	-24.6281979148	-44.0881885619
159812500.0	-22.0667678611	-171.158189833	6.6792405742	76.2359026287	-57.7086379932	101.439192857	-24.7170457262	-43.9484164652
160500000.0	-22.116976094	-175.035683641	6.63544647234	74.2296330714	-57.7057394869	100.036954311	-24.8064696554	-43.82788552
161187500.0	-22.1550811827	-178.647119328	6.59080520115	72.2758840429	-57.5104797493	95.7823754243	-24.9013386294	-43.6298526357
161875000.0	-22.2033672983	177.720956788	6.54738076603	70.3473024095	-57.8765955958	93.2934426862	-25.0173107237	-43.462467886
162562500.0	-22.2550938448	174.223069941	6.50505036903	68.4655229062	-57.5070168711	93.1867067438	-25.1131569575	-43.3584771668
163250000.0	-22.2984361232	170.730334922	6.46260406337	66.5993730116	-57.17333486	93.6919953043	-25.2168829834	-43.218228434
163937500.0	-22.3551064419	167.369454605	6.42061069787	64.7828991371	-57.141824035	93.4635073355	-25.3275647681	-43.0843882957
164625000.0	-22.4060151196	164.053676046	6.38168139453	62.9810256882	-56.9881603652	92.1045633368	-25.4528869204	-43.00375507
165312500.0	-22.4694675063	160.851397403	6.34061619338	61.2240446934	-57.2529706444	84.7133444337	-25.579013454	-42.9120949339
166000000.0	-22.5328747031	157.692841022	6.30376455292	59.4741688916	-57.2998525308	83.4865904918	-25.7135816753	-42.9761597195
166687500.0	-22.6110990064	154.47130707	6.26607620844	57.7691407389	-57.2844428527	77.1103846964	-25.8343257859	-42.9803685783
167375000.0	-22.6884324178	151.506455939	6.23055219012	56.0777374173	-56.7944505961	77.1236518335	-25.9673067183	-43.1886556299
168062500.0	-22.7641740701	148.383212415	6.1960693913	54.4263234133	-56.7988567454	72.8656106925	-26.079063284	-43.3348653237
168750000.0	-22.8366298464	145.441520675	6.16235363723	52.7968065496	-56.7471912436	71.9765333518	-26.2202948422	-43.5562642148
169437500.0	-22.9188219034	142.334586535	6.12839733214	51.2013876787	-56.6527420641	74.7095254808	-26.3681708424	-43.8008651324
170125000.0	-23.0069542813	139.398409936	6.09841564995	49.606606073	-56.7337364418	76.4394382573	-26.4984080212	-44.1954546145
170812500.0	-23.1040184715	136.349602007	6.06796825384	48.0448672422	-56.9972626935	73.7054337832	-26.6206833974	-44.5847029294
171500000.0	-23.2072191154	133.415004239	6.03953202943	46.5037683953	-56.9709624636	76.310178588	-26.75221811	-45.1040319819
172187500.0	-23.3062524216	130.306455651	6.01346978328	44.9965221739	-57.1710460298	74.8634381365	-26.8717659776	-45.6733025126
172875000.0	-23.4121721241	127.208674696	5.9877959022	43.4790016597	-56.9126562813	76.532383604	-26.9853689538	-46.29806581
173562500.0	-23.5114078721	123.989859464	5.96378650569	41.9998271241	-56.9439367898	76.9383298003	-27.1191199072	-46.9782007921
174250000.0	-23.6189897172	120.968065495	5.94205799274	40.5243773821	-57.0603630973	77.2174687079	-27.237227234	-47.6423849838
174937500.0	-23.7124681275	117.711060718	5.92239913048	39.0774997586	-57.3230313257	79.6896921395	-27.3348427269	-48.3995307702
175625000.0	-23.8040589584	114.476725927	5.90387010341	37.6409738086	-57.4734169081	82.5985521541	-27.4432221401	-49.1226537836
176312500.0	-23.8918916339	111.108654038	5.88526018767	36.2294759415	-57.6606601687	81.1606218603	-27.5232612772	-49.9532042762
177000000.0	-23.9575131617	107.746609413	5.86944531323	34.811523941	-57.9794424349	80.9179565622	-27.618420376	-50.7877850352
177687500.0	-24.0128199857	104.308596072	5.85480999142	33.4218617102	-57.7648423634	82.9969215187	-27.7037355157	-51.6492020619
178375000.0	-24.0881621171	100.85551927	5.84243339544	32.0337587389	-57.8195218777	83.9168132002	-27.7995607216	-52.5089000332
179062500.0	-24.1413464945	97.464157593	5.83097351617	30.6599440184	-57.6264142461	83.5511185588	-27.8476632811	-53.4912720062
179750000.0	-24.1763845623	93.8153497818	5.82202077077	29.2877513132	-57.6901713203	76.4521285737	-27.9282662853	-54.2576327346
180437500.0	-24.2066110169	90.2412595656	5.8135397107	27.9292298371	-57.7826927736	74.5019672642	-27.9649208831	-55.094980394
181125000.0	-24.2274658737	86.5642024109	5.80704593517	26.5613267565	-57.6002957772	67.0383491322	-28.0187282574	-55.7984761827
181812500.0	-24.2374585256	83.0766624199	5.79912492238	25.2157039336	-57.7825891844	65.4096020008	-28.0363934603	-56.5786645056
182500000.0	-24.2249997902	79.3481652973	5.79581329854	23.8700645293	-57.4958720623	62.8478232778	-28.0726873971	-57.2041796064
183187500.0	-24.1964526595	75.8535553483	5.7922005445	22.5514339107	-57.4975869894	61.0939849218	-28.0764794642	-57.6673953914
183875000.0	-24.1569983868	72.3475942886	5.78962376564	21.203304304	-57.5950008129	65.2369544099	-28.0832086985	-58.147062172
184562500.0	-24.1119359635	68.7830370127	5.78795641414	19.8866518373	-57.6259326731	66.7257505866	-28.0600167502	-58.664614763
185250000.0	-24.0635870681	65.232125826	5.7871631072	18.5567649572	-57.9658628455	66.9483975578	-28.0577218835	-58.98699003
185937500.0	-24.0010004897	61.7565158728	5.78495714857	17.2435488525	-57.8065638509	66.0941041607	-28.0321760192	-59.2528037462
186625000.0	-23.9463547298	58.354615259	5.78764878359	15.9191910084	-57.8903733868	67.2940913734	-27.9977424305	-59.5235630085
187312500.0	-23.8661488309	54.8599874189	5.78892438994	14.619244637	-57.924880139	65.7442914234	-27.9946895271	-59.5716100798
188000000.0	-23.7786848591	51.521990091	5.79140074405	13.3031275347	-58.0498682887	65.482791942	-27.9612352243	-59.6800912049
188687500.0	-23.6852957602	48.124614453	5.7945426146	12.011725517	-57.8250707429	60.3819297684	-27.9461834858	-59.5251137984
189375000.0	-23.6015246676	44.9072959956	5.79786676775	10.7079507613	-57.8140746702	61.0474910096	-27.9234373251	-59.4154317373
190062500.0	-23.5102209514	41.6639984728	5.80186131357	9.42346718431	-58.0621036352	50.7550622972	-27.8958584162	-59.0514825347
190750000.0	-23.4192704749	38.603032848	5.80859440676	8.13368985018	-57.9987295419	51.0774839566	-27.8716200553	-58.7258551456
191437500.0	-23.3299836175	35.3586421939	5.8131284921	6.86784130174	-57.8273963805	44.6152388329	-27.8453120344	-58.3054458177
192125000.0	-23.2540858364	32.4221814268	5.81821952331	5.59000757178	-58.2375841755	44.3828034518	-27.8170195454	-57.8330751166
192812500.0	-23.1631085114	29.319319169	5.82545654254	4.33087856981	-58.0409581183	34.9918009282	-27.7972267171	-57.407278424
193500000.0	-23.0900525432	26.4665702544	5.83315295537	3.05289758582	-57.6079092245	34.8647083269	-27.7743250006	-56.8006127664
194187500.0	-23.0262072105	23.4312732322	5.83996984126	1.80059732637	-58.4351310913	26.8157257193	-27.7561329212	-56.095781215
194875000.0	-22.9796120356	20.5872664195	5.84912201373	0.53151141052	-58.5591248485	25.3744023052	-27.7381216132	-55.3382307834
195562500.0	-22.9146132569	17.5692857979	5.85762533044	-0.717230555663	-58.6710101315	19.2352904971	-27.7053587938	-54.5648051287
196250000.0	-22.8700442097	14.6602227537	5.86665642865	-1.96279673604	-58.5673493137	17.9048105969	-27.6917124526	-53.8012636597
196937500.0	-22.8279404999	11.7882923789	5.87630897974	-3.20534979406	-58.4574882923	17.7419192986	-27.674277266	-52.8368916825
197625000.0	-22.7985714398	8.92655768968	5.88738858445	-4.4473705165	-58.0023049571	18.8081777034	-27.671838164	-52.0104516547
198312500.0	-22.7646683302	6.02224442788	5.89785609607	-5.66304216111	-58.3601304315	19.7202191707	-27.6571461204	-51.358882687
199000000.0	-22.7468182937	2.96972324313	5.91201067067	-6.90155758018	-58.1665795237	18.8118361556	-27.6482780998	-50.56573144
199687500.0	-22.7188818332	0.029563733026	5.92439854419	-8.12791860377	-58.5227821547	18.5249120596	-27.6520087064	-49.8664211447
200375000.0	-22.7086158459	-3.05111552605	5.93679134386	-9.37048244079	-58.4449858654	19.4966359302	-27.6734069322	-49.118141011
201062500.0	-22.6964491887	-6.09551924108	5.94986642347	-10.580959825	-58.7985849517	20.9482218675	-27.6995666271	-48.3674192885
201750000.0	-22.6764770625	-9.21208431543	5.96569744624	-11.8073557278	-58.8121910007	23.4767381684	-27.7375382672	-47.6433039832
202437500.0	-22.656603007	-12.2401187411	5.98020312731	-13.0142430703	-58.6053240355	23.3529897694	-27.7744292116	-47.1208950871
203125000.0	-22.6415221261	-15.3714469146	5.99770341244	-14.2342240389	-58.4706474219	28.5371827901	-27.8017100083	-46.3983434886
203812500.0	-22.6034741221	-18.4377272231	6.01333418887	-15.4330193619	-58.7655776965	41.0972153776	-27.8372429617	-45.7864194565
204500000.0	-22.5821990609	-21.6117962189	6.03120057101	-16.6521973021	-58.5983053184	59.7105134332	-27.8478758421	-45.1908105064
205187500.0	-22.5560688749	-24.7453161768	6.04963851952	-17.8427664859	-58.9092248928	88.7053957871	-27.9020703657	-44.5114166423
205875000.0	-22.5180355996	-27.8622664742	6.07029915028	-19.0611742446	-59.0220428028	114.058994479	-27.9307487656	-43.958067989
