#Frequency	|S11|	<S11	|S21|	<S21	|S12|	<S12	|S22|	<S22
100000000.0	-19.635002792	125.45540713	-41.9434613036	-119.964325476	-62.1737329135	-167.020685994	-21.6190730596	-34.7380529985
100687500.0	-19.5798635309	122.640762989	-42.5581406905	-121.379887848	-61.7853274465	103.072473685	-21.6858496906	-35.0710465549
101375000.0	-19.4986092319	119.674192605	-42.1867164764	-124.447758241	-61.899045525	118.698025698	-21.6803095375	-34.928503587
102062500.0	-19.4353121433	116.554022361	-41.7117235648	-125.674408922	-60.4264897121	141.782387273	-21.6568972482	-34.7914756368
102750000.0	-19.3755531939	113.335040261	-41.3882628466	-126.874727135	-61.1841019661	-174.698556904	-21.6717307578	-34.6445959432
103437500.0	-19.3189109654	110.16784255	-41.1405075925	-127.738308498	-62.4560300187	-172.277057631	-21.6752831562	-34.5151505443
104125000.0	-19.2602576979	106.735074671	-40.8755417204	-129.108806183	-61.7379215321	161.961548585	-21.7128223671	-34.3037620516
104812500.0	-19.2249487489	103.359102862	-40.60276023	-130.403818367	-61.5479511324	102.303337755	-21.747705904	-34.2439367871
105500000.0	-19.1852575135	99.8327528423	-40.340849731	-131.51374294	-61.2900826099	47.8519073456	-21.7828888108	-34.2576100353
106187500.0	-19.1494113179	96.2437064954	-40.1440448098	-133.024089203	-61.1496789047	-2.81554972425	-21.8109668023	-34.2393423786
106875000.0	-19.114947285	92.4891537838	-39.9601642946	-133.767834952	-60.8882725619	-28.5081504957	-21.8381206542	-34.2973800323
107562500.0	-19.0940407519	88.5941556547	-39.8027966329	-134.899100873	-60.4349775548	-47.9474442585	-21.8666361092	-34.292392844
108250000.0	-19.0677551201	84.5100860279	-39.7334889222	-135.942999203	-60.7149722602	-64.5305076214	-21.8901722747	-34.3630235914
108937500.0	-19.0233857027	80.643013866	-39.5909835046	-137.061817222	-60.3524870968	-79.2960560636	-21.9083720961	-34.3668589763
109625000.0	-18.991462521	76.724935596	-39.4488634882	-138.284271015	-60.0995152176	-91.5005604333	-21.9212420354	-34.3552390359
110312500.0	-18.9420169015	72.7077078045	-39.3022954865	-138.795048235	-60.1483235494	-100.338617236	-21.9464804177	-34.3963495263
111000000.0	-18.9029750032	68.5923901167	-39.2297091011	-139.312310359	-60.5163492675	-114.521708914	-21.9665465305	-34.4131241742
111687500.0	-18.8591780861	64.3112808469	-39.1504833009	-139.380044486	-60.0762968047	-139.373405438	-21.9865395082	-34.5088971609
112375000.0	-18.8196838401	59.9450978805	-39.0968051874	-139.177502004	-60.2103093613	-167.353208464	-22.0102127637	-34.5334509557
113062500.0	-18.7805111348	55.5265798959	-39.0318839651	-138.458794024	-60.9327861665	163.357308248	-22.0363932607	-34.574051033
113750000.0	-18.7425768219	50.9328520457	-38.9447716542	-137.421655549	-60.6496836204	124.898746662	-22.0634013589	-34.6681514785
114437500.0	-18.7038253857	46.2968107122	-38.8304744955	-135.972323162	-60.9238019132	85.2246764219	-22.0939015744	-34.7377218293
115125000.0	-18.6593966039	41.4032253953	-38.64156762	-134.296359997	-60.6939566017	53.9022535514	-22.1198638974	-34.8410823392
115812500.0	-18.6198934686	36.5222811604	-38.4403796539	-132.514528987	-60.7440540721	25.5992300856	-22.1417117148	-34.8721332784
116500000.0	-18.584754159	31.4690298193	-38.1340465679	-130.741063863	-61.0377420736	5.01965300301	-22.1630198169	-34.9704995694
117187500.0	-18.5599754624	26.3931082578	-37.8326552596	-128.637990779	-61.2747055852	-7.90160251673	-22.1825977277	-35.0571740335
117875000.0	-18.5349815109	21.0659966262	-37.4408418567	-126.632470719	-61.4013478577	-21.2477893932	-22.2087417476	-35.073408305
118562500.0	-18.5245619459	15.6882049506	-37.0094715225	-124.751721024	-61.126052004	-23.5663122412	-22.2188925614	-35.0788187401
119250000.0	-18.5246117841	10.1748416683	-36.5526125802	-123.059255068	-61.2896490714	-29.4251312081	-22.2193927844	-35.0442103145
119937500.0	-18.5478244671	4.61251118413	-36.0249735774	-121.427449848	-61.3666423387	-29.6125819586	-22.2290089826	-35.0606921475
120625000.0	-18.5876976358	-1.10875221911	-35.466256467	-119.720071551	-61.2319680138	-33.1730285265	-22.2528211065	-35.0517599768
121312500.0	-18.6672071117	-6.8822908304	-34.8579100864	-118.446790513	-61.7585001156	-43.4176473166	-22.2639234111	-35.0112763714
122000000.0	-18.7723916192	-12.6608293801	-34.2312371618	-117.622571558	-61.7498798484	-56.9596636458	-22.2801922736	-34.9318292518
122687500.0	-18.9270811887	-18.5249184308	-33.554438149	-116.840075906	-61.8619573565	-59.417159669	-22.2982878283	-34.8407902652
123375000.0	-19.1249369236	-24.2554974143	-32.8567908479	-116.095976583	-62.2747934059	-71.2277015748	-22.3136487715	-34.747988594
124062500.0	-19.3662247662	-29.9476829237	-32.1411592509	-115.716063434	-62.3674812881	-79.4612354758	-22.329251194	-34.6052537114
124750000.0	-19.6906887817	-35.251165106	-31.3988182669	-115.288613133	-62.5022557187	-86.3020007193	-22.3458020301	-34.3881663124
125437500.0	-20.0356376952	-40.3457212453	-30.5765844293	-115.513227335	-62.0645364754	-87.2987260525	-22.3593670761	-34.1650307295
126125000.0	-20.4431626278	-44.6608894662	-29.7901482382	-115.771989969	-62.6831910991	-85.70703005	-22.3896735011	-33.9756596089
126812500.0	-20.8334685476	-48.7346703374	-28.9286235907	-116.486154634	-62.6435903246	-83.4506076037	-22.413325261	-33.7194132387
127500000.0	-21.2129334268	-51.9648976511	-28.115184365	-117.30204418	-62.7450412548	-79.7673355316	-22.4308102337	-33.4167718227
128187500.0	-21.5496580529	-55.0819998511	-27.2032677403	-118.643182857	-62.8651186656	-73.6727643007	-22.4517379729	-33.0951447692
128875000.0	-21.8626280943	-57.7234038612	-26.3640800648	-120.301667976	-62.6552665799	-59.6596565716	-22.4683350577	-32.6964728074
129562500.0	-22.1245777813	-60.3197915927	-25.4844630445	-122.896293471	-62.7972791685	-46.718166213	-22.4871378123	-32.3846988713
130250000.0	-22.3736028427	-62.7344880559	-24.6463235322	-125.618242293	-62.2406977594	-34.5781275721	-22.5128539318	-31.9820449319
130937500.0	-22.5806519324	-65.0476278359	-23.7933061746	-129.169653365	-62.3451735997	-20.7073025005	-22.5271609206	-31.5211745267
131625000.0	-22.7739933879	-67.2475605713	-23.0176909304	-133.080529466	-61.9946725412	-8.40848874024	-22.5311277357	-31.147592591
132312500.0	-22.9423917487	-69.3428371107	-22.2583428163	-137.583790534	-61.6382161742	-5.84157528418	-22.5514127332	-30.689868703
133000000.0	-23.101770805	-71.3135028111	-21.5839136574	-142.183733873	-61.3315740017	-3.24803804092	-22.5799721713	-30.3208568233
133687500.0	-23.2347998099	-73.2711261243	-20.9493941596	-146.997941688	-61.1455356845	-3.27756684945	-22.6016126276	-29.883864657
134375000.0	-23.3567025865	-75.1695464496	-20.4163258888	-151.929718303	-61.1483243	-4.69206667229	-22.6204908939	-29.5423035147
135062500.0	-23.4491905197	-76.968542957	-19.9316282975	-157.093246184	-61.0604121733	-3.0597678272	-22.6395068264	-29.1692287959
135750000.0	-23.5300485125	-78.6732941325	-19.5123933572	-162.140556422	-61.6984683216	-1.01756146008	-22.6652207274	-28.8666883956
136437500.0	-23.5871851798	-80.3137029297	-19.1288383119	-167.246050723	-61.4191156927	8.09722096575	-22.70002765	-28.546747856
137125000.0	-23.6233767447	-81.9515036088	-18.8088369238	-172.289275383	-61.630261744	11.9319500844	-22.7349670546	-28.1800113672
137812500.0	-23.6310639714	-83.3867485402	-18.5248771858	-177.271800241	-61.9266167205	17.4732117316	-22.7523028483	-27.8085944483
138500000.0	-23.6047212307	-84.8225933682	-18.2851932284	177.862809848	-61.5167379246	31.6162556435	-22.7683252288	-27.5879619876
139187500.0	-23.5416312928	-86.1473930518	-18.0866287129	173.135489312	-61.2123300089	42.746248714	-22.7882395946	-27.3140119981
139875000.0	-23.4273240624	-87.5050320058	-17.9269323343	168.474661056	-61.426747718	54.1869468885	-22.8103506551	-27.0575899598
140562500.0	-23.2676676407	-88.8840245047	-17.7981149603	163.980427655	-60.9078361622	66.6651289497	-22.8363444329	-26.8260217092
141250000.0	-23.0605479334	-90.3499524545	-17.6875069673	159.600327073	-60.900843128	76.6488778482	-22.8488214105	-26.6469420723
141937500.0	-22.7852039881	-92.0770305628	-17.6133061169	155.424428338	-60.7652874713	87.702842089	-22.8700611357	-26.4806717401
142625000.0	-22.4832005068	-94.0646391045	-17.5473705467	151.32089163	-60.9911463176	87.8010907338	-22.8842499565	-26.3293616033
143312500.0	-22.1356891456	-96.6585640801	-17.506344981	147.370282863	-60.7157293211	89.2903261211	-22.8896495218	-26.1442830335
144000000.0	-21.7915011954	-99.5469231513	-17.473878464	143.514256823	-60.6517775434	87.601727264	-22.9008722972	-26.0533909965
144687500.0	-21.4849966226	-103.158753903	-17.4662412558	139.841967033	-60.9121136468	85.2841817165	-22.9115477754	-25.9554876908
145375000.0	-21.2146800531	-106.826109296	-17.4594390322	136.234651706	-60.436567337	87.8991159138	-22.9271125488	-25.9198818178
146062500.0	-20.9852639952	-110.834422925	-17.4673845648	132.787590236	-60.9672237789	93.358097792	-22.9402389352	-25.8514574694
146750000.0	-20.795909032	-114.867186696	-17.4793307203	129.417224832	-60.7019392788	110.837589587	-22.9586129907	-25.7901376551
147437500.0	-20.6361882047	-119.004733839	-17.4971550545	126.197559935	-60.5230472432	126.921770648	-22.9571083275	-25.8166523576
148125000.0	-20.5274745783	-123.089960993	-17.522823999	123.052069239	-60.2568496955	144.576912334	-22.9651034594	-25.8216171964
148812500.0	-20.4410425158	-127.291551637	-17.5553998234	119.973664031	-60.0736083227	174.534125286	-22.9717212199	-25.8516405821
149500000.0	-20.3926288635	-131.361426416	-17.5907631324	117.035254378	-60.4501329697	-156.645382348	-22.9811174767	-25.8164999621
150187500.0	-20.3499970484	-135.557325677	-17.6293955064	114.165595923	-60.5158140635	-136.523367056	-22.9744827781	-25.7509737204
150875000.0	-20.3424366365	-139.553350316	-17.665584804	111.354271632	-60.668219266	-113.740724367	-22.9657354054	-25.6758899117
151562500.0	-20.3369544371	-143.666941224	-17.7028793332	108.602928238	-60.3614641087	-85.5567818567	-22.9538406996	-25.6005037348
152250000.0	-20.3712487942	-147.573778903	-17.7527131986	105.984403692	-60.3768852264	-58.9920688251	-22.9443107791	-25.4907422961
152937500.0	-20.4005792361	-151.554468494	-17.7938195213	103.406462074	-60.3438574352	-42.1849983	-22.9246917892	-25.4084532421
153625000.0	-20.4547055288	-155.462548893	-17.8399316191	100.903808124	-60.3848692708	-38.1698222454	-22.9226342131	-25.3133933413
154312500.0	-20.5075285745	-159.310481524	-17.8851293418	98.4378192144	-59.8856886106	-34.2785540697	-22.8994717539	-25.2362423232
155000000.0	-20.5830389191	-163.210018089	-17.9370150214	96.0716746958	-59.5752595944	-20.488910897	-22.8777816489	-25.0552825312
155687500.0	-20.6469032433	-167.038103444	-17.9830613157	93.7406823634	-59.5188503348	-6.87609676759	-22.8687755564	-24.8300767802
156375000.0	-20.7415722798	-170.879768757	-18.0287805587	91.4951734044	-59.6218288229	-0.829580618231	-22.8469530509	-24.667586284
157062500.0	-20.8301043979	-174.592917865	-18.0723352197	89.2446604727	-59.4660181374	-7.81677827619	-22.8261853448	-24.4012143449
157750000.0	-20.9287301971	-178.419518082	-18.1198193926	87.0498890301	-59.5280212218	-17.7423657266	-22.7916433166	-24.1703972715
158437500.0	-21.0291634014	177.932917023	-18.1640117008	84.9029845585	-59.6009509381	-19.0746642936	-22.7726953204	-23.9163637599
159125000.0	-21.1240974656	174.241253424	-18.2073398521	82.7921377515	-59.8161263638	-29.0941869133	-22.753815883	-23.6395103549
159812500.0	-21.2292692137	170.675221435	-18.2557053213	80.7101843262	-59.9395774003	-28.6429964474	-22.7395466463	-23.346147364
160500000.0	-21.3294016276	167.026598125	-18.2977879327	78.7014104986	-59.8742794946	-39.672715444	-22.7239584065	-23.0787060665
161187500.0	-21.4341331159	163.541806439	-18.3465035593	76.7256489911	-60.5813717367	-44.1063125498	-22.7019491752	-22.7692699786
161875000.0	-21.5352276041	159.985207157	-18.3819124541	74.7716585703	-59.9855475643	-55.2148753579	-22.687442256	-22.4223430839
162562500.0	-21.653917111	156.485012041	-18.4281574861	72.8910812334	-60.1395061206	-62.1793314237	-22.6684373558	-22.0986758358
163250000.0	-21.7461447714	152.971506026	-18.4697795603	70.970195963	-60.164591098	-80.2978377831	-22.664171201	-21.7286774478
163937500.0	-21.8687321523	149.642413631	-18.5140058117	69.1599991049	-60.1523111269	-96.5846886927	-22.638618826	-21.36867166
164625000.0	-21.9735051265	146.239828434	-18.5544113268	67.3117534858	-60.4743781476	-122.308539678	-22.6341699341	-21.0176631139
165312500.0	-22.0902842649	142.891102424	-18.5931794216	65.5483041027	-60.2935571001	-153.286720138	-22.6299047974	-20.6461828729
166000000.0	-22.1912801032	139.639836144	-18.625311669	63.806076978	-60.5010364726	164.598387704	-22.6282182658	-20.285629806
166687500.0	-22.29900192	136.302965852	-18.6666218661	62.1054601269	-60.3625288834	136.203626668	-22.6250112684	-19.9279741309
167375000.0	-22.4217156065	133.108817946	-18.7009142301	60.3885068132	-60.0566676285	105.957017474	-22.6376278961	-19.6793030522
168062500.0	-22.5260646571	129.765065522	-18.7406349409	58.7253822831	-59.7117275594	69.0460053549	-22.6461031123	-19.4327197501
168750000.0	-22.6490075041	126.623454325	-18.7795231198	57.1153477594	-59.6939383656	32.3237435145	-22.6724820487	-19.1930116743
169437500.0	-22.7519075399	123.289680455	-18.8113865676	55.5198549742	-59.4844361715	3.30587058803	-22.6997382966	-18.9527756673
170125000.0	-22.8688272107	120.170732122	-18.8407796072	53.8940492611	-59.0267800637	-23.0771705855	-22.7296351178	-18.6422179875
170812500.0	-22.980198088	116.873461967	-18.8748715387	52.3575250448	-59.5154804147	-38.1520358175	-22.7532483021	-18.3691806166
171500000.0	-23.1071721577	113.744119927	-18.9036529067	50.8242449895	-59.6673841254	-51.6634485847	-22.7895558904	-18.2147229159
172187500.0	-23.2138939632	110.442302417	-18.9262191066	49.3010216857	-59.7249266458	-64.4669426164	-22.827077853	-18.1429870959
172875000.0	-23.3453652552	107.219488766	-18.9462168854	47.7965050885	-60.5611366799	-76.3684787578	-22.8672313957	-18.0311834936
173562500.0	-23.4410622602	103.824670754	-18.9696100151	46.3249702024	-60.5130513081	-87.2984834696	-22.916076418	-17.8692683044
174250000.0	-23.5609454071	100.56241592	-18.9923787527	44.8863483913	-60.5505558676	-84.9833667255	-22.9600236345	-17.8443833447
174937500.0	-23.6536598341	97.2768074826	-19.0141911551	43.448923841	-60.8075710559	-77.1291481475	-23.0119100627	-17.8549365976
175625000.0	-23.7523514445	93.9171299311	-19.0356852209	42.0452230202	-60.7754192678	-70.5675798006	-23.0647689188	-17.789701818
176312500.0	-23.838620198	90.511585343	-19.0552562987	40.6261994209	-60.5952093237	-54.4512708439	-23.1211453251	-17.846788041
177000000.0	-23.9171268542	87.08509994	-19.0661496675	39.2524702496	-60.3412504184	-38.6603227776	-23.176422207	-17.9496715056
177687500.0	-23.9801744989	83.7038438372	-19.0805620343	37.8904542057	-60.2017394381	-25.4027090133	-23.228794158	-18.0255943768
178375000.0	-24.0632077975	80.2083141738	-19.0891965256	36.5244335153	-59.5822587569	-19.3746389868	-23.2918801522	-18.0171324834
179062500.0	-24.1286006349	76.8182981564	-19.0976644022	35.1317218723	-59.8451239981	-17.1610591993	-23.3591044499	-18.1960934966
179750000.0	-24.1720093664	73.2881661534	-19.1065730968	33.8223249869	-60.0286360639	-28.2656564986	-23.4195514721	-18.294888937
180437500.0	-24.2236026809	69.8179245681	-19.1103852732	32.4931806008	-59.9374550984	-33.2484090841	-23.4638407218	-18.512130944
181125000.0	-24.246481214	66.0515723631	-19.11508387	31.1438623991	-60.3335480452	-45.4166297416	-23.5256142429	-18.6323745575
181812500.0	-24.2831676398	62.58822983	-19.1169262908	29.7890029326	-60.0908907653	-43.5332587241	-23.5757386264	-18.7934971032
182500000.0	-24.2903591871	58.8178884725	-19.1234017617	28.4583627195	-60.5081559432	-39.9006603467	-23.6321388931	-18.8934516032
183187500.0	-24.3045111871	55.2854232239	-19.1264997458	27.1275129706	-60.4092158162	-25.6513557006	-23.6834297924	-19.0204820888
183875000.0	-24.296528086	51.6644077762	-19.1250307098	25.7830140326	-60.3950682848	-19.7610365024	-23.7271840375	-19.2043772287
184562500.0	-24.2845843478	48.0196792721	-19.1208234719	24.4700833551	-60.6415042747	-3.79974695459	-23.758859338	-19.3428312815
185250000.0	-24.2561183238	44.4491553082	-19.1194207228	23.2056934242	-60.9084731851	10.0545862541	-23.7972180746	-19.375950395
185937500.0	-24.2253962145	40.8404677661	-19.1201939034	21.8902649128	-60.9935963591	22.5889281797	-23.8278845434	-19.4089168029
186625000.0	-24.1978664515	37.2517098248	-19.1154825162	20.5529245904	-61.3109085678	28.9067623943	-23.8689047456	-19.407982035
187312500.0	-24.1515717271	33.5327392888	-19.1141098603	19.2398564456	-61.1964528974	29.5709113923	-23.8935350793	-19.4172422834
188000000.0	-24.108208918	30.0144158491	-19.1010920325	17.9179302297	-60.8493510103	32.3708094991	-23.9149459481	-19.3932704252
188687500.0	-24.0560699407	26.3025445356	-19.0955359653	16.6245345076	-60.694396756	45.7197675783	-23.9424907471	-19.338367614
189375000.0	-23.9984152129	22.8065135452	-19.0872250683	15.3277929919	-60.6486169671	59.2538012767	-23.9671999464	-19.2294013564
190062500.0	-23.9256456022	19.1831671042	-19.08629409	14.0616023049	-59.9627531049	64.1000038802	-23.9917410285	-19.0971834754
190750000.0	-23.8672321292	15.7466777099	-19.0791574471	12.7182488396	-60.229052775	76.3581352722	-24.0108208877	-18.9829677393
191437500.0	-23.7918763998	12.0850145119	-19.0743693806	11.473105199	-60.0325298566	79.1877302402	-24.0290141814	-18.8099481756
192125000.0	-23.7326978991	8.6519742097	-19.0578351668	10.1778308917	-60.1637548096	74.2558016326	-24.0467847998	-18.5387554881
192812500.0	-23.6491685279	5.06427723103	-19.0489464531	8.91226762099	-60.2872966495	74.3768538034	-24.0720112309	-18.3592398478
193500000.0	-23.5862885492	1.61611645068	-19.0344625953	7.61535132404	-60.2091202655	74.7981289427	-24.0908657933	-18.1176712557
194187500.0	-23.5019463409	-1.95180724606	-19.0306629171	6.3583832433	-60.3299779152	76.8774595636	-24.0969412169	-17.8026475145
194875000.0	-23.4381222901	-5.4890870039	-19.0176677528	5.0687297863	-60.6671589331	92.664670552	-24.110894359	-17.4781490574
195562500.0	-23.3302846423	-9.00760787567	-19.0118679731	3.82239644524	-60.8913749296	110.531693159	-24.128031351	-17.2354908788
196250000.0	-23.2420520386	-12.5802330203	-19.0032071603	2.55578243274	-60.9040463927	137.235873027	-24.1383154493	-16.9176711988
196937500.0	-23.1346856906	-16.0395791665	-18.9942727493	1.27774187831	-60.5699226597	163.521051997	-24.1451795695	-16.5447837838
197625000.0	-23.0388996206	-19.4658305271	-18.9807972565	0.043212240888	-60.1719743148	-172.337146231	-24.1662217299	-16.2040346122
198312500.0	-22.9265728966	-22.7586168845	-18.9683069957	-1.18375002897	-59.8443888041	-143.458181205	-24.1770507542	-15.9553836577
199000000.0	-22.8170475563	-26.2312678106	-18.9562689527	-2.39484856594	-59.5371623525	-128.131648245	-24.1977693526	-15.7195531242
199687500.0	-22.6934444981	-29.4115939368	-18.9383775865	-3.63426089432	-59.323958258	-113.216977639	-24.2072847421	-15.475005998
200375000.0	-22.5734990806	-32.8035749042	-18.9236229873	-4.85352650474	-59.432712635	-111.089081332	-24.2324227493	-15.2601561866
201062500.0	-22.4520235828	-36.0065503259	-18.9049499435	-6.08171731594	-59.3030501719	-113.305409983	-24.2572685457	-14.9632724916
201750000.0	-22.3183206447	-39.2198120119	-18.8896344796	-7.29189207591	-59.3574892873	-113.960569821	-24.2929462604	-14.7792396482
202437500.0	-22.2009873158	-42.3264722978	-18.8700039463	-8.58718681312	-59.2574714099	-113.736727195	-24.3176955508	-14.6702027096
203125000.0	-22.0612496264	-45.4435083197	-18.8496954256	-9.78309086166	-59.2683503339	-122.925089406	-24.3412705541	-14.6317162144
203812500.0	-21.9156812171	-48.3709567826	-18.824108457	-10.9888664388	-59.0829427837	-123.461243459	-24.3480755764	-14.6451898348
204500000.0	-21.77835894	-51.3375964604	-18.8029823079	-12.1531938748	-58.8570733627	-111.927804811	-24.3797477904	-14.659850081
