#Frequency	|S11|	<S11	|S21|	<S21	|S12|	<S12	|S22|	<S22
100000000.0	-16.8368806646	147.302902836	-28.1091677456	-126.498647623	-74.5359435211	-61.2093600453	-20.2218142421	-33.6210099062
100687500.0	-16.8407784717	144.111128371	-27.6594330577	-126.979872129	-66.2135652061	-97.2528648097	-20.3103484347	-33.4071161204
101375000.0	-16.8426721387	140.85556433	-27.2181693908	-128.148048744	-65.5455412802	-48.4433425551	-20.3497903068	-32.563250888
102062500.0	-16.8220786938	137.612467387	-26.8241884556	-129.465014015	-66.2068179774	3.73203194486	-20.4093930362	-31.8296504424
102750000.0	-16.8010155009	134.528145628	-26.4816481455	-130.739691358	-66.7758266808	19.3014324808	-20.4574814997	-31.0183258842
103437500.0	-16.7828556918	131.384942341	-26.1484746302	-132.075057312	-66.7055921699	26.824111759	-20.5251757447	-30.2564405866
104125000.0	-16.7761981952	128.183909112	-25.8221756482	-133.590467655	-66.5974091137	8.96668325841	-20.6063146555	-29.5165721017
104812500.0	-16.7769938437	125.020362663	-25.5458092245	-135.029778942	-67.048210805	-13.7462897441	-20.6832811555	-28.9282387113
105500000.0	-16.7824360217	121.799790383	-25.2877873893	-136.502192889	-66.1123444842	-16.4869132174	-20.7697962186	-28.3819279785
106187500.0	-16.7929636716	118.493584611	-25.0581098606	-137.930650437	-65.9950392599	-2.32509791968	-20.8713104805	-27.8333265931
106875000.0	-16.8085709636	115.083839933	-24.8608505952	-139.413878715	-65.5401653542	-8.10883527907	-20.9730651822	-27.3776441483
107562500.0	-16.8442319709	111.582070652	-24.6948160162	-140.701176183	-65.2218734112	-3.00921919504	-21.0815792032	-26.8433154942
108250000.0	-16.8841608114	107.961152447	-24.568983502	-141.959012682	-65.0671084387	21.5661001423	-21.1932237943	-26.4629326431
108937500.0	-16.9104178491	104.426062846	-24.3787085919	-143.169451398	-64.5500576488	37.947843344	-21.290119554	-25.9490025081
109625000.0	-16.9421380777	100.875431488	-24.2163288608	-144.39667028	-64.5842850043	64.8249639241	-21.3952533146	-25.4521471475
110312500.0	-16.9726880239	97.1833721932	-24.0881859265	-145.423385054	-64.3469799728	80.2062292656	-21.5030028575	-25.0188887256
111000000.0	-17.0145682051	93.4530178053	-23.9973252515	-146.386038013	-64.399801897	96.1322014713	-21.6119501032	-24.6206547677
111687500.0	-17.0599880832	89.6357928145	-23.9223669745	-147.19084579	-64.2768499423	112.884746661	-21.7272446716	-24.3479359814
112375000.0	-17.1147408479	85.7185506063	-23.8946893799	-147.755647368	-64.27951321	125.61739468	-21.8484876287	-24.0082716175
113062500.0	-17.1652558445	81.727598117	-23.8733464997	-147.928864704	-63.6172138427	135.028385503	-21.9758051742	-23.75475769
113750000.0	-17.2320709007	77.6074826392	-23.8690585854	-147.825558596	-64.1829090317	150.496814868	-22.0987992039	-23.5850845136
114437500.0	-17.2982954598	73.3849538921	-23.8574415081	-147.200911257	-63.527534101	166.855758147	-22.2412331588	-23.3881907565
115125000.0	-17.3835268045	68.9954079705	-23.820945395	-146.207358235	-63.6834202191	-175.290731948	-22.377030479	-23.2758721276
115812500.0	-17.4570436826	64.4973296968	-23.7426578284	-144.767958644	-63.0573246577	-155.750514641	-22.5185650545	-23.1042056251
116500000.0	-17.5516185344	59.8319497347	-23.6149422049	-143.050756404	-62.8162087752	-124.410561576	-22.6563168962	-23.0241222776
117187500.0	-17.6401218196	55.0612394806	-23.4286773061	-141.155144295	-62.4585808355	-93.8823179328	-22.8089720835	-23.0644918105
117875000.0	-17.7515579411	50.061667289	-23.1728385494	-139.155011998	-61.9422701259	-62.4278679822	-22.95644343	-23.0019605778
118562500.0	-17.8637240222	44.9421210837	-22.8741697188	-137.138817321	-61.5804152191	-24.2913480184	-23.1042197777	-23.0152531102
119250000.0	-17.9998954394	39.5456681546	-22.5121939947	-135.099878648	-61.5456689498	7.67604419404	-23.2384758879	-23.0175713121
119937500.0	-18.149147871	34.0808763084	-22.1010300022	-133.147718347	-62.066782432	36.0042334942	-23.3754833736	-23.0912054987
120625000.0	-18.3202363304	28.3603685168	-21.6360446365	-131.280320745	-61.7854292588	56.6769827779	-23.5206500801	-23.1081378699
121312500.0	-18.5271160031	22.4974420407	-21.1347409768	-129.545775553	-61.5920496358	86.7548599112	-23.6547932561	-23.2910652314
122000000.0	-18.7588671031	16.4435995259	-20.5813412181	-127.920876018	-61.6956116942	116.110701631	-23.8015683271	-23.4301251959
122687500.0	-19.0493494386	10.1821959674	-19.9904039256	-126.459047123	-61.5741505387	151.921209384	-23.9409026584	-23.7143170503
123375000.0	-19.3681849845	3.74328893084	-19.3637071475	-125.278740255	-62.1720561855	178.430160256	-24.0784343603	-23.9394106241
124062500.0	-19.7692917049	-2.93373330426	-18.6999152947	-124.244175297	-62.1898062456	-166.18402499	-24.2071560703	-24.2466554014
124750000.0	-20.248719149	-9.73034266921	-18.0018263395	-123.438379654	-62.0688680379	-156.947630926	-24.3408267761	-24.4637604696
125437500.0	-20.8172829194	-16.666229317	-17.2771221045	-122.851124497	-61.7523785846	-150.301130051	-24.4658928568	-24.7041077631
126125000.0	-21.5732314643	-23.4162575426	-16.5215613864	-122.513960234	-61.6907179907	-148.680762989	-24.6002705952	-25.0238923644
126812500.0	-22.7214290725	-30.239443123	-15.7351141266	-122.449846133	-62.0991983547	-159.004754225	-24.7061747049	-25.3387008898
127500000.0	-23.7308687245	-32.1858288548	-14.9238404458	-122.690750499	-62.0831834378	-157.078652782	-24.8100322306	-25.7036501208
128187500.0	-24.54237881	-33.9579675673	-14.0796976304	-123.213482855	-61.7934670132	-168.380742479	-24.9098200091	-26.0654672246
128875000.0	-25.1677263629	-35.5459458514	-13.2172030598	-124.087905591	-61.7870529562	-168.992848805	-25.0019681994	-26.4434997291
129562500.0	-25.7357293071	-37.1185992068	-12.3219786149	-125.35204248	-61.5639138677	-177.223203592	-25.068863703	-26.850594891
130250000.0	-26.191685818	-38.8141851631	-11.4171830741	-127.181224876	-62.0244678642	168.079136378	-25.1529496521	-27.3406582638
130937500.0	-26.5964773943	-40.6239642413	-10.5018955573	-129.444503882	-61.6536790992	143.297209006	-25.2175319269	-27.72341178
131625000.0	-26.9583528899	-42.3074520433	-9.60640595705	-132.368809267	-61.7580234771	123.822262452	-25.2728234454	-28.3368248689
132312500.0	-27.2618341973	-44.0575724049	-8.74024113171	-135.801055971	-61.7795022516	97.9714466231	-25.3161448879	-28.7531413968
133000000.0	-27.5431059622	-45.8131380736	-7.93469652268	-139.797600255	-61.872263146	70.1499212971	-25.3543916206	-29.3985989198
133687500.0	-27.7859645455	-47.7081286634	-7.18562396945	-144.12661672	-61.730666907	40.2270571677	-25.3776483435	-29.8712446096
134375000.0	-28.0020105721	-49.5490173909	-6.50791618628	-148.789349845	-61.6640854484	0.797402251276	-25.386019808	-30.4144575035
135062500.0	-28.1734002798	-51.4638643724	-5.88946768365	-153.633652185	-61.7656384045	-41.0933558901	-25.3966334933	-30.9251943051
135750000.0	-28.329487137	-53.2933831068	-5.34346633114	-158.638948907	-61.755480445	-96.0380598007	-25.3922510007	-31.5906130039
136437500.0	-28.4446693824	-55.0233859164	-4.85610263514	-163.696794783	-62.0905913041	-142.993992523	-25.3906650895	-32.2318626791
137125000.0	-28.5417787711	-56.7618805322	-4.43210602753	-168.816925324	-61.646785733	162.406484788	-25.3784631402	-32.912457902
137812500.0	-28.5834060442	-58.3129318777	-4.05759623887	-173.897002587	-61.8376891812	107.357873438	-25.353088823	-33.5712764087
138500000.0	-28.59548439	-59.8236442171	-3.73815816167	-178.959691479	-61.7439361427	49.7987799903	-25.2995495698	-34.2089398538
139187500.0	-28.5548636511	-61.1652398617	-3.46516698401	176.071780574	-61.3979227501	-4.16085245092	-25.2524265382	-34.7624181698
139875000.0	-28.4597169313	-62.4257695521	-3.23983056847	171.174682454	-61.5987038356	-57.5559446401	-25.1860022005	-35.2699289424
140562500.0	-28.3140750554	-63.5178513686	-3.04803193905	166.415491884	-61.0738562698	-108.156348152	-25.1316215992	-35.9241660952
141250000.0	-28.0893672922	-64.4443366608	-2.89508588431	161.760255782	-60.7213639354	-150.47818424	-25.0478063928	-36.4518028488
141937500.0	-27.7753165877	-65.1731744702	-2.7727841409	157.25577791	-60.7651079059	161.93247346	-24.9642634566	-37.0829943481
142625000.0	-27.3645731889	-65.8301653445	-2.67802072913	152.876907263	-61.0213300296	119.18935704	-24.8603525866	-37.6171769233
143312500.0	-26.7575530008	-66.6011643975	-2.60780476515	148.647489564	-60.8197454655	74.1485901997	-24.7517021281	-38.1474468656
144000000.0	-25.7549274633	-67.409110018	-2.55799964766	144.562692847	-60.297498349	28.7467478401	-24.6514223025	-38.6221209178
144687500.0	-24.8851017576	-72.9469644011	-2.52560660098	140.639825695	-60.4159501618	-29.8297727288	-24.5454606422	-39.1039586982
145375000.0	-24.2035353532	-78.7150991161	-2.50944975105	136.845777973	-60.8462815181	-74.3399343705	-24.4271805488	-39.508329963
146062500.0	-23.7066377312	-84.5773430519	-2.50532224997	133.189718491	-61.0076873515	-127.645852217	-24.3176836551	-39.8478291357
146750000.0	-23.2484667566	-90.4101349745	-2.51118767474	129.653075276	-61.0468955393	-170.23817467	-24.201978401	-40.1258963764
147437500.0	-22.9231768276	-96.0880541542	-2.52881833985	126.254036814	-60.5908271682	147.225751381	-24.0646490186	-40.3848991205
148125000.0	-22.6322435868	-101.563113923	-2.55003950822	122.967778264	-60.4198992223	108.260047937	-23.9387471392	-40.5237022482
148812500.0	-22.3849756745	-107.158026973	-2.57896542714	119.782108512	-60.3560429266	72.5428164615	-23.7956222333	-40.5945238613
149500000.0	-22.1794113282	-112.500425392	-2.61003137172	116.709726707	-60.2481972958	31.8864566751	-23.6726243691	-40.6273543241
150187500.0	-22.0054040871	-117.814419182	-2.64728215024	113.743772311	-60.2197977585	3.25247867787	-23.5316540608	-40.5629905154
150875000.0	-21.8498229818	-122.775439361	-2.68427585157	110.852500219	-60.2817270044	-25.0189551525	-23.4018421283	-40.448386278
151562500.0	-21.7267425652	-127.806746125	-2.72509853077	108.053882638	-60.4546169509	-54.2497488804	-23.2605227493	-40.2905745487
152250000.0	-21.6282011075	-132.493734783	-2.76764819773	105.343226719	-60.3911523948	-82.5940376563	-23.1277699804	-40.0610263279
152937500.0	-21.5418962992	-137.197159195	-2.81245860301	102.712515624	-60.2446791747	-108.663979695	-22.988279507	-39.7386683731
153625000.0	-21.4761161595	-141.755762789	-2.85674500497	100.148454345	-59.5666471869	-135.190058212	-22.8694296169	-39.2815787542
154312500.0	-21.4086834663	-146.248297647	-2.90222713144	97.6581486194	-59.6599338566	-162.329621449	-22.7300146144	-38.7939282355
155000000.0	-21.3708815565	-150.652602272	-2.94936609936	95.2265266529	-59.487382225	176.478686944	-22.6065357385	-38.2512195065
155687500.0	-21.3247715313	-154.975183628	-2.99452105938	92.8541948065	-59.4512433822	148.092645019	-22.4972719602	-37.6161708377
156375000.0	-21.3083294356	-159.271345844	-3.04174322823	90.5280724323	-59.3749328972	118.781690141	-22.3792995907	-36.9701343508
157062500.0	-21.2805022711	-163.415882652	-3.08562107165	88.2730410733	-59.1237347699	89.1993698006	-22.2658667724	-36.2688738763
157750000.0	-21.2754027855	-167.532346001	-3.13352468305	86.0447378987	-59.2020927469	59.7440189854	-22.1474453563	-35.4706628103
158437500.0	-21.2491300032	-171.545076732	-3.17872212398	83.8717379472	-59.1162370343	32.2953985958	-22.0494588605	-34.6797648602
159125000.0	-21.2417759986	-175.627906473	-3.22388350257	81.74803256	-58.9663065894	4.18866730211	-21.9518653532	-33.8025661232
159812500.0	-21.2285307358	-179.538824625	-3.26729665917	79.6806853005	-59.5051449764	-22.7494840974	-21.8684507369	-32.8879334354
160500000.0	-21.226709698	176.487069479	-3.31108603918	77.633042765	-59.4578481396	-50.0823314098	-21.7848924769	-31.932323401
161187500.0	-21.2137936762	172.770353513	-3.3522363907	75.6377442125	-59.5823867276	-67.8767086545	-21.7009347019	-30.9212810058
161875000.0	-21.2119477326	168.97268491	-3.39632962204	73.6577688474	-59.3790311011	-79.569079008	-21.6450272463	-29.9085501271
162562500.0	-21.2112078923	165.292026458	-3.43652669519	71.7244076472	-59.0149772806	-105.326471987	-21.5818053385	-28.8712676146
163250000.0	-21.1959862807	161.612528915	-3.47850775429	69.8096482576	-58.7869046429	-120.211027921	-21.533983626	-27.7310099488
163937500.0	-21.2010365266	158.037856299	-3.51806171144	67.9608568576	-58.836572067	-135.20829578	-21.4905351256	-26.5844223245
164625000.0	-21.1843945179	154.517627321	-3.55702944557	66.1214835815	-58.6892548688	-140.79455087	-21.4579840896	-25.4314891019
165312500.0	-21.1748005796	151.063769487	-3.5979515032	64.3308674322	-58.318750533	-146.846601669	-21.431784444	-24.3472336756
166000000.0	-21.1626810871	147.704824214	-3.6354018445	62.5505663675	-58.1646132389	-163.238344479	-21.4226178426	-23.2103469436
166687500.0	-21.1569529513	144.314092541	-3.67303126402	60.810994559	-58.0984492831	177.540918885	-21.4091022477	-22.0952031208
167375000.0	-21.143493151	141.102257754	-3.7097718885	59.0934008762	-58.0664618736	148.370224637	-21.4173071401	-21.002810281
168062500.0	-21.1375234516	137.797308146	-3.74621418828	57.4137689129	-57.8341457444	107.451349486	-21.4259123386	-19.9462205012
168750000.0	-21.1241449858	134.66561876	-3.78214830501	55.7577493113	-57.7503833199	68.523815613	-21.455675454	-18.8291940248
169437500.0	-21.1081788228	131.424933644	-3.81729603741	54.1229973905	-57.7452745438	31.6797925928	-21.4866714817	-17.747259701
170125000.0	-21.0959623346	128.317244187	-3.84755401138	52.5006695551	-57.7129488735	-0.497662407026	-21.5290940715	-16.6416468107
170812500.0	-21.0826507154	125.19251739	-3.88027506393	50.9130914248	-57.7321388424	-40.0031337813	-21.5724374255	-15.5668428436
171500000.0	-21.0675506609	122.201306538	-3.90948243652	49.3539157147	-57.9175093466	-73.893144417	-21.6417689274	-14.5566050775
172187500.0	-21.0614611837	119.113387281	-3.93680249475	47.8127133663	-57.8916082971	-111.939589588	-21.7116703588	-13.6226042662
172875000.0	-21.0582699519	116.202108608	-3.96464580745	46.2925609554	-57.8628198091	-151.769914194	-21.7870669014	-12.7353385144
173562500.0	-21.0381174244	113.292023298	-3.98982027944	44.7935282251	-58.3628247046	177.954842318	-21.8752104002	-11.826612978
174250000.0	-21.0260062476	110.484773977	-4.01308356249	43.3158299264	-58.4710220601	148.272953713	-21.9713694204	-10.9345011317
174937500.0	-20.9936604037	107.557206765	-4.03309884499	41.8598103288	-58.2268557387	121.255037545	-22.0925212676	-10.0871806137
175625000.0	-20.972706849	104.762795384	-4.05098595309	40.4208397341	-58.2170456006	82.5486264731	-22.2080657357	-9.25358021212
176312500.0	-20.9419286731	102.005310128	-4.06904735236	39.0028416656	-58.1805901905	43.035074995	-22.3429830574	-8.45757111515
177000000.0	-20.9124303022	99.2338710731	-4.08463045783	37.5932023972	-57.7801510659	2.72020775194	-22.4859030101	-7.73561009289
177687500.0	-20.869411016	96.5084347733	-4.10012661288	36.2083266185	-58.0308837638	-24.9627957582	-22.6574775607	-7.07604923702
178375000.0	-20.8399383872	93.739261705	-4.11110098382	34.8153226114	-57.7952450595	-60.0928281845	-22.8244669712	-6.39818596645
179062500.0	-20.7914471511	91.0753437961	-4.12068067008	33.4463265573	-57.7857951289	-92.0911903062	-23.0026909046	-5.79348581922
179750000.0	-20.7424699537	88.3640816466	-4.13006071335	32.0850939069	-57.8330589615	-120.554744541	-23.1856195283	-5.21734389221
180437500.0	-20.6922982973	85.7134676857	-4.13683710823	30.7368393378	-57.7612981954	-149.256883094	-23.3656067327	-4.85712497511
181125000.0	-20.6388134996	82.9455079075	-4.14279676318	29.3714532286	-57.8906921765	-175.99101605	-23.5730536915	-4.39501542751
181812500.0	-20.5774548405	80.3659620079	-4.14634282599	28.0308061109	-58.1012669307	158.189283817	-23.7766697223	-4.02171831878
182500000.0	-20.5168413198	77.6679412197	-4.14728983765	26.6865557282	-58.4564268309	133.85714098	-23.9953777571	-3.57665225839
183187500.0	-20.4462693222	75.1208539295	-4.14946890752	25.3717776001	-58.4916443044	120.290781729	-24.2134992281	-3.21179986058
183875000.0	-20.3821323503	72.5454173436	-4.15014380662	24.0336150079	-58.7367301075	108.891443574	-24.4325111757	-2.93116196093
184562500.0	-20.3128420212	69.9819411843	-4.14812475933	22.7271855657	-59.1159924467	95.2923514657	-24.6418836698	-2.80801174459
185250000.0	-20.2401491074	67.4306167174	-4.14588031416	21.411720118	-59.3981645284	86.8462346079	-24.8709955404	-2.60047504575
185937500.0	-20.1712543384	64.9281097169	-4.14265205496	20.1084263695	-59.6076790923	87.4086451804	-25.0995303554	-2.50605906418
186625000.0	-20.105411433	62.5201630808	-4.1360588772	18.791733344	-59.5078753002	96.670850708	-25.3383742117	-2.44722756729
187312500.0	-20.0347029376	60.0742982911	-4.1294783618	17.4941710274	-59.8747656442	104.215094398	-25.5587990515	-2.47066336159
188000000.0	-19.9623216922	57.7246142948	-4.12138546666	16.1873136917	-60.0639789534	120.984866812	-25.791938693	-2.63507569681
188687500.0	-19.8967224988	55.3292490997	-4.11352720903	14.8924548374	-59.8763422777	142.434812731	-26.0133883922	-2.81924152626
189375000.0	-19.8272394511	53.0467681488	-4.10486116181	13.595564544	-59.8615309059	158.443729507	-26.2508530674	-2.97430138791
190062500.0	-19.7714123216	50.6925331899	-4.09529634668	12.3172855414	-60.0434176398	174.442089714	-26.4627829319	-3.22127618679
190750000.0	-19.7213988735	48.3507579026	-4.083827392	11.0319334711	-59.78272791	176.140882267	-26.7035915132	-3.57620399576
191437500.0	-19.6814809431	45.9709012626	-4.07364313673	9.75240156962	-59.7867263909	179.348867171	-26.9219879197	-3.97716136289
192125000.0	-19.6496884895	43.7928106406	-4.06316924576	8.46775203826	-59.9061170153	176.978303174	-27.1263743211	-4.48529763211
192812500.0	-19.6294079864	41.428364007	-4.05252210406	7.19865108588	-60.5537682996	-172.804485369	-27.3305455054	-5.13056699803
193500000.0	-19.6140761227	39.1731593986	-4.04039464208	5.90709907415	-60.9477431686	-149.71299203	-27.5386239508	-5.92464199251
194187500.0	-19.6082045391	36.8322329084	-4.02896695336	4.63167683983	-60.639563674	-132.561185445	-27.7192755162	-6.73347121962
194875000.0	-19.6223263386	34.5658489214	-4.01375260712	3.35236280066	-60.644524727	-116.51739724	-27.8898622877	-7.73494864253
195562500.0	-19.6357443962	32.1561561449	-4.001995081	2.09199276053	-60.7865090873	-99.5849252929	-28.0543527241	-8.75517543173
196250000.0	-19.6630157001	29.8081547373	-3.98832075507	0.827161037468	-61.0310681921	-83.4098719118	-28.1857205437	-9.96811357806
196937500.0	-19.6953042525	27.3951585324	-3.97485830559	-0.436544556809	-60.8769307073	-68.0986437848	-28.3141858552	-11.010982126
197625000.0	-19.7450510667	25.012839399	-3.95943217294	-1.68649399115	-61.1050913681	-66.367530132	-28.4037382229	-12.2335564468
198312500.0	-19.796713865	22.6282809342	-3.94446317461	-2.92990563462	-60.7816805565	-76.1272235962	-28.4778538789	-13.682849641
199000000.0	-19.866173808	20.1039554407	-3.9265783804	-4.18296208893	-60.7208272619	-85.363318954	-28.5252717487	-15.151426373
199687500.0	-19.924281239	17.5724068657	-3.91055626552	-5.43046644795	-60.4385824656	-98.8482788446	-28.5764320091	-16.6252062392
200375000.0	-20.0003714069	14.9962050857	-3.89302211749	-6.68026748213	-60.3649444624	-114.253989313	-28.5894960947	-18.2644812824
201062500.0	-20.0613806542	12.4622332459	-3.87595377819	-7.90904199033	-59.8650270792	-127.714069266	-28.6193251961	-19.8613507209
201750000.0	-20.1380361888	9.7998745927	-3.85889762921	-9.15539434588	-59.5584553239	-140.738986319	-28.6035067962	-21.3642883551
202437500.0	-20.2076085024	7.22671924917	-3.84085888772	-10.3890019527	-59.5042904554	-159.133645881	-28.5827746717	-23.0610651584
203125000.0	-20.2862967616	4.53399300173	-3.82034087931	-11.6397721842	-59.285025049	176.38177862	-28.5090572825	-24.6084318144
203812500.0	-20.353875336	1.86399224465	-3.80319000436	-12.8579826256	-59.3558333161	148.043996704	-28.4359726652	-26.3588058993
204500000.0	-20.4366037061	-0.849850615887	-3.7835868142	-14.0946105368	-58.9575410046	114.623321467	-28.3450517117	-27.8598389999
205187500.0	-20.5144969904	-3.51880310154	-3.76546931373	-15.3148136052	-59.1374073381	69.4062204499	-28.2439821369	-29.3641395529
