#Frequency	|S11|	<S11	|S21|	<S21	|S12|	<S12	|S22|	<S22
100000000.0	-16.3363381304	136.433866764	-33.7562756349	-132.159686124	-65.5934589585	-55.136100962	-21.4740189087	-36.9689280792
100687500.0	-16.3253981198	133.51433116	-33.4533695932	-130.345877535	-63.9364501764	1.77790750856	-21.6248843132	-36.8914086918
101375000.0	-16.3313276487	130.393635612	-33.1431354479	-131.261712479	-62.3696756025	119.618896404	-21.6428276772	-36.5758776287
102062500.0	-16.320910806	127.294919579	-32.8456002379	-132.240452883	-61.5172766914	176.420380112	-21.6531946516	-36.299541665
102750000.0	-16.320466001	124.173394611	-32.541898835	-133.06848706	-60.6164717725	-165.071068603	-21.6723163306	-35.9824051782
103437500.0	-16.3237389256	120.983321603	-32.2743673116	-134.453242844	-62.2635674832	-155.105664402	-21.6951866035	-35.7386131714
104125000.0	-16.3362200068	117.710451282	-32.0192418483	-135.784737871	-61.4859711837	-158.265669707	-21.7043050802	-35.4003473218
104812500.0	-16.3595193834	114.360141896	-31.7607487259	-137.277486448	-62.4078003012	-133.892490007	-21.7253883086	-35.2187126475
105500000.0	-16.3930171381	110.894483786	-31.5315480243	-138.766344461	-61.9868760216	-101.086175987	-21.7469401866	-35.1958325701
106187500.0	-16.4319392147	107.268485473	-31.3471867001	-140.241855499	-62.5023326427	-70.4344239492	-21.7802862353	-35.0957950101
106875000.0	-16.479505999	103.522911548	-31.2227320185	-141.661485412	-62.1615625943	-61.0052506682	-21.8112936359	-35.0711607379
107562500.0	-16.54077377	99.6108539438	-31.0978329507	-143.084171865	-62.521316846	-57.8985107415	-21.8433185762	-35.022646825
108250000.0	-16.611131802	95.5091222102	-31.0221854602	-144.279917	-62.387280007	-49.3240698935	-21.8693250799	-35.1083908151
108937500.0	-16.6604234427	91.6532487201	-30.9017542444	-145.309913116	-62.0944858056	-26.1920364062	-21.8939927342	-35.0068760318
109625000.0	-16.7181288642	87.6599787316	-30.7847915301	-146.392086528	-61.9167351803	-1.19623234912	-21.9112676314	-34.9318979439
110312500.0	-16.7679672441	83.5969367479	-30.719674439	-147.296959735	-61.9604361243	16.8364130727	-21.9347212074	-34.8620453651
111000000.0	-16.8345693022	79.3823165568	-30.6695022031	-148.006305714	-61.5609112895	34.9864381755	-21.9556545452	-34.8442216036
111687500.0	-16.8915949841	75.0527761425	-30.6757618151	-148.340319534	-61.9272558445	45.2840414383	-21.9804610004	-34.8566111512
112375000.0	-16.9695276765	70.543714474	-30.6528799813	-148.20586842	-61.9473877652	59.3335766228	-22.0023299899	-34.87996178
113062500.0	-17.038332936	65.9481740198	-30.6490474641	-147.745761818	-61.8888208446	84.3006774561	-22.0329113639	-34.8912317667
113750000.0	-17.12066317	61.1887648935	-30.6000762217	-146.946167442	-62.2509082032	103.226424135	-22.0542736571	-34.9481436455
114437500.0	-17.2005525715	56.3102413293	-30.5379200307	-145.698652881	-62.2168885355	132.974160658	-22.0834043917	-34.9967529061
115125000.0	-17.2917989463	51.2233307519	-30.3991137581	-144.125564949	-62.1098514794	161.112747138	-22.1081547746	-35.0140906593
115812500.0	-17.3809066113	46.0065400016	-30.2050874814	-142.454318903	-61.2721765155	-167.197189149	-22.1357337338	-35.0653185866
116500000.0	-17.4843322511	40.6086114546	-29.9513336437	-140.68471045	-61.2245488334	-129.922345934	-22.1604861714	-35.1206722665
117187500.0	-17.5934178089	35.0914416108	-29.6444375241	-138.829167494	-61.496887243	-101.896983957	-22.1874187076	-35.2523435539
117875000.0	-17.71592489	29.3801956991	-29.3056517549	-137.010811303	-61.3042712888	-83.6912976926	-22.2154715047	-35.2684778356
118562500.0	-17.852217904	23.4939295627	-28.8965648819	-135.224621806	-60.9732293813	-60.7964237032	-22.238251411	-35.2787514904
119250000.0	-17.9993824256	17.4733612795	-28.4567815315	-133.468352078	-60.7233427916	-45.0093878609	-22.2593554048	-35.2298887244
119937500.0	-18.1833692317	11.2479254965	-27.9546780578	-131.929410003	-60.9442923814	-29.2666559826	-22.2758128956	-35.1562127271
120625000.0	-18.3761841806	4.93157608844	-27.4161591026	-130.504795085	-60.5223167016	-4.0712641927	-22.3033529815	-35.1462438186
121312500.0	-18.6245152027	-1.582192542	-26.8278809181	-129.181785785	-60.5684790922	14.0603119758	-22.3177892706	-35.1065683575
122000000.0	-18.896577807	-8.19450905578	-26.1970246583	-128.045535876	-60.74724463	30.155283498	-22.3458875787	-34.9985723497
122687500.0	-19.2506932836	-14.9387047656	-25.5277237055	-127.138453176	-60.5129133735	45.6997421351	-22.3627760527	-34.9266332806
123375000.0	-19.6413585451	-21.6751353218	-24.8466456745	-126.321116208	-60.1006879659	62.0440335266	-22.3818508952	-34.7789319448
124062500.0	-20.1377998118	-28.5466506209	-24.1272351347	-125.822179373	-59.7669811892	76.8706496936	-22.3978760431	-34.6213434031
124750000.0	-20.7520680376	-34.9786091027	-23.3798815602	-125.502725195	-59.9312769786	79.4531297404	-22.42021388	-34.344588153
125437500.0	-21.4834613754	-41.0662402622	-22.6078022128	-125.520362016	-60.0932355924	93.7718983343	-22.4366356621	-34.0779758113
126125000.0	-22.3082448273	-45.2144261182	-21.7973348151	-125.746392763	-60.2138622686	94.7154109759	-22.4678231208	-33.8471284681
126812500.0	-23.047262741	-48.3019857442	-20.9690205625	-126.393558278	-60.1609749335	99.1868300216	-22.4961702657	-33.5672876272
127500000.0	-23.628905234	-50.5296775131	-20.1158901976	-127.193857396	-60.2929095818	100.517727036	-22.5168217302	-33.2500122199
128187500.0	-24.1277249709	-52.8897573431	-19.2227854361	-128.544558716	-60.2542358877	97.0724861866	-22.5406536844	-32.8888098583
128875000.0	-24.5432649892	-54.9068338202	-18.3104154634	-130.248214389	-60.1388136117	99.059286193	-22.564771028	-32.4867247507
129562500.0	-24.8933054306	-56.9365051361	-17.4123158648	-132.712654044	-59.7098400634	90.5171457287	-22.5845826738	-32.0862407052
130250000.0	-25.1974093732	-58.9716550832	-16.5096204465	-135.633183652	-59.9590370779	76.8585436052	-22.6108559731	-31.6757179258
130937500.0	-25.4608454084	-60.9651578953	-15.6555640669	-139.212573555	-59.4946975395	60.3786001286	-22.6342760454	-31.2489787272
131625000.0	-25.6964804944	-62.9170811638	-14.8318219158	-143.175507629	-59.7187579488	32.9349886232	-22.6475511366	-30.8343225586
132312500.0	-25.8953299752	-64.8205745811	-14.0880203868	-147.617220023	-60.4583434002	-2.25318166272	-22.6637138806	-30.3871626548
133000000.0	-26.0750927705	-66.6594563019	-13.4048710365	-152.257480136	-60.5746081095	-39.0392442561	-22.6821865594	-29.9334335421
133687500.0	-26.2197179443	-68.4551177647	-12.7975197462	-157.173293926	-60.76921092	-77.7096258683	-22.7090367839	-29.441396919
134375000.0	-26.3477666885	-70.2475559535	-12.2459650982	-162.197900542	-60.6246465904	-114.380191734	-22.729168438	-28.9801033928
135062500.0	-26.424598697	-71.976933943	-11.7590420526	-167.286510489	-60.7507553465	-145.676935667	-22.7469505322	-28.5437088584
135750000.0	-26.501231711	-73.5744452638	-11.3233931399	-172.409761517	-60.4643390711	173.720616464	-22.7682793424	-28.1484671475
136437500.0	-26.5316321004	-75.115830078	-10.9548628006	-177.550402827	-60.5682121179	134.84726053	-22.7998713941	-27.7754395384
137125000.0	-26.5339067273	-76.5711487406	-10.6262233983	177.350226453	-60.2720583084	93.0876553982	-22.8314258862	-27.4434102153
137812500.0	-26.5033863462	-77.8419483798	-10.3598330856	172.319368352	-60.0929718242	39.3300983568	-22.8537725993	-26.9992259011
138500000.0	-26.4231244531	-79.0511081201	-10.1267019609	167.362165378	-59.7313989668	-5.31365644099	-22.8699350581	-26.7294077636
139187500.0	-26.2995263544	-80.0681876756	-9.94304741824	162.517715987	-59.5457401372	-48.9998614013	-22.8875167045	-26.3873683003
139875000.0	-26.0953491418	-81.0466006483	-9.79072428604	157.785281663	-59.9897670188	-80.1958834073	-22.9156196082	-26.0750040567
140562500.0	-25.8399964354	-82.0069427138	-9.67441830176	153.180667868	-60.1624087194	-118.871438948	-22.9473063926	-25.8625586668
141250000.0	-25.4762294836	-82.8439515863	-9.58547390823	148.701430353	-60.3000307535	-161.449497695	-22.9609828803	-25.6308979562
141937500.0	-24.991053475	-84.0279262629	-9.52312173626	144.386233798	-60.0430099679	155.885357049	-22.9875172238	-25.4548327009
142625000.0	-24.3805734257	-85.5483615057	-9.48001599531	140.211959333	-59.490853033	103.757711589	-23.0056270714	-25.2548728558
143312500.0	-23.6776844271	-88.9513630475	-9.45819949382	136.195912462	-59.3863252087	62.2938236065	-23.0282409869	-25.0820752271
144000000.0	-23.0444608551	-93.3474846337	-9.45343907125	132.299847686	-59.2684838118	8.07226448741	-23.0432317149	-24.9765916734
144687500.0	-22.5897940054	-98.5801939978	-9.46046433834	128.574238802	-59.2784314137	-36.7953644838	-23.0624318609	-24.9195946506
145375000.0	-22.1938963065	-103.546911815	-9.47833001551	124.971455802	-59.5142190332	-90.2134436279	-23.0795043806	-24.8971123673
146062500.0	-21.8947852353	-108.771426278	-9.50680755693	121.509015047	-59.3703964013	-148.903036309	-23.0948682743	-24.8127900404
146750000.0	-21.638656185	-113.846638499	-9.54308458306	118.170253203	-59.7834558029	152.35966047	-23.1114171306	-24.7473938529
147437500.0	-21.4468085986	-118.885282163	-9.58619650298	114.958832188	-59.8394054167	96.9912830175	-23.1148819263	-24.7367513273
148125000.0	-21.2806405021	-123.804105806	-9.63427155991	111.861403013	-60.2561506406	48.9189107937	-23.1202976656	-24.7113057076
148812500.0	-21.1532295692	-128.709550424	-9.68529900232	108.870185028	-60.2949458142	6.04782932564	-23.1252723985	-24.669153407
149500000.0	-21.0494246983	-133.405958934	-9.73724277718	105.984078767	-59.6621627529	-27.5779508507	-23.1356868283	-24.5883711683
150187500.0	-20.9686254411	-138.08641709	-9.79410632203	103.176007916	-59.9376090927	-51.6298472557	-23.1361127244	-24.5739342641
150875000.0	-20.9124268008	-142.627796591	-9.84782785899	100.48146181	-59.7937637224	-75.5149166826	-23.1321601883	-24.5381836105
151562500.0	-20.860958564	-147.137979663	-9.90354593652	97.8428036997	-59.6905997749	-92.8521640121	-23.1246692581	-24.4714510657
152250000.0	-20.8547184593	-151.481479444	-9.95870182193	95.3052814289	-59.8075974264	-116.780429846	-23.1199143961	-24.3612153187
152937500.0	-20.8305930857	-155.733032577	-10.0183996826	92.8316390522	-60.2656165237	-131.331965693	-23.1071972174	-24.2579226032
153625000.0	-20.8495367873	-159.954067885	-10.0704928868	90.4332744116	-60.3830891719	-147.634624969	-23.0972234605	-24.101317634
154312500.0	-20.8460798815	-164.063479519	-10.1283281162	88.0824335469	-61.5628218455	-170.061927699	-23.0724092126	-24.0113308062
155000000.0	-20.8719171611	-168.194149971	-10.1812667733	85.8089940871	-62.0995900863	179.816223206	-23.0546003499	-23.8715521804
155687500.0	-20.8894510702	-172.13200938	-10.2348637155	83.5740264678	-62.2653877876	168.521000153	-23.050429224	-23.6220259608
156375000.0	-20.9304076447	-176.208535621	-10.2850093187	81.4139790113	-62.2816057436	158.611128642	-23.0351745621	-23.4433863641
157062500.0	-20.9584281651	179.904291064	-10.3358460206	79.268962151	-62.2485182993	149.620870245	-22.9995476052	-23.1696318114
157750000.0	-21.0033285292	176.021601879	-10.3852287671	77.1894370328	-62.1353144908	151.922170534	-22.9720528436	-22.872564855
158437500.0	-21.0442066946	172.270038565	-10.4334497818	75.1546614387	-62.1485871642	154.241225847	-22.9527620624	-22.5850240314
159125000.0	-21.0898042584	168.474746538	-10.4776168212	73.1663142915	-62.5953824967	169.436587178	-22.9352262873	-22.2714749736
159812500.0	-21.1398649404	164.809766451	-10.5263092883	71.2014775187	-62.5863399452	-177.18494499	-22.908419684	-21.9092377877
160500000.0	-21.1855669402	161.210111463	-10.5690409201	69.2825018423	-62.5519327969	-163.344172024	-22.8855864121	-21.5413677957
161187500.0	-21.2362474124	157.643414818	-10.6134073936	67.402867469	-62.6830157779	-147.758491555	-22.8536236565	-21.1505085257
161875000.0	-21.2845771075	154.135871609	-10.6551049338	65.531699525	-62.4087062276	-132.326317766	-22.8413394653	-20.7369689733
162562500.0	-21.3478732992	150.603456097	-10.6995915913	63.7121079854	-62.5498113172	-105.242846608	-22.819311824	-20.3338155436
163250000.0	-21.3869194396	147.201276382	-10.7384988372	61.9108817467	-62.6599259148	-71.1971834827	-22.8178298963	-19.8934346552
163937500.0	-21.4528141859	143.765557081	-10.7805989032	60.1520441357	-62.4324451973	-28.9103235274	-22.8092513902	-19.5142338173
164625000.0	-21.4912297554	140.499629953	-10.8164637587	58.4061250702	-62.2643428754	3.77536677928	-22.8076822538	-19.0813326889
165312500.0	-21.5511798995	137.172117032	-10.853737777	56.7165865654	-61.7157635672	38.2710248805	-22.8139848103	-18.6636099477
166000000.0	-21.5975564998	133.986736574	-10.8876030502	55.0213192996	-61.5082405099	68.0613667631	-22.8136995633	-18.2686956255
166687500.0	-21.6572742983	130.663347079	-10.9239452289	53.3665102151	-61.1627595868	85.1903951345	-22.8167163857	-17.9112139921
167375000.0	-21.7178772393	127.55289118	-10.955048601	51.7353704611	-60.6492280014	95.3203890815	-22.8357665009	-17.5051195056
168062500.0	-21.7816703992	124.311630464	-10.98794523	50.1311904677	-60.6114981927	106.543205357	-22.8420574962	-17.1265509201
168750000.0	-21.8439162372	121.311418532	-11.0200997148	48.5571925437	-60.5768604545	110.896117346	-22.8725175438	-16.8248826325
169437500.0	-21.9096178136	118.158040059	-11.0510176232	46.998875701	-60.5019098708	121.50611388	-22.9073853079	-16.5364634324
170125000.0	-21.9755799227	115.081934673	-11.0767134749	45.4513410902	-60.0617236438	121.526537607	-22.9462553594	-16.2490109632
170812500.0	-22.0345278449	111.974765038	-11.1034416179	43.9277762588	-60.2361256554	125.946121163	-22.9851061019	-15.9812216012
171500000.0	-22.1152794585	108.953476725	-11.1271380455	42.4275897663	-59.1801802519	137.96373577	-23.0246308099	-15.7238885298
172187500.0	-22.182206787	105.828361663	-11.1479353313	40.9391200552	-58.8143790728	137.223680868	-23.0708897104	-15.5234461366
172875000.0	-22.2597120786	102.720519095	-11.1686456206	39.4738320567	-58.8249860089	137.841497304	-23.1038068146	-15.4250305211
173562500.0	-22.3128555532	99.6032093176	-11.1879249501	38.0272891349	-58.9885986306	149.209112401	-23.1589612073	-15.2541344109
174250000.0	-22.3910305451	96.5134983202	-11.2048181703	36.6124648526	-58.6657985377	149.290324319	-23.2077144603	-15.1724942067
174937500.0	-22.430795635	93.3947614113	-11.2181638535	35.2008363268	-58.6359044989	148.51470951	-23.26546238	-15.1316956212
175625000.0	-22.493290903	90.1745944344	-11.2292045669	33.7995942957	-58.4612441666	152.254126844	-23.3108102751	-15.0564315033
176312500.0	-22.5376297164	87.0303473254	-11.2412521434	32.40827737	-58.3401908366	150.742206374	-23.3660712464	-15.030865595
177000000.0	-22.5799760399	83.7666604761	-11.2491179132	31.0474786636	-58.8026061967	148.384360823	-23.4377714265	-15.127229607
177687500.0	-22.6025514694	80.4897565354	-11.258732123	29.6675738146	-58.7184196132	145.164265262	-23.5071386568	-15.1883561719
178375000.0	-22.6486697576	77.1804744054	-11.2631354925	28.3075924294	-58.6830654356	144.301766839	-23.5695966914	-15.2148334643
179062500.0	-22.6696430081	73.9616253903	-11.267731798	26.9549050167	-58.6379926788	144.509946573	-23.6378594515	-15.3544146531
179750000.0	-22.6905041736	70.639672589	-11.2652997915	25.6200842989	-58.3822986233	132.548808937	-23.7081058409	-15.4568642021
180437500.0	-22.7071884083	67.2718033876	-11.2667710522	24.2655215385	-58.2510150855	118.178695622	-23.7609029204	-15.633519172
181125000.0	-22.7061696059	63.9069765556	-11.2614049549	22.9290329293	-58.6338730102	104.225312706	-23.8226978761	-15.7384391839
181812500.0	-22.7175262907	60.5155004851	-11.2592986829	21.5926116694	-58.727500429	90.0390913602	-23.8850221512	-15.8975382314
182500000.0	-22.698340549	57.0816952198	-11.2513747894	20.2602346696	-59.2608414197	78.368428506	-23.9499857141	-15.9508984092
183187500.0	-22.6856096774	53.6761780303	-11.2481887619	18.935216383	-59.4496526997	68.1765981077	-24.0060977616	-16.0459268564
183875000.0	-22.663368399	50.3660791926	-11.2358552817	17.6050560322	-59.6262809271	68.3869836683	-24.0688748548	-16.1345017744
184562500.0	-22.629940895	46.8722343497	-11.2290236034	16.2914041401	-59.9372821578	64.5569668742	-24.1037150043	-16.3162622548
185250000.0	-22.5776037086	43.4897090483	-11.2176666036	14.9736308677	-59.862783941	51.2404682957	-24.1614126659	-16.4059937114
185937500.0	-22.5457842302	40.0117127122	-11.2107902323	13.6517605706	-59.8308150792	47.2295809686	-24.1920753343	-16.4814927012
186625000.0	-22.4917772737	36.6397839903	-11.1934483995	12.3186501631	-59.8039536372	48.9783200682	-24.2421230003	-16.5005064218
187312500.0	-22.4401996011	33.1455202191	-11.1832315238	11.0064907321	-59.7827547753	51.4933480778	-24.2689038327	-16.5236111141
188000000.0	-22.3717901988	29.8395887877	-11.166284743	9.70178061843	-59.7284562151	61.6265492622	-24.3001902247	-16.5020683557
188687500.0	-22.3109151419	26.3745704296	-11.1552276804	8.39183039746	-59.9339938804	62.1225041604	-24.3299042163	-16.4601326604
189375000.0	-22.239883293	23.0353515228	-11.1399399194	7.08630476632	-59.519302504	63.314325004	-24.3778828145	-16.3426175272
190062500.0	-22.169378467	19.5835989912	-11.125635962	5.78240312548	-59.5785605634	65.1950381617	-24.4034885747	-16.1689849466
190750000.0	-22.1045231191	16.2415569126	-11.1063934367	4.46360791682	-59.3200699392	54.8370988886	-24.4339763322	-16.0206311846
191437500.0	-22.0252604463	12.8403473757	-11.0921916245	3.16315744024	-59.765230389	54.5766589848	-24.4679014521	-15.8220851134
192125000.0	-21.9665507886	9.5605640884	-11.0753703527	1.85389055099	-60.0348227084	53.9238630045	-24.4931754736	-15.5862586017
192812500.0	-21.8822927016	6.18521537319	-11.0591018289	0.555952498068	-59.9968453815	52.7621372772	-24.5297010881	-15.3951903125
193500000.0	-21.816109703	2.84266027867	-11.0416534314	-0.755541610568	-59.6973648432	43.9634076177	-24.5611469864	-15.1772414615
194187500.0	-21.740370239	-0.526789938327	-11.0240231545	-2.04567655242	-59.2065500025	44.4714327222	-24.5700931705	-14.8629666025
194875000.0	-21.6784814783	-3.87361364049	-11.0034321574	-3.33491950795	-59.3693548134	36.0004413838	-24.5816231488	-14.526344604
195562500.0	-21.5757149742	-7.20372799881	-10.985140036	-4.61456367486	-59.4416564057	33.2881963014	-24.6077187879	-14.2115738034
196250000.0	-21.5018683403	-10.585412977	-10.9649929432	-5.89267237857	-59.9262762912	22.1285162854	-24.6286757557	-13.8785381023
196937500.0	-21.3998888141	-13.8538935737	-10.9485981439	-7.16467794985	-60.8001967314	23.7242162539	-24.6386913013	-13.4581985102
197625000.0	-21.3174780289	-17.175472875	-10.9274623156	-8.43213987167	-60.9857171671	21.9206649007	-24.6477965974	-13.0957352564
198312500.0	-21.2156837598	-20.3878568179	-10.9091253564	-9.69233232091	-60.6490252574	10.6089917817	-24.6597876254	-12.8257401437
199000000.0	-21.1226352927	-23.6938618928	-10.8890193971	-10.9640007224	-60.916242872	9.24550955179	-24.6620219952	-12.5937107852
199687500.0	-21.0179197695	-26.8450644642	-10.8713928795	-12.2349079022	-60.6208070795	-4.35312450542	-24.6713768037	-12.2902218748
200375000.0	-20.9181483047	-30.0493932438	-10.8514585735	-13.4814207723	-60.5795968598	-7.01905055835	-24.6933364738	-12.0472356659
201062500.0	-20.805048261	-33.212901882	-10.8344357887	-14.7322528711	-60.4868823227	-18.1799683213	-24.7222150131	-11.7642850855
201750000.0	-20.7006479167	-36.3217738054	-10.8134398974	-15.9940585417	-60.5076946743	-16.8546163484	-24.7428963709	-11.533898389
202437500.0	-20.5933805616	-39.3085482159	-10.7931862733	-17.2532930938	-60.7703160488	-15.4957301901	-24.7843429689	-11.4018833695
203125000.0	-20.4704861079	-42.3335985679	-10.7682608937	-18.4911496892	-61.4246719047	-13.6216119356	-24.8086469691	-11.2759276383
203812500.0	-20.3450591902	-45.260085267	-10.7478727417	-19.7327001134	-61.5250679728	-22.787591512	-24.8276361759	-11.2370036115
204500000.0	-20.2198319398	-48.171037266	-10.7210095014	-20.9690282354	-61.4395425934	-25.1265868205	-24.8562048362	-11.2115147044
205187500.0	-20.1053168746	-51.0517950299	-10.7007522479	-22.2176870835	-61.6822710885	-36.0074499669	-24.8923058814	-11.147197442
