#Frequency	|S11|	<S11	|S21|	<S21	|S12|	<S12	|S22|	<S22
100000000.0	-16.2929922827	150.966450185	-21.3483826044	-124.188500964	-69.0637134957	168.131095897	-20.7872412097	-58.5099630721
100687500.0	-16.3017767552	148.369869916	-20.8539473159	-125.688740826	-69.4435771899	-167.54840067	-20.9048514496	-58.792523954
101375000.0	-16.2988088849	145.82487403	-20.4040472285	-126.841202551	-64.22378013	161.573127189	-21.0183998074	-58.1434515789
102062500.0	-16.2947360442	143.261468077	-19.9979852119	-128.074184322	-64.9876958296	136.083375763	-21.1149536936	-57.5444757965
102750000.0	-16.296502124	140.769138406	-19.6210891486	-129.349958126	-63.6268580941	86.2641045667	-21.2180905063	-56.9426492953
103437500.0	-16.2965014371	138.175727932	-19.2672845841	-130.696486262	-62.2399802657	-7.19768848272	-21.3272556451	-56.392399472
104125000.0	-16.3213785538	135.460835031	-18.9433437688	-132.058004747	-61.4983969071	-89.5776116354	-21.4716826795	-55.8323119984
104812500.0	-16.3539123416	132.636156068	-18.6459105863	-133.402824574	-60.86348114	-109.209679222	-21.5991351632	-55.4940575268
105500000.0	-16.3916229312	129.70626269	-18.3706851739	-134.791662769	-61.1239833564	-125.382837285	-21.7163629575	-55.1785813042
106187500.0	-16.4323120456	126.680157627	-18.1240797867	-136.186612425	-61.3232837481	-128.747359513	-21.8598224327	-54.8955901534
106875000.0	-16.4810829946	123.537599408	-17.9046499554	-137.595057442	-60.8824344297	-128.796708366	-22.0011747504	-54.7885907817
107562500.0	-16.540308612	120.301270723	-17.7147954605	-138.908403984	-60.5601146391	-127.87702832	-22.1606425376	-54.6124268097
108250000.0	-16.6003471598	116.876111182	-17.5634830734	-140.212446465	-61.1502284405	-141.183726714	-22.3168683156	-54.5563781221
108937500.0	-16.6477441551	113.623788759	-17.3482142515	-141.511727595	-60.569388122	-156.426761051	-22.4612590268	-54.3748651119
109625000.0	-16.697190666	110.372278933	-17.1651033064	-142.729849099	-60.9887281288	-171.933884504	-22.600123946	-54.136544546
110312500.0	-16.7462660807	106.930309413	-17.0019900856	-143.910623649	-60.8906035242	174.313899278	-22.7507373281	-54.0174342723
111000000.0	-16.8024727475	103.427357312	-16.8746985372	-145.014186872	-61.0544418628	157.583830631	-22.8981466684	-53.8433877585
111687500.0	-16.8522725177	99.8021289045	-16.7732486203	-146.039412722	-61.0604621173	141.178549996	-23.0529665182	-53.8216696149
112375000.0	-16.9179066135	96.1020885673	-16.7041234524	-146.877518358	-60.8660925974	127.042573318	-23.2021438154	-53.7979690199
113062500.0	-16.9719876893	92.2467081699	-16.6615984745	-147.524054947	-60.5497079841	110.868239638	-23.3711765271	-53.7893325615
113750000.0	-17.0332181492	88.2895602046	-16.6459508012	-147.86000767	-60.528622183	95.7133449546	-23.5202964718	-53.7997799655
114437500.0	-17.0882105113	84.2378230203	-16.6483942442	-147.829188266	-60.6038851357	92.369060438	-23.6950831001	-53.8876391917
115125000.0	-17.1588346066	80.0208672847	-16.6546507447	-147.386704519	-60.6591803535	89.7208785001	-23.8620812994	-53.9701516274
115812500.0	-17.2201507661	75.6842792777	-16.6438521773	-146.51653335	-60.6522632257	89.0544562371	-24.0321237921	-54.0014053508
116500000.0	-17.2912183744	71.1953197419	-16.595080275	-145.252782063	-60.9754778216	86.9239884056	-24.1806103189	-54.1506627911
117187500.0	-17.3548050974	66.6467135714	-16.499049381	-143.700319232	-61.315571518	85.1244785182	-24.3414667189	-54.2615514601
117875000.0	-17.4318641224	61.920250341	-16.3490611892	-141.939427039	-61.448686628	72.6359419232	-24.5112890374	-54.317048267
118562500.0	-17.5142704344	57.1038638895	-16.1414584982	-140.039106761	-61.49100793	45.9187577679	-24.6819117255	-54.4463537609
119250000.0	-17.6067272597	52.1031640092	-15.8791764132	-138.062999012	-61.4249412492	31.4942286527	-24.8397087484	-54.4783119974
119937500.0	-17.7108335789	47.039032512	-15.5647769702	-136.069784333	-61.4545676143	7.45137012472	-24.994203685	-54.5647992964
120625000.0	-17.8229483091	41.7363216304	-15.1965092246	-134.109270349	-61.9427363214	-22.1814287625	-25.1504273721	-54.6843145525
121312500.0	-17.970266228	36.3819874329	-14.7835618131	-132.218185768	-61.390117026	-64.4331306359	-25.2863121391	-54.791547391
122000000.0	-18.1196883015	30.8205307513	-14.3221807873	-130.424610359	-61.4398557386	-108.965190355	-25.4463683436	-54.8744874704
122687500.0	-18.3175162427	25.140870178	-13.8170745482	-128.72115635	-61.5005717912	-150.46345838	-25.5744505357	-54.9672920143
123375000.0	-18.533653693	19.2515720189	-13.2740958339	-127.197483356	-61.4566368417	167.536155121	-25.706650567	-54.9487288736
124062500.0	-18.8122262515	13.1642267652	-12.6907654128	-125.828010746	-61.5259050542	123.801005778	-25.8265569125	-55.0218487701
124750000.0	-19.1465686519	7.04949995714	-12.0700139304	-124.598984792	-61.1895618883	81.7841190914	-25.9426799879	-55.0442551888
125437500.0	-19.564385517	0.62671820401	-11.4163319483	-123.587389739	-60.5102673809	51.665278136	-26.0426765093	-54.9856366883
126125000.0	-20.0751097227	-5.72628100104	-10.728067401	-122.744960774	-60.447482725	10.55587702	-26.1551870597	-54.9760658687
126812500.0	-20.6989341303	-12.5646483924	-10.0082919416	-122.149104779	-59.4880499676	-32.1232099408	-26.2561615122	-54.9311243457
127500000.0	-21.5744678199	-18.7075033699	-9.25640430102	-121.771447658	-59.2225938234	-74.4471113447	-26.3378242813	-54.9781730299
128187500.0	-22.8941501563	-26.5433895213	-8.47248947552	-121.671525575	-59.2638415941	-111.58726122	-26.4105302161	-54.9969417672
128875000.0	-23.8939555883	-40.9858482621	-7.65934974009	-121.819994756	-59.1435439778	-150.150782584	-26.4689196064	-54.9008627523
129562500.0	-24.636635101	-55.109903693	-6.81657326388	-122.327575615	-59.8847857628	177.444375152	-26.5190693459	-54.8370524745
130250000.0	-25.2785917514	-69.5991747831	-5.94803773343	-123.200593781	-59.7451452956	140.351465896	-26.557865803	-54.8665730817
130937500.0	-25.8314507707	-84.2419769764	-5.05437635143	-124.556106686	-60.2901764061	110.472069031	-26.6018575306	-54.806030643
131625000.0	-26.3068861508	-98.9049781231	-4.15185769228	-126.405651352	-60.2629587762	70.730673305	-26.6078894665	-54.860634277
132312500.0	-26.7325820374	-113.699401377	-3.24781337944	-128.835585909	-60.0773701816	34.611561637	-26.617949882	-54.8322130049
133000000.0	-27.1216748599	-128.513158969	-2.36960511399	-131.798837682	-60.4094579941	5.61571577173	-26.6123118851	-55.0054492206
133687500.0	-27.477955809	-143.610881189	-1.53298471467	-135.315733008	-59.717941945	-23.0974033442	-26.6128083122	-55.1140620152
134375000.0	-27.8032442105	-158.622441314	-0.75226356176	-139.226277814	-59.4892790176	-50.9619459494	-26.5819913219	-55.3382482625
135062500.0	-28.1000743908	-173.973726746	-0.0287236272347	-143.499975068	-58.9892170122	-77.226646878	-26.5495767384	-55.5694859454
135750000.0	-28.3740605261	170.801282982	0.628015397185	-147.985793482	-60.3209861678	-94.5784211861	-26.4818228062	-55.7763044194
136437500.0	-28.6159132163	155.437201088	1.22444516615	-152.687190789	-59.9835223975	-122.539888944	-26.438880682	-56.1384827286
137125000.0	-28.8387833077	139.974716231	1.75897052869	-157.474112547	-59.9200199146	-137.609184922	-26.390270368	-56.4851603824
137812500.0	-29.0071583227	124.575693477	2.23819777708	-162.344601417	-59.3518960307	-150.831955628	-26.3325675103	-56.7925835273
138500000.0	-29.1567652795	109.022765122	2.663381985	-167.2330633	-59.7643803843	-154.963527661	-26.2550859016	-57.1062808586
139187500.0	-29.263275393	93.5763600977	3.03689092082	-172.124946943	-59.9407281718	-155.856371025	-26.1721073773	-57.5216845249
139875000.0	-29.3207329082	78.0757258358	3.36176090071	-176.972160415	-59.9676207772	-157.106847643	-26.0879874442	-57.8645178757
140562500.0	-29.337183907	62.7396027994	3.64633660545	178.223096524	-60.2238277426	-159.145538799	-26.000501808	-58.4387563911
141250000.0	-29.2745069825	47.5028567023	3.88901451616	173.503761951	-60.0215919424	-157.665124594	-25.895890533	-58.8490004765
141937500.0	-29.1401799429	32.271408728	4.09578810362	168.86209755	-60.3886115876	-158.008157055	-25.7988077706	-59.3025221224
142625000.0	-28.910571788	17.2299943383	4.26998495749	164.327576233	-60.2156618138	-168.41237373	-25.6913190049	-59.7607943039
143312500.0	-28.5667174091	2.20905534994	4.41177253637	159.903701509	-60.7436328375	-169.322879411	-25.5780119737	-60.2597538208
144000000.0	-28.1072146234	-12.4687543608	4.52717050935	155.593965553	-60.4217091993	-175.870406941	-25.4622513788	-60.7072105024
144687500.0	-27.3901242798	-27.7099353889	4.6190006063	151.412890855	-60.9496481909	-174.624501877	-25.3595882245	-61.1594148524
145375000.0	-26.2066789208	-41.3170945958	4.68858073217	147.361053712	-60.679604217	-176.625869776	-25.2464320001	-61.5530358725
146062500.0	-25.3457783676	-48.1803325332	4.73972618129	143.425879936	-60.7266490589	-179.951338159	-25.1514612994	-62.0183328463
146750000.0	-24.7147837416	-55.3901885716	4.77401356699	139.616003742	-59.903251321	174.141579289	-25.0636776721	-62.3626314744
147437500.0	-24.1976025639	-62.1078300753	4.79295659987	135.931849379	-60.2231442881	170.496398196	-24.9485551241	-62.6214844071
148125000.0	-23.7464495418	-68.6311856433	4.80189821386	132.370467013	-59.6517825026	158.999016807	-24.8376746146	-62.9522260887
148812500.0	-23.3870917586	-75.1168931954	4.79855199378	128.911995377	-59.3882235133	153.030292869	-24.7295999467	-63.1307745821
149500000.0	-23.0547889614	-81.2907066388	4.78884088803	125.585502451	-59.4637994551	150.359400465	-24.6393635634	-63.3332535804
150187500.0	-22.7673534113	-87.3619578992	4.76815371045	122.343219567	-59.0971580558	151.392659105	-24.5426092145	-63.4197325353
150875000.0	-22.4929042089	-92.9416164281	4.74502006996	119.215806781	-59.3517236547	153.036102493	-24.452352356	-63.4014863404
151562500.0	-22.2577216195	-98.6215113417	4.71481328839	116.167559518	-59.4648832998	154.7972681	-24.3713655617	-63.3354329233
152250000.0	-22.0273239304	-103.735294299	4.67916236695	113.226002167	-59.9459411362	152.479698219	-24.3009069632	-63.2118594149
152937500.0	-21.8144087481	-108.876168366	4.63958689284	110.365470373	-58.8028286448	151.670927743	-24.2332230301	-62.9788704705
153625000.0	-21.6218564342	-113.65406978	4.59983563198	107.599576125	-58.7060450929	152.147122692	-24.1776819218	-62.7327755377
154312500.0	-21.4293019364	-118.25515297	4.5567706048	104.891208637	-58.3216763057	148.446549972	-24.0925464965	-62.3526163007
155000000.0	-21.2860644514	-122.672336268	4.51077345874	102.27985647	-58.7195038112	149.265201476	-24.034830485	-61.9365014017
155687500.0	-21.1285327115	-126.827860178	4.46471107933	99.7294283354	-58.2499544897	142.609080038	-23.995598337	-61.4884891762
156375000.0	-21.0165154345	-130.803080484	4.41638735264	97.2528127088	-58.888357202	142.153142798	-23.9486786637	-60.9692600804
157062500.0	-20.8949231997	-134.597130111	4.36885260696	94.8324534987	-58.6892271759	133.227069516	-23.919169693	-60.3131376876
157750000.0	-20.8017824499	-138.295943721	4.31897578312	92.4761358806	-58.9382579084	131.81856816	-23.8952274077	-59.6105613557
158437500.0	-20.7106786418	-141.811557748	4.26917388278	90.1644909367	-59.2786745602	119.790660006	-23.8839317264	-58.9648128969
159125000.0	-20.6459632555	-145.203918584	4.21895814272	87.9364161349	-59.281961313	117.392522842	-23.8777422806	-58.2269133268
159812500.0	-20.5884611902	-148.415615721	4.17024977388	85.7401877256	-59.3366381193	119.137726009	-23.886475868	-57.4545672286
160500000.0	-20.5601380828	-151.605603884	4.12136536292	83.5998119976	-59.0762319315	119.83085044	-23.8981714014	-56.6845261613
161187500.0	-20.5315673569	-154.572726379	4.07330487401	81.5004759543	-59.0883643072	118.471589555	-23.917657195	-55.8581676792
161875000.0	-20.5233711515	-157.519204058	4.02524658623	79.4512504769	-58.5168200567	119.978154652	-23.9520381749	-54.9456627137
162562500.0	-20.5478534013	-160.279447302	3.97861531731	77.4283945221	-58.9107638356	118.889853481	-23.9906026568	-54.14002367
163250000.0	-20.563024018	-163.124609179	3.93044843509	75.4567445588	-59.0376048737	119.914704772	-24.0448113396	-53.2653644775
163937500.0	-20.6056517208	-165.759278109	3.88400816206	73.5193867061	-59.0374709665	118.417201496	-24.0837564903	-52.409900368
164625000.0	-20.6482599229	-168.437434395	3.8398341004	71.6187902496	-58.5877956016	114.728222511	-24.1544615154	-51.6492243863
165312500.0	-20.7323497025	-170.975192685	3.79352675191	69.74904762	-58.4678941018	109.768695363	-24.2464549187	-50.8555782156
166000000.0	-20.8086714308	-173.44760825	3.75026527011	67.9204377653	-58.4693231135	97.4700720949	-24.343211703	-50.0402123726
166687500.0	-20.913051984	-175.905500317	3.70712753337	66.1120583685	-58.6643372324	83.330929684	-24.4483637546	-49.1544369957
167375000.0	-21.0150230424	-178.346798567	3.66619212116	64.3429755488	-58.5775874871	62.3115591654	-24.5716312629	-48.4063144038
168062500.0	-21.156360013	179.187788539	3.62393404437	62.6046180069	-59.0239369244	47.6231322113	-24.6859500888	-47.6620802193
168750000.0	-21.2948154509	176.754559196	3.58414084199	60.9100224891	-58.896223492	21.4364659332	-24.8281630791	-47.0099051803
169437500.0	-21.4719006626	174.204384256	3.54491541613	59.2270742797	-58.8690385551	7.28239590681	-24.9792906469	-46.3556376016
170125000.0	-21.6436617938	171.724152799	3.50847801849	57.563512709	-58.6319465839	-16.2923514117	-25.1375183395	-45.7596488058
170812500.0	-21.8466580704	169.087728858	3.47171821251	55.9301150626	-58.8461050416	-41.634884534	-25.3081498182	-45.1543187854
171500000.0	-22.0477974621	166.5197452	3.43648264067	54.3349720607	-58.9499808134	-75.9295732337	-25.4962647906	-44.7600268578
172187500.0	-22.2672097046	163.722735056	3.40402541572	52.7498218732	-58.6686489512	-104.47414244	-25.6952846212	-44.4281040294
172875000.0	-22.4852652173	160.932430545	3.37113162845	51.1880388993	-58.9685694598	-134.547208085	-25.8745812407	-44.1440709568
173562500.0	-22.7074875669	157.749935233	3.34097820845	49.6441431049	-57.9887830634	-165.643953764	-26.0963332437	-43.9183416467
174250000.0	-22.9489696843	154.717469039	3.31277495815	48.1205788263	-58.0388249368	166.232800705	-26.2972237936	-43.765152895
174937500.0	-23.1705513056	151.330984085	3.28544205412	46.6169704792	-57.3706974708	140.220871705	-26.5175699626	-43.7781713796
175625000.0	-23.400435836	147.886351954	3.26018429068	45.1355299939	-57.3797957227	112.880389056	-26.7253939604	-43.6888496422
176312500.0	-23.6058244382	144.211029439	3.23624559337	43.661063814	-57.0232899536	77.8384235565	-26.9717433446	-43.9034657877
177000000.0	-23.8172606549	140.455399668	3.21254097341	42.2086371179	-57.2294848551	47.0139429004	-27.2113984506	-44.1911441629
177687500.0	-23.9827500502	136.538384214	3.19063938228	40.762196374	-57.0906903165	6.35656534682	-27.4599804491	-44.5197533423
178375000.0	-24.1515091234	132.47703138	3.17013920339	39.332506706	-57.6586191076	-22.0188478464	-27.7228660054	-44.7719328867
179062500.0	-24.2774193052	128.439995598	3.15062701089	37.9060452622	-58.0837849297	-62.3081162778	-27.959005208	-45.4859314791
179750000.0	-24.3907432821	124.188076858	3.13341171225	36.51046015	-57.9350508579	-91.6118156121	-28.1992573488	-46.0962357223
180437500.0	-24.4894134553	119.946814332	3.11729910165	35.1005748217	-57.7445073761	-126.185585407	-28.4067137625	-46.7599197314
181125000.0	-24.5679069552	115.460540475	3.10280742643	33.7153926184	-58.0108554702	-154.52481771	-28.6731601152	-47.38532207
181812500.0	-24.6192677009	111.154004408	3.08823189142	32.3364726801	-58.0484204514	173.115720304	-28.9078562003	-48.1256619329
182500000.0	-24.6359622627	106.607526321	3.07585748576	30.9782709889	-58.6282513788	151.379271078	-29.1475308358	-49.0832066433
183187500.0	-24.6192354189	102.211038456	3.06353731362	29.6190438048	-58.7621887327	133.944421279	-29.3511617758	-49.8508656571
183875000.0	-24.5850412161	97.7253881257	3.05167752763	28.2716519745	-58.951555895	119.339013996	-29.5522681803	-50.9792310707
184562500.0	-24.5397220227	93.3536206326	3.04149345436	26.9304289365	-59.0665654859	105.03684287	-29.7210416352	-51.9327748499
185250000.0	-24.4449780344	88.9044457634	3.03242767519	25.5994474962	-58.5616850681	85.9649801292	-29.9189193906	-52.9489291221
185937500.0	-24.3377532714	84.6072807501	3.02369365082	24.2597036342	-58.5707229398	73.9591026397	-30.0706996254	-54.0327016877
186625000.0	-24.1943018708	80.3748117729	3.01794506433	22.946024143	-58.4518641159	50.3138373404	-30.2379698581	-55.3462400895
187312500.0	-24.0498687235	76.1329915139	3.01216296625	21.629169054	-58.7045721511	37.4218887534	-30.3762788689	-56.412615278
188000000.0	-23.8557540172	72.0484202734	3.0059254631	20.3265806942	-59.3382961313	22.6978864346	-30.5144698483	-57.6940406634
188687500.0	-23.6728159953	67.9652287938	3.00123672805	19.026904794	-59.7343561845	9.17041583662	-30.6175407514	-58.8926824356
189375000.0	-23.4525850913	64.1488094115	2.99675018588	17.7395858907	-59.654509599	-6.85645642727	-30.7238062537	-60.2069381173
190062500.0	-23.2421910316	60.3520544459	2.99361839572	16.451669951	-59.5297785495	-20.775465493	-30.8273286346	-61.3756706118
190750000.0	-23.0000846044	56.9238716518	2.99272751261	15.1822429394	-59.3862213355	-32.144036472	-30.9067850125	-62.6551203804
191437500.0	-22.7554959436	53.4530829944	2.99047556561	13.9119038872	-59.663136164	-46.5978775202	-30.9644099392	-63.8883498515
192125000.0	-22.5067551418	50.3583181032	2.98886498051	12.6522759767	-59.6436506859	-72.8174848116	-30.9880433577	-65.1183461183
192812500.0	-22.2644365103	47.2614874377	2.98881178037	11.3931921995	-60.1025443358	-87.7617031567	-31.0187450857	-66.3461973205
193500000.0	-22.0301095386	44.4996795017	2.98878916602	10.1361308269	-60.3482965552	-101.964684234	-30.999452537	-67.5501670351
194187500.0	-21.794445424	41.7663337396	2.98883206832	8.88412750832	-60.3445803999	-115.518412616	-30.9872115037	-68.519137325
194875000.0	-21.5869469634	39.2756153442	2.99096656451	7.64387437487	-60.5862060273	-129.643861358	-30.9503713139	-69.52649219
195562500.0	-21.3790750728	36.8195641201	2.99347440043	6.40904077507	-60.3080181808	-143.683607628	-30.893637008	-70.7633998097
196250000.0	-21.1946980406	34.476457783	2.9960420751	5.19064515652	-59.827370901	-155.028472919	-30.8063539048	-71.56715801
196937500.0	-21.0100317676	32.2121763067	2.998854273	3.95981730075	-60.1942703594	-168.499974052	-30.7563163508	-72.35303495
197625000.0	-20.851099077	30.1145779112	3.0037050483	2.76070059328	-60.2541605936	175.338124867	-30.6845339087	-73.2134540626
198312500.0	-20.6933617281	28.085685415	3.00909543429	1.55214714948	-60.4142783963	159.411131546	-30.5628749425	-74.2455544551
199000000.0	-20.5736386579	26.0441410425	3.01708676119	0.344294491945	-60.3410221511	147.069724144	-30.4207228834	-75.0225124944
199687500.0	-20.4495516101	24.0670273703	3.02419299313	-0.865361665811	-60.1425607201	137.720393397	-30.288869957	-75.6517152732
200375000.0	-20.36539222	22.0757393934	3.03224916176	-2.07077874003	-59.8764250879	136.506087857	-30.1682841086	-76.5504368222
201062500.0	-20.2774408247	20.1173764079	3.04072600079	-3.26814534251	-59.8234957696	137.125228	-30.034764372	-77.2415151473
201750000.0	-20.2103434808	18.0905207711	3.04967610532	-4.46015457433	-60.0226722939	137.109716129	-29.8933066372	-77.8865823585
202437500.0	-20.1457650342	16.1619191063	3.05934860622	-5.65012716112	-59.9940851209	138.070106866	-29.7314892637	-78.6228517541
203125000.0	-20.1007248313	14.1757781751	3.07084983569	-6.83598718976	-60.0543268786	138.333035436	-29.5613113018	-78.9685486876
203812500.0	-20.0464279335	12.1974499383	3.0813264365	-8.0247096186	-60.0992105122	142.707019052	-29.3585430089	-79.2986879246
204500000.0	-20.0216711208	10.2097978225	3.09373243196	-9.20870031774	-60.3456664607	143.470194593	-29.1772341479	-79.7060692616
205187500.0	-20.001272886	8.23499989961	3.1069690332	-10.3862380224	-59.4654289342	151.083061446	-28.9862289186	-79.9606643425
205875000.0	-19.9796533526	6.22591806707	3.12094111399	-11.5742647838	-59.5097645112	164.85978599	-28.806052592	-80.0800750856
