#Frequency	|S11|	<S11	|S21|	<S21	|S12|	<S12	|S22|	<S22
100000000.0	-16.2803803706	150.96309267	-44.5091582723	-112.386667064	-59.6418596662	-42.441985603	-20.3962786342	-37.4841367743
100687500.0	-16.2679677789	148.439466041	-43.6479134013	-117.937735361	-60.6452070847	15.4759522232	-20.4930851031	-36.2970220668
101375000.0	-16.2846936597	145.815093586	-43.0149680226	-120.547905001	-60.1970689645	-26.9636287409	-20.5256467073	-35.6067159489
102062500.0	-16.2879774721	143.325587747	-42.6159637619	-122.673637633	-60.6817094996	-92.8440833896	-20.546961139	-34.867264767
102750000.0	-16.2868061651	140.737759788	-42.2676756181	-124.300994746	-60.8877307324	-89.9010270082	-20.6002817269	-34.2378575412
103437500.0	-16.2973905363	138.125708903	-41.8680673297	-125.745473851	-62.4085088761	-118.7173986	-20.6460918977	-33.496623253
104125000.0	-16.3250379577	135.369089841	-41.5165312124	-127.063065736	-62.1028755936	-131.43447365	-20.7028876725	-32.7532794255
104812500.0	-16.3521173213	132.604675301	-41.198282278	-128.099903403	-61.2534792197	-163.450220942	-20.768540995	-32.1545761012
105500000.0	-16.3936821989	129.698578949	-40.9378318624	-129.39208519	-61.3141601241	154.515195396	-20.830097615	-31.6679387666
106187500.0	-16.4362271799	126.664733759	-40.7027288166	-130.881611266	-61.4240894316	118.11435374	-20.907903714	-31.1741352121
106875000.0	-16.4837913619	123.537212262	-40.4649500813	-132.015971266	-61.1297484094	58.9273446779	-21.0044159361	-30.7456174007
107562500.0	-16.5418074942	120.283322184	-40.2589542671	-133.464033737	-60.9895886476	25.1776998254	-21.0960070924	-30.2631984748
108250000.0	-16.6015754876	116.818609896	-40.1362126577	-134.757299375	-60.7465122844	-1.6298417848	-21.1869237101	-29.9632247241
108937500.0	-16.6508454642	113.610399085	-39.9055558373	-135.954330794	-60.8378796116	-30.2653190536	-21.2584854846	-29.4510138623
109625000.0	-16.6999282451	110.301021621	-39.7733221329	-137.165413555	-60.5565948754	-58.1101124862	-21.3353102862	-29.0429856359
110312500.0	-16.7477469577	106.900292129	-39.598631081	-138.183951364	-60.8288551059	-85.3677628282	-21.4194236901	-28.6358356526
111000000.0	-16.8046809988	103.414189569	-39.4902152766	-138.926451146	-60.6280203922	-103.527935812	-21.5062128701	-28.2510003144
111687500.0	-16.857834098	99.7731668706	-39.4229966712	-140.226740165	-61.2223050119	-131.260924457	-21.6022446162	-27.9632432763
112375000.0	-16.9176077032	96.0516454467	-39.3786291257	-140.535775196	-61.2426495472	-159.104611361	-21.699259832	-27.6730288735
113062500.0	-16.9750034445	92.183056378	-39.3275447515	-140.920675828	-61.4349498991	172.678653712	-21.8031496497	-27.4505245083
113750000.0	-17.0420046109	88.2464097791	-39.3071129592	-140.97787633	-61.3990578532	142.436961451	-21.9025115817	-27.2275126685
114437500.0	-17.1041575354	84.1787816055	-39.3097259652	-140.738365083	-61.1330463933	102.570602083	-22.0087342366	-27.0102923205
115125000.0	-17.1730986967	79.9839460137	-39.3407411998	-140.065812838	-61.2416124752	63.766064434	-22.1235177095	-26.8350923941
115812500.0	-17.2346406234	75.6438624218	-39.3165878802	-139.146004924	-61.053151509	34.8189711467	-22.2341022245	-26.6979251545
116500000.0	-17.307160611	71.1799999866	-39.2525573703	-137.644074062	-60.9713060465	7.77623357588	-22.3403746072	-26.6264096823
117187500.0	-17.3683821756	66.6195501894	-39.163033488	-136.102694379	-60.9534099874	-12.3496443161	-22.4500694908	-26.5558765514
117875000.0	-17.4513922112	61.8887173339	-39.0086747608	-134.45689817	-61.5238859598	-20.0434244571	-22.562959286	-26.4641683156
118562500.0	-17.5299125386	57.0595838909	-38.8201572319	-132.370581329	-61.4534651731	-27.2875861083	-22.6742799569	-26.3681653976
119250000.0	-17.6201999297	52.0408958227	-38.4995162916	-130.512007763	-61.530410622	-27.4341877425	-22.7769333674	-26.2987769036
119937500.0	-17.7160952073	46.9550139459	-38.2231678661	-128.357560939	-61.4299659382	-15.3344772217	-22.8872153541	-26.2675721381
120625000.0	-17.8304386716	41.6703527719	-37.8092540706	-126.461439123	-61.2635925343	-13.3105060158	-22.9982259536	-26.2075878313
121312500.0	-17.9683717202	36.3200130346	-37.40393911	-124.283152552	-60.93795931	-0.0648952701106	-23.1053701179	-26.2419772294
122000000.0	-18.1222029886	30.7643462373	-36.9228569016	-122.739386202	-61.1248243595	15.3950990917	-23.2269801717	-26.2405260226
122687500.0	-18.3215294436	25.1197922046	-36.4396866035	-120.84877329	-61.0286946815	44.4369835111	-23.3215259709	-26.331324938
123375000.0	-18.5432273902	19.2311904987	-35.8769566061	-119.116359489	-61.1876807378	71.7448723103	-23.4263535169	-26.4210077434
124062500.0	-18.8248264018	13.2480053915	-35.3203083648	-117.629143163	-61.2782797149	89.4004723301	-23.5262899459	-26.4928018526
124750000.0	-19.1558398058	7.10199651886	-34.6642412641	-116.422476513	-61.3629611796	117.379415419	-23.6349517713	-26.4839293633
125437500.0	-19.5582337169	0.798522981534	-34.0049870313	-115.236362304	-61.3792515611	143.487635881	-23.7342217512	-26.4978802322
126125000.0	-20.0527259428	-5.65696764299	-33.3050481814	-114.624738287	-61.1604041552	171.94882711	-23.8580652961	-26.578280314
126812500.0	-20.713207092	-12.4162193342	-32.5662069249	-113.95333854	-61.155073371	-172.817184623	-23.9584651207	-26.6509231889
127500000.0	-21.6156063138	-18.9914470391	-31.7752424626	-113.659890277	-60.9548240247	-157.544888089	-24.0604880584	-26.768792164
128187500.0	-23.2065121191	-27.3642915866	-30.9854970905	-113.437843097	-61.2034762348	-153.045038872	-24.1473975373	-26.8471185408
128875000.0	-24.2205748896	-41.7677957709	-30.1319139462	-113.475772688	-60.7999748363	-136.746184699	-24.2298834064	-26.8734812177
129562500.0	-24.9743427011	-55.8939976493	-29.2911119746	-114.12877581	-60.8071936565	-107.098391226	-24.3084427985	-26.9700946138
130250000.0	-25.607993188	-70.3640422307	-28.3891577273	-115.262542711	-60.8101881451	-65.8472386012	-24.3981319207	-27.0513445684
130937500.0	-26.1526493463	-84.9045631514	-27.5039943441	-116.512287765	-60.8368685715	-23.2651763442	-24.4675703503	-27.1138235513
131625000.0	-26.6193050292	-99.5828948418	-26.5704972097	-118.578601695	-61.2910406227	17.5193731359	-24.5386664538	-27.2593399285
132312500.0	-27.0470851753	-114.314440091	-25.6464625421	-120.992899099	-60.5818157687	58.0358983691	-24.5904367167	-27.3646842793
133000000.0	-27.4262561211	-129.225439962	-24.7804895108	-123.944160877	-60.5187350631	87.1599382659	-24.6632158771	-27.5429933043
133687500.0	-27.7892947357	-144.221234335	-23.9671154174	-127.431761149	-60.3463573267	102.40172219	-24.7275073658	-27.6173212389
134375000.0	-28.1194088759	-159.284735921	-23.1707271112	-131.34689069	-60.5799995196	110.668531563	-24.7848865643	-27.8776510532
135062500.0	-28.4155782922	-174.55858154	-22.446362385	-135.557254186	-60.0475177314	116.132738231	-24.8289608107	-28.0593775871
135750000.0	-28.6943700017	170.177356868	-21.7773065573	-140.077320337	-60.7435587797	115.504293088	-24.8600843769	-28.3586502112
136437500.0	-28.9430063994	154.75174348	-21.1897998951	-144.660124035	-60.8056083947	113.224411699	-24.909960754	-28.6291429953
137125000.0	-29.1697817294	139.325509219	-20.6451930348	-149.397347271	-60.6905278324	102.583314551	-24.9464579453	-28.9224856769
137812500.0	-29.3454474703	123.855072271	-20.1740542973	-154.238706123	-60.8934680599	102.727958699	-24.9775610954	-29.2139203858
138500000.0	-29.5000209505	108.425817066	-19.756295358	-159.048513171	-61.1776959167	102.524786583	-24.9857172595	-29.5877752607
139187500.0	-29.5952236622	92.9237236903	-19.384160587	-163.919413099	-61.1971700658	102.819319633	-24.9878383841	-29.8773130771
139875000.0	-29.6553203917	77.4232386179	-19.0613315769	-168.694352307	-61.2121136524	100.660187659	-24.9974075299	-30.1592541912
140562500.0	-29.6558358757	62.0552597138	-18.7749438144	-173.504425535	-61.1933302588	87.8887874861	-25.007086154	-30.4997005255
141250000.0	-29.5943108074	46.7405625604	-18.5301826214	-178.148111094	-60.7819314249	74.7772258972	-24.9853127311	-30.8594347324
141937500.0	-29.4602076958	31.5603731296	-18.3185225354	177.243286434	-60.6934550334	58.9712722855	-24.9738605899	-31.251689324
142625000.0	-29.2540247845	16.4707365543	-18.1544403747	172.81394175	-60.6166808275	36.5568460516	-24.9425936605	-31.5812909896
143312500.0	-28.9226477983	1.55610577451	-18.0076351625	168.401310025	-60.5359174362	23.76679166	-24.9004449151	-31.9593574253
144000000.0	-28.4322543612	-13.1458227539	-17.8948809816	164.158424482	-60.4132917147	14.9554206644	-24.8517474598	-32.293853326
144687500.0	-27.6859681176	-27.9766734679	-17.8060519319	159.995463728	-60.5944726355	13.4670173765	-24.8106499465	-32.5485380044
145375000.0	-26.2391434421	-41.0468351612	-17.7381258447	155.971303661	-60.414119388	22.7430977524	-24.7563996201	-32.8962441767
146062500.0	-25.3576116793	-47.9379855225	-17.6863114338	152.057319205	-60.2169772869	20.9922063802	-24.7120962024	-33.1419434679
146750000.0	-24.7236784715	-55.1345348426	-17.654049558	148.296026124	-60.5761548223	10.054636255	-24.6508804495	-33.3874388601
147437500.0	-24.2079314487	-61.8882700467	-17.6320326862	144.641135264	-60.1059699904	-2.81065130227	-24.5763890032	-33.620164759
148125000.0	-23.7697212585	-68.5502527112	-17.6261037781	141.111890506	-60.1177876741	-14.6990730286	-24.5089648375	-33.8705188993
148812500.0	-23.4159819319	-74.9641072669	-17.6292813916	137.676113199	-60.021454179	-24.3486900554	-24.4257347279	-34.0537690267
149500000.0	-23.0777905293	-81.2548374996	-17.6382771483	134.375778631	-60.1588519176	-23.1256921751	-24.3546147791	-34.1702178926
150187500.0	-22.7983202099	-87.2198343689	-17.6595067668	131.188126982	-60.4117998732	-19.8944531919	-24.2610203446	-34.2181211606
150875000.0	-22.5139188538	-92.9683028646	-17.6867817879	128.079449618	-60.5417054316	-16.8857858922	-24.1679155366	-34.2296292799
151562500.0	-22.2743507037	-98.595535751	-17.7182805383	125.094419035	-60.4352559191	-17.6421368814	-24.0710053959	-34.1748381025
152250000.0	-22.039130632	-103.825564393	-17.750575383	122.160076159	-60.3608159829	-17.6972039739	-23.9837615852	-34.0796265716
152937500.0	-21.8291909188	-108.923339006	-17.7913137594	119.362922887	-60.0745352204	-18.5427629573	-23.8964713803	-33.9458137958
153625000.0	-21.6349525893	-113.628583123	-17.8282901207	116.63282447	-60.1106241451	-29.1576430004	-23.8100945726	-33.6949420581
154312500.0	-21.4476826961	-118.261781503	-17.8749031255	113.982356797	-60.1114153386	-42.7028706891	-23.7067224078	-33.4566499654
155000000.0	-21.2957716517	-122.581846241	-17.9183526235	111.37879932	-59.8269471586	-55.6180709557	-23.6142146389	-33.1448366024
155687500.0	-21.1446997026	-126.87133927	-17.9703305194	108.889982126	-59.8686967092	-78.3753728119	-23.5325976661	-32.7233839663
156375000.0	-21.0342343805	-130.812597828	-18.0141487332	106.422801848	-59.9589236137	-94.3861961553	-23.4415918589	-32.3258612344
157062500.0	-20.9114377927	-134.681673973	-18.0641378829	104.050394889	-59.849496073	-117.80432522	-23.3482359076	-31.8136189391
157750000.0	-20.8288123594	-138.328771068	-18.1150547137	101.691877677	-59.9878155272	-130.50704363	-23.2538260105	-31.2392810982
158437500.0	-20.7438023886	-141.866819882	-18.1680599674	99.4433937	-60.0828173467	-143.5283425	-23.181160197	-30.6450562953
159125000.0	-20.6830409358	-145.250026462	-18.2152054599	97.2178207175	-60.0700776396	-165.247849464	-23.103446065	-30.0073473175
159812500.0	-20.6207679344	-148.498423141	-18.2668053132	95.0500309395	-59.8386190618	-178.951447375	-23.0279675998	-29.3516788447
160500000.0	-20.5954827783	-151.692268675	-18.3165398113	92.9515509371	-60.0209842567	164.757120315	-22.9618830942	-28.6299403256
161187500.0	-20.5618486534	-154.698047597	-18.3655540666	90.9040694508	-60.1890297837	149.141264495	-22.8921273065	-27.8731184241
161875000.0	-20.5560701274	-157.633174047	-18.4112959287	88.9247398689	-60.2322141239	133.163447948	-22.8424305723	-27.1307277272
162562500.0	-20.5626470717	-160.444274759	-18.4579089809	86.9650696294	-60.2700599567	110.197138236	-22.7971082297	-26.2965954139
163250000.0	-20.5860922143	-163.289013799	-18.5049317176	85.0171360909	-60.1349260487	98.1430701767	-22.7548088115	-25.5073348173
163937500.0	-20.6222834782	-165.949874508	-18.550780673	83.0982314567	-60.1679116973	83.1554447487	-22.7245143078	-24.6786586106
164625000.0	-20.6745735297	-168.603632236	-18.5962199886	81.2413173046	-60.4689384122	57.4850127021	-22.691644105	-23.8008788155
165312500.0	-20.7376438875	-171.124276536	-18.6388916832	79.3978835339	-60.9489618758	19.4874276217	-22.6654804482	-22.8928175398
166000000.0	-20.8151428624	-173.604537348	-18.6846541397	77.6060874535	-60.7007165748	-9.33299955603	-22.658907229	-22.0626537491
166687500.0	-20.9228155871	-176.077375049	-18.7265232722	75.8102048488	-60.4205867025	-37.1132350515	-22.6522785448	-21.2398714406
167375000.0	-21.0314209732	-178.484492358	-18.7678438559	74.0888231534	-60.2763762616	-65.9346401561	-22.6540133747	-20.4378902177
168062500.0	-21.1611990412	179.082830656	-18.8025237965	72.3915933016	-60.1602486597	-87.0438440314	-22.6648067196	-19.6396776878
168750000.0	-21.3027436508	176.673340584	-18.843822704	70.7380664214	-59.9981990651	-107.017703652	-22.7004987963	-18.8206427769
169437500.0	-21.4672568919	174.175989886	-18.8795033002	69.0975248393	-60.3505595061	-135.017097592	-22.7345286375	-18.0351762435
170125000.0	-21.6394040755	171.653987237	-18.9185803937	67.4809411727	-60.3273740751	-158.482108817	-22.7868750628	-17.2321031764
170812500.0	-21.8323928979	169.051643501	-18.9506177394	65.8528520632	-60.1249971203	-172.381766986	-22.8332466646	-16.4186585083
171500000.0	-22.0324244661	166.401269727	-18.9842262482	64.3044437871	-60.0964645132	175.304085058	-22.8936420714	-15.6535708763
172187500.0	-22.2503935588	163.629207132	-19.0183380444	62.7524580456	-60.1136795088	150.990742318	-22.9663986158	-14.9564951756
172875000.0	-22.4742403915	160.868431129	-19.0513653986	61.2287936906	-59.8836969734	135.55437012	-23.0366016217	-14.301696401
173562500.0	-22.7050261657	157.828022843	-19.0821029977	59.7692932529	-59.7259531426	123.626376754	-23.1235333834	-13.6608278389
174250000.0	-22.9340769711	154.796507008	-19.1073272942	58.2966871284	-59.5576315932	108.835731042	-23.2081962799	-13.0895126641
174937500.0	-23.1655189462	151.381574473	-19.1329727512	56.8426138232	-59.4988981682	82.0823414254	-23.3113947379	-12.6390052485
175625000.0	-23.3812971099	147.936031135	-19.1559886355	55.3808142516	-59.352826066	52.8961818279	-23.4167862681	-12.172956399
176312500.0	-23.6029277322	144.233216607	-19.1838298155	53.9831838939	-59.7501590814	36.8516057752	-23.5269689666	-11.7417361046
177000000.0	-23.8052921293	140.519474553	-19.1984094382	52.5681283646	-60.0227825189	8.90138335866	-23.6539899575	-11.4507681984
177687500.0	-23.9866431618	136.535442042	-19.221484927	51.1820721836	-60.1621095383	-16.0731393271	-23.7920438112	-11.0484694833
178375000.0	-24.1591177996	132.565000104	-19.2401483652	49.7714434454	-59.9313619718	-32.3766202213	-23.9446005318	-10.719038906
179062500.0	-24.2918343651	128.397650796	-19.2618176761	48.4056707308	-59.9436439704	-48.7255218361	-24.0947225289	-10.5482018145
179750000.0	-24.4150128946	124.174419398	-19.2731928662	47.0324394569	-59.9261369102	-65.3940965563	-24.2400505595	-10.3668048824
180437500.0	-24.507501512	119.85878412	-19.2954943854	45.7209584688	-60.1906497951	-89.5427300053	-24.3855289737	-10.2758432691
181125000.0	-24.5888683162	115.44317919	-19.3085897104	44.38133818	-59.8239675725	-102.063701966	-24.5344895559	-10.0954870608
181812500.0	-24.6298291041	111.131366649	-19.3285497658	43.0924601087	-59.4867051957	-101.596960845	-24.6979062179	-10.0621823573
182500000.0	-24.661827045	106.641701655	-19.3378347346	41.7748929452	-59.0727323101	-97.9855001035	-24.8801142145	-9.96725041925
183187500.0	-24.6428667054	102.197505749	-19.3509040431	40.4858824622	-59.330414073	-97.6739243599	-25.0358866437	-9.90808247151
183875000.0	-24.6175719125	97.7820818824	-19.3634306192	39.1846151485	-59.3519096698	-107.506308761	-25.2013038727	-9.86259958212
184562500.0	-24.5562612258	93.3435553854	-19.3770600679	37.8938650922	-59.3789978795	-105.582395049	-25.3509424749	-10.0017791439
185250000.0	-24.4763751145	88.9593145852	-19.3868855204	36.5804212478	-59.4857388908	-100.409890609	-25.5126443767	-10.0902464999
185937500.0	-24.3639371062	84.6383838194	-19.395967486	35.3113935985	-59.3311798412	-95.8887894756	-25.6568423754	-10.254827047
186625000.0	-24.2418791133	80.3769702614	-19.402712526	34.0385171679	-59.0813007118	-84.948093413	-25.8317239608	-10.4858400255
187312500.0	-24.0907554608	76.2008879379	-19.4066585778	32.753295086	-58.866117243	-75.5302469717	-25.9659127248	-10.73645677
188000000.0	-23.9119463465	72.0675733392	-19.4115138802	31.4934125172	-58.5616989926	-73.802611722	-26.1063221799	-11.0540355104
188687500.0	-23.7246627653	68.0990727303	-19.4174738706	30.2203430204	-58.4024904883	-61.7310787916	-26.2406043753	-11.4455331809
189375000.0	-23.5112274242	64.2074839399	-19.417796478	29.0021500346	-58.7150582499	-48.9206763841	-26.3782980295	-11.7681783772
190062500.0	-23.2856406377	60.3991587066	-19.4188165927	27.7554902675	-58.8702552704	-34.2507353913	-26.5005013529	-12.1051993115
190750000.0	-23.0440053577	56.8066190742	-19.4226004779	26.5401916707	-59.144350256	-31.2073471053	-26.6481733781	-12.4509492538
191437500.0	-22.8099696762	53.383603924	-19.4255812897	25.2749764792	-59.2625700292	-25.4309626413	-26.774406371	-12.9796084134
192125000.0	-22.5519440316	50.2524646792	-19.4265820436	24.0813489566	-59.3724572366	-9.05140900989	-26.8886645495	-13.4339053898
192812500.0	-22.3165709849	47.1963768861	-19.4236113438	22.8580824952	-59.4634146722	18.3357376432	-27.0003080602	-13.9414383393
193500000.0	-22.0625995225	44.4135115788	-19.4227888649	21.6286576189	-59.3982842667	34.9480025707	-27.1127781696	-14.4884171927
194187500.0	-21.8321552243	41.6763975335	-19.4219288299	20.3904938546	-59.8394323916	62.1945872632	-27.1867343267	-14.9015339931
194875000.0	-21.6070315106	39.219207641	-19.4197164315	19.1766522234	-59.8447712949	79.9937473661	-27.2644610164	-15.4430748967
195562500.0	-21.396074302	36.7309562076	-19.4100051201	17.9627196368	-59.7087898761	97.8012207244	-27.3324815426	-16.1287453567
196250000.0	-21.2042108277	34.4662446895	-19.4098355807	16.7812656377	-59.4199750997	117.08335252	-27.3742644233	-16.7845310924
196937500.0	-21.0164533903	32.2627999228	-19.4063727064	15.5935546633	-59.6984147894	133.333596985	-27.4202906247	-17.2844986948
197625000.0	-20.8502463436	30.1892995726	-19.3990181211	14.4458492091	-59.5532982318	145.156362453	-27.4582763612	-17.9461970024
198312500.0	-20.6972213234	28.1306088352	-19.39096098	13.2915491746	-60.1123245702	145.209446383	-27.5004901728	-18.7836714405
199000000.0	-20.5774439825	26.0896276466	-19.3816126892	12.0908063527	-60.2008080451	144.701311131	-27.5007334329	-19.6120454829
199687500.0	-20.4532970293	24.0979081418	-19.3744035314	10.9243371555	-60.098025123	140.92470339	-27.4963652086	-20.4767553598
200375000.0	-20.3671076625	22.1323767507	-19.3618274881	9.74666064134	-59.9034144964	128.411819569	-27.4894919833	-21.3530694079
201062500.0	-20.2721668383	20.1646173081	-19.3510461646	8.57450011049	-59.7571561685	115.496049201	-27.4868398389	-22.2345891504
201750000.0	-20.2120084479	18.1973781499	-19.3359056742	7.42552782818	-60.1052942737	104.03632965	-27.4588152856	-23.0971055464
202437500.0	-20.1501833358	16.2110958863	-19.3283984074	6.2940970769	-60.1360215308	82.4651664125	-27.4447259166	-24.0095255003
203125000.0	-20.1085447082	14.2401028483	-19.313597967	5.12963352719	-60.1797382324	62.4788947289	-27.3797319949	-24.880160889
203812500.0	-20.0490985255	12.2694773631	-19.3066183268	3.99034025191	-60.3151714057	41.3070747848	-27.3115955532	-25.7580541653
204500000.0	-20.0245209705	10.2558853441	-19.2916788027	2.83678509677	-61.3178184204	29.6619066786	-27.2335305407	-26.6294058959
205187500.0	-19.996431347	8.3031632878	-19.2865230781	1.71703923756	-61.593668282	16.138289004	-27.1660833846	-27.425714943
