#Frequency	|S11|	<S11	|S21|	<S21	|S12|	<S12	|S22|	<S22
100000000.0	-16.3292635683	136.770190703	-41.4885342718	-126.777005912	-64.867740974	-136.403187478	-21.5463648633	-36.5438152
100687500.0	-16.3220460283	133.753747549	-41.6270121754	-126.187328062	-63.3903588893	-65.5905302514	-21.5543899352	-35.9781998657
101375000.0	-16.3163343606	130.635333818	-40.892065721	-126.888048192	-61.5558660408	16.0024607671	-21.5511052381	-35.6569101648
102062500.0	-16.3165800935	127.543637217	-40.6774924406	-128.662652196	-61.0403226139	101.35895425	-21.5511883766	-35.4063561317
102750000.0	-16.3103283272	124.388160979	-40.2672437229	-130.089544644	-60.6629659962	-168.940963575	-21.5581741079	-35.2293075924
103437500.0	-16.3179909516	121.242346016	-40.0358970706	-131.518605758	-60.0663389321	-132.932778897	-21.564692398	-34.9549846299
104125000.0	-16.3317325479	117.882802738	-39.8303339316	-132.204683013	-60.1689617105	-109.880601406	-21.5772402704	-34.7307759436
104812500.0	-16.3541482167	114.520510355	-39.5829688553	-134.257367637	-60.736299074	-134.564349778	-21.6045687034	-34.6314867932
105500000.0	-16.3826800767	111.008949859	-39.3652202348	-135.535878944	-61.444874808	-153.133962533	-21.6148311279	-34.6081531041
106187500.0	-16.4233152823	107.36926347	-39.1663809873	-136.795506431	-61.5740601613	-166.213607282	-21.6347756945	-34.5597615468
106875000.0	-16.4720393654	103.60627213	-38.988570425	-138.042667472	-61.4161268725	-176.004195899	-21.6676305233	-34.5660963483
107562500.0	-16.5417192159	99.701987889	-38.8824230772	-139.44409074	-62.0717675436	174.920184768	-21.6967750978	-34.4722069032
108250000.0	-16.6068326242	95.5786850632	-38.7842543962	-140.611439932	-61.9429628458	158.209286001	-21.7257571631	-34.5205663365
108937500.0	-16.6563602961	91.7057394647	-38.628981725	-141.938422292	-61.7041307165	160.020579456	-21.744730862	-34.4307798037
109625000.0	-16.7106715881	87.7495800586	-38.4700125412	-142.768794568	-61.6833323536	159.154332867	-21.7548374542	-34.4230515577
110312500.0	-16.7637440368	83.6399326003	-38.4007087853	-143.801486931	-61.6300848491	169.987782441	-21.7771038158	-34.3966329213
111000000.0	-16.8269113176	79.423381507	-38.3910491252	-144.291002802	-61.6734623169	168.147937098	-21.7996749916	-34.391668056
111687500.0	-16.8921396794	75.0458093745	-38.4127883008	-144.42969351	-61.8619468552	156.628977488	-21.8158272239	-34.4455188205
112375000.0	-16.9642572014	70.567517532	-38.3321312416	-144.285373823	-62.0378942729	144.878238809	-21.8409137513	-34.5063903617
113062500.0	-17.0320684013	65.9451704478	-38.314585571	-143.872373264	-62.1456873666	132.312905271	-21.8666039083	-34.5154537124
113750000.0	-17.1183032054	61.1964748026	-38.2708796805	-142.834084031	-62.3356629961	106.330729185	-21.8924059534	-34.5883770573
114437500.0	-17.2007850404	56.2850057316	-38.2114359338	-141.727092119	-62.0325828615	73.1116615092	-21.9218701004	-34.6287691303
115125000.0	-17.2931966008	51.1835218713	-38.0611722429	-140.279626193	-62.2274139098	46.3062118162	-21.9492005691	-34.6693626949
115812500.0	-17.380971765	45.9252220113	-37.8407064154	-138.455794084	-62.3548102321	29.308517328	-21.9730822421	-34.6929525669
116500000.0	-17.4828330061	40.5379774703	-37.5631370061	-136.691295356	-62.6313190328	2.87083058165	-21.994225163	-34.7162877706
117187500.0	-17.5868273084	35.017796187	-37.2470565136	-134.948956077	-63.1272742563	-23.6014654401	-22.0175206237	-34.8053252503
117875000.0	-17.7136843654	29.2809491055	-36.8933453875	-132.766632355	-62.9634579812	-37.5992327477	-22.0426653573	-34.7494063263
118562500.0	-17.8490037865	23.4412841376	-36.4678410864	-130.929091231	-62.8184725797	-52.4087213143	-22.05821396	-34.7597206994
119250000.0	-18.0035466912	17.3753130595	-35.9908845966	-129.254214068	-62.5274032781	-77.0321406169	-22.0807087688	-34.6847587171
119937500.0	-18.1815258424	11.204557775	-35.4885511042	-127.608650235	-62.3327042592	-91.9660365137	-22.1009251567	-34.6562505234
120625000.0	-18.3765833994	4.80360915565	-34.9520187179	-126.065839283	-62.6339967216	-115.680929743	-22.1288736459	-34.5941903657
121312500.0	-18.6255159567	-1.63161671648	-34.3623986937	-124.891003648	-62.595887458	-132.063011777	-22.1487274178	-34.5348912349
122000000.0	-18.9028158997	-8.27367798006	-33.7584907472	-123.701032823	-62.3226640265	-157.092041528	-22.169843499	-34.4390627425
122687500.0	-19.2610414577	-14.9395799771	-33.0925878702	-122.850936807	-62.3664049805	176.955786055	-22.1828170976	-34.3450146053
123375000.0	-19.6474569461	-21.6708606453	-32.4247787997	-121.887213814	-62.2077108893	150.244166084	-22.1984484341	-34.2636275185
124062500.0	-20.1423586567	-28.3769503149	-31.660734498	-121.420378811	-61.6396543456	123.597870951	-22.2132779453	-34.1395283216
124750000.0	-20.7510468678	-35.0203967645	-30.9322332299	-121.001749405	-61.6383499768	104.569440179	-22.2240608147	-33.9228729439
125437500.0	-21.4898503345	-40.8533826898	-30.1491057981	-121.046314591	-61.5027923707	91.4937846052	-22.2448362739	-33.6393173173
126125000.0	-22.3160879739	-45.2405685926	-29.3678326646	-120.99780457	-61.4505179001	76.6808163492	-22.2689277145	-33.3766585786
126812500.0	-23.0841492166	-48.318628132	-28.528928235	-121.727636792	-61.3425213268	51.5334762712	-22.3015764742	-33.0380317676
127500000.0	-23.6696796844	-50.4993997581	-27.6698791729	-122.424228489	-61.2610454972	14.6678604276	-22.3235866964	-32.7432044101
128187500.0	-24.1729836892	-52.627620015	-26.7661864647	-124.14441308	-61.1765388848	-12.1354243182	-22.3434753205	-32.4134599595
128875000.0	-24.5812254296	-54.6032033959	-25.850011922	-125.867991252	-60.9840642295	-42.057571393	-22.3640194074	-32.0262745301
129562500.0	-24.9436565338	-56.6290351035	-24.9495523067	-128.259605199	-61.0270076143	-71.8452145196	-22.3837870006	-31.6470175537
130250000.0	-25.24982238	-58.6395673698	-24.0858635919	-130.936218889	-60.7487689116	-99.1275362483	-22.4085730622	-31.2841553942
130937500.0	-25.5138780898	-60.6444053621	-23.208035723	-134.542738669	-60.8087875082	-113.573039511	-22.4255225774	-30.8403694796
131625000.0	-25.749236173	-62.5603718081	-22.4211792162	-138.220901962	-60.9226778864	-120.203323208	-22.4415828233	-30.4423469725
132312500.0	-25.9569262669	-64.5085294277	-21.6621056835	-142.58454166	-60.6976963696	-133.87756872	-22.4628371932	-29.9813705651
133000000.0	-26.1413489933	-66.3341374092	-21.0075772499	-147.10248557	-60.5519167913	-147.061063578	-22.4804264354	-29.592810239
133687500.0	-26.2955203183	-68.1800625705	-20.3906775934	-152.11075798	-60.2432585772	-160.089980797	-22.5082331535	-29.1601780903
134375000.0	-26.4312214542	-69.938152189	-19.8432861859	-157.083896747	-59.4460730822	-159.47902919	-22.5339958615	-28.7270671057
135062500.0	-26.5184785678	-71.6560632588	-19.3567781984	-162.205886461	-59.3865993809	-170.565249245	-22.556247879	-28.3311011339
135750000.0	-26.5928313836	-73.2645315112	-18.9308544255	-167.23197672	-59.5025929559	-167.858586219	-22.5771597384	-27.9666974
136437500.0	-26.6342163078	-74.802722288	-18.5600443332	-172.396641616	-59.4414128674	-168.198568637	-22.6027078952	-27.612802789
137125000.0	-26.6388211944	-76.2405303423	-18.2503732035	-177.473101909	-59.4308953125	-177.839822718	-22.6323250336	-27.2524355313
137812500.0	-26.6036696228	-77.4794832428	-17.974734989	177.488242563	-58.8381050373	-178.854429367	-22.6489241795	-26.8924261439
138500000.0	-26.5250692878	-78.6720915245	-17.7376730464	172.560001208	-58.9427417332	179.303897155	-22.6692424821	-26.6008416052
139187500.0	-26.3959408924	-79.7256682927	-17.5478911089	167.74848469	-59.1446483687	179.074003599	-22.6821694945	-26.2719571301
139875000.0	-26.1879627763	-80.7693495397	-17.3960748316	162.998269965	-59.0086175801	178.714168513	-22.719018491	-25.9477220538
140562500.0	-25.9322031511	-81.7561549538	-17.2836546753	158.431146544	-58.9079015167	166.659173429	-22.742727166	-25.6948951592
141250000.0	-25.576397973	-82.7626291589	-17.1934058187	153.952800413	-58.7264720204	158.327193521	-22.7645366874	-25.4901508868
141937500.0	-25.0962840643	-83.7646657541	-17.1346364088	149.696173924	-58.9049200394	147.227084207	-22.7852432696	-25.3323631071
142625000.0	-24.4859035575	-85.5258169209	-17.0865810993	145.531173185	-58.8591019305	138.021456879	-22.7990202515	-25.1949977922
143312500.0	-23.7755493092	-88.6677216566	-17.0724887394	141.571039235	-58.9763748801	139.033393201	-22.8119075232	-25.0893202708
144000000.0	-23.1206303092	-93.1442881775	-17.0655724286	137.677156529	-58.9358477029	152.093488917	-22.8252406502	-24.9651813505
144687500.0	-22.6504430223	-98.3664518841	-17.0723050034	133.986359457	-59.736031473	164.483359482	-22.8415556885	-24.8728147973
145375000.0	-22.2557166746	-103.580516836	-17.087339676	130.414987244	-59.8574236983	179.870641759	-22.8614315204	-24.8259907904
146062500.0	-21.9558882885	-108.828259922	-17.1173489825	126.991845484	-60.5434295366	-164.606154831	-22.8740942059	-24.7189247273
146750000.0	-21.6962398827	-113.95722068	-17.1522052403	123.656736488	-60.4220817454	-158.759170183	-22.8922453125	-24.626500304
147437500.0	-21.5011709248	-118.967470688	-17.2001081642	120.480057602	-60.3111901649	-156.921405842	-22.8925920034	-24.5879725226
148125000.0	-21.3350460461	-123.917468674	-17.2488167391	117.439953598	-60.5272629958	-155.381680783	-22.9056516286	-24.5607106911
148812500.0	-21.2021169911	-128.854970447	-17.2984279063	114.431431012	-60.6483193852	-156.166472682	-22.9041250431	-24.5523549339
149500000.0	-21.0890905594	-133.525064056	-17.3541905545	111.541390732	-60.833503572	-155.098208174	-22.9114651365	-24.5361462167
150187500.0	-21.0055948231	-138.233911849	-17.407297578	108.768348148	-60.813076736	-153.444042221	-22.9183480257	-24.4511537536
150875000.0	-20.9408371779	-142.712437265	-17.460676976	106.124669432	-61.8366507992	-140.841131241	-22.9085142239	-24.3801983594
151562500.0	-20.8903176117	-147.252313528	-17.5163628079	103.52558289	-61.7696736309	-138.409928514	-22.8994444581	-24.3078671416
152250000.0	-20.8661921948	-151.601201749	-17.575985439	101.017334497	-61.8929442356	-136.240267559	-22.8943740135	-24.2306284545
152937500.0	-20.8521243029	-155.943742883	-17.629189708	98.5454678239	-61.8875846659	-136.611742912	-22.8840173622	-24.1568144509
153625000.0	-20.8489095447	-160.118838836	-17.6869221139	96.2124173605	-61.4676284439	-137.696789886	-22.8742106124	-23.9836118205
154312500.0	-20.851656687	-164.256658849	-17.7378349756	93.8729993786	-61.7385258558	-125.33566991	-22.8532605745	-23.8978986633
155000000.0	-20.8746496943	-168.339901044	-17.7948894546	91.6606675185	-61.9333081464	-123.754910518	-22.8342702823	-23.7397193518
155687500.0	-20.8881769279	-172.408185803	-17.8484386322	89.4266905398	-62.3297176219	-117.638438039	-22.8234285336	-23.5014936679
156375000.0	-20.9339553111	-176.390261202	-17.9058178175	87.2788343499	-62.3176970475	-104.16500685	-22.8064517023	-23.2881846995
157062500.0	-20.9567766615	179.703882756	-17.9550050506	85.1765327607	-62.2991522211	-86.959214639	-22.7756113568	-23.0926734007
157750000.0	-21.0036373627	175.85823784	-18.0055073344	83.1180649947	-62.2196475348	-62.0843196991	-22.7567619362	-22.8163230073
158437500.0	-21.0319971928	172.115560705	-18.0495182022	81.0817997014	-62.886795276	-37.6807636323	-22.7341058565	-22.5348876639
159125000.0	-21.0852470613	168.34924681	-18.1004739797	79.0859048547	-62.7634712347	-23.4475446208	-22.7139043234	-22.1747616084
159812500.0	-21.1274125496	164.659723847	-18.1478346987	77.1255801154	-62.9524390517	-8.25934001621	-22.6983527006	-21.8514891971
160500000.0	-21.1844912527	160.991592372	-18.1850571298	75.2182390383	-62.6616483199	6.05115825629	-22.6794974111	-21.4575701624
161187500.0	-21.2315851512	157.455041339	-18.2284183403	73.3394228234	-63.0311183165	20.5543477544	-22.6593046793	-21.1589777838
161875000.0	-21.2880634217	153.873159546	-18.2732437491	71.487692183	-62.2323136212	40.432431214	-22.646455796	-20.7792627641
162562500.0	-21.3445204446	150.382238227	-18.3175710233	69.6862102276	-62.7677127322	56.3314706182	-22.6272070236	-20.4012745169
163250000.0	-21.3893951474	146.932485078	-18.3552499764	67.92967833	-61.9673634907	71.0904280396	-22.6270131761	-20.0077739542
163937500.0	-21.4452507972	143.598018949	-18.3971417479	66.2191864831	-62.0525137385	85.8709980148	-22.6077472829	-19.6315610729
164625000.0	-21.4922133053	140.23588671	-18.4228557713	64.5014550179	-62.1174706466	109.393167583	-22.6151569503	-19.2264868826
165312500.0	-21.5525567958	136.9898801	-18.4607548023	62.7906589739	-61.5081717106	126.554972326	-22.6041410708	-18.8251745222
166000000.0	-21.6100652378	133.765672703	-18.4932710232	61.1441206762	-61.311876109	144.10189038	-22.6089506879	-18.4112677721
166687500.0	-21.6755734376	130.488554404	-18.5311908566	59.5398291766	-61.7874274581	159.379556694	-22.6089532344	-18.0762729975
167375000.0	-21.7337950353	127.34043569	-18.5632302661	57.9140880147	-61.9777955558	175.476428281	-22.6215641059	-17.7552325752
168062500.0	-21.8006125153	124.149866855	-18.5996063785	56.3498923791	-61.1832883968	-168.592887019	-22.6382821548	-17.4251552958
168750000.0	-21.8643298876	121.061630007	-18.6261350782	54.7746069482	-61.2346449066	-154.267615593	-22.6650086691	-17.1597072585
169437500.0	-21.9279108357	117.907647878	-18.6557611653	53.2686526988	-60.8836989387	-127.078491795	-22.6881929539	-16.8627776026
170125000.0	-21.9939195595	114.832677603	-18.6811628716	51.7426875496	-60.5302758187	-111.527120191	-22.720190343	-16.6178999415
170812500.0	-22.065018047	111.712874379	-18.7074359181	50.2337764319	-60.7987453886	-86.4187297654	-22.7557976075	-16.3810721245
171500000.0	-22.1331341358	108.635268384	-18.7310570793	48.7626437398	-60.3297551144	-70.966936214	-22.793931218	-16.1528309391
172187500.0	-22.2056328513	105.440004895	-18.749853148	47.3031790399	-60.2104367025	-56.5916968002	-22.8396387141	-15.9467972215
172875000.0	-22.2756195507	102.348827631	-18.774155143	45.8958050339	-59.6045679972	-41.9521297775	-22.8858619919	-15.8483056193
173562500.0	-22.3289914716	99.2002060347	-18.7907268139	44.4766934258	-59.7500737691	-35.3224282272	-22.9403431501	-15.7338672326
174250000.0	-22.4028384703	96.1450531846	-18.8067445327	43.1185987662	-59.7197674716	-31.6306749447	-22.9926963598	-15.6586909445
174937500.0	-22.4520586907	92.9208343629	-18.8171293437	41.7398069953	-60.1570888113	-24.462430214	-23.0488933242	-15.6275776183
175625000.0	-22.5145424108	89.7171634438	-18.8367536481	40.3756976182	-59.8939162672	-8.21157002883	-23.1082576348	-15.5161766904
176312500.0	-22.5560577099	86.4609268215	-18.8389214143	39.0450285864	-59.7738130867	9.14766420951	-23.1682716964	-15.5830265097
177000000.0	-22.601728347	83.2455194749	-18.8478143736	37.7241921542	-59.9479294071	25.408307128	-23.2327900042	-15.6275035343
177687500.0	-22.6267712365	80.0035161134	-18.8519678783	36.3533517059	-60.0951367736	28.7516644016	-23.2963496366	-15.7058861252
178375000.0	-22.6732875828	76.7475017031	-18.8565701521	35.0759495567	-59.8818106713	31.6844017693	-23.3650505029	-15.7572525527
179062500.0	-22.6904215239	73.5289709611	-18.8558080698	33.7524890071	-60.1499653045	31.2464415007	-23.4291980752	-15.9133696143
179750000.0	-22.7091448023	70.2194929196	-18.8610689183	32.4458539704	-59.711486258	31.488437355	-23.4906985954	-15.9875347056
180437500.0	-22.7309389064	66.8704048831	-18.8583361249	31.0828378337	-59.8458111144	33.8098831814	-23.5383131278	-16.1650635153
181125000.0	-22.7355839552	63.4073496728	-18.8566212584	29.80349492	-59.6761839025	33.2628981742	-23.5993955817	-16.2323522268
181812500.0	-22.7420490846	60.0836851207	-18.8571258058	28.4708638428	-59.6070865552	25.2629509881	-23.6519311827	-16.3926701477
182500000.0	-22.7328182365	56.6402549033	-18.852123669	27.2026814946	-59.8256487248	23.750689954	-23.7145012466	-16.448812242
183187500.0	-22.7098024708	53.3155945597	-18.846424876	25.8775387276	-60.00849386	24.6852542939	-23.7750480053	-16.5152165686
183875000.0	-22.6750288879	49.9468108395	-18.8353550206	24.5786216101	-59.5546857392	25.0559069464	-23.8263807179	-16.5873331643
184562500.0	-22.6456603681	46.5344454359	-18.8260097002	23.3055818401	-59.4415234253	13.6987676776	-23.864803873	-16.7340665773
185250000.0	-22.601056332	43.1132099552	-18.8178331174	22.0141282817	-59.2833823886	-1.37331685394	-23.9020497624	-16.7999901824
185937500.0	-22.5639261835	39.7553555764	-18.8107013985	20.7127352598	-59.5379343849	-15.5962806623	-23.9380985739	-16.8413051213
186625000.0	-22.525651997	36.3678948383	-18.7957330258	19.4220335725	-59.4926875188	-44.0247229154	-23.9780566242	-16.8258083228
187312500.0	-22.463906862	32.9785786563	-18.7853284465	18.1397005476	-59.7418675056	-72.1415882308	-24.015027715	-16.8043769463
188000000.0	-22.3980370109	29.6054609296	-18.7691927298	16.8722639451	-59.6372071425	-107.684504557	-24.0415496965	-16.801259178
188687500.0	-22.3487808915	26.2029136299	-18.7556252294	15.5972064476	-59.7875752913	-134.279199864	-24.0794330832	-16.7499552771
189375000.0	-22.2833673385	22.8768210209	-18.7427264231	14.2953242675	-59.4852317142	-159.952880893	-24.111539808	-16.730961682
190062500.0	-22.2211744172	19.5102849955	-18.7242515838	13.0250881992	-59.6834720887	173.817473516	-24.1355263305	-16.5779175278
190750000.0	-22.1471898568	16.1549102839	-18.7043766067	11.7272172591	-59.588390431	154.010779715	-24.1646415415	-16.4547752086
191437500.0	-22.0806818863	12.7391227542	-18.692713421	10.4307860334	-59.8792162392	134.400261266	-24.1911706278	-16.2504366699
192125000.0	-22.0106812639	9.45555790926	-18.6757120352	9.12997208126	-59.3466471441	105.568545047	-24.2039241614	-16.0639778932
192812500.0	-21.9332516021	6.07981835678	-18.657650404	7.89480771819	-59.2220077288	66.552241332	-24.2297618138	-15.891590664
193500000.0	-21.8555200807	2.80053802274	-18.6407626197	6.59065504451	-59.1240779899	37.0194308339	-24.2576087669	-15.6006256004
194187500.0	-21.7757982202	-0.539595335965	-18.6273491885	5.34164243107	-58.7790777825	8.61021317238	-24.2652745169	-15.3376129351
194875000.0	-21.7098067214	-3.8885393801	-18.608389137	4.06903605807	-58.7688481348	-7.04765095444	-24.2816318366	-15.0386903604
195562500.0	-21.6215759964	-7.2600366713	-18.5957689031	2.79900620673	-58.7735071702	-31.421193611	-24.2842264461	-14.728806044
196250000.0	-21.5443897758	-10.6260279727	-18.5777899544	1.54099084544	-58.2769286931	-47.2033379963	-24.3006374973	-14.384177579
196937500.0	-21.4532527206	-13.9661748789	-18.5582879465	0.300844258165	-58.365368504	-60.7872947301	-24.3117214574	-14.0027818783
197625000.0	-21.3598341313	-17.2368224702	-18.5398919133	-0.92620257116	-58.1706617868	-72.9721162458	-24.3291433059	-13.6934830858
198312500.0	-21.263671732	-20.4848586812	-18.5218741416	-2.19542848358	-58.2119685484	-71.9841155548	-24.3419681392	-13.4593726515
199000000.0	-21.169305544	-23.8031303494	-18.502763182	-3.43731377105	-58.4923973506	-58.6583886953	-24.3483029329	-13.2160965491
199687500.0	-21.0555167055	-27.0259433762	-18.4802929875	-4.70030198647	-58.7398878453	-56.9868409447	-24.3635271098	-12.9999732032
200375000.0	-20.9643199265	-30.2792547855	-18.4608512123	-5.9090984962	-58.5386619019	-55.8241078328	-24.3791892408	-12.8356755131
201062500.0	-20.8597489606	-33.4519110254	-18.4424691733	-7.14894439037	-58.4870335166	-53.0620956224	-24.4077725948	-12.5666419692
201750000.0	-20.7494225157	-36.5788305591	-18.4226354526	-8.37641327344	-58.6134948937	-52.0224524961	-24.4423192705	-12.3642154782
202437500.0	-20.6299192341	-39.6298861418	-18.3931562289	-9.63341386432	-59.0436256357	-46.8154258357	-24.4718556569	-12.2173745679
203125000.0	-20.505575396	-42.6979533133	-18.3714690384	-10.8329513392	-58.6491035211	-43.521203667	-24.4959165228	-12.1631287585
203812500.0	-20.3694972481	-45.6229336548	-18.3460553357	-12.0806129617	-59.0913681982	-30.1134698277	-24.5204190908	-12.1510470947
204500000.0	-20.2457937693	-48.575246478	-18.3235313154	-13.2972773615	-59.2480219847	-12.8946963668	-24.5476969178	-12.126882739
