#Frequency	|S11|	<S11	|S21|	<S21	|S12|	<S12	|S22|	<S22
100000000.0	-19.5550576301	120.472176033	-20.582148558	-124.377088125	-63.1750756285	-172.273611552	-22.0497046239	-59.5225978762
100687500.0	-19.4081615204	118.095401818	-20.2288406786	-125.083810325	-60.7353973867	128.953128979	-22.1941996196	-59.5337191389
101375000.0	-19.2867915165	115.197201431	-19.8678524188	-126.316154019	-58.9650592246	-163.305358051	-22.2630214004	-59.3267398264
102062500.0	-19.174897273	112.309103533	-19.512971033	-127.706589343	-59.8318227022	-78.3079556336	-22.3508223853	-59.2725092533
102750000.0	-19.0564811679	109.543178899	-19.1741139172	-129.018762267	-59.732568751	-50.2210638689	-22.4384882443	-59.0322038485
103437500.0	-18.9532890911	106.703489327	-18.8667607584	-130.381871659	-59.3779216269	-35.5245947319	-22.5104637174	-58.7954113737
104125000.0	-18.8710707565	103.702281972	-18.5839094963	-131.720496368	-59.0775271888	-28.5904986134	-22.6100530955	-58.5882243397
104812500.0	-18.7976210958	100.673649331	-18.3211784549	-133.04697909	-60.0288463368	-37.6677346792	-22.7007091092	-58.6222972759
105500000.0	-18.7252819377	97.5560163392	-18.0835223045	-134.380436564	-59.5425204989	-27.1273537399	-22.7877172643	-58.653744992
106187500.0	-18.6573191857	94.2993809214	-17.8865212302	-135.730678739	-59.4869865439	-32.5699478942	-22.8778120571	-58.7047411007
106875000.0	-18.5898292355	90.9198196361	-17.7234658019	-136.981137292	-59.2470124417	-55.0845612582	-22.9590485324	-58.8227399236
107562500.0	-18.5348812102	87.4379864943	-17.6014456608	-138.153996252	-59.4934354258	-101.010459505	-23.0505130011	-58.9258898212
108250000.0	-18.4715199846	83.7965255807	-17.525778388	-139.132078149	-59.6415480992	-140.372294671	-23.1251997688	-59.0828849897
108937500.0	-18.3957510802	80.3890959042	-17.3801328413	-140.146652829	-59.625604232	-153.102692689	-23.206279046	-59.0911285725
109625000.0	-18.3266257242	76.8579546858	-17.2674374036	-141.054869915	-59.5843102938	-154.907220686	-23.2742493281	-59.0812266234
110312500.0	-18.2546306437	73.2890986394	-17.1776319676	-141.787024185	-59.4505028073	-166.134769546	-23.3519041368	-59.1278894463
111000000.0	-18.1840693644	69.6063771509	-17.1197811499	-142.31552596	-59.6201828099	171.160604689	-23.4228646739	-59.171312427
111687500.0	-18.1166868298	65.8350796721	-17.0795650123	-142.479302942	-59.886456957	142.782401633	-23.4979609563	-59.2834716084
112375000.0	-18.0527040654	61.9863350632	-17.0476500348	-142.294695916	-59.9754396996	112.994934481	-23.567226403	-59.3811087608
113062500.0	-17.988556852	58.0464329559	-17.0145638819	-141.670199557	-59.952813682	72.9132552062	-23.6456581332	-59.4115224937
113750000.0	-17.933539139	53.9974582793	-16.9569653113	-140.651578805	-60.0618411397	31.1488319564	-23.7111391649	-59.4805839237
114437500.0	-17.8785544282	49.8519893955	-16.8610332848	-139.323399983	-60.1320587808	-1.44668971374	-23.7856876286	-59.5974278048
115125000.0	-17.8263424021	45.5983561267	-16.7138264562	-137.726012365	-60.0574047015	-42.3976471599	-23.8563442575	-59.6766614952
115812500.0	-17.7719214537	41.2042286358	-16.5095990847	-135.938042921	-60.0835703352	-72.3344648935	-23.9318593378	-59.7191729259
116500000.0	-17.7300044038	36.7174517703	-16.2517611911	-134.072595632	-60.1825430843	-100.922281817	-23.9885198947	-59.7777750357
117187500.0	-17.6907874501	32.1831690755	-15.9389354322	-132.170195268	-60.2578942277	-116.447837767	-24.0472567397	-59.8486083711
117875000.0	-17.666576888	27.5205622641	-15.5754693844	-130.294113079	-59.9432030119	-133.117593118	-24.1033767067	-59.7597826589
118562500.0	-17.654560853	22.7586228557	-15.1639240151	-128.472509891	-59.6029220033	-154.316114943	-24.1577461084	-59.594057001
119250000.0	-17.6627144404	17.8926287786	-14.7067756917	-126.737381793	-59.5802916916	-175.992340967	-24.2158158828	-59.4183213689
119937500.0	-17.6918679752	12.9688550953	-14.2060673415	-125.117970897	-59.5145619366	165.446507338	-24.2572520653	-59.2017908032
120625000.0	-17.7489280455	7.97201674505	-13.6621827145	-123.61793468	-59.605849631	149.888948053	-24.3084275418	-58.9644142927
121312500.0	-17.8389704112	2.92031539804	-13.0765920755	-122.289445204	-59.4269804593	133.278989716	-24.3366640457	-58.6856705837
122000000.0	-17.9716179611	-2.1108691783	-12.4578879942	-121.137156292	-59.7227108482	122.353654797	-24.3766991731	-58.3947422072
122687500.0	-18.1544786388	-7.1463086936	-11.8033069305	-120.21469343	-59.5066507395	123.698490833	-24.4052247088	-58.0106387136
123375000.0	-18.3780373585	-12.0812958805	-11.1200743464	-119.470883632	-59.4155241171	124.31232219	-24.4220868048	-57.6153169309
124062500.0	-18.665352282	-16.8226224535	-10.4038324116	-118.945134706	-59.1814413674	133.551371139	-24.4438516406	-57.1176779266
124750000.0	-19.0118775418	-21.2185749643	-9.66199384715	-118.663625613	-59.2352364915	137.06656042	-24.4684840488	-56.5416469448
125437500.0	-19.3856101533	-25.2173226699	-8.88902605591	-118.63272582	-58.8951430112	143.285055028	-24.4832418181	-55.9159774934
126125000.0	-19.8099109096	-28.6316403047	-8.09400159813	-118.851574353	-59.3031737877	143.390648387	-24.5075133926	-55.3502804757
126812500.0	-20.2118517925	-31.4337176361	-7.26684155238	-119.370486082	-59.1311556934	135.668446429	-24.5230587096	-54.7051486527
127500000.0	-20.5965618268	-33.7782642133	-6.42001750217	-120.249669869	-59.2119938826	134.614086764	-24.5258459769	-54.050425967
128187500.0	-20.9450235097	-35.8490107499	-5.54605430699	-121.503985312	-59.0502611783	136.710701455	-24.5331436713	-53.4069632883
128875000.0	-21.2630204622	-37.6214138598	-4.65937529998	-123.237626641	-59.0117875867	150.732632747	-24.5337124125	-52.6813854721
129562500.0	-21.5473130772	-39.2971748692	-3.76994262564	-125.466139989	-59.1905319221	157.6910561	-24.5408701198	-51.9140425356
130250000.0	-21.803521091	-40.9026868401	-2.89262984646	-128.273004659	-58.7328851721	172.190044515	-24.5413650847	-51.2271702445
130937500.0	-22.0313196876	-42.4039876106	-2.04364698951	-131.605499604	-58.4953058011	-173.255200673	-24.5407562138	-50.4736479747
131625000.0	-22.2532725688	-43.7828021836	-1.24619438575	-135.396670295	-58.387403724	-158.926258564	-24.5216337527	-49.6890808255
132312500.0	-22.4524154545	-45.1152606695	-0.502867727019	-139.555448582	-58.4314007226	-143.349396837	-24.5142630751	-48.9204904474
133000000.0	-22.6443765651	-46.4118752119	0.175118781054	-144.021775571	-58.2871225622	-135.017633044	-24.4943739612	-48.2325651659
133687500.0	-22.8140035004	-47.6484964267	0.791076913944	-148.670453066	-58.4765345371	-131.728885086	-24.4876503754	-47.4557874274
134375000.0	-22.9648384188	-48.857289241	1.34704047497	-153.480100015	-58.3805449556	-140.553682929	-24.471023676	-46.7500562999
135062500.0	-23.0965213485	-50.0830523279	1.84443081219	-158.347775547	-58.8328380346	-137.486301978	-24.4641161888	-46.095317131
135750000.0	-23.2125986248	-51.2069727168	2.28425468845	-163.258973687	-58.5713732458	-134.548208042	-24.4572610615	-45.6264896364
136437500.0	-23.3157393025	-52.3468481836	2.6733321459	-168.172031971	-59.0242711459	-137.003416194	-24.4449026762	-45.1142154906
137125000.0	-23.3930672933	-53.4832942917	3.01389794802	-173.072982779	-59.1192320762	-143.159314254	-24.4448140978	-44.6598674348
137812500.0	-23.4309883229	-54.5017307976	3.30871087723	-177.895784426	-59.2142030313	-145.10244026	-24.4392061421	-44.1716873466
138500000.0	-23.4458137456	-55.542741762	3.56315118976	177.334277284	-59.2232646461	-152.808619188	-24.434953418	-43.7527868964
139187500.0	-23.4134580977	-56.6440930726	3.77767015755	172.680314357	-59.2704340501	-154.570487477	-24.4416405872	-43.3144886207
139875000.0	-23.3334922242	-57.7688193161	3.96041663507	168.117502801	-59.4059544405	-163.99497386	-24.4388157596	-42.9577702257
140562500.0	-23.2105307508	-59.0428125523	4.11300182808	163.678078008	-59.3693279021	-164.472325592	-24.4639814148	-42.6761373551
141250000.0	-23.0277356303	-60.4646597345	4.24004699975	159.351449968	-60.0586638698	-170.691136632	-24.465880149	-42.4048257645
141937500.0	-22.7947577102	-62.2684890354	4.34177960621	155.173616585	-59.6551048207	-173.347416385	-24.4813264899	-42.2424790646
142625000.0	-22.5366669616	-64.4097404709	4.42519397111	151.093074931	-60.1620622205	-177.053107951	-24.4887429979	-42.1584915895
143312500.0	-22.2286058097	-67.1596542489	4.48870272309	147.156372871	-59.4677823103	-177.480176717	-24.5044785957	-42.0110023978
144000000.0	-21.9476626473	-70.4927339089	4.53736310924	143.319373315	-59.7211102321	-177.807934284	-24.5239217889	-42.006621047
144687500.0	-21.6932708409	-74.2945389083	4.57245109738	139.622958046	-59.5948348036	173.320311276	-24.5592160228	-42.0018271774
145375000.0	-21.4793893396	-78.3002255538	4.59594360471	136.028104124	-59.9993733611	172.609400646	-24.5845229556	-41.9763270641
146062500.0	-21.301956328	-82.5662061263	4.60897307293	132.554539018	-59.7998924673	163.667980049	-24.6273595241	-41.9571790879
146750000.0	-21.1604805578	-86.8790475429	4.61237002673	129.16522695	-59.9411155075	160.176866599	-24.6626814296	-41.9604600464
147437500.0	-21.0588068317	-91.1748116885	4.6073688926	125.892984075	-59.821615649	152.39906677	-24.6894230962	-41.98347254
148125000.0	-20.9845899042	-95.5518995353	4.5967873824	122.699288981	-60.340148228	152.099901891	-24.7283196104	-42.0372029456
148812500.0	-20.9207274211	-100.031011459	4.57924208601	119.606775101	-60.8471139351	144.482526325	-24.7595253018	-42.1812786888
149500000.0	-20.8908522914	-104.429612552	4.55868584078	116.597062695	-60.8410785777	144.259921432	-24.8068496156	-42.2315661933
150187500.0	-20.8667440669	-108.801041311	4.53212013616	113.676059501	-61.0734918274	140.613613813	-24.8540226832	-42.2222730441
150875000.0	-20.8565652116	-113.08384133	4.5048346874	110.827853607	-60.6229491846	140.834342191	-24.8991022158	-42.2046348564
151562500.0	-20.8671584348	-117.410006567	4.47383442632	108.05821328	-60.8420614767	142.759727535	-24.9438296825	-42.2332264331
152250000.0	-20.8872212722	-121.619139834	4.44025584057	105.351436458	-60.5628814479	141.204710973	-25.0076323236	-42.1485901147
152937500.0	-20.9165834698	-125.806146979	4.4033065049	102.724660718	-60.9292061488	134.990014661	-25.0514325766	-42.0520094125
153625000.0	-20.9553510204	-129.857272347	4.36694174905	100.162173172	-60.3094657422	131.241548372	-25.1223409517	-41.97282927
154312500.0	-20.9942765543	-133.86242089	4.32784741174	97.6618592518	-61.3961793038	129.658219546	-25.1655612528	-41.9112703065
155000000.0	-21.0584900555	-137.881794854	4.28740349403	95.2074759615	-61.1083419732	122.60419733	-25.223226128	-41.773442907
155687500.0	-21.1177717869	-141.834064218	4.24622002478	92.8294973768	-61.2380952718	121.702464437	-25.292359801	-41.5954370249
156375000.0	-21.1960647004	-145.685933861	4.20493541217	90.4841701645	-60.7701417594	120.012555408	-25.3492135637	-41.3940915536
157062500.0	-21.2598678234	-149.509260525	4.16232456111	88.2087011554	-61.5386108968	117.336686492	-25.4122420604	-41.1732574603
157750000.0	-21.3337472992	-153.24624173	4.11976307895	85.9652876831	-61.2274972993	115.258059031	-25.4709573759	-40.8945849873
158437500.0	-21.4085899189	-156.918594856	4.07515289967	83.7801940277	-61.0263593898	113.774905273	-25.5356083726	-40.6774237154
159125000.0	-21.4899555853	-160.519052421	4.03226275724	81.6245701952	-61.3230713868	103.903125905	-25.6148700729	-40.3578641811
159812500.0	-21.5700049581	-164.051066396	3.98849293215	79.5245551623	-61.1342943873	101.759762892	-25.7004625537	-40.0504350248
160500000.0	-21.6617180688	-167.533367641	3.94600469113	77.4492805036	-61.252302483	94.6777347595	-25.778532086	-39.782551269
161187500.0	-21.7478738493	-170.988341648	3.90253120794	75.425429473	-60.9821555814	96.3215456771	-25.8610707819	-39.4619583284
161875000.0	-21.8402774539	-174.284065232	3.86107917509	73.4224315108	-61.0574559357	97.8752130726	-25.9640265754	-39.1610051831
162562500.0	-21.9462051806	-177.571019875	3.81854112982	71.4705711463	-60.9278905967	97.1731537666	-26.0482059487	-38.8859583962
163250000.0	-22.0419132114	179.223890876	3.77737971182	69.5322716883	-61.7501086117	96.7315247788	-26.164408918	-38.6091807943
163937500.0	-22.1492778985	176.094530617	3.73601927607	67.6527983813	-61.5855448267	99.6855840651	-26.2714196702	-38.4123033462
164625000.0	-22.254512172	172.904437738	3.69645645535	65.7842413733	-61.8839682748	97.7740212823	-26.384161907	-38.1760739536
165312500.0	-22.3681259116	169.883831463	3.6562668541	63.9676644276	-61.3120510391	96.7222272705	-26.49562378	-37.9882284825
166000000.0	-22.4866803548	166.954899122	3.61899681836	62.1584338584	-60.9398249129	97.3259911378	-26.6181654909	-37.7947591302
166687500.0	-22.6153168374	163.974485046	3.57896547663	60.3939223145	-61.2109560768	98.1726540353	-26.7406606611	-37.6811575138
167375000.0	-22.7514023935	161.142306216	3.54213377313	58.6467136614	-61.3740934575	97.5363894675	-26.8629293787	-37.7862322064
168062500.0	-22.8923721214	158.188634388	3.50462949717	56.944005985	-61.4707625845	84.8235032166	-27.0002943129	-37.7621592048
168750000.0	-23.0498917182	155.323694337	3.46796424883	55.2604170214	-61.4500236699	82.6728478936	-27.1346244128	-37.983474545
169437500.0	-23.2068388437	152.432985013	3.43169255433	53.6023706846	-61.8587910825	74.9306929206	-27.2675970689	-38.1063054298
170125000.0	-23.3799994128	149.5392125	3.40022653542	51.947023189	-61.813077953	72.7768918708	-27.4057896701	-38.3309002151
170812500.0	-23.5477842851	146.587464969	3.36622804685	50.3323069245	-61.9927190349	71.1947831138	-27.5377011133	-38.5204960747
171500000.0	-23.737424463	143.667349179	3.33446103577	48.7452409977	-60.7804988297	72.0878401497	-27.6646384987	-38.9349487512
172187500.0	-23.918962842	140.654543854	3.30517731705	47.1817260398	-60.7497134797	84.8307948086	-27.812053334	-39.367011856
172875000.0	-24.1061308239	137.570719366	3.27527977688	45.624582895	-60.6885510903	99.1980528742	-27.9177155043	-39.9227521613
173562500.0	-24.2865281207	134.473253835	3.24750193483	44.1043342514	-60.7028584113	107.620483957	-28.0622616871	-40.6163028152
174250000.0	-24.4810035907	131.390821627	3.22258814222	42.5812949985	-59.8899677535	122.300321396	-28.188583758	-41.2759689377
174937500.0	-24.6762722306	128.0259789	3.19924491396	41.0858304733	-59.9863802785	133.99710768	-28.2827489841	-41.9767935445
175625000.0	-24.8665503259	124.558265265	3.17814639591	39.5944144262	-59.9292741411	147.901319624	-28.3821385531	-42.6795851994
176312500.0	-25.0491123473	121.051697036	3.15593676597	38.1355657186	-60.1007152567	163.204239292	-28.4725291838	-43.5098450328
177000000.0	-25.210339028	117.417031165	3.1369273329	36.6829012665	-60.3061211212	179.622114104	-28.5693963718	-44.333050937
177687500.0	-25.3590742636	113.723688663	3.11726491048	35.2503922117	-60.3214246997	-168.704983675	-28.6679352032	-45.2030554677
178375000.0	-25.5095120601	110.07122791	3.1005786338	33.8156122445	-60.4120608761	-157.602724672	-28.7523166011	-45.9499491481
179062500.0	-25.6485863267	106.273962174	3.0842484056	32.4007865404	-60.3445629167	-145.552137901	-28.7978870748	-47.0091075275
179750000.0	-25.7653707812	102.38432615	3.07046956566	30.9866203247	-60.3638055635	-132.624756495	-28.8630315163	-47.8265599734
180437500.0	-25.8796505514	98.4478820254	3.056594111	29.5928087277	-59.5112009757	-119.194174413	-28.888406255	-48.7519157708
181125000.0	-25.9690588399	94.3769317105	3.04478087828	28.191757241	-59.2409735188	-108.592673462	-28.9198461491	-49.4797983911
181812500.0	-26.0532477648	90.4337318176	3.03313956094	26.8148394482	-59.2507529942	-93.4727638177	-28.9311846217	-50.3269873936
182500000.0	-26.1167929682	86.321790926	3.02513007791	25.43749892	-59.4561759933	-76.9226877329	-28.9824738096	-50.9796906278
183187500.0	-26.1499190874	82.2438713615	3.01545168162	24.0841390965	-59.4327099745	-64.8528530539	-28.9794369324	-51.6297299555
183875000.0	-26.1682813934	78.1876552638	3.00854610274	22.7111475965	-59.1834894611	-64.2163647952	-28.9868851222	-52.2478570032
184562500.0	-26.1783974144	74.0864625264	3.00051528521	21.3640602586	-59.6330937279	-62.1749841613	-28.960449185	-52.8049012526
185250000.0	-26.1709635447	70.0555664003	2.9950994403	20.0124923061	-59.6737283161	-60.0483543634	-28.9461887888	-53.346919436
185937500.0	-26.1417962434	66.0268765961	2.9887416176	18.6727842683	-59.8556538323	-72.001096646	-28.9083051289	-53.6584330084
186625000.0	-26.1226686877	62.0954102879	2.98587186288	17.3354027078	-59.3733176947	-76.6184763855	-28.8726977503	-54.0588700593
187312500.0	-26.0605812184	58.103576151	2.98125290029	16.0129479911	-59.3030589778	-78.2459800636	-28.8294472603	-54.2410156727
188000000.0	-26.0021576788	54.2328943803	2.97895189174	14.6812125744	-59.3955885859	-82.5944661446	-28.7791608167	-54.3874350443
188687500.0	-25.9225174848	50.3002760004	2.97627588201	13.3662414414	-59.403950026	-82.9265558003	-28.7319632463	-54.3199337531
189375000.0	-25.8424159036	46.513826244	2.97503947822	12.0446506958	-59.8932148261	-96.3351680746	-28.6816810719	-54.3285212248
190062500.0	-25.7508068008	42.7708205054	2.97456877118	10.7410572935	-59.9739560162	-110.673090252	-28.6408821603	-54.0950187136
190750000.0	-25.6627810136	39.0214368276	2.97702543037	9.43034790912	-60.7963358148	-127.466783093	-28.5950701167	-53.7610047492
191437500.0	-25.5746699265	35.2933288552	2.97659883736	8.1473514325	-61.2562682956	-143.975169792	-28.5367644651	-53.4090348911
192125000.0	-25.4806542649	31.9113030555	2.97762241347	6.86152217157	-61.4537397214	-161.566001536	-28.5073415701	-52.9542646392
192812500.0	-25.3823547641	28.4518969941	2.97981793913	5.59164161029	-61.2451437723	-174.260581876	-28.4722584759	-52.5416477715
193500000.0	-25.2926174569	25.137131551	2.98312613976	4.299585342	-60.8843428138	172.056147474	-28.4285512037	-51.9713032779
194187500.0	-25.209319033	21.8957377609	2.98436152665	3.03412179428	-60.3419649433	149.46642817	-28.3639354491	-51.3318638036
194875000.0	-25.1446936241	18.6664863573	2.99038960558	1.76087893533	-60.9408361361	138.063032722	-28.3088045821	-50.6908602183
195562500.0	-25.066756775	15.3638417284	2.99515012034	0.50797727093	-61.0195756746	124.275384888	-28.26743804	-50.1112130259
196250000.0	-25.0070971483	12.1178273379	2.99967398687	-0.74738034141	-61.1764682297	112.214423887	-28.244122317	-49.3092817385
196937500.0	-24.9451173165	8.89716452211	3.00399234157	-1.98897259921	-60.7486877785	89.8771304752	-28.2190539937	-48.4075826335
197625000.0	-24.888155697	5.6558464604	3.01058938763	-3.23022205152	-60.6405583136	74.4463586136	-28.1934702097	-47.5933713645
198312500.0	-24.8318781076	2.5143216113	3.01788316367	-4.46004154878	-60.6996838372	54.5473716913	-28.1633228279	-46.8885852567
199000000.0	-24.7888136875	-0.789705215117	3.02747916097	-5.70395634354	-60.6883371674	39.8457832624	-28.1371669886	-46.1282419963
199687500.0	-24.7349275849	-4.05001807607	3.03461192992	-6.93043653942	-60.9783023266	16.237536461	-28.1103493505	-45.3698803579
200375000.0	-24.7009050189	-7.2972692131	3.04355089923	-8.16521950305	-60.8590706547	-2.03009530473	-28.119222167	-44.7237343254
201062500.0	-24.6685465886	-10.6404908435	3.05346330768	-9.37596120505	-60.9394193013	-14.0126309285	-28.1310919825	-43.9500887239
201750000.0	-24.6214457503	-13.9947037044	3.06504295866	-10.5958148515	-60.4246266365	-14.1587837467	-28.1494534018	-43.1642909902
202437500.0	-24.5855579092	-17.3181049424	3.07549693394	-11.8078379155	-60.3421542791	-11.1359153969	-28.1645683652	-42.4333717678
203125000.0	-24.5462847926	-20.5832943554	3.08919207297	-13.02429159	-59.8214149195	1.20748186374	-28.1725952443	-41.7390204041
203812500.0	-24.4796175783	-23.9544532397	3.10107322729	-14.2310764986	-60.4686042293	5.95634253407	-28.201343145	-41.0372194184
204500000.0	-24.4343763636	-27.2996830918	3.11518011637	-15.4473259356	-60.1592515589	9.49533578218	-28.2047160161	-40.3943366325
205187500.0	-24.3760811839	-30.6554052416	3.12950371826	-16.6347314389	-60.4419314215	8.58767333902	-28.2415315913	-39.7625477486
