#Frequency	|S11|	<S11	|S21|	<S21	|S12|	<S12	|S22|	<S22
100000000.0	-17.3610224236	147.210030219	-37.1099890154	-116.285228954	-57.0563919573	-136.258731915	-20.4407960432	-37.1098223652
100687500.0	-17.332615592	144.608773433	-36.4081972183	-120.681164531	-60.2064137262	-64.2069474609	-20.5289174272	-36.4997833353
101375000.0	-17.2976593977	141.94354993	-35.8014037031	-122.758729364	-60.7258014772	-60.2127927658	-20.5583558066	-35.9026240516
102062500.0	-17.2860715396	139.354685099	-35.396669089	-123.928450036	-61.248295867	-37.2774734015	-20.5987120188	-35.1445932673
102750000.0	-17.2716054777	136.763503333	-35.0364389736	-125.21787619	-60.992447934	15.1063864558	-20.6486283302	-34.4192020673
103437500.0	-17.2608708143	134.145011842	-34.7064026943	-126.53317252	-60.1076860476	71.5019468042	-20.6956530589	-33.6981326119
104125000.0	-17.27039792	131.368366557	-34.3754501006	-127.885889574	-59.8751739103	121.347533627	-20.7732425543	-32.8737429218
104812500.0	-17.2893657943	128.62517353	-34.1072327205	-129.557968148	-59.8005425169	138.681641587	-20.8393166614	-32.2581282518
105500000.0	-17.3087886764	125.740152829	-33.8169768611	-130.889020174	-59.1253282057	154.4739383	-20.9060472166	-31.7919404443
106187500.0	-17.3279971768	122.703534723	-33.5593303091	-132.199558155	-59.3609327536	-173.144039939	-20.9947751225	-31.2939078641
106875000.0	-17.3582809672	119.57400017	-33.3314578366	-133.467196407	-59.9664125635	-146.027464571	-21.0818452128	-30.8174235607
107562500.0	-17.3921005059	116.314499245	-33.1199721542	-134.680532352	-59.854578364	-110.32847403	-21.1712201472	-30.2919164799
108250000.0	-17.4187945909	112.875878423	-32.9694367268	-135.896903125	-59.7923334639	-74.3032770922	-21.2538866411	-29.9775931089
108937500.0	-17.4398326543	109.640752609	-32.7368787309	-137.285079321	-59.7917754082	-43.3757948935	-21.3299863547	-29.5296036054
109625000.0	-17.4630569164	106.39259495	-32.5527454178	-138.412517683	-59.6158755264	-25.7125052891	-21.4105727673	-29.062186167
110312500.0	-17.4821548686	102.959435108	-32.3883963603	-139.651744422	-59.7267635772	1.93573720691	-21.4992719712	-28.6522774832
111000000.0	-17.5076868819	99.4943330887	-32.2484514622	-140.630901501	-59.5579435536	19.0338221042	-21.5912473785	-28.2359633498
111687500.0	-17.534329115	95.8670910163	-32.1646027513	-141.687539754	-59.6910552789	36.290793949	-21.6863438669	-27.9432867891
112375000.0	-17.5630609831	92.1708211818	-32.0872841986	-142.468091258	-59.7347338576	50.332992263	-21.7818832781	-27.6600814402
113062500.0	-17.5864182301	88.3743522272	-32.0416889378	-143.131529872	-59.7090118319	63.1858910348	-21.8910904099	-27.3432913951
113750000.0	-17.6138550281	84.4618085408	-32.029424095	-143.443690575	-59.6561330106	65.1330772275	-21.9991910108	-27.0972618299
114437500.0	-17.6398283917	80.4914466513	-32.0013364948	-143.380715523	-59.7098257315	68.3004329271	-22.1143261644	-26.8810951377
115125000.0	-17.669617611	76.3132073801	-31.9909606014	-142.81700401	-60.2150543717	70.5985706949	-22.2267694561	-26.7441690207
115812500.0	-17.6925042145	72.0509583823	-31.9544756014	-141.967161135	-60.1498382599	73.2228138258	-22.3401905707	-26.5701370721
116500000.0	-17.7192060496	67.652096334	-31.8822609975	-140.769635105	-60.1010895	75.6425911538	-22.4403352186	-26.4650509503
117187500.0	-17.741083329	63.2252734121	-31.7774999084	-139.047650615	-60.0604253518	85.0405408393	-22.5537403756	-26.4425505604
117875000.0	-17.7722499832	58.5835303321	-31.5998764737	-137.152459678	-60.1525016257	96.0613701278	-22.6695181763	-26.3408341257
118562500.0	-17.8050748402	53.8702851034	-31.3730549345	-135.072956342	-60.0474483556	97.1046815513	-22.7858685546	-26.2654910963
119250000.0	-17.8512502318	48.9870649822	-31.0945944336	-133.025622616	-60.4159115455	95.5547817638	-22.8859402844	-26.1375950386
119937500.0	-17.8948181021	44.0483984714	-30.7668852658	-131.021319935	-60.578007875	86.97180666	-22.9990388113	-26.0794602171
120625000.0	-17.9593917335	38.9107984572	-30.3816694362	-129.071119546	-60.7288302023	74.8862617666	-23.1130257395	-26.0421883222
121312500.0	-18.0451463079	33.7216101203	-29.9586466134	-127.157092586	-61.0959071885	58.982415544	-23.2159340029	-26.0983168135
122000000.0	-18.1462008874	28.3525429733	-29.4699974598	-125.389761491	-60.4918457849	46.1972299754	-23.3306035106	-26.1625801616
122687500.0	-18.2766927855	22.9581430823	-28.9655856542	-123.693989473	-60.6055231432	31.9720892552	-23.4413514191	-26.2580218087
123375000.0	-18.4421800631	17.3860210661	-28.4068231133	-122.276749768	-60.4833717594	19.6500972866	-23.5437567252	-26.3583177999
124062500.0	-18.6460955555	11.6648024379	-27.8296138146	-120.845588057	-60.3331378331	-4.76179818582	-23.6565312016	-26.4570721701
124750000.0	-18.9243654717	5.92954049547	-27.1942652963	-119.568698627	-60.1884651272	-32.3773915098	-23.769378806	-26.4836350991
125437500.0	-19.2423943604	0.0168772336375	-26.5276104848	-118.667062533	-60.1254523698	-70.8721750894	-23.87392357	-26.4241620525
126125000.0	-19.667850086	-5.74631340803	-25.8274152543	-117.876475735	-60.1089891835	-102.207270894	-23.9852916408	-26.482185637
126812500.0	-20.1812533818	-11.6507373153	-25.0979955886	-117.279154941	-60.2308767878	-131.917011608	-24.0873463355	-26.49231447
127500000.0	-20.8682536027	-16.8070058346	-24.3305661174	-116.876962705	-59.9727778063	-172.486759596	-24.1773664671	-26.6074119903
128187500.0	-21.7099134523	-21.6292381239	-23.5511632812	-116.759721517	-60.7612503038	155.375564185	-24.2637889583	-26.615411081
128875000.0	-22.5879203318	-24.0273321454	-22.722356704	-116.885749925	-60.4187331229	127.641886995	-24.3503752016	-26.6946097417
129562500.0	-23.2899417382	-25.3878631437	-21.8731011635	-117.431045626	-60.2317980591	90.4505161822	-24.4355906379	-26.7449667689
130250000.0	-23.9307666718	-26.4669606266	-20.9972046281	-118.292378386	-60.5030951029	61.6318031344	-24.5266585663	-26.9166009212
130937500.0	-24.4481214714	-27.4454473273	-20.0792298941	-119.672701584	-60.4249118486	31.4264865224	-24.5971779314	-26.9678363404
131625000.0	-24.8995447983	-28.1807100536	-19.1977402602	-121.483130807	-60.285104846	-9.34230283682	-24.6550519705	-27.2020564634
132312500.0	-25.295917719	-29.043185858	-18.2905851066	-124.036031222	-60.1852769267	-48.2359382542	-24.7137409648	-27.2377345318
133000000.0	-25.6636275175	-29.7329976032	-17.4246618729	-126.92404677	-60.5686473661	-91.3699842018	-24.7791799105	-27.3827794188
133687500.0	-26.0020471213	-30.6926913126	-16.5888123932	-130.468914789	-60.8639623511	-136.510508648	-24.8412108842	-27.5260183671
134375000.0	-26.3138387032	-31.5640428263	-15.8186669905	-134.389554846	-61.2212948904	-179.990408029	-24.892193803	-27.6727245997
135062500.0	-26.5932672358	-32.613739942	-15.1002916798	-138.704104218	-61.2984879292	138.514079376	-24.9330297369	-27.8446403746
135750000.0	-26.844963917	-33.5891005343	-14.4418525456	-143.184666526	-61.2048183233	99.7044519833	-24.9656085044	-28.1017628786
136437500.0	-27.0784735496	-34.7107016749	-13.8473692322	-147.931128729	-60.8541939974	73.4138940466	-25.009765529	-28.426787193
137125000.0	-27.2916536324	-35.8537632101	-13.3210624893	-152.684735052	-60.7136128312	54.5832460553	-25.051482003	-28.6695952826
137812500.0	-27.4601088097	-36.9479581185	-12.8397494319	-157.567110903	-60.5300346693	28.4964925546	-25.0656112994	-29.0347172056
138500000.0	-27.6045226647	-38.0544523477	-12.4205762875	-162.409187239	-60.2701013339	13.2766788602	-25.0780491286	-29.3287732652
139187500.0	-27.7071964604	-39.1318236891	-12.0443841622	-167.314894773	-60.1420439685	-8.96909993619	-25.0791860934	-29.620435373
139875000.0	-27.7713908473	-40.3196091174	-11.724475763	-172.131392303	-60.5806034747	-25.7602129226	-25.0846118334	-29.9221639608
140562500.0	-27.7924867993	-41.367574307	-11.4374030758	-176.911145034	-60.6649103125	-51.9505356881	-25.0891043122	-30.3153949817
141250000.0	-27.7680490553	-42.3791885643	-11.1944532957	178.391841836	-60.865051314	-64.9001044554	-25.0693624068	-30.6507742548
141937500.0	-27.6556493923	-43.2940709852	-10.9848921903	173.776472495	-61.1128618623	-78.4084529454	-25.0534614767	-31.0618117058
142625000.0	-27.4909126924	-44.1994273815	-10.809884601	169.293782476	-61.0635595074	-94.8841919627	-25.023485394	-31.4790382179
143312500.0	-27.201452604	-45.1597077941	-10.66645106	164.899036004	-61.1413035817	-107.520482725	-24.9872509725	-31.834330995
144000000.0	-26.8173684475	-46.1277452671	-10.5454084677	160.635437007	-61.524516442	-108.427248825	-24.947178314	-32.2403087576
144687500.0	-26.2594622047	-47.6841290866	-10.4504088654	156.500026616	-61.4654227663	-96.7301197874	-24.9099943306	-32.6042154596
145375000.0	-25.5328968666	-49.650707322	-10.3752045179	152.476629319	-60.6988546326	-81.4619600704	-24.8626139067	-33.0422141362
146062500.0	-24.7607292241	-53.9251078568	-10.3202957383	148.590904717	-60.6449078081	-68.3531096682	-24.8188571852	-33.3407265142
146750000.0	-24.1599730565	-59.2324477363	-10.279963443	144.809183201	-61.0469554582	-53.0663514763	-24.7545920124	-33.6390553586
147437500.0	-23.6195310908	-64.6846759833	-10.2555468452	141.162845741	-60.8660706481	-37.3155063549	-24.6722258981	-33.8966382658
148125000.0	-23.201807171	-70.2482634169	-10.2402842024	137.600825764	-62.4058258672	-8.97312947953	-24.593247588	-34.144011868
148812500.0	-22.8518386955	-75.9941035268	-10.2387744372	134.159601912	-62.4672907247	20.5400809731	-24.5180963134	-34.3309737241
149500000.0	-22.5451443078	-81.4312167726	-10.2413324499	130.823321768	-62.2537200998	37.6574173754	-24.4409086342	-34.5192534414
150187500.0	-22.2729932128	-87.0394197209	-10.2553718197	127.602451963	-61.8659905309	65.9840952382	-24.3508666911	-34.6374072563
150875000.0	-22.0241469254	-92.1466463482	-10.2702702593	124.474675509	-61.6080912179	85.4330323742	-24.2552768585	-34.6461257493
151562500.0	-21.8035178957	-97.3855227969	-10.2939702574	121.443225924	-61.4192281415	107.748988409	-24.1622742222	-34.6346491338
152250000.0	-21.5990566288	-102.177032751	-10.322105379	118.494261047	-61.6766494247	125.838780331	-24.0771583097	-34.5858854084
152937500.0	-21.4197756634	-107.009601848	-10.353913929	115.634953057	-61.7642717992	152.783245493	-23.994237602	-34.4680700544
153625000.0	-21.2534547825	-111.423153442	-10.386743012	112.865090147	-62.2901328721	166.883517098	-23.9062258093	-34.2190085008
154312500.0	-21.1039942658	-115.807650368	-10.4234489541	110.146325813	-62.8074800678	175.398748792	-23.7933687364	-34.0138797514
155000000.0	-20.9801541426	-119.980452085	-10.4644862318	107.51796493	-62.7608701876	-165.029152873	-23.7056561633	-33.643990083
155687500.0	-20.8573573101	-124.049803393	-10.5059072694	104.95407196	-62.6787559856	-145.319060643	-23.6208450783	-33.1689287558
156375000.0	-20.7666711972	-127.895478408	-10.551482785	102.467968694	-62.7169509304	-120.797930404	-23.5294619551	-32.7145166551
157062500.0	-20.6815155567	-131.582046503	-10.594250546	100.038619011	-63.0023382766	-101.211535169	-23.4355336715	-32.1272459929
157750000.0	-20.6013737602	-135.147627397	-10.6408593755	97.6792542467	-63.2017654545	-74.3722338433	-23.345221816	-31.557852676
158437500.0	-20.5312911278	-138.53522344	-10.68703389	95.348736162	-63.3156947422	-59.4496664108	-23.2690912825	-30.9971922244
159125000.0	-20.4870640987	-141.906192172	-10.7339036448	93.1015176186	-63.2411957665	-43.0892284221	-23.1926261727	-30.3682491798
159812500.0	-20.4575265841	-145.043358714	-10.7773019585	90.8660782986	-63.1323931341	-18.7716910381	-23.1216696989	-29.6833212758
160500000.0	-20.4443208173	-148.171325524	-10.824850438	88.7154257629	-63.0503749646	-5.687220308	-23.0538621574	-29.0282001735
161187500.0	-20.4419332303	-151.084846652	-10.8701577489	86.5855272161	-62.4109409938	-5.1198873665	-22.9808506803	-28.2307342705
161875000.0	-20.4552788128	-153.989101672	-10.91725399	84.5170979314	-62.5095128689	-15.9873200693	-22.9328175116	-27.4581124524
162562500.0	-20.490164667	-156.721776279	-10.9628184398	82.4591367845	-62.685173617	-28.3135016964	-22.8842204381	-26.6216735002
163250000.0	-20.53431368	-159.446776955	-11.0098091845	80.4651636085	-63.0809155427	-40.8248612743	-22.8373051404	-25.7135354724
163937500.0	-20.5912838225	-162.01738513	-11.0557983789	78.4982459812	-62.7729807263	-56.3916751658	-22.801248748	-24.8592425546
164625000.0	-20.666522768	-164.671374363	-11.1012487615	76.5790770015	-62.5636560142	-83.8364701041	-22.7727604472	-23.9922148581
165312500.0	-20.7561379053	-167.135155877	-11.1467026839	74.688355451	-61.0093727705	-110.414684939	-22.7622496111	-23.1169170559
166000000.0	-20.8543341913	-169.630648381	-11.1900139542	72.8349531769	-60.9728900324	-130.151558411	-22.7529488179	-22.173968532
166687500.0	-20.9762008225	-172.016453154	-11.2332684899	71.0198020677	-61.1041311103	-145.046551998	-22.7518879246	-21.2999519811
167375000.0	-21.1117106043	-174.333625892	-11.2753275103	69.2374962433	-61.1591760939	-171.983066628	-22.7617068679	-20.4674046243
168062500.0	-21.2588476984	-176.76228233	-11.3189642622	67.4812052105	-61.6311078878	167.896046904	-22.7730658274	-19.6667251576
168750000.0	-21.4278274177	-179.043792694	-11.3586324657	65.7729941555	-61.7048066834	139.57109027	-22.8065660505	-18.8984668834
169437500.0	-21.611922105	178.51011423	-11.3989503079	64.075285634	-61.2659087758	113.476993374	-22.8355525303	-18.0783952873
170125000.0	-21.8158720642	176.085249079	-11.4369815818	62.3908266582	-61.2867788896	84.4627445529	-22.8749836284	-17.3035979421
170812500.0	-22.0409797863	173.50342714	-11.4773676196	60.7533399633	-60.801583631	55.5328866576	-22.9226480826	-16.551001128
171500000.0	-22.2793513332	171.01947535	-11.5149647066	59.1491485536	-60.4388086571	21.8676300832	-22.9912786431	-15.8413148948
172187500.0	-22.5344213318	168.315005447	-11.5513343891	57.5824164394	-60.6437765941	-12.359311156	-23.0636441133	-15.0966607527
172875000.0	-22.8058524565	165.601235462	-11.5834540476	56.0094791859	-60.3293690926	-56.8738564994	-23.1385264868	-14.4661245153
173562500.0	-23.0755017271	162.548527765	-11.6164409405	54.4684308265	-60.3573228537	-103.718770835	-23.2370124348	-13.8591536257
174250000.0	-23.3628817357	159.56419779	-11.643942426	52.937979797	-59.9122610424	-147.657577756	-23.3262072276	-13.3615823265
174937500.0	-23.6478339108	156.089622575	-11.6740822734	51.4239182176	-59.8019860994	159.544660467	-23.4284029149	-12.8711428964
175625000.0	-23.9263441965	152.583180065	-11.6995018577	49.9266793772	-59.7920362514	117.772553382	-23.5243799886	-12.2473962604
176312500.0	-24.1991274421	148.756925596	-11.7271547113	48.46811328	-60.2669430493	74.5941445531	-23.638340761	-11.7593610653
177000000.0	-24.4430340289	144.865776792	-11.7530068615	47.0337699625	-60.6552987753	33.9280049471	-23.7648684608	-11.3919086636
177687500.0	-24.6771600496	140.720382538	-11.7765016562	45.5923968985	-61.2768975127	-4.14110746609	-23.9062548631	-10.9998102088
178375000.0	-24.8830715871	136.510230608	-11.798142413	44.1657214067	-61.3342715408	-42.4439977676	-24.0493880074	-10.6534951436
179062500.0	-25.0637676098	132.216092998	-11.8170808239	42.7460715422	-61.3534027018	-82.5196204207	-24.1895118125	-10.4600567569
179750000.0	-25.2132145062	127.672657587	-11.8367733176	41.370787308	-61.4227113801	-123.883699848	-24.3375945196	-10.2779082222
180437500.0	-25.3363161927	123.08670972	-11.8553049772	39.9724465844	-61.8890901105	-162.484260721	-24.4812474413	-10.201583251
181125000.0	-25.4391688537	118.314017596	-11.8715758558	38.5971484042	-61.8251631479	166.770625032	-24.6366391638	-10.0225491734
181812500.0	-25.5065358122	113.783409781	-11.8862899134	37.227629833	-61.9442709524	136.990712105	-24.8121248125	-9.96235794844
182500000.0	-25.5439948761	108.960942794	-11.8991366563	35.895058614	-62.0106645376	94.7189952828	-24.9669308906	-9.93820989109
183187500.0	-25.5483469694	104.314974916	-11.9105819246	34.5505702513	-61.9835153695	56.43325428	-25.1290236181	-9.95978507582
183875000.0	-25.5285618326	99.556561975	-11.9208596144	33.2234177773	-61.9364590465	26.0761644602	-25.2948465253	-9.99837034412
184562500.0	-25.4830239999	94.8304277215	-11.9311462295	31.8771799557	-61.9038019308	-3.35871443615	-25.4478689445	-10.0933321718
185250000.0	-25.4072354326	90.0963971625	-11.9411086829	30.5641149268	-61.3843969899	-28.5816436691	-25.6155046887	-10.2612309932
185937500.0	-25.3030941758	85.4290463119	-11.9505285592	29.2393725712	-61.1384322742	-56.0128785596	-25.7593996232	-10.3381233784
186625000.0	-25.1874364949	80.7909351034	-11.9602987504	27.9465113519	-61.3976228436	-73.1050884918	-25.9185092144	-10.5684488523
187312500.0	-25.0325838046	76.2564337422	-11.9651993237	26.6387577033	-61.2110838255	-98.4089410017	-26.0583297993	-10.6837990684
188000000.0	-24.8469169765	71.8530449502	-11.9702837134	25.3444995034	-61.3458129228	-111.069027885	-26.1930245404	-10.9853831232
188687500.0	-24.6393021023	67.4676633428	-11.9742966778	24.0471481706	-61.6178445852	-112.478074881	-26.337936682	-11.2170901517
189375000.0	-24.4114140473	63.3113064292	-11.9776021982	22.7610657611	-61.8951987441	-116.131421376	-26.4724064184	-11.7125799722
190062500.0	-24.1692465827	59.2221622981	-11.9820310391	21.4778321751	-62.1972662614	-115.565111676	-26.5884320093	-12.0332519271
190750000.0	-23.9113437468	55.4236107583	-11.9824639564	20.210821174	-62.1059819097	-122.662003354	-26.7193129718	-12.4068975331
191437500.0	-23.6294112225	51.6710198654	-11.9865318269	18.9402749996	-62.4690401104	-122.849645846	-26.841752051	-12.8025908132
192125000.0	-23.3494225451	48.4316608384	-11.9872984292	17.6872995799	-62.7986862401	-122.234681807	-26.9534431835	-13.234183026
192812500.0	-23.0645999378	45.1474550863	-11.9883098397	16.4327980332	-62.7485862048	-122.19542486	-27.0758033377	-13.7446243093
193500000.0	-22.782993119	42.2932826419	-11.9879649967	15.1629634583	-62.5113686859	-112.160669613	-27.1929461377	-14.3142433825
194187500.0	-22.5129610851	39.4669217353	-11.9886459604	13.9032978701	-62.5579309043	-108.158196245	-27.266845545	-14.7562166763
194875000.0	-22.259621095	36.9349664238	-11.9859092843	12.6621728894	-61.9687795192	-106.704014787	-27.3434131631	-15.3556882801
195562500.0	-22.0250519391	34.4154579674	-11.9856187894	11.4292643342	-62.4460353173	-92.4571485391	-27.4091052123	-16.0134213056
196250000.0	-21.8026260596	32.1003025034	-11.9858087936	10.202759344	-62.5534076825	-65.3949139126	-27.4809334437	-16.6281285495
196937500.0	-21.6017546897	29.9111894748	-11.9852238177	8.97790745221	-62.6270079574	-48.4948699394	-27.5143862467	-17.1939820455
197625000.0	-21.4298567982	27.8701644004	-11.9809938188	7.77541400991	-61.733476939	-25.5825570667	-27.55630786	-17.8410640622
198312500.0	-21.2658012298	25.8550206676	-11.977766204	6.57099146374	-61.6468768904	-4.38855152557	-27.5691499712	-18.7204331445
199000000.0	-21.1321938543	23.7717018048	-11.9718374674	5.36204535791	-61.7747300339	14.1085147512	-27.5540606102	-19.4435310833
199687500.0	-21.002879281	21.8226773131	-11.969878341	4.17008720243	-61.8896787424	43.701054074	-27.5712270121	-20.2961919972
200375000.0	-20.8995449937	19.8797422272	-11.9646169229	2.96338103107	-61.8453102958	74.3341945317	-27.5643180805	-21.1156435227
201062500.0	-20.8150600942	17.8814058903	-11.9612110541	1.75690190489	-61.8050480635	93.5752641575	-27.5503879667	-22.1263300169
201750000.0	-20.7357574409	15.9128882926	-11.9541957088	0.567504803602	-61.8583905073	111.323364493	-27.5189666453	-22.8908491903
202437500.0	-20.6768501058	14.0212576209	-11.9472941351	-0.626541490395	-61.8728318305	116.873366886	-27.48201229	-23.7903305333
203125000.0	-20.6208542571	12.0689540305	-11.935793678	-1.82711320376	-62.051232926	130.170085118	-27.439587085	-24.616467985
203812500.0	-20.5621397683	10.1422195011	-11.923898377	-3.01903278067	-61.8921950301	132.345560315	-27.3732388741	-25.482668442
204500000.0	-20.5385102856	8.15732328009	-11.9157594445	-4.19766914376	-62.0615723656	134.385966665	-27.2971224973	-26.4136651496
205187500.0	-20.5104872023	6.21176946655	-11.9068500082	-5.36816232646	-62.25078606	134.437927083	-27.237950716	-27.3041272749
