#Frequency	|S11|	<S11	|S21|	<S21	|S12|	<S12	|S22|	<S22
100000000.0	-18.6221545666	144.777456922	-19.5448724765	-120.780377303	-72.097339704	132.340036335	-20.1398211621	-63.3951114314
100687500.0	-18.5694255725	142.444315488	-19.0721189244	-121.885524969	-64.9373376258	-162.975795545	-20.3624096074	-63.4689741119
101375000.0	-18.5222297403	140.025390444	-18.6328366131	-123.184829749	-64.0335464663	-142.843986851	-20.4570731499	-62.9196613759
102062500.0	-18.4871352127	137.489730154	-18.2340865263	-124.415479815	-63.8968703362	-76.4625832533	-20.5633314127	-62.3197279431
102750000.0	-18.4657572045	134.877214217	-17.8660691161	-125.697186373	-63.80053063	-4.21470494032	-20.6789767595	-61.8204744921
103437500.0	-18.4432605648	132.229334668	-17.5136672797	-126.96076656	-64.6485080859	41.6454885917	-20.8060394027	-61.3505921473
104125000.0	-18.4324550056	129.420431834	-17.1802201619	-128.248107143	-64.555073169	22.795269279	-20.9486259337	-60.8799183077
104812500.0	-18.43558742	126.647879776	-16.8741979942	-129.565869908	-63.6977531498	-9.89305128777	-21.0857704761	-60.5602730926
105500000.0	-18.4347278904	123.706098829	-16.5939400278	-130.901221248	-63.4894970929	-34.984228619	-21.2228679451	-60.3568170237
106187500.0	-18.4457526094	120.64904648	-16.3389305054	-132.269694531	-63.1867848724	-58.3792302623	-21.3774677201	-60.1173843461
106875000.0	-18.4473663062	117.471938117	-16.1129164172	-133.586685411	-62.8383551445	-76.3199090174	-21.5336241926	-60.0624371536
107562500.0	-18.4631881831	114.187102161	-15.9174672379	-134.882439754	-63.0879740114	-83.2938081423	-21.7064883462	-59.9240367601
108250000.0	-18.4667852073	110.703856104	-15.7518699503	-136.135464657	-63.2545067727	-100.219444796	-21.8711316827	-59.91499761
108937500.0	-18.4679860947	107.461029699	-15.5316164289	-137.344180721	-62.6397864503	-112.916720551	-22.0235042805	-59.7416172112
109625000.0	-18.467481791	104.140791742	-15.3347699155	-138.528192742	-62.2068551322	-126.327114261	-22.1717503441	-59.5795417818
110312500.0	-18.4617478007	100.711811449	-15.1662363783	-139.66512269	-62.2668114009	-135.354976208	-22.326909253	-59.4316020308
111000000.0	-18.4655602944	97.1699783278	-15.021142574	-140.694340895	-61.919955042	-147.043469441	-22.4904884701	-59.2745791568
111687500.0	-18.4620670903	93.5412135951	-14.9066273069	-141.628116241	-61.8288272003	-163.609132417	-22.6636440228	-59.2945684524
112375000.0	-18.4637066383	89.7961029773	-14.8193192182	-142.405429553	-61.7144021512	-179.114272735	-22.8275099227	-59.3112293641
113062500.0	-18.4569745185	85.9915752137	-14.7608876644	-142.980579884	-61.5412387693	153.286843471	-22.9997084852	-59.3597545858
113750000.0	-18.4504537783	82.0925902845	-14.726496953	-143.279318786	-61.3037325729	115.861044386	-23.1680034308	-59.4057656722
114437500.0	-18.436420209	78.0947937915	-14.7050325883	-143.214074912	-61.1820284977	88.0020016309	-23.3486553823	-59.463503629
115125000.0	-18.4322159314	73.9314683067	-14.6835341785	-142.763474025	-60.9875830704	60.7201146222	-23.5182816916	-59.5652598665
115812500.0	-18.4126090913	69.6678991127	-14.6516637041	-141.883516976	-60.8769520485	37.6120912339	-23.6952942477	-59.5938291977
116500000.0	-18.4018880954	65.2846470041	-14.5818281978	-140.653684953	-60.5291135405	27.1648223928	-23.8626088883	-59.7526104402
117187500.0	-18.3823719004	60.8602055852	-14.4714261353	-139.122123817	-60.2801038859	15.3088211092	-24.0393708957	-59.8946008499
117875000.0	-18.3717211133	56.2545211628	-14.3015424876	-137.384506142	-60.4095494151	2.37423274709	-24.2200653477	-59.9160933141
118562500.0	-18.3594659466	51.5542596614	-14.082004804	-135.503972179	-60.3248761904	-10.1074623459	-24.3902957935	-59.9916953666
119250000.0	-18.356738091	46.7588928993	-13.8009681407	-133.570623108	-60.2152002009	-20.2181789798	-24.560177948	-59.8992227409
119937500.0	-18.3610576398	41.8351954499	-13.4714238415	-131.609642333	-60.2504563054	-35.9048292251	-24.718278769	-59.9201594474
120625000.0	-18.372464692	36.789262609	-13.0874121504	-129.688777143	-60.3319228671	-39.4656840702	-24.8829949304	-59.9435086383
121312500.0	-18.4035941595	31.6410481746	-12.6588368361	-127.820742086	-59.9901340786	-47.7406519822	-25.0242157143	-59.9678492885
122000000.0	-18.4569737456	26.3954227244	-12.1783022306	-126.07404148	-60.132532135	-58.2205270058	-25.1809716468	-59.9287049173
122687500.0	-18.5308933075	20.9932009018	-11.6609921282	-124.46016176	-59.8191025497	-67.1608596006	-25.3188563714	-59.8119001554
123375000.0	-18.6272735281	15.5106010932	-11.0977439553	-122.989904392	-59.7328548297	-78.2133537699	-25.4422356397	-59.6720724542
124062500.0	-18.783975228	9.88756451371	-10.502423163	-121.6764858	-59.1856577267	-91.9487011216	-25.5587843252	-59.5565735824
124750000.0	-18.9815893091	4.30696897102	-9.86855774558	-120.55630867	-58.9380433782	-106.528729658	-25.6782823403	-59.4542126907
125437500.0	-19.2423110033	-1.42989939877	-9.20834128487	-119.614728715	-58.768898197	-107.626124163	-25.7785388736	-59.1552424299
126125000.0	-19.5646833143	-7.06110142463	-8.50971917862	-118.90668521	-58.8263799083	-103.246051651	-25.8734559086	-58.9773205845
126812500.0	-19.9913792982	-12.7168297989	-7.7846129297	-118.390210158	-59.3488297217	-103.928547409	-25.9598416143	-58.6580007102
127500000.0	-20.5113056259	-17.8105744251	-7.02702133495	-118.147823644	-59.1726265819	-106.375764074	-26.0176984634	-58.5452026424
128187500.0	-21.1634270117	-22.6279568087	-6.24651744505	-118.147709506	-59.3733427089	-105.847615649	-26.0685748343	-58.3113811376
128875000.0	-21.8660744223	-26.1008139446	-5.43364451555	-118.44421946	-59.1708745658	-104.621368179	-26.095155346	-58.0479704366
129562500.0	-22.5221711638	-28.7695643933	-4.5968256372	-119.04971646	-59.2036513263	-107.749736515	-26.1245268797	-57.7764744436
130250000.0	-23.1047095308	-30.6100140814	-3.73090524163	-120.038861877	-59.2525755068	-106.118233579	-26.1465652709	-57.6029492162
130937500.0	-23.6354564912	-32.1981226157	-2.84773134946	-121.451257698	-59.3356026515	-100.698495206	-26.1485656164	-57.3761526607
131625000.0	-24.1008151206	-33.4495510927	-1.95176979488	-123.370725205	-59.1742930874	-100.892025069	-26.1290157276	-57.2452461338
132312500.0	-24.5202564136	-34.7473634295	-1.0649447555	-125.822245494	-59.1575303707	-109.7016052	-26.1120964608	-57.0751929107
133000000.0	-24.8935888415	-35.9299402404	-0.194657988528	-128.850737745	-58.6547310604	-113.236405231	-26.074068491	-57.0536469951
133687500.0	-25.2332704089	-37.0962411467	0.628668838445	-132.354176717	-58.7348164564	-127.352694309	-26.034177659	-56.9482168393
134375000.0	-25.5415132156	-38.3160958829	1.4061515688	-136.292565628	-58.6621606148	-128.506689822	-25.9612752155	-56.9285872889
135062500.0	-25.824862514	-39.5534853688	2.11943977381	-140.54576505	-58.9555133316	-125.642501205	-25.8862737018	-57.0667775141
135750000.0	-26.0774115479	-40.7907593133	2.77421790529	-145.045750825	-58.8851776365	-127.720864221	-25.7988743493	-57.1628903175
136437500.0	-26.3052854899	-42.0377749394	3.36337739679	-149.717161354	-58.7154543603	-127.310969291	-25.7101717546	-57.4447679548
137125000.0	-26.5219727757	-43.3617568816	3.89619296334	-154.510533737	-58.846504765	-125.389234795	-25.6205385178	-57.6037091732
137812500.0	-26.6881182272	-44.6059267933	4.37039563276	-159.358320936	-58.8433159407	-132.779458001	-25.5138950846	-57.8071165785
138500000.0	-26.8377216808	-45.8563184726	4.79267442456	-164.228360929	-59.2064879109	-136.984716206	-25.3981118995	-58.08260795
139187500.0	-26.948172969	-47.0189195654	5.16295999427	-169.091998085	-58.8953625738	-139.008845462	-25.2770222847	-58.393357096
139875000.0	-27.0272340947	-48.2906372138	5.48839825784	-173.911996808	-59.400773028	-139.650718322	-25.1586406093	-58.770147045
140562500.0	-27.0604973273	-49.4323918264	5.76993594524	-178.67476684	-59.3344636162	-141.631897628	-25.0381000653	-59.2838121043
141250000.0	-27.0299955115	-50.5146052754	6.01346956037	176.642020486	-59.9328512025	-146.81095403	-24.9104023347	-59.7067571107
141937500.0	-26.9431341402	-51.5785294611	6.21980892325	172.059521172	-59.7841400203	-145.853793991	-24.7796835163	-60.173009598
142625000.0	-26.7925632538	-52.5602272815	6.3964587393	167.573764713	-59.8882052231	-152.253986972	-24.6448601589	-60.6839875642
143312500.0	-26.5574634466	-53.616922726	6.54203803847	163.201299317	-59.557249584	-156.173421777	-24.5155023257	-61.2021475628
144000000.0	-26.2259843909	-54.7387673223	6.66478243245	158.941377359	-58.9758166186	-164.840554847	-24.3787913289	-61.784184751
144687500.0	-25.7917270496	-56.3120977836	6.76358364621	154.811976849	-58.9297535179	-168.145540664	-24.2655620818	-62.2915815886
145375000.0	-25.2162263115	-58.1389021012	6.84370632357	150.790026438	-58.8858460983	-176.702315904	-24.1396465102	-62.8246122084
146062500.0	-24.5898973469	-61.2578735214	6.90368870889	146.896713334	-59.1264455437	-178.708266504	-24.0346511961	-63.2976917328
146750000.0	-24.0012906925	-65.1252554997	6.95055732032	143.109504656	-58.9050038547	174.4094376	-23.9233888432	-63.7299559821
147437500.0	-23.4962248978	-69.7608731836	6.98126887642	139.447942958	-59.1141787872	172.760335382	-23.8009031492	-64.0996374285
148125000.0	-23.0331642211	-74.5772824725	7.00510007539	135.89103446	-58.9292578974	169.790263699	-23.6891651123	-64.4756014485
148812500.0	-22.6503824882	-79.7268660215	7.01374808925	132.436209004	-59.0658848769	167.553981828	-23.5826061541	-64.787033763
149500000.0	-22.2971417667	-84.6106954031	7.01807801173	129.08666003	-58.7710635442	166.615904285	-23.4840701807	-65.078238596
150187500.0	-22.0052587176	-89.5836901516	7.0115753554	125.840962924	-58.973073607	165.630292966	-23.3942268648	-65.2469729489
150875000.0	-21.7305511537	-94.3735925685	7.00281331441	122.683634957	-58.7342472365	166.155146818	-23.3102642197	-65.3833262835
151562500.0	-21.5011662363	-99.1042240959	6.98593818892	119.624565526	-58.7275341649	154.98949099	-23.2344550558	-65.4126432855
152250000.0	-21.2761824567	-103.625374319	6.96581448832	116.64153755	-58.2731369964	151.260906693	-23.1596542108	-65.3905365357
152937500.0	-21.0953605274	-108.029107439	6.93662789061	113.749738764	-58.3592715189	147.496843785	-23.0943486081	-65.2768107638
153625000.0	-20.9242437119	-112.283479105	6.91021145435	110.930796385	-58.3739612823	144.772971803	-23.0384243103	-65.1682308469
154312500.0	-20.7636492761	-116.345665489	6.87572328988	108.188264996	-58.4292559529	140.315723449	-22.9739267112	-65.0091432397
155000000.0	-20.6405674098	-120.275159121	6.84255315798	105.506986371	-58.1235932763	142.181461018	-22.9310306741	-64.7807049268
155687500.0	-20.5178196992	-124.077251814	6.80516338239	102.903017324	-57.896854332	138.480363679	-22.9044408036	-64.4567563761
156375000.0	-20.4206849995	-127.778088621	6.76670572649	100.354197747	-58.0405133962	138.385647249	-22.8702191309	-64.1375888153
157062500.0	-20.3317152546	-131.204797702	6.72476640401	97.8726863842	-57.6051104028	131.867913025	-22.847470884	-63.6536600811
157750000.0	-20.2647291535	-134.603733852	6.68422315326	95.442583415	-57.6152547096	129.78557078	-22.8278930469	-63.1640684788
158437500.0	-20.2050512694	-137.855517143	6.64015726075	93.070606793	-57.0856460769	125.730630987	-22.8206217552	-62.6393649661
159125000.0	-20.1710118324	-141.073737135	6.59791779459	90.7626477328	-57.1731150568	125.060001363	-22.8218926351	-62.1081472043
159812500.0	-20.1393789212	-144.093705977	6.55314035661	88.5041442473	-56.8710372414	122.20077619	-22.8279578471	-61.4737160835
160500000.0	-20.140355137	-147.070886622	6.50991525374	86.296910143	-57.3110758269	117.617277428	-22.8484425532	-60.9510419587
161187500.0	-20.1374659646	-149.864323643	6.46328647157	84.1290371265	-57.4631712702	117.163306376	-22.8754476461	-60.3108387065
161875000.0	-20.1603035522	-152.580819121	6.41852207559	82.0014233294	-57.6278808045	108.171196315	-22.9141873857	-59.692361816
162562500.0	-20.1979372284	-155.221915194	6.37274707273	79.9310855238	-57.328107186	105.916325896	-22.9535024633	-59.1394007897
163250000.0	-20.2510576782	-157.865396126	6.32977008271	77.8814501964	-57.4699597083	105.128744213	-23.0256190004	-58.5276492345
163937500.0	-20.3111555804	-160.324007342	6.28402867486	75.8773672453	-57.5363268096	105.990179464	-23.0835588065	-57.9053841006
164625000.0	-20.3858293341	-162.82852909	6.24158938694	73.9077517507	-57.3295898912	98.9838109493	-23.1689750345	-57.2999707166
165312500.0	-20.4811836733	-165.210888307	6.19576262949	71.9786284031	-57.2817553144	96.6670012731	-23.2591766073	-56.7223760257
166000000.0	-20.59179229	-167.509303948	6.15418075146	70.0864147752	-57.2303880306	87.5029516047	-23.3631083566	-56.1012846617
166687500.0	-20.7234319806	-169.830027027	6.10976225554	68.2268222075	-57.2320509794	73.4995897808	-23.4681644334	-55.4654212048
167375000.0	-20.8619462787	-172.002536153	6.06839980165	66.3935529895	-57.0774118286	51.831647898	-23.5922689475	-54.9427321464
168062500.0	-21.0278199766	-174.279182124	6.02600984084	64.6031133003	-57.0463480779	36.7637977313	-23.7065203588	-54.459519855
168750000.0	-21.204732064	-176.451902753	5.98509404719	62.8364325506	-58.180804704	26.8755651268	-23.8417950964	-54.0793445655
169437500.0	-21.4047454611	-178.807823573	5.94421031625	61.0976771005	-58.2440096942	13.3086100309	-23.9957115289	-53.7465568628
170125000.0	-21.6083615944	178.95382689	5.908726123	59.3696279555	-57.9202958238	-3.63138956666	-24.1513259714	-53.4929278933
170812500.0	-21.8398949412	176.55506532	5.86814393135	57.6784730287	-58.2189043416	-16.5696389158	-24.3177934572	-53.1283662187
171500000.0	-22.0808267251	174.234598565	5.83354093693	56.021319105	-57.8136357586	-34.4024200395	-24.4901990528	-52.9410316889
172187500.0	-22.3602598289	171.682000948	5.79760019698	54.3953800281	-58.2626901932	-51.7201810008	-24.6682781387	-52.8306347014
172875000.0	-22.6450513729	169.153714353	5.76369290407	52.7758284484	-58.409958473	-68.3400833154	-24.8486145563	-52.7622459638
173562500.0	-22.9657825354	166.267077192	5.73023742955	51.1897799509	-58.7127071601	-85.4405684346	-25.0505227526	-52.8266226324
174250000.0	-23.2772336206	163.466764155	5.70090970014	49.6189863403	-59.1227463921	-101.83852907	-25.2369503766	-52.8793068252
174937500.0	-23.6043856584	160.305155793	5.67098231568	48.0675381548	-59.2196606377	-116.991891151	-25.4418170364	-53.0592061011
175625000.0	-23.9108358454	156.965469299	5.64452767633	46.5272248342	-59.0834397018	-131.224421226	-25.645253193	-53.1889225883
176312500.0	-24.2233980876	153.3897861	5.61660956236	45.0105114898	-59.3787508325	-144.873089282	-25.8550943813	-53.5589436171
177000000.0	-24.5170664986	149.561638885	5.59258722287	43.5040439004	-59.3797177512	-160.392147023	-26.0667533908	-54.0343778983
177687500.0	-24.7787050356	145.493710884	5.56674890047	42.0088936701	-59.4718706798	-176.574028084	-26.2903710098	-54.5554734999
178375000.0	-25.0556494526	141.355590212	5.54590191314	40.5288144591	-59.3752585011	170.793621285	-26.5014679234	-55.0659568808
179062500.0	-25.2784623855	137.094361042	5.52362898494	39.0762382195	-59.3815052453	162.598017818	-26.7205218565	-55.8421906398
179750000.0	-25.4876449765	132.532107647	5.50464141217	37.6229905974	-59.367910476	147.987653076	-26.9336082415	-56.428415981
180437500.0	-25.6586793371	127.960800138	5.48247957863	36.1881879399	-59.2412999231	126.641395584	-27.1172080822	-57.2469364528
181125000.0	-25.8104473064	123.104457184	5.46500497791	34.765381592	-59.2856437714	110.515140733	-27.3152180542	-58.065345133
181812500.0	-25.9168296602	118.468749532	5.44573253832	33.3527143663	-59.1510514488	93.4660436052	-27.4984067284	-58.9103534761
182500000.0	-26.0150463033	113.588845335	5.43039146613	31.9481370886	-59.0757785573	76.3171092746	-27.6975773123	-59.8930634017
183187500.0	-26.0475838982	108.789269658	5.41372259461	30.5537061067	-59.1821665066	66.0435056315	-27.8776938634	-60.847024727
183875000.0	-26.0732505797	103.939365191	5.4006108234	29.1611217931	-59.379856952	65.5504272966	-28.0525436858	-62.0027273329
184562500.0	-26.0697831129	99.0721364679	5.38578044662	27.790540921	-59.3611820703	64.7077421446	-28.1855935405	-62.9783186682
185250000.0	-26.0441822226	94.1579735059	5.3736379888	26.4211298063	-59.5971515037	65.5773887431	-28.3344652945	-64.0523940187
185937500.0	-25.968555174	89.3022157888	5.36015164948	25.068405732	-58.3820172798	63.1785799031	-28.4637818825	-65.050766372
186625000.0	-25.886915135	84.6604354092	5.3509717787	23.7246380229	-58.5183916711	57.886468504	-28.5993964351	-66.2071983606
187312500.0	-25.76751108	79.848602423	5.33923376072	22.3934588318	-59.045704006	54.5168823577	-28.7111985244	-67.1589486954
188000000.0	-25.626965893	75.2620171794	5.331897136	21.0559872117	-59.0479139248	41.5289817749	-28.8150032981	-68.2642730932
188687500.0	-25.4693788619	70.6474410391	5.32136845788	19.7353943106	-58.8252723187	27.0148528392	-28.8866530451	-69.289460188
189375000.0	-25.261718592	66.2714890325	5.31306976619	18.4121814874	-58.9687721446	11.2809530466	-28.9613294293	-70.4580963163
190062500.0	-25.0489227037	61.8806473779	5.30525597521	17.1017000657	-58.541349988	-3.33520147108	-29.0134977385	-71.4362333497
190750000.0	-24.7859995066	57.8781547797	5.30071702791	15.803201158	-58.6591309153	-14.7001826136	-29.0621683751	-72.5443230151
191437500.0	-24.5310824914	53.8170767948	5.2928903184	14.5104682636	-57.9460679856	-28.4261726622	-29.0971205077	-73.5729041632
192125000.0	-24.2485666773	50.1798570661	5.28792960893	13.2291143311	-57.8491030755	-47.5141289913	-29.1162721225	-74.5065400386
192812500.0	-23.9865715495	46.6481642213	5.28262277511	11.9674243569	-57.8199367343	-60.7904982472	-29.12120781	-75.6772517135
193500000.0	-23.7005987015	43.5163896435	5.27974830226	10.6861476371	-57.4312793559	-81.0955227574	-29.1267096007	-76.6021850225
194187500.0	-23.4362033317	40.5038031883	5.27442543652	9.42446582739	-57.4576845791	-94.0072822505	-29.0974690729	-77.4916283307
194875000.0	-23.1919950011	37.8570510715	5.27304653383	8.16319888138	-57.2959485694	-109.939105572	-29.0568026321	-78.1861384314
195562500.0	-22.9306953898	35.1567144346	5.27067406265	6.91686201429	-57.2165382438	-127.083066821	-29.0197021799	-79.0792999633
196250000.0	-22.7077494491	32.6366308613	5.26960394595	5.66805298339	-57.4684038779	-145.737492291	-28.9518707661	-79.698243127
196937500.0	-22.494250779	30.3288446243	5.26726486682	4.42895950591	-57.7636748112	-159.804617519	-28.9052668266	-80.3976624918
197625000.0	-22.3065316569	28.1455914814	5.2700785986	3.20286652232	-57.4844128301	-172.985938653	-28.8285766732	-80.9045031268
198312500.0	-22.1412999916	26.0843918029	5.27101330474	1.98579247796	-58.2246966534	171.9909863	-28.729674717	-81.5499167779
199000000.0	-22.0114510634	23.9324165539	5.27519024858	0.758560241052	-57.9870394485	159.779027865	-28.6122855077	-82.0493169424
199687500.0	-21.8688011295	21.8887261839	5.27747193045	-0.447080417652	-58.2004842535	152.014031305	-28.49918418	-82.5877332084
200375000.0	-21.7719388175	19.8361140125	5.28234304385	-1.66324136604	-58.0233147924	137.388140834	-28.3690926147	-83.0913971631
201062500.0	-21.6713371487	17.8264960175	5.28611816553	-2.86015129058	-58.1995619408	123.338348799	-28.2525103	-83.5545527014
201750000.0	-21.5873533853	15.6897368744	5.29323736305	-4.07187776502	-58.4077895491	109.266063649	-28.1210438803	-83.9037736772
202437500.0	-21.5068209452	13.7602919431	5.29851851952	-5.26979040116	-58.3811420091	84.5148389203	-27.9932642552	-84.370713808
203125000.0	-21.4525092257	11.7141493118	5.30894075928	-6.48025254369	-58.4817902846	57.2087614542	-27.8480917321	-84.6021244503
203812500.0	-21.3856217839	9.63702351656	5.31492789475	-7.67660900428	-58.5217798719	28.7664589662	-27.6867558502	-84.7777132054
204500000.0	-21.3628915898	7.58796354326	5.32496059086	-8.87910915493	-58.1108478366	2.87528791091	-27.5297123898	-84.8769161457
205187500.0	-21.3305700395	5.56286541394	5.33241607023	-10.0539838559	-58.1207520738	-20.413628436	-27.3851068605	-85.0601976526
