#Frequency	|S11|	<S11	|S21|	<S21	|S12|	<S12	|S22|	<S22
100000000.0	-17.6894702201	145.406493958	-42.2065129852	-128.99118593	-60.2884767018	-6.57994471531	-20.0340377887	-28.9864510589
100687500.0	-17.6339454752	142.309206154	-42.6852869059	-126.220830082	-63.2478136132	-75.2457089554	-20.0598412245	-28.7068100367
101375000.0	-17.6194801083	138.99918625	-42.4048528218	-125.789376292	-61.7184012159	-48.6530174837	-20.0914404411	-28.2323197944
102062500.0	-17.6003773114	135.768980403	-42.1975883079	-125.640655014	-60.2379742869	-117.075164095	-20.1252048125	-27.5689321802
102750000.0	-17.5699273914	132.559044648	-41.8408276491	-126.93482823	-61.5553999804	-155.643726877	-20.1512866128	-26.8169727736
103437500.0	-17.5441379536	129.402859023	-41.6869279598	-127.542136101	-60.876383579	-178.696485015	-20.2023976583	-26.1094712398
104125000.0	-17.5336054319	126.138673268	-41.3821569014	-128.712725125	-60.7405220332	-163.281562897	-20.2739473474	-25.3661223745
104812500.0	-17.5235653251	122.941106636	-41.0669585618	-129.570048374	-60.0385032587	-147.151513614	-20.3411861019	-24.7580782575
105500000.0	-17.5202902898	119.683403655	-40.7753900436	-130.873533938	-60.4131182124	-153.741371119	-20.4084263512	-24.2698495714
106187500.0	-17.5141233859	116.355094359	-40.5471993782	-132.145883058	-60.5218558158	-158.405931874	-20.4905070426	-23.7525107724
106875000.0	-17.5202139543	112.964805189	-40.3391534535	-133.216601458	-60.519336476	-155.624463347	-20.5783934941	-23.3078328792
107562500.0	-17.5407900875	109.495390524	-40.1820021286	-134.21256796	-60.3824239667	-139.149664755	-20.6772886523	-22.8433867228
108250000.0	-17.5627995046	105.865666508	-40.0411198632	-135.229777664	-60.7170621204	-98.033646452	-20.7856370515	-22.474645092
108937500.0	-17.5747463077	102.313661742	-39.8759151677	-136.215694633	-61.0732108286	-83.9606273787	-20.8635769762	-21.9738034506
109625000.0	-17.5863384319	98.7297049482	-39.6863589867	-137.16482118	-60.6315347105	-56.3893264968	-20.9530909222	-21.5508207713
110312500.0	-17.6049575933	95.0291960172	-39.5867640448	-137.961405102	-60.572133507	-40.4779920632	-21.044263088	-21.0955457783
111000000.0	-17.6309265137	91.2777532557	-39.4949278983	-138.942015608	-60.9602184736	-25.7092091922	-21.1374453387	-20.6639048103
111687500.0	-17.6608971607	87.4388972037	-39.3852120451	-139.691093965	-60.6108121845	-9.59627150486	-21.2382832269	-20.345894217
112375000.0	-17.6971281926	83.540963111	-39.2795964636	-140.076985063	-60.8921509809	6.73253266416	-21.3430240258	-20.0328090509
113062500.0	-17.7298077861	79.5366417308	-39.2752649498	-140.308223844	-61.2834217804	25.1780110332	-21.4553611754	-19.8116891145
113750000.0	-17.7753175918	75.4294276895	-39.2689364764	-139.883432937	-61.4273317834	42.8185541831	-21.5746274996	-19.6038285247
114437500.0	-17.8209413153	71.2449619067	-39.2432053691	-139.018526923	-61.3533749572	71.8505026535	-21.7022356017	-19.4599668231
115125000.0	-17.8776599757	66.8510851147	-39.1637508815	-137.918876607	-61.3018373379	92.0856551213	-21.8222351918	-19.2625148943
115812500.0	-17.9227697041	62.3624179557	-39.0198724748	-136.398486259	-61.2125512118	117.102763387	-21.9420428781	-19.1440596433
116500000.0	-17.9862698772	57.6928330977	-38.8341161351	-134.469166905	-61.253135603	130.616303735	-22.063520871	-19.1003494359
117187500.0	-18.0431480063	52.975211486	-38.6547245468	-132.57481803	-61.3258127865	135.340561923	-22.1868018267	-19.1019032168
117875000.0	-18.1283124197	48.0231304059	-38.4089088689	-130.552493386	-61.2416849014	150.329770893	-22.3142662766	-19.0617579606
118562500.0	-18.2100529341	42.9798210811	-38.0945898084	-128.66543204	-61.5234129676	166.986988521	-22.4503463856	-19.0437489336
119250000.0	-18.3094393368	37.7124403726	-37.7484419732	-126.674579066	-61.4379369941	-176.209436367	-22.5789873896	-19.0033257536
119937500.0	-18.4219313245	32.331016001	-37.3113759124	-124.614507202	-61.6285058128	-147.502922061	-22.7005638603	-19.0278882725
120625000.0	-18.5544868665	26.7166556175	-36.8677229129	-122.680802367	-61.6354105281	-128.930479877	-22.8316720683	-19.0916476491
121312500.0	-18.7160121589	21.0053382538	-36.3243132662	-120.979632132	-61.5277979408	-112.162693893	-22.9590915924	-19.2300184227
122000000.0	-18.8986276026	15.0517404663	-35.8008910242	-119.323043667	-61.7667331788	-96.724167409	-23.0985263441	-19.3621227389
122687500.0	-19.1342250247	8.94446762665	-35.175285508	-118.086981584	-61.4810436468	-73.2240821	-23.2249667094	-19.5459670456
123375000.0	-19.397950205	2.67999445161	-34.5364955333	-116.888878215	-61.3252235306	-56.2203447481	-23.3529733065	-19.7938683027
124062500.0	-19.7308429571	-3.8448012816	-33.86168778	-116.042588858	-61.1813296088	-40.6851568302	-23.4762344646	-19.9701098326
124750000.0	-20.1260904412	-10.3207347172	-33.1780111001	-115.1891551	-61.1692612729	-38.7011643382	-23.6008392701	-20.2011414267
125437500.0	-20.6171709524	-16.942113875	-32.4315827644	-114.785873072	-60.9769200976	-37.877670781	-23.7121859093	-20.4266709861
126125000.0	-21.2273618455	-23.317953243	-31.693616209	-114.279952742	-60.5941765068	-37.0416551561	-23.8485289455	-20.821678875
126812500.0	-22.0203657649	-29.4048398658	-30.8993453676	-114.407151115	-60.7038048385	-36.1961615642	-23.9509921197	-21.0613266969
127500000.0	-22.8572445179	-33.3847944767	-30.0795161417	-114.542709401	-60.5188719591	-34.5199111036	-24.0637383216	-21.4915229797
128187500.0	-23.6673162536	-36.5055961978	-29.2238344087	-115.049147203	-60.3003936625	-31.460078551	-24.162626525	-21.8171184387
128875000.0	-24.2967373615	-38.6189820675	-28.3981748709	-115.687215826	-60.5996312419	-29.0152007062	-24.2637127737	-22.1984830886
129562500.0	-24.8409869491	-40.7512837618	-27.5042943604	-117.337203385	-60.5812036812	-27.0146681298	-24.348231136	-22.5114187274
130250000.0	-25.2965371183	-42.7255170598	-26.6146707767	-118.855548516	-60.2013133739	-14.5784940146	-24.4429492965	-22.8465136894
130937500.0	-25.6941831244	-44.8357354048	-25.6823980612	-121.400737644	-60.0814707731	-13.3695529699	-24.5079368869	-23.1577454159
131625000.0	-26.0450047057	-46.7637160563	-24.8126140775	-124.220008423	-59.7186532377	-12.9622271487	-24.5779521569	-23.6406178428
132312500.0	-26.3551474913	-48.8169051574	-23.9400839564	-127.958528925	-59.9440537082	-4.74475234342	-24.6353190731	-24.0815583258
133000000.0	-26.627940507	-50.7382069254	-23.1595276568	-131.768636062	-60.1480742031	-1.20604999169	-24.694498828	-24.5985888276
133687500.0	-26.8602977125	-52.7446564162	-22.4130654477	-136.260546383	-60.2420507602	4.66444948353	-24.740631593	-24.9997688656
134375000.0	-27.0722298771	-54.6812295799	-21.7500628238	-140.807230402	-60.9185062306	19.5857613783	-24.7765068069	-25.5175722143
135062500.0	-27.2343572205	-56.6969396474	-21.1262448187	-145.649060875	-60.981764292	33.622683434	-24.8052500159	-26.004852215
135750000.0	-27.3871904995	-58.5768352288	-20.5862413377	-150.559458138	-60.7419318655	35.3895865298	-24.8110774232	-26.619237761
136437500.0	-27.499988824	-60.3700261133	-20.1011042832	-155.581380466	-60.6797088065	50.1820547401	-24.8247122713	-27.2540845851
137125000.0	-27.6008156679	-62.1712829726	-19.6827902156	-160.610811882	-60.5167056489	53.8024416311	-24.8353474291	-27.8187696679
137812500.0	-27.6501949322	-63.7591726535	-19.3087432812	-165.658778858	-60.4798663505	67.6172104136	-24.8207013644	-28.4162128364
138500000.0	-27.6738087438	-65.3106075372	-18.9829125453	-170.636299435	-60.4722906464	94.4758223232	-24.7938241887	-29.022435426
139187500.0	-27.6503012267	-66.6621284734	-18.7078873694	-175.555172147	-60.4343729928	110.537821867	-24.7577630156	-29.5725566686
139875000.0	-27.5799249026	-68.0234545533	-18.4690604491	179.602257952	-60.5763807365	115.451961499	-24.7148393939	-30.1004778308
140562500.0	-27.4617386398	-69.1836191098	-18.2756875291	174.932553557	-60.7138443658	129.771644443	-24.6741960297	-30.6904388953
141250000.0	-27.2768153937	-70.2095662454	-18.1122395825	170.337260187	-60.8616009344	144.618015858	-24.6009360495	-31.270511767
141937500.0	-27.0169192379	-71.1500615069	-17.9904976216	165.91915119	-60.6340202728	161.008973077	-24.5297696202	-31.837811251
142625000.0	-26.6617285021	-72.0244501023	-17.882647468	161.547477182	-61.373783376	166.432567177	-24.4431938569	-32.3123848436
143312500.0	-26.1704024388	-73.0632799302	-17.8137049615	157.416737369	-62.0183966133	169.151476841	-24.3487504416	-32.767791883
144000000.0	-25.5007259905	-74.4205628755	-17.7469298672	153.358847017	-62.0448636901	158.842695388	-24.2565075184	-33.2446152341
144687500.0	-24.7809895902	-77.8442898296	-17.7087367848	149.486963209	-62.4198433571	154.542257799	-24.1573393841	-33.6609607325
145375000.0	-24.0855767591	-82.1159464056	-17.6778914708	145.718469275	-62.1435056554	141.198387818	-24.0486059302	-34.1254255095
146062500.0	-23.5606548229	-87.3065970513	-17.6670809531	142.109087838	-62.2638500107	130.429920806	-23.941340495	-34.4287346951
146750000.0	-23.1134996226	-92.4379877478	-17.6650586731	138.602067135	-62.2879838367	130.410268196	-23.8349496596	-34.7621422225
147437500.0	-22.7644978647	-97.6738489361	-17.6715735962	135.270502228	-62.5901720848	120.126624932	-23.6969872639	-35.0971026025
148125000.0	-22.4636179025	-102.692398304	-17.6887524336	131.996734218	-62.9475824322	118.213141263	-23.5779265208	-35.3435276448
148812500.0	-22.2165229183	-107.912686986	-17.7107710747	128.83201121	-62.754816635	104.965556098	-23.4337236846	-35.4654505626
149500000.0	-21.997974768	-112.747693156	-17.7360544283	125.798031845	-62.7088092715	82.2035531021	-23.3134283453	-35.5568361832
150187500.0	-21.8288751087	-117.748307168	-17.7684415326	122.82690839	-62.7965755943	53.3389119566	-23.1712775731	-35.5479348397
150875000.0	-21.6854384836	-122.400694963	-17.8013628841	119.967784882	-62.9069760988	22.8273117803	-23.0333688885	-35.5150076939
151562500.0	-21.5663856651	-127.205731732	-17.8317424524	117.186168628	-62.5089866018	-7.67161788643	-22.892596124	-35.3463498311
152250000.0	-21.4764649314	-131.625526378	-17.8704385994	114.495206314	-62.99497555	-50.3104238577	-22.7640851956	-35.1722640673
152937500.0	-21.3946421534	-136.152539158	-17.9077746826	111.829460799	-63.0166544559	-93.6210285866	-22.6279375495	-34.8702008921
153625000.0	-21.3440432886	-140.550899763	-17.948710049	109.291526107	-63.1268948302	-149.804870804	-22.5067828676	-34.4843177211
154312500.0	-21.2855666082	-144.895886376	-17.985619353	106.799029669	-62.99466648	163.243699961	-22.363553448	-34.0949089626
155000000.0	-21.2635692344	-149.189670815	-18.0322252414	104.395438244	-62.8636596649	105.976017367	-22.2417822826	-33.6222551268
155687500.0	-21.2332129217	-153.435727956	-18.0726539811	102.032314232	-62.9526974628	35.6792365179	-22.1180674989	-33.0269944545
156375000.0	-21.2363973115	-157.626814678	-18.1169648739	99.7341820818	-63.1484078474	-31.9536087567	-21.9954995898	-32.4909943033
157062500.0	-21.2196383026	-161.646712923	-18.1563555447	97.4773420683	-63.0334461773	-92.5763648849	-21.871750941	-31.8217145261
157750000.0	-21.2272677687	-165.696417228	-18.2013255146	95.2707576756	-63.0189859037	-166.853401051	-21.7463211071	-31.1078237438
158437500.0	-21.2146877341	-169.592163697	-18.2434839938	93.0577640918	-63.089949783	120.277954895	-21.6435822388	-30.3320213491
159125000.0	-21.2274160655	-173.560744276	-18.287926446	90.9412823201	-63.330137222	47.7871736846	-21.5493075961	-29.5327419154
159812500.0	-21.2283516281	-177.379258825	-18.3319030698	88.8873096267	-62.5280117724	-23.647749218	-21.456140813	-28.6974450772
160500000.0	-21.2454897977	178.746081857	-18.3729870131	86.8395143365	-62.157212215	-82.378314655	-21.3668359957	-27.8592142671
161187500.0	-21.2534552946	175.029595725	-18.4188548366	84.8776933038	-62.0366402468	-140.622166398	-21.2796865729	-26.9856564088
161875000.0	-21.269998263	171.307443475	-18.462249784	82.9527339666	-62.1576966496	166.983259017	-21.207564905	-26.0132764306
162562500.0	-21.2811221295	167.692744129	-18.5059810441	81.0274494509	-62.2326522113	113.08966523	-21.1402809221	-25.0079818896
163250000.0	-21.2890111527	164.022411242	-18.5443542652	79.1377902183	-62.2825739904	69.1798657824	-21.0791654399	-24.0103513878
163937500.0	-21.3080478298	160.448482702	-18.5894542853	77.3129827436	-62.43602707	26.2091088908	-21.021681292	-22.9869557404
164625000.0	-21.3147577608	156.906271448	-18.6261457181	75.4537923105	-62.0913127039	-19.0940562617	-20.9828843192	-21.9383649445
165312500.0	-21.3276735306	153.409584047	-18.6669265794	73.7135221848	-61.6036401702	-70.8960368712	-20.9453654527	-20.919968635
166000000.0	-21.3343589151	150.056418692	-18.706981344	71.929891873	-61.7039472045	-109.165940635	-20.9198611327	-19.8775514588
166687500.0	-21.3475415178	146.650312987	-18.7508945368	70.2281697054	-61.5480236304	-134.53846908	-20.8910538547	-18.8821247764
167375000.0	-21.3557823104	143.401834499	-18.7831124949	68.5194098783	-61.4113436273	-148.487748436	-20.8876897232	-17.8778598163
168062500.0	-21.3633690257	140.026859817	-18.817659571	66.8533164367	-61.2434829831	-163.035392315	-20.8801129853	-16.8775629786
168750000.0	-21.3654597889	136.90188713	-18.8546471718	65.2012334219	-61.0361847935	-177.972700163	-20.8993218731	-15.8845785061
169437500.0	-21.3704399294	133.583366262	-18.8929741846	63.6046523151	-60.4674017086	167.710498036	-20.9088314491	-14.8498955296
170125000.0	-21.3764965767	130.468979335	-18.9224110245	61.9909348938	-60.4419301532	154.458097114	-20.9432540453	-13.8904489415
170812500.0	-21.3799078403	127.279066395	-18.9569661448	60.4184593945	-60.388352891	150.714807683	-20.9646991827	-12.9104724682
171500000.0	-21.3813418276	124.289897436	-18.9845100171	58.8261391538	-60.0370648641	141.163418509	-21.0119130702	-11.9758766564
172187500.0	-21.3877916279	121.170547936	-19.0124275161	57.3171785134	-60.323708061	142.013407555	-21.0624623676	-11.0764037122
172875000.0	-21.3953543522	118.207940399	-19.0371984337	55.8081543791	-60.4795483074	143.506178502	-21.1274977976	-10.1962110627
173562500.0	-21.38286381	115.203450025	-19.0613692475	54.3418541756	-60.4014966901	151.347543211	-21.2060196374	-9.30231889104
174250000.0	-21.3827938937	112.327454003	-19.0915372325	52.866157687	-60.4862031225	160.528756594	-21.2864148519	-8.50978218566
174937500.0	-21.3654650126	109.371230465	-19.1118414105	51.4184330309	-60.4756473161	177.05473618	-21.3836105211	-7.77347380473
175625000.0	-21.3549482428	106.469467565	-19.1315931376	50.0325428262	-60.606851515	-166.277303286	-21.4813472562	-6.99801401777
176312500.0	-21.3279879965	103.567488856	-19.1497725464	48.6379176613	-60.3032162432	-151.081927205	-21.5902372146	-6.30144960303
177000000.0	-21.3107363436	100.694236964	-19.1706929827	47.2801278411	-60.5877798804	-137.098063074	-21.7180578402	-5.62066633882
177687500.0	-21.2768177777	97.8864348416	-19.1850908017	45.8631016919	-60.5938728649	-132.527332595	-21.8576314016	-4.89273652674
178375000.0	-21.2501192149	95.0438677312	-19.1969479776	44.5211264168	-60.6904802495	-115.123591696	-22.0109678361	-4.20748141865
179062500.0	-21.2111563886	92.326346635	-19.1995221446	43.1381414566	-60.4292276236	-99.3004193448	-22.1676278645	-3.70601346676
179750000.0	-21.1701420324	89.4680594201	-19.210029072	41.804927271	-60.600626649	-74.7175624524	-22.3250226241	-3.16010997548
180437500.0	-21.1243740647	86.7353177687	-19.2153002893	40.439666549	-60.5869304164	-59.1452865468	-22.4868783381	-2.72009916457
181125000.0	-21.0843204699	83.9214544135	-19.2254288143	39.1193782355	-60.3254259853	-45.5510283176	-22.6471537086	-2.26892819373
181812500.0	-21.0309268389	81.2516588887	-19.2347958567	37.7933007119	-60.6368537378	-31.4781199929	-22.8219892805	-1.83177712877
182500000.0	-20.9829759351	78.5166404347	-19.2394271356	36.4614855994	-60.9875735466	-19.1929448317	-23.0053627846	-1.38239490148
183187500.0	-20.9146905926	75.8647686918	-19.2364656143	35.1686290637	-60.6869151138	-18.0741088502	-23.1892211628	-1.00228044491
183875000.0	-20.8520727731	73.184494101	-19.2344001187	33.8492616799	-61.0530708687	-16.9895971639	-23.3936955285	-0.702336338638
184562500.0	-20.7873113492	70.5846773948	-19.2339489854	32.5714591095	-61.0556824428	-25.895882849	-23.5866897547	-0.521391918308
185250000.0	-20.7201258097	67.9937455409	-19.2374510971	31.2823905797	-60.8152204147	-23.3203028577	-23.7814980707	-0.29224203022
185937500.0	-20.6505462278	65.4467067658	-19.2384813295	29.9642280295	-60.8421075664	-20.5121015153	-23.9636645169	-0.138104312313
186625000.0	-20.589682681	62.9922441154	-19.2347333552	28.6800252708	-61.3195063729	-15.3284284039	-24.1802195915	-0.0819495180044
187312500.0	-20.5236678879	60.487388304	-19.2276071581	27.4454493334	-61.4984136169	-0.887960776297	-24.3655702908	0.037947081722
188000000.0	-20.4507140716	58.0875314536	-19.2199214863	26.179656921	-61.4870778161	5.1812982515	-24.5686766837	-0.097443290099
188687500.0	-20.3924927505	55.6108574486	-19.2179170126	24.9520643335	-61.881172204	17.9420887107	-24.7734342977	-0.149312327206
189375000.0	-20.3250379274	53.2600638597	-19.2090894408	23.6718344417	-61.7091583953	23.7042512366	-24.9933746171	-0.355484382734
190062500.0	-20.2687418715	50.8372365383	-19.2058399759	22.4315762363	-61.4299687481	38.2186244287	-25.1844471926	-0.48686506848
190750000.0	-20.218573273	48.5218230803	-19.1945147571	21.1547915076	-61.4830146736	43.953751241	-25.3841262267	-0.723804376818
191437500.0	-20.185814725	46.0984746206	-19.1833547123	19.9187777257	-61.5434990629	39.979032452	-25.5716872435	-1.01264924449
192125000.0	-20.1540519107	43.8332892457	-19.1776676062	18.6771399076	-61.4561843749	30.0641260572	-25.7639679543	-1.37354414948
192812500.0	-20.134157987	41.4736571489	-19.166170012	17.4400488185	-61.2122251785	19.2744628532	-25.9479503001	-1.80122226427
193500000.0	-20.1199733724	39.2163512518	-19.152634532	16.141991746	-61.1238519089	21.3972332892	-26.1261436792	-2.33015712828
194187500.0	-20.1154904093	36.85475599	-19.1458356631	14.9029278189	-61.6049415704	33.9251107637	-26.2880440339	-2.97748768006
194875000.0	-20.1321842621	34.5117645751	-19.1306371407	13.7019731103	-61.2693639304	48.0789847218	-26.4344038931	-3.8067396168
195562500.0	-20.1526574942	32.0724447321	-19.1237781641	12.462474895	-61.144548214	59.154419571	-26.5674660611	-4.61857493007
196250000.0	-20.1828057366	29.6658068459	-19.1143902682	11.2215472577	-61.6349236851	71.4732255503	-26.7031442843	-5.52276603316
196937500.0	-20.2218875293	27.2956330673	-19.1047344169	10.0073403002	-61.5307103622	75.3717959784	-26.8090079907	-6.37447170494
197625000.0	-20.2722986035	24.9084242887	-19.0943160724	8.7677196128	-61.3484663615	75.8875567698	-26.9030377627	-7.34277718887
198312500.0	-20.3146156156	22.4686817414	-19.0758573911	7.55441478711	-61.2252130422	64.5585746123	-27.0028302463	-8.51100741466
199000000.0	-20.3780621771	19.9596244506	-19.0536597909	6.3487282427	-60.8815206339	53.8447540389	-27.0643186183	-9.75198071861
199687500.0	-20.4302816679	17.4294376678	-19.0379084961	5.13941353956	-60.8939317652	54.6755745428	-27.1237961332	-11.0861075433
200375000.0	-20.5096772855	14.8202351449	-19.025820579	3.90870817157	-61.0655762893	52.8407760037	-27.1657390395	-12.4374301889
201062500.0	-20.5812553715	12.2334302985	-19.0104426569	2.68596633264	-60.7486267636	51.9608751993	-27.1957786844	-13.7942320994
201750000.0	-20.6689656151	9.51128365367	-18.9954634592	1.47876260048	-60.6473835782	51.5176124507	-27.1953181647	-15.0671624325
202437500.0	-20.7483143891	6.87932262675	-18.9752832541	0.267398220247	-60.6277036078	51.8686659145	-27.1974493094	-16.5695285047
203125000.0	-20.838467841	4.12990465333	-18.9555996217	-0.887430068412	-60.5669987014	40.8741338412	-27.1619733125	-17.9932835344
203812500.0	-20.9031004097	1.44314681442	-18.9332500871	-2.08339263408	-60.1271388295	28.388502015	-27.1119640903	-19.5411877277
204500000.0	-20.9898662815	-1.35323663298	-18.9163979077	-3.27823381917	-60.0354489594	16.3189443233	-27.0486806841	-20.919029327
205187500.0	-21.0711492369	-4.06527367586	-18.8942197161	-4.48858477464	-60.1660017626	14.0065546127	-26.9835089611	-22.2581271034
