#Frequency	|S11|	<S11	|S21|	<S21	|S12|	<S12	|S22|	<S22
100000000.0	-17.3563717202	147.236661141	-21.5895303526	-122.934069925	-59.6280947188	-170.392147033	-20.8690646277	-58.4554668833
100687500.0	-17.3565732571	144.43150767	-21.1700553598	-124.476666506	-59.7292224499	90.7618436537	-20.992366933	-58.3115264603
101375000.0	-17.3379751972	141.815941358	-20.7734486313	-125.575872972	-60.3403432567	94.1783272035	-21.0694763357	-57.8182709737
102062500.0	-17.3233118268	139.396304623	-20.3822194872	-126.811023059	-61.3843244792	58.977151582	-21.1605425877	-57.3621647794
102750000.0	-17.3036497409	136.869913386	-20.0238742339	-128.017699567	-60.7185261135	46.3636384981	-21.2751420671	-56.883901217
103437500.0	-17.2903988128	134.282619638	-19.6744399188	-129.313222585	-60.3000637213	37.0098606788	-21.3814383652	-56.406141521
104125000.0	-17.2975754866	131.506645008	-19.3450588622	-130.602812001	-60.5738863086	66.5431792353	-21.5182231114	-55.8113767862
104812500.0	-17.309109132	128.711422952	-19.0464482866	-131.922966997	-60.1462061222	127.87921471	-21.6484072463	-55.4665955325
105500000.0	-17.3301626519	125.807261952	-18.766506816	-133.303743125	-60.1038090872	177.615515227	-21.7672089928	-55.2017790527
106187500.0	-17.3469440988	122.785601682	-18.5155222968	-134.604462949	-59.9343822514	-161.806882433	-21.8964621136	-54.9411570463
106875000.0	-17.3699587106	119.648092762	-18.2932460519	-135.970065884	-60.1458080705	-159.811225796	-22.0395247918	-54.7648412244
107562500.0	-17.4064406502	116.378268097	-18.0996982619	-137.29128655	-60.4064110181	-162.442136892	-22.1949844416	-54.5828306467
108250000.0	-17.4421124581	112.924487058	-17.9387842928	-138.545081566	-60.2260986676	-156.761072005	-22.3375550177	-54.4927576662
108937500.0	-17.4651532848	109.686260751	-17.7261983311	-139.801667394	-60.7166813268	-156.576020955	-22.4723704223	-54.2264489307
109625000.0	-17.4888361391	106.418105947	-17.5384590125	-140.969987239	-61.0737034119	-144.483217817	-22.6058593163	-54.0024712218
110312500.0	-17.503856454	102.98280632	-17.3737437534	-142.088869882	-61.0787680447	-126.452374629	-22.7568807204	-53.8312349564
111000000.0	-17.5337981211	99.5018702675	-17.2388707453	-143.152782869	-61.0976464653	-114.913168903	-22.9058695683	-53.6882169765
111687500.0	-17.5512296812	95.8852900962	-17.1248932867	-144.090034558	-61.0123660472	-109.522593918	-23.0545406749	-53.6882845206
112375000.0	-17.5840397717	92.1883513659	-17.0498246241	-144.872881207	-60.8689463165	-104.056076149	-23.2125818172	-53.6845708148
113062500.0	-17.6002697614	88.3473299982	-16.999875199	-145.464779567	-60.5948526858	-87.2461836323	-23.3698462007	-53.6330915024
113750000.0	-17.6331033864	84.4370425201	-16.9757031034	-145.772718558	-60.7755876665	-81.2294321125	-23.5202185791	-53.6483934212
114437500.0	-17.6549745724	80.4291231663	-16.9661684769	-145.726611737	-61.0259538596	-66.45730765	-23.6820789162	-53.6796114633
115125000.0	-17.6889339711	76.2598984698	-16.9578853694	-145.290233772	-61.1085013285	-56.603124739	-23.8571744118	-53.7591628613
115812500.0	-17.70745033	71.971243922	-16.9355150897	-144.362682223	-61.3119828929	-60.826558415	-24.0118694224	-53.787679121
116500000.0	-17.7346477985	67.5651587537	-16.8754938616	-143.098007651	-61.0021570381	-61.7883423802	-24.1609459808	-53.9302730573
117187500.0	-17.7536548755	63.1315610638	-16.7735300027	-141.541295974	-61.3185934383	-76.004186705	-24.3184419381	-54.1296289006
117875000.0	-17.7819557542	58.5123362904	-16.6143225165	-139.773091564	-61.5668652614	-89.0132797445	-24.4892797874	-54.1500082961
118562500.0	-17.8166272635	53.8287314825	-16.4024784346	-137.876502683	-61.8374437534	-113.231445804	-24.6437045643	-54.193334271
119250000.0	-17.8532148137	48.9412858049	-16.1347049137	-135.871076438	-61.7518209061	-129.997013471	-24.8075384003	-54.2017505681
119937500.0	-17.9068539584	44.0345208475	-15.8135220245	-133.902780942	-62.0011347203	-154.791915542	-24.9523373393	-54.2117784007
120625000.0	-17.9633332155	38.911090296	-15.4389932581	-131.966705779	-62.4402697209	-179.319266329	-25.1089747233	-54.3181673808
121312500.0	-18.0524357654	33.7595958995	-15.0183286245	-130.102258675	-62.3201133208	166.44906618	-25.2517032867	-54.3652336411
122000000.0	-18.1470928475	28.426596414	-14.5486823835	-128.287863496	-62.691457152	159.219163783	-25.408119514	-54.4962615379
122687500.0	-18.2859388871	23.006135818	-14.0380265818	-126.623989059	-62.463369299	148.106341161	-25.541296665	-54.5574443804
123375000.0	-18.4366818308	17.4376445654	-13.4880564803	-125.097952493	-62.2910776561	134.992302731	-25.6646966101	-54.5876542171
124062500.0	-18.6559195116	11.7340399682	-12.8978551553	-123.739297536	-62.0747888747	131.668089933	-25.7902418982	-54.6027744986
124750000.0	-18.9132732149	6.01880953574	-12.2755654061	-122.547289333	-62.1799196029	117.040310436	-25.9048023771	-54.6193364049
125437500.0	-19.2422735307	0.139672189986	-11.6166487428	-121.577803799	-62.5171547505	104.763324869	-26.0246750338	-54.5718066409
126125000.0	-19.651117228	-5.67569089048	-10.9238828673	-120.781599037	-62.0855093318	92.4136254196	-26.139603568	-54.6293206254
126812500.0	-20.1712851638	-11.5433363772	-10.2011008952	-120.24653307	-61.6824533711	71.8164804153	-26.2408304849	-54.5872265858
127500000.0	-20.8430421912	-16.620499088	-9.44698008915	-119.923191455	-61.5371103175	49.8023472386	-26.3080473866	-54.6185462436
128187500.0	-21.6673304161	-21.3698146713	-8.66273758409	-119.88425005	-61.6055642018	28.3623394556	-26.3968597781	-54.5421550308
128875000.0	-22.4844165611	-23.7085955598	-7.85397496114	-120.107057325	-61.9383397013	12.3203357045	-26.4510332502	-54.4614523524
129562500.0	-23.2224573375	-24.8965763875	-7.01070606705	-120.667922681	-61.8855156569	-3.3871680546	-26.49163811	-54.3606103926
130250000.0	-23.8417164108	-25.8430230632	-6.14180918241	-121.588829461	-62.2518116593	-21.1517931199	-26.5497759575	-54.4389362061
130937500.0	-24.3616035927	-26.7437246552	-5.25152753081	-122.973680421	-62.0170794105	-35.9664466832	-26.5913317901	-54.3967308609
131625000.0	-24.8052817553	-27.4241014373	-4.34977140643	-124.840435214	-61.8219909253	-52.4454554745	-26.6053224936	-54.468750853
132312500.0	-25.2119827517	-28.2120719072	-3.45429855644	-127.282217364	-62.2186787598	-67.0913775511	-26.61756726	-54.421605198
133000000.0	-25.5828449206	-28.9108623346	-2.58081913308	-130.282199525	-61.8937858026	-67.5918849479	-26.6222475093	-54.525280275
133687500.0	-25.9238537152	-29.7902399757	-1.7496134521	-133.813464497	-61.5253815992	-80.1728125334	-26.6180631932	-54.6427578725
134375000.0	-26.2363827635	-30.7231119152	-0.97178483507	-137.725857354	-61.2232839735	-80.0853622766	-26.5876428221	-54.7744952869
135062500.0	-26.5280607872	-31.7981533063	-0.251163363413	-141.980925006	-60.9033532276	-91.0207245742	-26.5533186735	-55.0479197939
135750000.0	-26.7907614614	-32.8045506015	0.405550813459	-146.471254125	-60.6738387384	-95.3179767633	-26.5075493604	-55.3144974378
136437500.0	-27.0202696023	-33.8700276723	1.0013664622	-151.158919832	-61.2438497779	-105.635993499	-26.453455675	-55.661275183
137125000.0	-27.2393400937	-34.9827645652	1.53528305976	-155.936856637	-60.8526855929	-114.91043899	-26.4176410987	-56.0548887173
137812500.0	-27.4068742141	-36.11339167	2.01456009656	-160.793613663	-61.7851434797	-114.578098303	-26.3547299458	-56.3599171958
138500000.0	-27.5580855177	-37.2885606885	2.43859346544	-165.671907131	-61.5788110988	-119.20292967	-26.2812415424	-56.7502020928
139187500.0	-27.6665270574	-38.4005319675	2.8123628987	-170.548496982	-61.6594983995	-124.476937727	-26.1924747988	-57.1210309421
139875000.0	-27.7292100914	-39.5630641433	3.13766329659	-175.388117685	-61.1130727851	-135.085409938	-26.1111715662	-57.4985619074
140562500.0	-27.7508128248	-40.6092603246	3.42314986653	179.838227281	-61.0588429472	-140.67868325	-26.0198365372	-58.0156495277
141250000.0	-27.7139897893	-41.6078295016	3.66606595116	175.137888581	-60.8828074874	-150.894620575	-25.9211785115	-58.4766291944
141937500.0	-27.6142767997	-42.5617767352	3.8740445916	170.537640389	-61.458198011	-151.802359436	-25.8332772329	-59.0245869756
142625000.0	-27.4339355908	-43.4526299081	4.04934703529	166.025292528	-60.9419539997	-160.550668364	-25.7295352129	-59.4479717543
143312500.0	-27.1584346759	-44.3689756082	4.1942162107	161.63264808	-60.9599062873	-162.465611944	-25.613640687	-59.9400707878
144000000.0	-26.770657603	-45.3111503923	4.31302905662	157.348274896	-60.9436595834	-165.382186156	-25.5103074904	-60.4314107195
144687500.0	-26.2324794466	-46.9314263093	4.40767291971	153.198580675	-61.2757118884	-167.370881997	-25.4145560768	-60.9054680302
145375000.0	-25.5107431535	-48.9662617858	4.48251138321	149.169132823	-61.2666414455	-169.084258906	-25.2965340343	-61.3733149093
146062500.0	-24.8105341557	-53.2792004904	4.53959509881	145.261472664	-60.8488805526	-179.405729033	-25.2017687904	-61.7959081843
146750000.0	-24.1676278541	-58.7542278402	4.58011593883	141.465679693	-61.0044213291	179.764274161	-25.1177392525	-62.1420042165
147437500.0	-23.6630418993	-64.3331545747	4.60528999357	137.799240957	-60.4526560452	172.111834374	-24.9940295565	-62.4337341901
148125000.0	-23.2305271417	-69.970122282	4.62088575963	134.239558257	-60.7719750556	170.368292889	-24.8920780978	-62.7105092831
148812500.0	-22.8977749894	-75.7673631365	4.62406130968	130.787248301	-60.4371679284	160.619674811	-24.7864615953	-62.9304878533
149500000.0	-22.5706559737	-81.3031949454	4.62090505108	127.457201881	-60.0777136983	162.235653302	-24.6845357856	-63.1843185814
150187500.0	-22.3046363924	-86.841154434	4.6091847082	124.220461627	-60.6708382661	152.482036926	-24.5919439235	-63.2437336396
150875000.0	-22.0466040056	-92.0553723518	4.59434181919	121.088078238	-61.31370183	154.993639638	-24.5166511181	-63.2461085738
151562500.0	-21.8280555736	-97.1787140242	4.57158811843	118.039588304	-61.2074272681	145.719920801	-24.4449479381	-63.1366871923
152250000.0	-21.6163701432	-101.960729923	4.54499067731	115.083773285	-61.2664774915	143.879234563	-24.3694903889	-63.0282448382
152937500.0	-21.4325604853	-106.773557385	4.51132828562	112.205065947	-61.4043505586	136.979962429	-24.294857855	-62.7713072687
153625000.0	-21.2742755394	-111.260348068	4.47793677411	109.423442601	-61.4492370663	134.238222304	-24.2467204088	-62.5227181423
154312500.0	-21.1063210407	-115.714336634	4.4404422273	106.704471442	-61.4566172793	135.185837471	-24.1662730159	-62.1491336362
155000000.0	-20.9890532397	-119.826435027	4.40008791987	104.058286306	-60.1957513939	126.225713949	-24.1137613206	-61.8181965384
155687500.0	-20.8571391771	-123.876365418	4.35790359361	101.483735689	-60.3553546813	122.420215342	-24.0774874145	-61.3794783555
156375000.0	-20.7713584614	-127.708141986	4.31539287528	98.9734570765	-60.5841700732	118.455119572	-24.0274221032	-60.8884544224
157062500.0	-20.6782936656	-131.405841546	4.27242992964	96.5254545838	-60.6912406314	117.622636697	-23.9965447377	-60.2925622792
157750000.0	-20.620122015	-134.972550227	4.22678462548	94.1396312463	-60.8196798449	115.587603686	-23.9686922045	-59.6549788381
158437500.0	-20.5483165813	-138.429233183	4.1811349981	91.8048335488	-61.0450121211	112.580615979	-23.9533497037	-58.9842331178
159125000.0	-20.5125838047	-141.801259006	4.13496085204	89.5277712008	-60.2838140245	106.220752449	-23.9374904617	-58.2602168275
159812500.0	-20.4818120232	-144.98826595	4.08932456591	87.3038588639	-60.4456088879	103.903153379	-23.9272199463	-57.5262539349
160500000.0	-20.4775694487	-148.109903152	4.04310891967	85.130330951	-60.2953268523	95.4276406206	-23.9373228809	-56.806227393
161187500.0	-20.4710170516	-151.050731079	3.99701244014	83.0095478778	-60.588196205	95.1633634261	-23.9473082685	-56.0437124068
161875000.0	-20.4863452733	-153.937255659	3.95151143879	80.9207272474	-60.1137652052	89.9120337584	-23.9794487804	-55.2657758023
162562500.0	-20.5285979568	-156.623939368	3.90602908833	78.8711276606	-60.1355553086	89.2253166922	-24.0112501286	-54.4694897446
163250000.0	-20.5687644382	-159.411246212	3.86025512383	76.8616769999	-60.0413659049	89.3651849913	-24.0619767841	-53.667043908
163937500.0	-20.6298318246	-162.035322595	3.81560915851	74.8928100886	-60.1997481541	89.2548913991	-24.1016229881	-52.8648390181
164625000.0	-20.6927998037	-164.731947789	3.77159986242	72.9554630988	-60.0486744324	89.2832295245	-24.1786491308	-52.0744232543
165312500.0	-20.7846335769	-167.202692652	3.72709723676	71.0540408268	-60.1896822173	90.2525411634	-24.2594600751	-51.2455963593
166000000.0	-20.8778758278	-169.662388877	3.68438099842	69.1929270313	-60.2589716294	90.0199364716	-24.345943295	-50.3947387359
166687500.0	-21.0199593004	-172.078834614	3.64109135441	67.3546746669	-60.4282655876	88.1857636654	-24.4522677869	-49.5084982638
167375000.0	-21.1435880023	-174.453828613	3.59813981998	65.5563192523	-59.8002034499	87.7944009539	-24.5724889197	-48.9008767707
168062500.0	-21.3084534574	-176.856852812	3.55709885862	63.7819615904	-59.3012966722	81.8020318522	-24.6750600271	-48.1420477808
168750000.0	-21.4681738378	-179.254641438	3.51666269268	62.0488392098	-59.3956447616	79.883532419	-24.7974750424	-47.5706986194
169437500.0	-21.6663377424	178.280630832	3.47644513542	60.3380410885	-59.5344939291	80.2889431196	-24.9256152128	-46.944272684
170125000.0	-21.8541535178	175.893940466	3.44093251209	58.6495797342	-59.5207502819	78.6144194122	-25.0818507457	-46.4766700703
170812500.0	-22.0909598016	173.349450375	3.40354228198	56.982165452	-58.9005622435	76.6931809336	-25.2385185072	-45.8957522105
171500000.0	-22.3224207059	170.802758657	3.36801650154	55.3499136222	-58.9116390824	76.153678477	-25.4081416526	-45.5189082658
172187500.0	-22.5882726506	167.993921465	3.33504156886	53.7431207182	-58.9259483564	80.2930444463	-25.5816660698	-45.1105620911
172875000.0	-22.8590093416	165.281775549	3.30223233012	52.1501578326	-59.0832778079	80.3457663033	-25.7535850641	-44.7787270368
173562500.0	-23.1180867269	162.181930492	3.26940665749	50.5858288128	-58.6174987153	76.5291479875	-25.9695186628	-44.4805194204
174250000.0	-23.4058893814	159.191529496	3.24056938102	49.0390360641	-58.9484804935	74.5896654483	-26.1640501123	-44.2773634711
174937500.0	-23.6766586047	155.760675645	3.21242423892	47.5007208963	-58.8293240347	74.6165627247	-26.3707833794	-44.2009332813
175625000.0	-23.956006683	152.301573995	3.1860501953	45.9830587204	-59.1794114276	77.1525510258	-26.5760859208	-44.0566612286
176312500.0	-24.2211289793	148.540725829	3.16085507881	44.4877623095	-59.1605624483	76.6035737149	-26.7922239854	-44.2568142021
177000000.0	-24.4784122148	144.654650228	3.1363213966	43.013094203	-59.146425463	78.9659167542	-27.040105457	-44.5148308291
177687500.0	-24.6857559818	140.513357151	3.11317518589	41.5405484076	-59.0472336401	80.9811891055	-27.2706261623	-44.8324675719
178375000.0	-24.9027444597	136.351707817	3.09303607365	40.0808901922	-58.8508762728	80.8297970493	-27.5218528408	-45.1159156301
179062500.0	-25.0760658766	132.071243578	3.07284303332	38.6424938808	-58.8847296646	77.1840705502	-27.7332446666	-45.6857104262
179750000.0	-25.2372169164	127.480836391	3.0541291931	37.2246543104	-58.7459557634	74.0851392655	-27.9732823519	-46.220047582
180437500.0	-25.3571550435	122.983333736	3.0357060603	35.8029085824	-58.8251761872	77.6993456885	-28.186712661	-46.8674043453
181125000.0	-25.454243593	118.26944815	3.01953562419	34.3994852406	-58.9021232877	78.9683320192	-28.40424375	-47.5297453685
181812500.0	-25.519424767	113.746006132	3.00437574801	33.0018963753	-58.9593442448	77.7209820592	-28.6193344862	-48.2548669654
182500000.0	-25.5645049455	108.934233237	2.9905461502	31.6274360723	-58.7861910219	70.9451528014	-28.8448591175	-49.1115694892
183187500.0	-25.5595050248	104.279997991	2.97800516352	30.2584687075	-58.7667090125	71.2200820698	-29.0566154915	-49.9342257549
183875000.0	-25.5272658021	99.4943493187	2.96598691416	28.8928417076	-58.3571725306	64.1358342012	-29.247598694	-50.9072701395
184562500.0	-25.4871442776	94.8303153947	2.95604865801	27.5329944709	-58.3526763402	62.5216568831	-29.416876532	-51.7402375304
185250000.0	-25.4041495321	90.0859593075	2.94458018636	26.1914326345	-58.5516121882	57.4814268236	-29.6008985774	-52.7098072805
185937500.0	-25.3080780238	85.5159003599	2.93313219411	24.8452614505	-58.7691339188	58.0987115669	-29.7771724691	-53.6332584518
186625000.0	-25.1685163903	80.9408522777	2.92552917105	23.5119688413	-58.4211220948	48.1332536438	-29.9395842611	-54.9432672625
187312500.0	-25.0327269673	76.3530113104	2.91732894885	22.1853552376	-58.524517951	48.4518860659	-30.1029197185	-55.7816561833
188000000.0	-24.8349066298	71.9397350238	2.91028383467	20.8662730511	-58.3867535979	44.0298191254	-30.1950951404	-57.0298710881
188687500.0	-24.6471344913	67.6295610319	2.90356272046	19.5573228186	-58.3548102172	43.4927216512	-30.3179739575	-58.0286645674
189375000.0	-24.4044726952	63.5463457256	2.89723123186	18.2518538982	-58.941724092	40.1070739187	-30.4077483269	-59.2356966872
190062500.0	-24.1655362279	59.4403948789	2.89294565624	16.9644549821	-59.0019903574	40.9828365273	-30.5016725911	-60.1993361626
190750000.0	-23.906587934	55.6739066632	2.89123964391	15.680366726	-58.8225283655	41.7920802633	-30.5764201344	-61.5267608625
191437500.0	-23.6408047546	51.9235227442	2.88708478956	14.4014802791	-58.5965521393	43.6526288766	-30.639861984	-62.7385745377
192125000.0	-23.3600773661	48.6239281745	2.88374857459	13.1311297596	-58.398014427	39.0476399198	-30.6810304331	-63.8919461621
192812500.0	-23.0808566023	45.3323650245	2.88285882934	11.8743998011	-58.1585553922	27.4002380577	-30.7190896656	-65.2170038767
193500000.0	-22.7933682212	42.4194776641	2.88078255446	10.6102880314	-58.2980011376	11.7789272739	-30.7380093256	-66.2769583702
194187500.0	-22.522239209	39.6036334789	2.8793700651	9.35790327199	-58.6929747025	-10.5725022605	-30.7033213801	-67.1695546451
194875000.0	-22.2843914317	37.0688677079	2.87978006357	8.10696442926	-58.7943373497	-26.0131289302	-30.6967002168	-68.1414807395
195562500.0	-22.0392863812	34.4887324293	2.88015802229	6.86511369795	-58.768455063	-45.5132352869	-30.6379436151	-69.181925588
196250000.0	-21.8245620631	32.1425983223	2.8807178901	5.62907675439	-58.5724551309	-59.520522212	-30.6097172467	-70.1352970784
196937500.0	-21.6129147817	29.9363567435	2.88278436614	4.38988840462	-58.5389908907	-78.4683889983	-30.5459697102	-70.9801119493
197625000.0	-21.4393029437	27.8172054135	2.88682389498	3.16865115892	-58.6849445654	-92.8847169377	-30.4927085379	-71.6932633602
198312500.0	-21.2743214713	25.766956022	2.89022460174	1.95539215985	-58.2477769382	-108.112232814	-30.3992008928	-72.5469221222
199000000.0	-21.1468240968	23.6932913595	2.89570881542	0.741037883357	-58.577065991	-121.563155536	-30.2845409449	-73.2147777339
199687500.0	-21.0120452585	21.7183029073	2.90085033943	-0.469558655742	-58.3679075571	-137.734082808	-30.1554145645	-74.0218303957
200375000.0	-20.9231286008	19.7306240863	2.90742425873	-1.68421565586	-58.8389671105	-152.500508263	-30.0457334201	-74.8118132868
201062500.0	-20.8264732461	17.8137943199	2.91370416215	-2.88553155032	-58.8434547276	-168.776530506	-29.9069275412	-75.657054056
201750000.0	-20.7515243508	15.8010325406	2.92181991406	-4.08314604579	-59.0562125208	178.569494124	-29.7718870028	-76.2957194864
202437500.0	-20.6832697484	13.9042115476	2.92979193364	-5.28531129329	-58.7656296147	163.323408668	-29.6128020396	-77.0630232872
203125000.0	-20.6346222093	11.9101464127	2.94143831113	-6.47246599147	-58.8701612376	138.618353458	-29.4528905195	-77.5431840754
203812500.0	-20.5795366252	9.93836576546	2.95002448846	-7.6659665683	-59.0969543923	112.53758662	-29.2704809881	-77.8167766921
204500000.0	-20.5448671075	7.93430907146	2.96012558223	-8.85623693609	-59.10536811	86.0002993663	-29.0816534688	-78.3214191846
205187500.0	-20.5132041326	5.97185291798	2.9715649	-10.0372574352	-59.2178578412	56.7337183317	-28.9321817552	-78.5324767628
