#Frequency	|S11|	<S11	|S21|	<S21	|S12|	<S12	|S22|	<S22
100000000.0	-16.5891954171	135.286039683	-26.8722303917	-126.039191049	-58.6266447402	40.7292847694	-21.7725297839	-40.0452602829
100687500.0	-16.5053083836	132.319234458	-26.4695859804	-127.038446942	-60.3038637997	83.2955694317	-21.9233145115	-39.7336496208
101375000.0	-16.4796857804	129.279849014	-26.088161844	-128.940178297	-60.7078980773	32.329946231	-21.9880891655	-39.1090274738
102062500.0	-16.433418162	126.237439272	-25.7550774083	-130.445946985	-60.773252501	56.3659696126	-22.0545267599	-38.3545328707
102750000.0	-16.3849577386	123.243969155	-25.4280480981	-131.968225066	-60.8434171089	71.3320798948	-22.1090460046	-38.120817586
103437500.0	-16.3529226525	120.189613634	-25.1537117258	-133.487824113	-60.4437025924	57.1756336945	-22.1547463785	-37.8081252622
104125000.0	-16.3312025259	117.002242059	-24.8855828815	-134.961663429	-60.9201336315	28.590732882	-22.2180161316	-37.3621754398
104812500.0	-16.3132297394	113.818685861	-24.6407254155	-136.373447681	-61.1773685967	10.3764664128	-22.280067416	-37.1272889626
105500000.0	-16.3098380211	110.491976021	-24.4249733138	-137.884712365	-61.6216797883	-3.09911425671	-22.346727621	-37.0186133671
106187500.0	-16.3047095431	107.089389302	-24.2473991487	-139.369117852	-61.3184139909	-31.5771369197	-22.4156732517	-36.904621667
106875000.0	-16.3127758491	103.589296904	-24.0940438148	-140.820082093	-60.8418135388	-66.9531936831	-22.4736675803	-36.8882550526
107562500.0	-16.3375520303	99.9497460877	-23.9934171906	-142.117331664	-61.0576393794	-94.9942433267	-22.5416256103	-36.8157187126
108250000.0	-16.3633406508	96.1573823854	-23.9305019319	-143.254648058	-60.6674906441	-120.864422224	-22.6024560861	-36.8048936018
108937500.0	-16.3743868246	92.5807516918	-23.8058080392	-144.421814511	-61.0291596327	-146.989657946	-22.6567656233	-36.6885434974
109625000.0	-16.3910516032	88.8972745398	-23.7052928615	-145.390548461	-61.1333041267	-174.467078145	-22.7044535507	-36.601012372
110312500.0	-16.401927562	85.1157908654	-23.6405593779	-146.362013755	-60.953396455	158.529860787	-22.7614968635	-36.4927450465
111000000.0	-16.4230375698	81.2411315441	-23.6186909275	-146.912952167	-61.0619085817	145.225627998	-22.8055604574	-36.4995029275
111687500.0	-16.4431984092	77.2340522373	-23.6116620397	-147.162112801	-60.7947294499	123.929295116	-22.8587038243	-36.5871474007
112375000.0	-16.4803443972	73.1526369204	-23.6187738172	-146.993531247	-60.9197959718	98.1814449539	-22.905209923	-36.6307462761
113062500.0	-16.5145259284	68.9816239288	-23.6195922396	-146.466804271	-60.6436421621	74.3394557049	-22.9613241825	-36.691690833
113750000.0	-16.5638824627	64.6819602448	-23.5897968048	-145.441373741	-60.6831550053	52.2091339148	-23.0088048672	-36.7352351658
114437500.0	-16.6118222902	60.2528473024	-23.5241414194	-144.087505046	-60.5155562809	35.4995408737	-23.0599478129	-36.7391566152
115125000.0	-16.6719532058	55.691019994	-23.3896455132	-142.486777071	-60.4566115633	20.0723469486	-23.1038976321	-36.7887278072
115812500.0	-16.7292493222	51.0055841071	-23.2047719586	-140.674310675	-60.3654211117	-3.46640784352	-23.148169289	-36.7881247483
116500000.0	-16.8119762973	46.2304067848	-22.9652743906	-138.797758273	-60.1061126469	-14.4451792992	-23.1922963556	-36.8826884169
117187500.0	-16.89976104	41.3355551313	-22.6723132822	-136.879809057	-60.0002332609	-19.2812219908	-23.2215347184	-36.9725537563
117875000.0	-17.0074926789	36.3065108612	-22.3310203967	-135.007303608	-59.4768539862	-31.0467157611	-23.2641890595	-36.9798882515
118562500.0	-17.1352712117	31.1214180383	-21.9335445201	-133.157035464	-59.4127427387	-32.0450672416	-23.2956403241	-36.9587433367
119250000.0	-17.2899785627	25.8365834845	-21.4936190547	-131.379203559	-59.4377924254	-32.2578813039	-23.3130618474	-36.8810069534
119937500.0	-17.4659049867	20.4327514445	-21.0066841809	-129.685209028	-59.2975133726	-29.2085064444	-23.3316494078	-36.7522347217
120625000.0	-17.6871960736	14.9180939532	-20.4766869381	-128.137000834	-59.6773949922	-14.134724289	-23.3650036104	-36.7189496085
121312500.0	-17.9584988927	9.31161027194	-19.9062435843	-126.736356842	-59.67901568	-10.4324053089	-23.3698079244	-36.6086121237
122000000.0	-18.2714825317	3.64526826748	-19.3069774883	-125.486673542	-59.8473690185	-4.81843089348	-23.3985168094	-36.4693636898
122687500.0	-18.6694085686	-2.02702172634	-18.6625785461	-124.425346932	-60.0418890138	6.50464239491	-23.4160773588	-36.3088394126
123375000.0	-19.1363362911	-7.61888316158	-17.9842148994	-123.561513712	-60.3611956044	6.97928261856	-23.4221266784	-36.1176593384
124062500.0	-19.7521739311	-13.036078586	-17.2747753611	-122.930114562	-60.0040336077	7.47098488498	-23.4249798253	-35.8757201335
124750000.0	-20.4747782023	-17.8273815614	-16.5422476394	-122.516756589	-60.0655736076	-2.75803537598	-23.4345766062	-35.6293352597
125437500.0	-21.2710613051	-21.4036146008	-15.7736724374	-122.341863161	-60.3457153443	-3.41226920906	-23.4417879127	-35.2564721648
126125000.0	-21.9717667646	-23.1806672061	-14.971613093	-122.440467042	-60.0490595836	0.783019362363	-23.4645284397	-34.9518614409
126812500.0	-22.5812365808	-24.5409733316	-14.1434970608	-122.873952808	-60.0482231249	6.62204977886	-23.4798310389	-34.5197321744
127500000.0	-23.0701129624	-25.6325649705	-13.2928399093	-123.602903732	-60.431127173	24.4078957739	-23.4884039054	-34.1578561772
128187500.0	-23.4998640576	-26.5572683834	-12.3974573938	-124.787518441	-60.4446888207	39.9698610437	-23.501126984	-33.6194757161
128875000.0	-23.8628926679	-27.3982967499	-11.49696227	-126.442587468	-60.3860730231	53.8268481305	-23.4977334239	-32.9898244788
129562500.0	-24.1941879565	-28.280442816	-10.5790698103	-128.67517459	-60.3668485516	67.2326892681	-23.4984466349	-32.446678722
130250000.0	-24.4753004727	-29.2145519536	-9.68151898914	-131.4139289	-60.8901048328	78.9148433116	-23.5081023692	-31.9227574998
130937500.0	-24.736990403	-30.1763827392	-8.81694047596	-134.798239618	-60.9193467082	79.4027392758	-23.5068208561	-31.3442894274
131625000.0	-24.9736546532	-31.1085002573	-8.00325380136	-138.598639588	-61.0728921088	79.8147765107	-23.5047298879	-30.7746468307
132312500.0	-25.189065245	-32.0441502815	-7.25459768322	-142.806215484	-61.4683177238	82.2042669856	-23.5070168641	-30.1202194968
133000000.0	-25.3900304016	-32.961493417	-6.57081919658	-147.301884909	-61.4692490377	83.4840625741	-23.515295347	-29.5221327856
133687500.0	-25.5684438599	-33.8778561534	-5.94898350084	-152.031721118	-61.8855244947	73.5513783236	-23.5199229504	-28.8839967416
134375000.0	-25.7226969566	-34.8055185181	-5.39016118902	-156.842271435	-62.0555558583	60.5220606013	-23.5328634421	-28.2670509449
135062500.0	-25.8598668396	-35.7832040972	-4.88713248838	-161.787648117	-62.1078404449	45.7354077318	-23.5336703219	-27.6730959335
135750000.0	-25.9651355615	-36.680557018	-4.4445592404	-166.72684415	-62.2963949788	17.9319271836	-23.5280117414	-27.1451001699
136437500.0	-26.044098205	-37.6072483789	-4.05509294743	-171.7241706	-62.0587360374	-10.3056042302	-23.5462525907	-26.6133058949
137125000.0	-26.1029060979	-38.5085588697	-3.71366442937	-176.656995249	-62.3486804237	-28.5637951344	-23.5695153518	-26.0870089559
137812500.0	-26.1023023771	-39.3668321731	-3.41977001742	178.441877503	-61.883163689	-56.7111971237	-23.5785337791	-25.5027615589
138500000.0	-26.0683206404	-40.1949185241	-3.16769310327	173.629564358	-61.839023004	-72.1239088324	-23.5932765618	-24.9943017306
139187500.0	-25.9732758613	-41.1354029279	-2.95716670461	168.88011308	-61.8394595649	-87.5991107901	-23.6056186096	-24.4302714218
139875000.0	-25.8036865035	-42.103160043	-2.78221025252	164.257894256	-61.7628012155	-113.450512108	-23.6252240146	-23.9268062694
140562500.0	-25.5473623125	-43.2299889323	-2.63902139473	159.730682294	-61.5705594409	-128.195459967	-23.6545669393	-23.4506769151
141250000.0	-25.1562659767	-44.5287415027	-2.52369626626	155.333152113	-61.8979018975	-139.624436137	-23.6707839489	-23.0210047364
141937500.0	-24.650223535	-46.482359715	-2.43543931232	151.057195	-61.7198064848	-140.735513476	-23.6934374585	-22.5650683289
142625000.0	-24.0709943464	-49.6654323563	-2.36623424973	146.91872966	-61.4245592272	-154.895054695	-23.7115597808	-22.1944286745
143312500.0	-23.5713790045	-54.6651766229	-2.32158111576	142.901799894	-61.128868809	-172.098404723	-23.7362728621	-21.8049040243
144000000.0	-23.1711399201	-60.0537620013	-2.29177033426	139.015605706	-61.2547208239	171.120478894	-23.7603468721	-21.4535311916
144687500.0	-22.8954434978	-65.692563522	-2.27854458695	135.263562728	-60.9515825683	153.059382217	-23.7867708633	-21.0802565339
145375000.0	-22.6699076606	-71.4751258478	-2.27591923075	131.641764443	-61.1546170198	136.585640338	-23.8172895128	-20.8187399545
146062500.0	-22.5087500173	-77.3383569687	-2.28504930386	128.139545853	-61.0841861817	118.289972889	-23.8637656992	-20.4934655502
146750000.0	-22.3672076691	-83.0870652295	-2.30294206213	124.75553672	-61.1693496487	96.1159006641	-23.9057928779	-20.2173858066
147437500.0	-22.2820011351	-88.7201850878	-2.33115871191	121.484989843	-60.6810310835	83.8242623066	-23.9287085234	-19.9231512155
148125000.0	-22.2052801689	-94.3136722043	-2.36283798813	118.322522226	-60.4098018398	81.6517021336	-23.9647809725	-19.6959093994
148812500.0	-22.15815688	-99.9043497739	-2.40212789468	115.259705827	-60.6726031392	74.5240388535	-23.9973412119	-19.4899960547
149500000.0	-22.1198323274	-105.322509472	-2.44248556118	112.302755342	-60.1711873111	66.4975428241	-24.0313644561	-19.2314328118
150187500.0	-22.1006261153	-110.677283348	-2.48878943949	109.435365891	-60.8099591453	57.5663703452	-24.058204916	-18.9481475135
150875000.0	-22.0780470309	-115.959862104	-2.53555318187	106.66522825	-60.2844995219	55.3151221453	-24.0827347398	-18.6560395462
151562500.0	-22.0709387523	-121.191470133	-2.583988596	103.963697563	-59.9146386029	55.3019787681	-24.107491967	-18.3570161533
152250000.0	-22.0664977667	-126.198609958	-2.6346148573	101.355643835	-60.0179304613	56.0965083753	-24.141589079	-18.0244223851
152937500.0	-22.0651907728	-131.177294135	-2.68759655127	98.8076232079	-60.0092034571	65.9172306323	-24.1828519199	-17.5981293419
153625000.0	-22.0712837349	-136.028954823	-2.7377018328	96.3455430285	-59.9840758347	68.0150170716	-24.2234043929	-17.234031064
154312500.0	-22.0649267702	-140.796787251	-2.78996080111	93.9297400631	-59.4904900939	67.6354612415	-24.2418456761	-16.9737116344
155000000.0	-22.0812892559	-145.459196592	-2.84213774533	91.5828260173	-59.6532620617	68.7608214554	-24.2709225848	-16.5745140889
155687500.0	-22.0799993069	-150.057478497	-2.89336993116	89.2866218204	-59.854986482	58.9520212263	-24.3086640945	-16.1457891516
156375000.0	-22.1020654669	-154.422169297	-2.94443092507	87.0541135222	-59.9387333997	60.1055132355	-24.3373981471	-15.7151997546
157062500.0	-22.0958081293	-158.715225569	-2.99416951458	84.870190858	-59.7558039934	71.1229255274	-24.3575265643	-15.1912895593
157750000.0	-22.1084048906	-162.944940568	-3.04470111916	82.7379386775	-59.7278391269	73.3064898725	-24.3853399463	-14.72785767
158437500.0	-22.1040916711	-167.070509344	-3.09476799824	80.6354328512	-59.5996047269	73.481113625	-24.4198254279	-14.1818211907
159125000.0	-22.1140090275	-171.070073952	-3.14313711978	78.6061410229	-59.8514308645	75.5517151775	-24.4556699009	-13.6875232332
159812500.0	-22.1123929421	-174.989751755	-3.19214050001	76.5944422907	-59.9769460242	80.3689322496	-24.4786639232	-13.1552458517
160500000.0	-22.131699265	-178.837153383	-3.23954955477	74.6459338207	-60.510718012	93.6579912065	-24.5066862924	-12.6084779927
161187500.0	-22.1313701972	177.423116399	-3.28645121868	72.7174423875	-59.9946657712	105.857491387	-24.5327592424	-12.1318082947
161875000.0	-22.1429944589	173.790876383	-3.33145214995	70.833952071	-60.3414609285	107.458137465	-24.5811694519	-11.6015272248
162562500.0	-22.1625102814	170.183269089	-3.37651420392	68.965069398	-60.0826363145	102.314205901	-24.6135390957	-11.1110244601
163250000.0	-22.1777726284	166.77539295	-3.41914747937	67.1397399528	-60.4679130512	104.318026234	-24.6661732464	-10.5818134042
163937500.0	-22.2051294636	163.362576899	-3.46185112832	65.3385392337	-60.3918980009	105.035688838	-24.6971280209	-10.0876830447
164625000.0	-22.2240248414	160.008692602	-3.50133133893	63.5758926457	-60.1389389166	104.34399332	-24.7477354609	-9.58292688484
165312500.0	-22.256773861	156.774391539	-3.54303121159	61.8380317897	-59.9525740937	98.076303376	-24.7993592363	-9.03499646333
166000000.0	-22.2906586264	153.703745162	-3.58049884347	60.1310405636	-59.6596803301	92.0228633971	-24.8626675228	-8.48924719457
166687500.0	-22.3343587005	150.527802843	-3.62074952275	58.4460810608	-59.8817496065	86.7024612298	-24.9243842319	-8.05209092783
167375000.0	-22.3806425114	147.462412674	-3.65575468242	56.7956187803	-59.6500616613	84.1313379224	-25.0040705671	-7.64443330425
168062500.0	-22.4335939158	144.353775117	-3.69393327184	55.1593724016	-59.6621884821	83.8130031598	-25.0752268997	-7.29895439317
168750000.0	-22.4839996582	141.414161014	-3.72868727988	53.5760865123	-59.6605129601	75.2848485267	-25.1593849501	-6.98266589652
169437500.0	-22.5427989367	138.377847975	-3.76432967879	51.9975337221	-60.021987097	77.2401664109	-25.2569347818	-6.68801275261
170125000.0	-22.6117530749	135.444216136	-3.79462263944	50.4357510275	-59.9251148119	82.5593467062	-25.3399129634	-6.51697786113
170812500.0	-22.6851915252	132.482487514	-3.82620456752	48.8969184455	-60.4448985299	85.0297897473	-25.4293902778	-6.27962544498
171500000.0	-22.7528905471	129.520906908	-3.85456365138	47.397944372	-60.5860069607	77.4633774918	-25.5270606713	-6.08156168289
172187500.0	-22.8284345641	126.52773419	-3.88227999388	45.9107690239	-61.3161242589	77.8577132331	-25.6316859578	-5.97057793429
172875000.0	-22.9048337845	123.513573811	-3.90899287535	44.4335931663	-61.1017726054	89.3725034413	-25.7174877062	-5.97719716871
173562500.0	-22.9707397778	120.440921541	-3.93485570162	42.9841075847	-61.0579580492	92.6081930386	-25.8388658569	-6.09211544835
174250000.0	-23.0500688194	117.351955959	-3.95748433297	41.5527189116	-61.320952024	86.3345346116	-25.9349112718	-6.19757819012
174937500.0	-23.1123066101	114.229357388	-3.97896110286	40.128930676	-61.0758481061	87.4561047055	-26.0464015304	-6.46311562891
175625000.0	-23.1831230273	111.049670324	-3.99748659376	38.7250354487	-60.9797456708	90.4737485089	-26.1282131486	-6.68224082384
176312500.0	-23.2371328197	107.747697364	-4.01580202083	37.3353354996	-61.1958637715	91.2758165251	-26.2356528742	-6.98661243351
177000000.0	-23.3000917653	104.538889254	-4.03140255147	35.9670288259	-61.0343414379	102.454236549	-26.3484745341	-7.43411475172
177687500.0	-23.334131019	101.180827519	-4.04474021945	34.5867008085	-60.9517780837	104.758334128	-26.4666940519	-7.79086673524
178375000.0	-23.3860157258	97.8602562461	-4.0567134456	33.2277654849	-61.0834236415	108.659226507	-26.5690247218	-8.09889220393
179062500.0	-23.4132952483	94.5198162429	-4.06661017803	31.874489817	-61.4101641034	115.465843891	-26.6589209714	-8.62215132287
179750000.0	-23.4313527773	91.1834401238	-4.07567072149	30.5466910215	-61.4085421114	122.540650072	-26.7443405784	-9.13321119073
180437500.0	-23.4385527699	87.7017082845	-4.08371450342	29.2044654306	-61.1792155121	131.220661832	-26.8134353879	-9.6881309535
181125000.0	-23.4424068991	84.263133315	-4.09013866844	27.8798017635	-61.0080653684	144.808790866	-26.9047104998	-10.1574035883
181812500.0	-23.4303152569	80.8726258375	-4.09664508495	26.546087636	-61.0116843437	161.945290457	-26.9680047912	-10.726779725
182500000.0	-23.4057456198	77.4287855739	-4.10044813886	25.2341782045	-61.1556397991	-174.733552225	-27.0438778068	-11.2250788128
183187500.0	-23.3584680425	73.966356398	-4.10331876059	23.9243315276	-61.2552710762	-155.553774585	-27.0877723584	-11.6904753003
183875000.0	-23.3113206062	70.6356163393	-4.1029144901	22.6223741094	-61.0256255497	-127.139994499	-27.1451674242	-12.2395927648
184562500.0	-23.2449547836	67.226855273	-4.10454818552	21.323914711	-61.0836590894	-101.552913059	-27.1628130008	-12.823246431
185250000.0	-23.1752666344	63.9126951234	-4.10179652384	20.0379269927	-61.3094326626	-81.5435744599	-27.2006978221	-13.3282854526
185937500.0	-23.1023686179	60.5970224855	-4.10134221475	18.7329412686	-61.3507757653	-53.2102909499	-27.2066806499	-13.7336040199
186625000.0	-23.0312249258	57.3622359796	-4.0950631816	17.4471975618	-61.2507905212	-36.9121628092	-27.2135988209	-14.1423263472
187312500.0	-22.9427375113	54.0337868185	-4.0924208015	16.1546841198	-61.1993719047	-31.0813479325	-27.2014764545	-14.4420518877
188000000.0	-22.8489745011	50.8736769482	-4.08561897677	14.8750198835	-61.5110152031	-15.3364646365	-27.1829027174	-14.818538422
188687500.0	-22.7620027086	47.7536915249	-4.08225652466	13.5819336883	-61.575052307	12.771470793	-27.1575600213	-15.0140562505
189375000.0	-22.662502579	44.6622398718	-4.07587508304	12.3131416693	-61.0204314113	39.0182475052	-27.1374684509	-15.2477056774
190062500.0	-22.5703173978	41.647520521	-4.0688651707	11.0410393972	-60.965965596	57.9497954445	-27.1068320939	-15.292790997
190750000.0	-22.472824138	38.6377586653	-4.05728278349	9.78741152669	-60.9686304717	74.2316213591	-27.0664336162	-15.2050273248
191437500.0	-22.3922293617	35.7106724267	-4.04985196748	8.51489182748	-60.8842467306	101.439598046	-27.0230545206	-15.2359819179
192125000.0	-22.308908393	32.9007002788	-4.04056266979	7.25997477628	-61.1885199561	127.000591911	-26.9707946956	-15.057360274
192812500.0	-22.2329172569	30.0420476916	-4.03211877974	6.01302371033	-61.0912726144	155.558398813	-26.9337349028	-15.0330129524
193500000.0	-22.1599400424	27.309407614	-4.02105405437	4.74755221126	-60.734330696	-176.315734802	-26.8738896165	-14.8205736079
194187500.0	-22.0926652974	24.520977763	-4.01245213706	3.49225251372	-61.1210120215	-160.16595735	-26.7946104421	-14.5557741041
194875000.0	-22.048646752	21.8551245236	-4.00107554176	2.24256788302	-61.0671565773	-144.819413551	-26.7182457935	-14.2490984797
195562500.0	-21.9993808213	19.0814162088	-3.99011703562	0.997717863572	-61.5224275894	-141.934543797	-26.6529471121	-13.992723938
196250000.0	-21.9558379247	16.3152298341	-3.97901883521	-0.23720404725	-60.6671261377	-136.293069161	-26.5856594683	-13.5545493621
196937500.0	-21.9215734634	13.539003601	-3.96758528097	-1.48345373956	-60.6798650711	-131.381482861	-26.5286541851	-12.935700894
197625000.0	-21.8993274797	10.7940850043	-3.95473738658	-2.70286326117	-60.5936960595	-137.613913152	-26.461386839	-12.4141889815
198312500.0	-21.8713406272	8.02072609135	-3.94230113539	-3.91849105512	-61.0929274621	-150.028809274	-26.3929718461	-12.0498413006
199000000.0	-21.8689384727	5.16034420318	-3.92758023046	-5.13969515022	-61.2474063517	-164.144969109	-26.3339085069	-11.4875002121
199687500.0	-21.8479844021	2.34876332308	-3.91404371279	-6.36395423753	-61.2476939588	172.0402596	-26.2682363918	-10.9897038867
200375000.0	-21.85824496	-0.491337857157	-3.90018808434	-7.58163260554	-61.3687410337	144.962742466	-26.2225200491	-10.4959933241
201062500.0	-21.8457028141	-3.41850917625	-3.88517639523	-8.79873519132	-61.4070474147	119.004433427	-26.177245279	-9.94359990864
201750000.0	-21.8488138231	-6.32983302856	-3.86841560369	-10.0121124312	-61.5510323179	92.5682837864	-26.1347960278	-9.29282128924
202437500.0	-21.8378136091	-9.23873668434	-3.85154619117	-11.2234197618	-61.9901350313	60.3261309179	-26.1023241736	-8.74746072642
203125000.0	-21.8459564973	-12.1863986162	-3.83334269565	-12.4297688554	-62.5384751153	18.9924782517	-26.0603066903	-8.24368637903
203812500.0	-21.8176120151	-15.2224030187	-3.81675643244	-13.6331310915	-62.8502559504	-11.2358918435	-26.0324219415	-7.75282706072
204500000.0	-21.816428399	-18.2211642714	-3.79652738442	-14.8302351455	-63.2779097736	-41.4000787721	-26.0030777145	-7.26727624076
205187500.0	-21.7997981588	-21.3412448094	-3.77937100085	-16.0249645219	-62.3540072262	-73.6312867423	-25.9853090311	-6.69544229791
