#Frequency	|S11|	<S11	|S21|	<S21	|S12|	<S12	|S22|	<S22
100000000.0	-17.3819855056	130.821352205	-27.6212947779	-125.396543642	-58.8238433616	-102.009329414	-21.9174050523	-38.8979542015
100687500.0	-17.2957742713	128.313438892	-27.0323904607	-127.4930284	-61.714450376	-55.524351693	-21.9340195503	-38.6493201715
101375000.0	-17.2222008414	125.259165849	-26.6323542366	-128.766927027	-61.2309205159	-60.663402998	-21.9805456429	-38.3068257337
102062500.0	-17.1438044742	122.253061127	-26.2378456465	-130.290169981	-63.7718342522	-152.333834865	-22.0322310922	-37.9759044917
102750000.0	-17.0858649009	119.281210639	-25.9114999667	-131.666648452	-61.9824439174	84.7075511008	-22.0774300941	-37.740344517
103437500.0	-17.0419580853	116.307663542	-25.6000359625	-133.169283211	-60.6499546195	-20.3823879745	-22.1311849995	-37.3748414444
104125000.0	-16.996962913	113.173192833	-25.3188283032	-134.554091047	-60.33392709	-113.065287328	-22.206377536	-36.9404550341
104812500.0	-16.9616040155	110.068450151	-25.0495285143	-136.085066646	-60.4019182272	176.923772355	-22.2767677575	-36.87588291
105500000.0	-16.9379217549	106.824754156	-24.8135629528	-137.54536003	-60.2641525849	139.818856119	-22.3340213022	-36.7761085307
106187500.0	-16.9211615649	103.458084713	-24.6148209231	-139.026015342	-60.8683392149	115.533980856	-22.3981675498	-36.6821120278
106875000.0	-16.9178141574	99.9891496286	-24.456695701	-140.37245337	-61.0597222433	113.1084418	-22.4697742026	-36.6056280658
107562500.0	-16.9191959141	96.3920044675	-24.3459089096	-141.620159331	-61.0877745551	109.229186727	-22.5368918168	-36.5004675846
108250000.0	-16.9220044513	92.6230477476	-24.2871728833	-142.719627001	-61.3190890574	104.352348751	-22.5963882113	-36.5129609158
108937500.0	-16.9065283352	89.0672655331	-24.1456660653	-143.861140976	-61.4295517758	75.6325631372	-22.6431159036	-36.3435823739
109625000.0	-16.8985628687	85.4131903002	-24.0469864391	-144.868131913	-61.1925698896	47.7246623131	-22.6904861058	-36.2752974287
110312500.0	-16.8858765111	81.668746609	-23.9803063565	-145.699125507	-61.008852383	18.9628200226	-22.750532823	-36.2251108813
111000000.0	-16.8846294135	77.8467465983	-23.9343222056	-146.211344062	-61.1080711072	-7.84144674422	-22.804189547	-36.1651049421
111687500.0	-16.8854693604	73.9161244656	-23.9204627942	-146.543131594	-60.9427636463	-34.3001454242	-22.8549421193	-36.2306239421
112375000.0	-16.8961440533	69.8959586282	-23.9127728874	-146.346888439	-60.749488128	-48.2541703644	-22.9083429558	-36.259179713
113062500.0	-16.9043391304	65.7648103223	-23.9075948015	-145.781728946	-60.0710014878	-62.525258459	-22.9617721697	-36.291896356
113750000.0	-16.9181947438	61.5596199811	-23.8644006646	-144.811820642	-60.3580872657	-75.5199365247	-23.0162210133	-36.3277554808
114437500.0	-16.9411919034	57.2155769946	-23.789447234	-143.458177622	-60.2023386669	-88.2181818263	-23.0698909086	-36.3694551363
115125000.0	-16.9693099588	52.7373341253	-23.6611274819	-141.840259345	-60.5418201165	-87.8888935343	-23.1182571509	-36.4743052318
115812500.0	-16.9966328028	48.1350605714	-23.4703978755	-140.017363289	-60.6623112456	-99.6016972808	-23.1646035903	-36.5441945392
116500000.0	-17.0375184481	43.4408506045	-23.2274573667	-138.177700179	-60.6298668939	-101.480379289	-23.1953883906	-36.6261689124
117187500.0	-17.0874878011	38.6727266112	-22.9304508265	-136.218243111	-61.067583111	-103.178468638	-23.2324971975	-36.7918604247
117875000.0	-17.1617770902	33.7454468942	-22.5824116117	-134.304661445	-61.4568647191	-103.471429819	-23.2744424315	-36.6918158387
118562500.0	-17.2474988859	28.6764056712	-22.1926778882	-132.399019875	-61.1266798773	-91.080078894	-23.2978650265	-36.6847737698
119250000.0	-17.3568402948	23.5146466305	-21.7455009235	-130.602826032	-61.1060395921	-88.5020225767	-23.3182934972	-36.5680526436
119937500.0	-17.4924333087	18.2697615502	-21.2669940259	-128.914559658	-61.3508295758	-86.8307982363	-23.3425700879	-36.5511388595
120625000.0	-17.6589767835	12.9284771088	-20.7332759781	-127.363637331	-61.0399536166	-88.0852844042	-23.3666925936	-36.4320933007
121312500.0	-17.8665799877	7.53442678296	-20.1687344864	-125.934826141	-60.6639709715	-101.717558728	-23.3837481886	-36.3579448987
122000000.0	-18.1241537388	2.11235257936	-19.5592788189	-124.737430836	-60.1511216259	-127.459418931	-23.4040734224	-36.2259738905
122687500.0	-18.4379372197	-3.3259085089	-18.9193632636	-123.678832823	-60.3465992731	-145.229885686	-23.4168031231	-36.0959146706
123375000.0	-18.8220709605	-8.61008097462	-18.237919519	-122.830231634	-60.4029279657	-169.74522634	-23.4215600084	-35.8953062777
124062500.0	-19.2978912627	-13.7442253634	-17.5326386835	-122.209932963	-60.5271506296	174.567665179	-23.4346598455	-35.7193562337
124750000.0	-19.8876314445	-18.2501295726	-16.7888446727	-121.795821195	-60.406468389	154.891177975	-23.4455222853	-35.4957353351
125437500.0	-20.515165136	-21.9862629622	-16.019597445	-121.644838279	-60.6429157684	133.568910849	-23.4480330928	-35.1434714589
126125000.0	-21.1541807781	-24.7567823757	-15.2170463305	-121.76571482	-60.4823049518	118.127386463	-23.4708313114	-34.9033875549
126812500.0	-21.7087952614	-26.7194772126	-14.3890742434	-122.13984529	-60.7932020483	90.2695238396	-23.4852489779	-34.5018269584
127500000.0	-22.1850296868	-28.1923920544	-13.5235310223	-122.884907847	-60.4670792987	64.5800200784	-23.4857124438	-34.1026437374
128187500.0	-22.6035300834	-29.5706538761	-12.6524732921	-124.117639894	-60.3545094867	30.4920567285	-23.4963246717	-33.6516210714
128875000.0	-22.964657635	-30.7425968428	-11.7395204588	-125.709717102	-60.5829811834	1.54697597932	-23.4965644527	-33.1243181416
129562500.0	-23.27482323	-31.8642868658	-10.8400039999	-127.914901604	-60.4507395249	-38.6714285277	-23.4952358329	-32.6072601036
130250000.0	-23.5607639505	-33.0221748224	-9.94186161657	-130.676803754	-60.6238926583	-67.7130575828	-23.5031085354	-32.0729425744
130937500.0	-23.8114559943	-34.1751597183	-9.08676401929	-133.986498763	-60.4849437827	-93.3718981393	-23.5057744311	-31.4921889281
131625000.0	-24.0486313966	-35.2332526173	-8.27030156365	-137.786285903	-61.5130016695	-111.469669615	-23.5082555619	-30.9895599318
132312500.0	-24.2590221799	-36.2775409234	-7.5237681574	-141.97848299	-61.829685174	-139.068220814	-23.5099074455	-30.3104416674
133000000.0	-24.4521471933	-37.2826286386	-6.83452990369	-146.452103964	-62.0322382869	-155.869986258	-23.5119104572	-29.7621922768
133687500.0	-24.6325678782	-38.3305052352	-6.214024353	-151.141723869	-61.7890806427	176.765199453	-23.5265461911	-29.0512952433
134375000.0	-24.7887807539	-39.369480251	-5.6518752904	-155.964785056	-61.6234325039	159.977108971	-23.5264047639	-28.438641008
135062500.0	-24.9209916458	-40.4418551458	-5.15123789223	-160.880411853	-61.2358325994	131.129579619	-23.5234029724	-27.9014353949
135750000.0	-25.0311585556	-41.4147349024	-4.70384814363	-165.795245751	-61.5542486182	96.412537999	-23.531966025	-27.3643893789
136437500.0	-25.1211276632	-42.4041485682	-4.3121338402	-170.764259616	-61.7512538198	67.9533688484	-23.5517883186	-26.8347821348
137125000.0	-25.1805678226	-43.3597229477	-3.96907041411	-175.676232545	-61.4332781574	40.5924592626	-23.5693764656	-26.2757207909
137812500.0	-25.2003615553	-44.3057827747	-3.67512736853	179.44987663	-61.5708181878	13.41466489	-23.5789623082	-25.7990356495
138500000.0	-25.1885152104	-45.2810503907	-3.42116163499	174.662672228	-61.38085448	-10.8066032763	-23.5942582934	-25.3234219736
139187500.0	-25.1125040959	-46.2767010699	-3.20849786545	169.94443021	-61.6779558186	-28.4677984107	-23.598391657	-24.7985092385
139875000.0	-24.9803454038	-47.3169533857	-3.02969898478	165.348743231	-61.3503403332	-52.8303233849	-23.617482082	-24.3114656665
140562500.0	-24.7888008898	-48.5434171838	-2.88298500498	160.849384979	-61.2812112415	-69.8325580479	-23.6391122718	-23.8862606641
141250000.0	-24.4916110188	-49.9441420345	-2.76423704282	156.47942245	-61.0853725819	-97.4100664924	-23.6585557116	-23.4318912156
141937500.0	-24.0909879465	-51.9695976719	-2.67163174425	152.23046726	-60.9984695584	-128.803595431	-23.6771711089	-23.0316864849
142625000.0	-23.6486312248	-54.7240507428	-2.60021827381	148.119504805	-60.3559136016	-164.095707184	-23.7022876599	-22.7009680527
143312500.0	-23.1887587791	-58.5030757872	-2.54889710019	144.132788467	-60.5100564569	165.474934883	-23.7135319013	-22.2818976596
144000000.0	-22.8170183452	-63.1187231522	-2.51351500675	140.268277977	-60.3074465287	139.75987964	-23.7398758745	-21.9192357546
144687500.0	-22.5301161373	-68.1718993104	-2.49352479722	136.544377023	-60.6339677943	115.484519724	-23.7716153965	-21.6132676019
145375000.0	-22.2968361779	-73.280103735	-2.48492716875	132.944252858	-60.3823764981	95.7328908146	-23.7953758873	-21.3181350399
146062500.0	-22.1207873051	-78.5620473162	-2.48868833942	129.464225729	-60.1005542899	69.1911987073	-23.8265937862	-21.0482649087
146750000.0	-21.9903466163	-83.8472619579	-2.50019197645	126.082451228	-60.168986999	41.5114035877	-23.8592940549	-20.706366437
147437500.0	-21.8873217933	-89.0065561606	-2.52182906723	122.820225656	-60.2856804198	4.413242668	-23.8768094216	-20.4978634716
148125000.0	-21.8164393093	-94.1722839766	-2.54662384602	119.658855382	-60.4481472422	-27.1050766567	-23.8979848207	-20.213633729
148812500.0	-21.758082546	-99.3611101061	-2.5800844287	116.598983566	-59.4113149542	-60.3268280871	-23.9182234245	-19.9309363537
149500000.0	-21.7241108208	-104.462377658	-2.61347089443	113.637948266	-59.2118198193	-91.4369953217	-23.9539028815	-19.6379402288
150187500.0	-21.7092369685	-109.531954181	-2.65482896908	110.769961649	-59.5839636534	-132.434889898	-23.9760012638	-19.301562221
150875000.0	-21.7013821416	-114.463494973	-2.69417504352	107.987028346	-59.5975567941	-173.968427759	-23.9933685543	-19.0334971872
151562500.0	-21.7073607357	-119.411008276	-2.7387777668	105.272949545	-59.8794424342	134.459233713	-24.0227222747	-18.7361774999
152250000.0	-21.7149592064	-124.138819087	-2.78322156497	102.646259646	-59.7563175209	82.3548840551	-24.0554190902	-18.3466501657
152937500.0	-21.7382881499	-128.882723708	-2.83291760912	100.08156723	-59.4220439217	33.5235872311	-24.0766403193	-17.9839796558
153625000.0	-21.7594748021	-133.491246586	-2.87706300282	97.5964879505	-59.2382834222	-12.5317849452	-24.1094221105	-17.5739051987
154312500.0	-21.7804553319	-138.04179013	-2.92547488371	95.163798306	-59.6202143465	-66.2601129118	-24.1289745864	-17.2711374964
155000000.0	-21.8084414816	-142.471576278	-2.97158458798	92.799209949	-60.1600144018	-109.041851379	-24.1536121443	-16.8524412209
155687500.0	-21.8325298837	-146.838618789	-3.02132276098	90.4907499938	-60.907865976	-140.993351723	-24.1881367153	-16.3663322096
156375000.0	-21.8765019917	-151.139425967	-3.06831366311	88.2347713504	-60.7826941586	-169.797378946	-24.2101977999	-15.9492281996
157062500.0	-21.9028049943	-155.304171787	-3.116070823	86.018841356	-60.7795897579	160.121384017	-24.2319782523	-15.4942264993
157750000.0	-21.9386989588	-159.419997558	-3.16167604622	83.8616606215	-60.8153679224	121.394856801	-24.2506513918	-15.0104316574
158437500.0	-21.9775700817	-163.442086798	-3.21037949563	81.7325630437	-60.7578440808	95.6189523987	-24.2762420442	-14.5981361764
159125000.0	-22.0046394176	-167.340669876	-3.25393217328	79.6713711457	-60.8701860095	71.5814304461	-24.309511754	-14.0785576486
159812500.0	-22.0373290047	-171.225871329	-3.29970674239	77.636908629	-61.2784377304	57.7536573386	-24.3372925734	-13.5143679303
160500000.0	-22.084373996	-174.987793874	-3.34321611111	75.6455892589	-61.3739558554	35.5466431892	-24.3731674119	-13.0255744738
161187500.0	-22.1213923791	-178.605103715	-3.38750456052	73.6846734939	-61.2899878552	18.0815908668	-24.3931813854	-12.4961346867
161875000.0	-22.166489574	177.848346071	-3.42965340386	71.7681497405	-61.065881536	10.5118584773	-24.4295391981	-11.9767990601
162562500.0	-22.2129555229	174.353704346	-3.47304952341	69.8787104137	-61.1935648413	0.10863063937	-24.4681835893	-11.4694275208
163250000.0	-22.2539537399	170.917447008	-3.51394758514	68.0232416283	-61.2073036791	-4.16326965606	-24.5186863095	-10.881327755
163937500.0	-22.3071647219	167.581039335	-3.55607150745	66.1987658979	-61.9515393197	-5.66124313043	-24.5645865597	-10.4050529275
164625000.0	-22.3611723666	164.225682817	-3.59409024491	64.4072553068	-61.4699113547	-6.40194238074	-24.6238204193	-9.85272264943
165312500.0	-22.4224028019	160.975514911	-3.63491800474	62.6434081376	-61.4341322716	-10.5787422487	-24.6784750656	-9.42289192904
166000000.0	-22.495010752	157.827717039	-3.67272729696	60.9132512077	-61.6825858093	-16.205143226	-24.7369263333	-9.01726162053
166687500.0	-22.5669818644	154.627115614	-3.71148462689	59.1919652161	-61.670025209	-14.8237378928	-24.7898817679	-8.59276599599
167375000.0	-22.6424915627	151.597431788	-3.7477265311	57.5189692602	-61.2816512239	-13.4884110704	-24.8659555737	-8.21186584552
168062500.0	-22.7180870414	148.605364132	-3.78439554412	55.8679699019	-61.6874508081	-1.62765096094	-24.9364080849	-7.88693186552
168750000.0	-22.8008144201	145.594989395	-3.8180808773	54.2525047303	-61.6181139876	13.1927271953	-25.0243791039	-7.61145501431
169437500.0	-22.8895719154	142.565213622	-3.85315702597	52.648449799	-62.0986058031	28.1577661066	-25.1014296059	-7.36345972435
170125000.0	-22.9790564345	139.605643978	-3.88217161411	51.0583884755	-62.1753650199	43.4646093125	-25.1968738455	-7.2018626603
170812500.0	-23.0749705138	136.637956046	-3.91489219959	49.4944837314	-61.9369586415	52.2571978442	-25.2817871873	-6.99563034767
171500000.0	-23.1791194702	133.631626402	-3.94455465481	47.9625537078	-61.4489035556	65.8394529678	-25.392497399	-6.93441583292
172187500.0	-23.2889627518	130.548859141	-3.97300219613	46.4451606945	-61.1030917657	71.428550189	-25.4985447172	-6.84534702484
172875000.0	-23.3955251676	127.45432623	-3.99925507227	44.9379432314	-60.3390836948	72.9304220246	-25.5829841889	-6.92961563537
173562500.0	-23.4975738153	124.295869607	-4.02557622239	43.4635838361	-60.4359018014	73.0866448063	-25.69848775	-6.96297844967
174250000.0	-23.6193905005	121.17060235	-4.04796012583	42.0128221956	-60.3777893051	75.5300630306	-25.7951895388	-7.10622271058
174937500.0	-23.7143559021	117.983324547	-4.07035715805	40.5722440771	-60.7241980983	80.3515572968	-25.9054237842	-7.3629264869
175625000.0	-23.8044693556	114.64730631	-4.08834772486	39.152404722	-60.5559373765	83.8088007416	-25.9989104875	-7.49921316011
176312500.0	-23.9092825044	111.266743245	-4.11012266921	37.742429224	-60.3209894708	97.8231147797	-26.0956418463	-7.86076240454
177000000.0	-23.9889687847	107.879491219	-4.12484789093	36.3440709959	-59.8998139876	98.884886573	-26.2047390311	-8.21009886609
177687500.0	-24.0554145008	104.468607777	-4.14135336487	34.9630647659	-59.8529129514	97.3473788968	-26.3112710566	-8.61285441116
178375000.0	-24.1232016731	100.982758561	-4.15354282685	33.5912436495	-59.892214775	86.9749280708	-26.4184023155	-8.93890055418
179062500.0	-24.176500955	97.4916009494	-4.16735996992	32.2225763054	-60.1637672914	75.2124995754	-26.5118736554	-9.54660503997
179750000.0	-24.2129119331	93.9184259074	-4.17510917015	30.8704473853	-60.1944526845	70.609014292	-26.5977241943	-9.93398645757
180437500.0	-24.2555647801	90.3380221429	-4.18593665873	29.5138760258	-60.2158321435	63.4908688433	-26.6748479803	-10.5508859611
181125000.0	-24.2691162489	86.6409793224	-4.19187678032	28.1729550074	-59.2868357655	54.4450148735	-26.7453781029	-11.0443123022
181812500.0	-24.2775697996	83.1113654533	-4.20074962983	26.8294932238	-59.4287185785	53.8674014226	-26.8126388785	-11.6967860918
182500000.0	-24.2713806767	79.4806269225	-4.20262467887	25.5062464308	-59.3912331211	48.5058853321	-26.8758534871	-12.1358085359
183187500.0	-24.2451836148	75.8584679263	-4.20726447862	24.1801367908	-59.2250712251	49.5314584552	-26.9367659062	-12.5704365505
183875000.0	-24.2117787563	72.3495445002	-4.20859193761	22.8693558644	-59.1492207402	49.793072467	-26.9825552682	-13.1408843889
184562500.0	-24.162334068	68.7045310498	-4.21184733267	21.5520970369	-58.9545372313	51.1382206913	-27.0120197153	-13.7333207008
185250000.0	-24.1086831162	65.0650174946	-4.21104695126	20.2518893757	-58.556117456	54.0606883171	-27.0350718855	-14.1848654866
185937500.0	-24.0426046288	61.5604693753	-4.21401163237	18.9365675474	-58.3230967785	53.568961208	-27.0431239482	-14.5576955138
186625000.0	-23.9770031957	58.1347391938	-4.21054615849	17.6377455396	-58.9855493127	53.9675457278	-27.062512502	-14.9204035247
187312500.0	-23.8964250779	54.6241334395	-4.20996449316	16.3405065164	-59.3242215053	55.7155744014	-27.0558601637	-15.2249342145
188000000.0	-23.8152253601	51.2116032337	-4.20585464399	15.0534759423	-59.5381954732	56.8452762736	-27.0423555501	-15.5650795831
188687500.0	-23.7271571591	47.843071429	-4.20253266388	13.7485418655	-59.5520706465	59.6900122093	-27.0145655737	-15.7167557349
189375000.0	-23.6321408655	44.5578139486	-4.19910563273	12.4664731296	-59.5661508012	72.0726954815	-26.9892530505	-15.9182395766
190062500.0	-23.5335580541	41.3625509933	-4.19422091511	11.1820757755	-59.531289207	85.9832613737	-26.9638724338	-15.9641356332
190750000.0	-23.4361922819	38.258436436	-4.18691149962	9.9081351117	-59.2269693779	94.8169661227	-26.9290829548	-16.0751064416
191437500.0	-23.3284098408	35.1096051491	-4.18228389007	8.62553321798	-59.2043595031	108.103972097	-26.8949551755	-15.9938981211
192125000.0	-23.232254686	32.0923037693	-4.17488730648	7.35709136444	-58.9043268903	118.660389494	-26.8390080329	-15.8935508272
192812500.0	-23.153421136	29.1791741182	-4.16826199066	6.09051958793	-59.1616791557	129.487283793	-26.7980327922	-15.8759631709
193500000.0	-23.0779938674	26.2546005267	-4.15968280385	4.82234126433	-59.1370700886	141.775173356	-26.7463536521	-15.6624624769
194187500.0	-23.0058696285	23.3516157175	-4.15385480832	3.56044603038	-59.8697141031	159.529843256	-26.6719282737	-15.3621236886
194875000.0	-22.9537221334	20.4388764311	-4.14495321486	2.29807127618	-59.5962962836	-174.055760305	-26.6005176733	-15.0894772028
195562500.0	-22.8917693408	17.5860167549	-4.13637699876	1.04775124621	-59.7270797318	-147.184632249	-26.5367746102	-14.80955032
196250000.0	-22.8461227554	14.6471720586	-4.12705506625	-0.200800009341	-59.429508726	-126.653732434	-26.4707030345	-14.3715824427
196937500.0	-22.80508862	11.7259899046	-4.11868385066	-1.45182265878	-59.6995970873	-105.79074291	-26.4031677558	-13.9029368719
197625000.0	-22.7675786332	8.87165978513	-4.10718277634	-2.68568239406	-59.8614524609	-83.1251456648	-26.332486002	-13.4516107975
198312500.0	-22.7455975062	6.07802570423	-4.09771112693	-3.91137418617	-60.2104591074	-58.9454633098	-26.2663500288	-13.0443593098
199000000.0	-22.7298169537	3.0999718582	-4.08316847957	-5.14209094326	-60.1691334641	-43.6211964376	-26.191719699	-12.5273787951
199687500.0	-22.7034778134	0.160393208122	-4.07274433373	-6.37048489352	-60.0405747307	-30.4823650194	-26.1323054685	-12.0116852272
200375000.0	-22.6893945273	-2.78743516938	-4.05820862335	-7.59501797794	-59.8793556106	-28.4725507499	-26.0838522009	-11.556296915
201062500.0	-22.6818093086	-5.81157316964	-4.04624818294	-8.80917256116	-59.87868556	-36.830383876	-26.0433673764	-10.9616688796
201750000.0	-22.6731823447	-8.84218919163	-4.0293916674	-10.0317199536	-59.9514054575	-46.2612577757	-26.0026817967	-10.3867750519
202437500.0	-22.6618162794	-11.8423126174	-4.01578223818	-11.2534470846	-60.1567589441	-56.1835041734	-25.9775938146	-9.9077131223
203125000.0	-22.6442485886	-14.8582199726	-3.99653138295	-12.4683442402	-59.9923306761	-67.4122654477	-25.9407770888	-9.40309267784
203812500.0	-22.6119539606	-17.9790984163	-3.98257644945	-13.6771120419	-59.359048572	-77.697646845	-25.8976738373	-9.00679039625
204500000.0	-22.5973133855	-21.0777524921	-3.9628431946	-14.8847211598	-59.2585947428	-92.5470772787	-25.8618989789	-8.52500423445
205187500.0	-22.566418638	-24.1576747652	-3.9461626363	-16.0868454997	-59.1252122115	-107.461333833	-25.838317769	-8.07223962496
