#Frequency	|S11|	<S11	|S21|	<S21	|S12|	<S12	|S22|	<S22
100000000.0	-17.267588143	131.012607217	-41.9599451622	-116.76086318	-56.8560896421	38.840507491	-21.6797921343	-34.6541855079
100687500.0	-17.2156524446	128.219193074	-41.6532962151	-118.673218039	-59.9434720151	37.9920085735	-21.8465208143	-34.4540504555
101375000.0	-17.1574239461	125.124850083	-41.2668793524	-121.374768689	-62.2005912019	-30.0747805546	-21.8759659428	-34.0890539961
102062500.0	-17.1064168989	122.153356261	-41.0069853985	-123.010857001	-62.8891342692	-10.2151207034	-21.9267722865	-33.7409709347
102750000.0	-17.0452198548	119.173787065	-40.7127828056	-124.931915527	-63.8017048063	17.1570542416	-21.9582135807	-33.3700905509
103437500.0	-17.0055320422	116.239222097	-40.4359455569	-125.850191939	-63.0743285879	67.2517807227	-22.0148901397	-33.056844719
104125000.0	-16.9755493187	113.147145083	-40.2771858421	-127.536338034	-62.6143829877	119.216335887	-22.0735087841	-32.7137894117
104812500.0	-16.9463960095	110.07664864	-40.0576587072	-128.864491195	-62.8534266072	169.527766759	-22.137034154	-32.4887910757
105500000.0	-16.9263386929	106.819295356	-39.8667330392	-130.489242679	-62.5736518956	-150.542117329	-22.1893491714	-32.378604127
106187500.0	-16.9086960899	103.435510378	-39.6824071685	-132.134902553	-62.0565091589	-153.236886356	-22.2411624284	-32.1956039813
106875000.0	-16.9006129103	99.9598063964	-39.5457682689	-133.51262473	-62.0025834736	175.895165083	-22.2977494528	-32.1334693737
107562500.0	-16.9050079922	96.3534599444	-39.4151128606	-134.945790728	-61.6313085538	137.412011894	-22.3528872176	-32.0211786616
108250000.0	-16.9052523939	92.5968359501	-39.3532331752	-136.33172924	-61.4563851457	115.415542396	-22.3968825553	-32.0345908439
108937500.0	-16.8995023251	89.0422229449	-39.2342193591	-137.461600583	-61.4152037298	113.852100993	-22.441764963	-31.9170671827
109625000.0	-16.8905661415	85.4057333467	-39.1491593908	-138.580537792	-61.9615619456	114.011449545	-22.4768836342	-31.8517105032
110312500.0	-16.8825955995	81.6717237775	-39.056216064	-139.720221798	-61.6817608896	123.746760681	-22.5188178573	-31.8085022965
111000000.0	-16.8840822855	77.8432972526	-39.0407732328	-140.315750706	-61.5517105295	138.762191188	-22.565834974	-31.7535239757
111687500.0	-16.8844228333	73.910145615	-39.0712134241	-140.207007669	-61.4050496835	141.252236238	-22.6057289492	-31.8353661899
112375000.0	-16.894952766	69.9044025984	-39.031206571	-140.034785592	-61.1696355715	133.604258961	-22.6458909801	-31.8829152942
113062500.0	-16.9006816871	65.7715344053	-39.009372244	-139.256688624	-60.9379721136	135.119717455	-22.6866513302	-31.8910902202
113750000.0	-16.9246560099	61.5521804094	-38.8999800021	-138.1521391	-60.9915623332	139.671426597	-22.7270694636	-31.9654621974
114437500.0	-16.944844973	57.2128743304	-38.869131701	-136.747953799	-60.6088934602	134.135100426	-22.7682373455	-32.0755271768
115125000.0	-16.977172373	52.7161797238	-38.7424345298	-135.103433803	-60.6039377596	121.519975564	-22.8082329455	-32.114164188
115812500.0	-17.0041431263	48.1287742693	-38.5538818853	-133.332964897	-60.9844058764	108.912601671	-22.8402981038	-32.1731767469
116500000.0	-17.0505063081	43.4166898068	-38.2749866384	-131.488640001	-61.6507055761	100.6847418	-22.8703540928	-32.2598834601
117187500.0	-17.0937488957	38.6629973511	-37.9620137544	-129.508783225	-61.697027476	84.6462911782	-22.8993148298	-32.4002092391
117875000.0	-17.1662065078	33.6930167951	-37.6226363622	-127.523584996	-61.496395815	58.1018196845	-22.9328462397	-32.3948357961
118562500.0	-17.248337694	28.6537220393	-37.1981380669	-125.835619487	-60.9042349603	44.942372403	-22.9520668802	-32.4028657382
119250000.0	-17.3590183543	23.4764495303	-36.7428681741	-124.160747742	-61.0810218227	23.8648828438	-22.9626885615	-32.4111202678
119937500.0	-17.4915996066	18.2625771264	-36.2352698083	-122.290984435	-60.7410862995	10.3340185061	-22.9726965522	-32.3965979426
120625000.0	-17.6597979897	12.8704266366	-35.7074132975	-120.802538589	-60.7332586712	-2.41834915655	-22.9964626188	-32.3695307577
121312500.0	-17.8749095308	7.51272401118	-35.1295213548	-119.167466518	-61.035797523	-1.19097931088	-23.0026612162	-32.3674686769
122000000.0	-18.121020613	2.0129478618	-34.534413397	-118.096996929	-61.3354282817	-0.761181309069	-23.0247339052	-32.3255323879
122687500.0	-18.4439056177	-3.30294345473	-33.8500251514	-116.833749886	-60.8278757799	0.248740008658	-23.0310735629	-32.1906552979
123375000.0	-18.8213815063	-8.664240501	-33.1899418837	-116.070987825	-61.8189701694	12.3519451202	-23.0326685562	-32.0822255088
124062500.0	-19.3067555953	-13.776053985	-32.4783490211	-115.191040321	-61.5664661338	26.2849519003	-23.0354459655	-31.9497922718
124750000.0	-19.8835993289	-18.3790156682	-31.7505542124	-114.787907501	-61.6265569028	28.3044955639	-23.0433182266	-31.7320929067
125437500.0	-20.5361681503	-22.2613172724	-30.9644810708	-114.31740555	-61.8952364873	29.1651723577	-23.0484369231	-31.4118522449
126125000.0	-21.1337085367	-24.9645136769	-30.1598406921	-114.506320856	-62.0963005413	22.1000203262	-23.0628858349	-31.1069415151
126812500.0	-21.6938425528	-26.9379390883	-29.3227671374	-114.704607371	-61.9605209279	13.2113658779	-23.0772474309	-30.7200041656
127500000.0	-22.1517676336	-28.4169161352	-28.5021004718	-115.33255469	-61.8718185418	3.79695114228	-23.0788710411	-30.3686797115
128187500.0	-22.5666612822	-29.7380168781	-27.5770091464	-116.300553437	-61.4748489096	-7.51975018353	-23.0790906402	-29.9296543875
128875000.0	-22.9181373494	-30.8869271162	-26.6678895575	-118.344143885	-61.5934348027	-7.68961711381	-23.0819432106	-29.4574132221
129562500.0	-23.2422104307	-32.0378554309	-25.7640447238	-120.43027848	-62.295620165	-3.95776495097	-23.0846204267	-28.9377950921
130250000.0	-23.5300066027	-33.2015384382	-24.9090719605	-123.457123393	-62.5571793488	-8.05906251637	-23.0942575911	-28.4258610124
130937500.0	-23.7844658477	-34.3358212438	-24.0813606172	-126.600897382	-62.776737226	-21.3761806399	-23.1081171667	-27.8289783932
131625000.0	-24.0175489038	-35.4228850011	-23.2673774245	-130.544023405	-63.2105522143	-21.5278580215	-23.1046236389	-27.2695091155
132312500.0	-24.2262089775	-36.4927072034	-22.4928132869	-134.75116952	-63.1901234769	-22.0480581709	-23.102372974	-26.6320842024
133000000.0	-24.4198668774	-37.513067603	-21.826954255	-139.385079083	-62.6961693283	-34.5012670374	-23.107756795	-26.0996303132
133687500.0	-24.5941529516	-38.5677170517	-21.2066201422	-143.962296406	-62.0207373093	-45.5814495458	-23.1169324635	-25.4970001457
134375000.0	-24.7550972648	-39.5833039062	-20.6461466595	-148.736740218	-62.3913267196	-57.3111094287	-23.1232683121	-24.7849822604
135062500.0	-24.8880705941	-40.6170742922	-20.1394032404	-153.550121865	-62.3651969674	-63.273535196	-23.1199627117	-24.2008466097
135750000.0	-25.0038140093	-41.6098197426	-19.6989210146	-158.457185784	-62.5327280018	-75.9100210993	-23.1225442622	-23.6619325525
136437500.0	-25.0907029249	-42.6018147789	-19.3046492421	-163.33870803	-62.4007069005	-81.5262128545	-23.139034312	-23.0712505889
137125000.0	-25.1637667368	-43.6289950865	-18.9705684226	-168.275141072	-62.5989245004	-95.9895704356	-23.1628281329	-22.4755226157
137812500.0	-25.1859120308	-44.5223376204	-18.6690831546	-173.122905648	-62.8509556095	-111.165312406	-23.171892835	-21.9017526056
138500000.0	-25.1637416156	-45.4767023847	-18.4139042502	-177.867390086	-62.4481078404	-139.464512956	-23.1893163108	-21.343279941
139187500.0	-25.0954739897	-46.4284494272	-18.2041731375	177.404017698	-62.1494106594	-154.359071089	-23.1975934878	-20.7658062499
139875000.0	-24.9682552828	-47.5809484117	-18.0319243575	172.860243415	-62.3077834839	-170.029816171	-23.2174954568	-20.2224132613
140562500.0	-24.7683777346	-48.7145788972	-17.8901592468	168.386018005	-61.3416640212	162.032147033	-23.2488113751	-19.7548284246
141250000.0	-24.4712820511	-50.1450919379	-17.7633407834	164.069676253	-61.417993009	121.890987658	-23.2709661264	-19.2544737487
141937500.0	-24.0789203278	-52.0746629458	-17.6768902469	159.851525699	-61.0699428144	94.0533395699	-23.2853740594	-18.8202007718
142625000.0	-23.612058811	-54.7472969998	-17.6006199767	155.8006016	-61.0963108505	64.0090714035	-23.3088200121	-18.3900366983
143312500.0	-23.1843666003	-58.5408646534	-17.5569564566	151.838935418	-61.0505874788	27.877311664	-23.3255180514	-17.9876286663
144000000.0	-22.8110136288	-63.1433363108	-17.5146893653	148.01443489	-60.661038747	-18.799094535	-23.3501202279	-17.5524590501
144687500.0	-22.5444999582	-68.1643029199	-17.4986506225	144.311274198	-60.9234074377	-73.9364467571	-23.3781415894	-17.1366057242
145375000.0	-22.3157138116	-73.3534559911	-17.4898522088	140.771006497	-60.8979966286	-130.531267306	-23.4057535356	-16.7705896873
146062500.0	-22.1539065554	-78.6016443298	-17.4966840518	137.289095363	-60.7981815417	174.527567901	-23.4318583974	-16.3556149913
146750000.0	-22.0067980145	-83.8880600948	-17.5081946954	133.938090234	-60.1208753163	125.053724933	-23.4685558495	-15.9564991902
147437500.0	-21.9139923078	-89.0926218257	-17.5306908446	130.718225007	-59.7826362437	73.3732113179	-23.483743118	-15.7186505273
148125000.0	-21.8389729171	-94.2732373328	-17.5552151757	127.557484187	-59.6528706636	29.3092295568	-23.500821609	-15.414089396
148812500.0	-21.7921483506	-99.4668674895	-17.5884602387	124.55276293	-59.1329093838	-25.564344482	-23.5241067202	-15.1291709111
149500000.0	-21.7563181216	-104.5582867	-17.6249977857	121.602445437	-59.586501637	-80.9500927205	-23.5548168758	-14.8474437051
150187500.0	-21.7406510753	-109.648208977	-17.6653351134	118.791735339	-59.674640829	-129.838071038	-23.575330301	-14.5087021547
150875000.0	-21.7253729077	-114.548477041	-17.7056899889	116.021003772	-59.4618215312	174.605899688	-23.5847041935	-14.162856961
151562500.0	-21.7283988353	-119.528914621	-17.7448366408	113.378811926	-59.1981021552	130.342612943	-23.6010670392	-13.9043159949
152250000.0	-21.7295461569	-124.244709767	-17.7897643126	110.766831382	-59.3116301128	84.3235392094	-23.6280190586	-13.5699120938
152937500.0	-21.7525294373	-129.010244152	-17.8324893041	108.249812434	-59.3356236394	38.8386266773	-23.6564177173	-13.220696399
153625000.0	-21.7763088433	-133.538809954	-17.8785709459	105.78992373	-59.4654190588	-16.374616453	-23.680770311	-12.7869076173
154312500.0	-21.7885673526	-138.073417591	-17.9205297103	103.412134508	-59.487419204	-70.1126899543	-23.6998588501	-12.4688094675
155000000.0	-21.8175186014	-142.530529223	-17.969309431	101.04661989	-59.2488916942	-115.030547064	-23.7190709793	-12.0880790074
155687500.0	-21.8452037954	-146.916213637	-18.0151051055	98.7523095328	-59.5401541753	-159.689851427	-23.7454775045	-11.6305698802
156375000.0	-21.8935844117	-151.152771882	-18.0640252219	96.4936725636	-60.1588716686	146.248114597	-23.7583901616	-11.2853772832
157062500.0	-21.9121689194	-155.340411701	-18.108876068	94.3016706811	-60.378847042	96.3317888091	-23.7695858429	-10.792162351
157750000.0	-21.9576872814	-159.453676835	-18.1535253047	92.1536082939	-61.2003047008	52.3234341984	-23.781927716	-10.3409008116
158437500.0	-21.9817109653	-163.460529566	-18.200903937	90.0758815786	-61.1015786659	18.8188803433	-23.8085353189	-9.89163836914
159125000.0	-22.0191690275	-167.40067152	-18.2455062686	88.0337073575	-61.4877974085	-23.5635586011	-23.8301485323	-9.40955628482
159812500.0	-22.0557485259	-171.187021379	-18.2899291419	86.0483746253	-61.0191356507	-63.2269235771	-23.8479263337	-8.89217017685
160500000.0	-22.1134201553	-174.976730661	-18.3329894913	84.0805893941	-61.1919510431	-93.4666258168	-23.8704320968	-8.46337935156
161187500.0	-22.1449449511	-178.589374206	-18.3741571691	82.1609918885	-61.1563133601	-118.149095948	-23.8862794782	-8.04114592277
161875000.0	-22.186474228	177.77602102	-18.4112316879	80.2618672341	-62.4255484866	-131.295798706	-23.9162753311	-7.54942907402
162562500.0	-22.228691339	174.293563464	-18.4544566419	78.373457677	-62.4097737841	-135.236289258	-23.954230238	-7.10008640831
163250000.0	-22.2668504035	170.75354327	-18.4925474077	76.5735177863	-62.6707122861	-148.109808125	-23.9989553123	-6.6448010335
163937500.0	-22.3171064801	167.435700068	-18.5357925155	74.7737035268	-62.7895934302	-158.963667432	-24.0300961873	-6.2380858568
164625000.0	-22.354745415	164.106317278	-18.5714819785	73.0039978404	-62.8846727871	-161.76349182	-24.0794253383	-5.70978071217
165312500.0	-22.4107899706	160.954774621	-18.6142795252	71.283869936	-62.6244180713	-172.055341888	-24.1208172034	-5.22828457778
166000000.0	-22.4723444752	157.814520519	-18.6486773243	69.5991113451	-62.5673721184	176.228533481	-24.1702714887	-4.83355105603
166687500.0	-22.5476919372	154.720650548	-18.6877715915	67.945790576	-62.3544664173	175.624794983	-24.2146012345	-4.42673749723
167375000.0	-22.6193044695	151.690349366	-18.7243450854	66.2815757836	-62.3772273757	166.786564726	-24.280895912	-4.10314765574
168062500.0	-22.7029464851	148.662730687	-18.7620716885	64.6442683388	-62.8124945154	154.295886635	-24.3487822392	-3.79225006817
168750000.0	-22.7786576456	145.70930729	-18.7993826241	63.0445822308	-62.9631883113	142.966648907	-24.4273497814	-3.56011210626
169437500.0	-22.8771534187	142.683726555	-18.8349196851	61.4402905421	-63.1162066845	138.525525087	-24.5003951479	-3.31923966552
170125000.0	-22.9674934331	139.752991987	-18.8677601147	59.9000606887	-63.017820761	139.845003645	-24.5754025151	-3.0881043584
170812500.0	-23.0744340523	136.731739837	-18.8959594636	58.3705180227	-63.430779986	141.250106481	-24.6616039526	-2.96496806123
171500000.0	-23.1673620612	133.759768729	-18.9231740635	56.8917848261	-63.0998393261	155.098221805	-24.7502689257	-2.86654174972
172187500.0	-23.2737724401	130.708678387	-18.9495478945	55.446302141	-63.4324773799	171.555780187	-24.8362277711	-2.87765838166
172875000.0	-23.3835358122	127.589881494	-18.9763392732	53.9945651962	-62.9303708127	-160.119949314	-24.9224539406	-2.96136139067
173562500.0	-23.4781825876	124.421691794	-18.9972487285	52.5848457973	-62.4721539433	-134.863535152	-25.0238424894	-2.9968346044
174250000.0	-23.5898119631	121.387205662	-19.0215494963	51.151935726	-62.3739029889	-111.607208925	-25.1157949901	-3.09741070579
174937500.0	-23.6806463088	118.08653889	-19.0439507523	49.7850636496	-61.9169410333	-84.9489014179	-25.2111017707	-3.29364158479
175625000.0	-23.785646471	114.837203753	-19.0636027042	48.4029772787	-62.3997641604	-66.2917020136	-25.2873069311	-3.4907970049
176312500.0	-23.883542838	111.469696237	-19.0778056481	47.0243298678	-61.9927139589	-49.4556153596	-25.3875837656	-3.7680798751
177000000.0	-23.9679463853	108.052624733	-19.0937088653	45.621849928	-62.2035768425	-28.8721288154	-25.4882034445	-4.14892360009
177687500.0	-24.02263999	104.584185088	-19.1082748076	44.2950524052	-61.848149086	-7.89811139173	-25.5848875535	-4.48613930231
178375000.0	-24.1064602773	101.119394927	-19.1250380068	42.94264813	-62.0947624884	19.4607817579	-25.6793366919	-4.85930659804
179062500.0	-24.1591653448	97.6798678002	-19.1360624348	41.6601368599	-60.5429132771	35.5192258238	-25.7616523584	-5.3780346729
179750000.0	-24.2057353733	94.1214927519	-19.147279969	40.3544317847	-60.888292071	41.3507041958	-25.8303494234	-5.81179920732
180437500.0	-24.244303747	90.5958824463	-19.154764694	39.0608177836	-60.4792063508	54.0471872684	-25.8868047783	-6.4007049604
181125000.0	-24.2619246782	86.934890788	-19.1658528468	37.7475744066	-60.4980488689	63.3764329643	-25.9440213732	-6.87692537231
181812500.0	-24.2777933849	83.4102291505	-19.1708904691	36.4524857223	-60.4049533196	68.2003725911	-25.9911525123	-7.41358956099
182500000.0	-24.2778937027	79.6623487243	-19.1741260091	35.1654922919	-60.8666034129	79.4254848488	-26.0543533325	-7.90208964493
183187500.0	-24.2543326941	76.0624915564	-19.1782210669	33.886843252	-60.7561313295	93.9166417973	-26.0987489804	-8.33029872938
183875000.0	-24.2223947391	72.4509543572	-19.178964042	32.5761315643	-60.5738101989	108.985337227	-26.1373834185	-8.87138534959
184562500.0	-24.1784147735	68.8635417224	-19.1842563081	31.3467529468	-60.7160532352	137.877867751	-26.1551115955	-9.34992432635
185250000.0	-24.127565097	65.1753426948	-19.1810830248	30.0665435479	-60.46582946	166.397393095	-26.170312631	-9.77095628383
185937500.0	-24.0703494378	61.6463207852	-19.180684972	28.8000565878	-60.1206466254	-177.850687605	-26.1799878181	-10.1009540689
186625000.0	-23.9985313806	58.1066478992	-19.1755794477	27.5359196067	-59.9198783406	-174.922241362	-26.1866626065	-10.4866397845
187312500.0	-23.9128378334	54.6391468376	-19.1751306149	26.2354878348	-60.1694908579	-173.107310083	-26.1734239474	-10.7297245589
188000000.0	-23.8163569614	51.1908521308	-19.1785535605	24.9718397399	-59.5648244046	-173.908295564	-26.1491935599	-11.1592010721
188687500.0	-23.7302475428	47.8473081741	-19.1792144529	23.698900672	-59.5951885311	171.228333159	-26.1175631396	-11.3040508172
189375000.0	-23.6283464082	44.548664978	-19.1736171956	22.4275096162	-59.4113981589	147.657086907	-26.0823251296	-11.4550806667
190062500.0	-23.5399030568	41.3700292367	-19.1709531683	21.1687380357	-59.5342615428	111.69778235	-26.0461525542	-11.5017644815
190750000.0	-23.4483569543	38.1833869288	-19.162161704	19.9161697842	-59.5612273755	88.3080952754	-25.9992397928	-11.4840364043
191437500.0	-23.3671261862	34.9699537379	-19.1579092668	18.6676620116	-59.3800859766	75.3482155362	-25.9563608783	-11.487697606
192125000.0	-23.2797125075	32.0550753701	-19.1483450632	17.4159027927	-59.0757135393	52.2039655174	-25.8990696566	-11.424317635
192812500.0	-23.1904825457	28.9815532699	-19.1428791026	16.151598897	-58.6459006715	38.5561619851	-25.8526393463	-11.2977309917
193500000.0	-23.1059769119	26.1029332316	-19.1333219401	14.965528727	-59.1013352172	26.1389622842	-25.785761225	-11.1769624591
194187500.0	-23.0346842952	23.1420479969	-19.1333667266	13.7246730877	-59.1432796351	17.4578203804	-25.7117858971	-10.9534139808
194875000.0	-22.9818090018	20.2656776033	-19.11987016	12.5244302749	-59.2506089299	3.48893909934	-25.64637955	-10.6629425528
195562500.0	-22.9158207895	17.2736577785	-19.1130147048	11.2821664882	-59.3710184528	-9.36210441744	-25.5757890178	-10.3722445081
196250000.0	-22.8643829857	14.3533838859	-19.1036172137	10.0635957843	-59.4388938878	-9.62346968379	-25.5164182594	-10.0383090191
196937500.0	-22.8160030978	11.4179775768	-19.0988633935	8.83175653744	-58.9259907685	-10.1623068048	-25.4464160256	-9.54139682308
197625000.0	-22.7811013994	8.58196640356	-19.0898571287	7.63768046253	-59.478743919	-20.996303793	-25.3778329319	-9.09033518234
198312500.0	-22.7509514197	5.66023690661	-19.0761155541	6.44437908349	-59.1835774812	-30.1043727561	-25.3175657423	-8.72928260804
199000000.0	-22.7398041417	2.69777702783	-19.0622352654	5.25480554381	-59.4350259094	-40.3960281329	-25.25762896	-8.28871468132
199687500.0	-22.7048950686	-0.23084652337	-19.0482891841	4.04146845112	-59.0419071731	-50.2644406138	-25.190542331	-7.89100297722
200375000.0	-22.6963973934	-3.17373049314	-19.0356479512	2.80305871107	-59.66776957	-64.1593198693	-25.1479456311	-7.36939280902
201062500.0	-22.6707515444	-6.18223315951	-19.0244937916	1.63832465617	-59.7012605879	-89.2226164397	-25.1039741513	-6.9272148118
201750000.0	-22.6639734863	-9.20671451087	-19.0049653927	0.410504777485	-59.372690864	-122.246459531	-25.0667147453	-6.39364214988
202437500.0	-22.6436426463	-12.1531016807	-18.9940709154	-0.733614371302	-59.4082338775	-150.00944502	-25.0348695664	-5.97703262419
203125000.0	-22.6393916597	-15.2146028228	-18.9766842592	-1.91986240369	-59.3551542755	-178.305874212	-24.987651461	-5.50119178975
203812500.0	-22.6039300934	-18.2147454348	-18.9576080456	-3.04943229882	-59.2657086517	161.331181231	-24.9402612022	-5.08456057922
204500000.0	-22.5938623934	-21.3746674273	-18.938604631	-4.19475519607	-59.2509222531	130.779098935	-24.9171078143	-4.67706249725
205187500.0	-22.5659464823	-24.4439088529	-18.9141967066	-5.33525641526	-59.2922553625	102.854956224	-24.8891664143	-4.1095996577
