#Frequency	|S11|	<S11	|S21|	<S21	|S12|	<S12	|S22|	<S22
100000000.0	-19.6473449782	120.678582439	-28.2084210482	-120.732109852	-63.3018394582	51.8248041844	-22.0969634959	-38.5900567844
100687500.0	-19.4829580177	118.117182336	-27.8168464348	-123.462431718	-62.1204999742	-7.48823382089	-22.1101889964	-38.3984283386
101375000.0	-19.3361302007	115.352549283	-27.4169338788	-124.879903309	-62.2257226653	56.2472645988	-22.1168551941	-38.0668269001
102062500.0	-19.2150459682	112.544109602	-27.0291271938	-126.407283142	-61.4586012275	101.424349955	-22.1597160551	-37.6593455218
102750000.0	-19.091253366	109.594314199	-26.6533130684	-127.692714372	-61.0643850889	153.853560687	-22.206762065	-37.3133896861
103437500.0	-18.9927743533	106.752677892	-26.3551231487	-129.22606886	-61.3267516609	159.358973109	-22.2545371486	-36.9759785174
104125000.0	-18.8999822489	103.745512319	-26.0654123741	-130.698231159	-60.5941178284	160.563125506	-22.321904781	-36.5467667143
104812500.0	-18.817249786	100.711285112	-25.8131451568	-132.079391045	-60.4029306045	161.813125798	-22.3780250109	-36.4141306734
105500000.0	-18.7356417286	97.5714802935	-25.5738732311	-133.529872595	-60.2458373209	145.907055229	-22.4334295318	-36.3089088582
106187500.0	-18.6641896794	94.3114815002	-25.3718988848	-134.875040881	-60.2183141198	121.843351374	-22.5018183019	-36.2213483622
106875000.0	-18.5948675999	90.9303428812	-25.2125082192	-136.16684897	-60.1276774971	88.8780967863	-22.5638230393	-36.1910537857
107562500.0	-18.5374620332	87.4702116365	-25.0779330208	-137.318627506	-60.7548745456	63.1327678914	-22.6290362394	-36.1298576651
108250000.0	-18.475935664	83.8431125596	-25.0045826058	-138.301847754	-60.5310845678	51.1137638061	-22.6806657189	-36.2258296337
108937500.0	-18.3979275649	80.4292539324	-24.8634416501	-139.381706916	-60.7528193844	35.676247481	-22.7282512139	-36.123611292
109625000.0	-18.3271873183	76.9364149082	-24.7463384079	-140.270877124	-61.1231124705	22.539935083	-22.7654399137	-36.0844342065
110312500.0	-18.2464496831	73.3512494441	-24.6526748622	-141.017124554	-60.8695659565	-3.75284500699	-22.8180422033	-36.0034034488
111000000.0	-18.1789515392	69.6566620516	-24.5785777127	-141.547463529	-60.7611325165	-42.7409473337	-22.8676382878	-35.9735154119
111687500.0	-18.1089362143	65.8756783087	-24.5404923714	-141.749456215	-60.8996740388	-83.7081888087	-22.9194005973	-36.0554818063
112375000.0	-18.048057078	62.0123459223	-24.5078675484	-141.522073668	-60.5903790002	-125.636556171	-22.9674979716	-36.1278503616
113062500.0	-17.9781975745	58.0494051133	-24.4765906996	-140.935509633	-60.7634351131	-174.65991974	-23.0062299217	-36.1552454932
113750000.0	-17.9209200583	54.0189849097	-24.4262920659	-139.949174646	-61.1308079962	130.00417511	-23.0509877061	-36.252775994
114437500.0	-17.8634567555	49.8917060444	-24.3320324814	-138.645696269	-60.8256834325	76.1095984221	-23.0972380042	-36.3250220811
115125000.0	-17.8064578965	45.6393036725	-24.1840692914	-137.049621259	-60.3676961038	34.5083463007	-23.1422852852	-36.4012323534
115812500.0	-17.755057933	41.2500626757	-23.9790969008	-135.21988029	-60.6417258868	-0.148311602721	-23.172883201	-36.4569873243
116500000.0	-17.7072941051	36.7925836367	-23.7181375296	-133.313681383	-60.5697079972	-38.5593352242	-23.2040185767	-36.5736197462
117187500.0	-17.6728904038	32.231857617	-23.4032033521	-131.403340768	-60.9233349184	-66.8666602197	-23.2235393079	-36.7115129775
117875000.0	-17.6502703912	27.5785666348	-23.0336692826	-129.524008174	-60.8114967584	-103.427326747	-23.2622686198	-36.6980638045
118562500.0	-17.6442393212	22.781521788	-22.6173499778	-127.679060325	-60.9704749354	-131.919566783	-23.2856941099	-36.7119177723
119250000.0	-17.6562121453	17.940260703	-22.1550112541	-125.898535653	-61.1547271979	-149.034319891	-23.3050294436	-36.6364623633
119937500.0	-17.6922538719	12.9904395245	-21.6571880776	-124.239651354	-61.3486126452	-171.688046225	-23.3088354784	-36.5953338614
120625000.0	-17.7440421081	7.9789803953	-21.1049460946	-122.775924612	-61.5594979156	172.862555447	-23.333769356	-36.5237374169
121312500.0	-17.8449341316	2.91776627828	-20.5246125653	-121.40999208	-61.8828537696	170.369425693	-23.3380186303	-36.4843197172
122000000.0	-17.971654844	-2.11032344924	-19.8935866252	-120.255155285	-62.0557636343	168.243672538	-23.3588004673	-36.3906377553
122687500.0	-18.1594293314	-7.11829466034	-19.2426921026	-119.285384006	-61.8343557767	154.709745636	-23.3685225619	-36.2740117445
123375000.0	-18.3805901444	-12.0735673045	-18.5584687041	-118.578494894	-61.4016645972	150.596479236	-23.3684152882	-36.1050375655
124062500.0	-18.6721132626	-16.8709948603	-17.8506216537	-118.015231399	-60.7972891603	136.429392747	-23.3713596508	-35.9034135128
124750000.0	-19.0265828287	-21.2405836605	-17.0996784073	-117.756219346	-60.8726165515	110.31955115	-23.3719501251	-35.6282829191
125437500.0	-19.4005262934	-25.2736025855	-16.330370984	-117.692837712	-60.8126551325	85.885769807	-23.3707348243	-35.3208033767
126125000.0	-19.8291035739	-28.6983352707	-15.5232429743	-117.94836303	-60.5571965199	74.179654924	-23.3826377281	-35.0270210531
126812500.0	-20.2398269174	-31.605256978	-14.7045950456	-118.421837002	-60.175708425	73.0878857201	-23.396539536	-34.6508277638
127500000.0	-20.6224358097	-33.86069521	-13.8461214637	-119.322652724	-60.0687068572	77.5760650663	-23.3966564012	-34.3376573046
128187500.0	-20.9742472799	-35.9738286022	-12.9858173759	-120.552306731	-60.0989876001	93.1025213874	-23.4026315466	-33.8888218043
128875000.0	-21.3014395445	-37.7762464547	-12.0935413575	-122.276265203	-59.8130462374	120.186141788	-23.3918093743	-33.3653997677
129562500.0	-21.588312586	-39.4220187786	-11.208992089	-124.511722604	-60.1609799979	150.817756353	-23.3881223182	-32.8358913401
130250000.0	-21.8572075816	-41.0108683218	-10.3232536606	-127.317715348	-60.4518255792	-177.503141442	-23.3982024977	-32.3107393695
130937500.0	-22.0847286645	-42.5487362116	-9.4779120528	-130.613765027	-60.3769169216	-138.304489584	-23.4031343724	-31.6955070897
131625000.0	-22.3041479801	-43.9508007016	-8.67475151623	-134.42026103	-60.5636900545	-106.641468782	-23.3974076598	-31.1553623738
132312500.0	-22.5023216923	-45.2893530133	-7.93201508591	-138.549716524	-60.7935892402	-76.330947718	-23.3955114355	-30.5330183718
133000000.0	-22.69347613	-46.5781392976	-7.24601315163	-143.035062833	-60.3331365652	-54.1687590302	-23.4034005794	-29.9706863426
133687500.0	-22.8616892955	-47.8269691556	-6.63573804814	-147.677798126	-60.3462812399	-39.567727405	-23.412157212	-29.3296763656
134375000.0	-23.0197261864	-49.0337135315	-6.07910513771	-152.482536567	-60.0057104516	-35.0660001275	-23.4227755993	-28.7621599206
135062500.0	-23.1471231397	-50.2502216702	-5.58306362751	-157.350072047	-60.4390278221	-29.9751813842	-23.4230204603	-28.1708136836
135750000.0	-23.2671784574	-51.3581628243	-5.14062755451	-162.266178641	-60.3201643174	-27.4629111918	-23.4208005965	-27.6341670162
136437500.0	-23.3565205268	-52.4819930562	-4.75164564576	-167.182561435	-60.4900026505	-23.1295338145	-23.4437435843	-27.1130778643
137125000.0	-23.4298554087	-53.5741842589	-4.4088348275	-172.078944217	-59.9774092587	-23.6329553861	-23.4689239827	-26.5929432867
137812500.0	-23.4725036499	-54.6090181055	-4.11602965357	-176.902706295	-59.8218301792	-31.0836041714	-23.4806525384	-25.9961369668
138500000.0	-23.4795670382	-55.661873561	-3.86177578567	178.340611206	-59.385313138	-42.8386403818	-23.4904252248	-25.540705751
139187500.0	-23.4522580726	-56.7867992485	-3.64857598578	173.677838458	-59.3510937405	-55.6553112991	-23.5021429339	-24.9437243586
139875000.0	-23.3699614552	-57.9543914769	-3.46681475503	169.120180934	-59.3096054735	-68.0436079221	-23.5178379483	-24.4364737589
140562500.0	-23.2578453687	-59.227959887	-3.31419215152	164.674118021	-59.3483675003	-91.1451937834	-23.5446966388	-24.0006642253
141250000.0	-23.0670662329	-60.6303262183	-3.1876980755	160.356598701	-59.7232258377	-113.237826492	-23.5594925203	-23.6038326303
141937500.0	-22.8304847105	-62.4548000234	-3.08588230592	156.163213323	-59.6008826999	-123.813035349	-23.595148501	-23.1927607364
142625000.0	-22.5669857415	-64.5683324838	-3.00330379845	152.096219658	-59.6131029045	-126.107099534	-23.6169527893	-22.7479960232
143312500.0	-22.2601287817	-67.3244631585	-2.93962705897	148.149107811	-59.4162659543	-137.859844243	-23.6403006957	-22.3364752446
144000000.0	-21.9706244499	-70.618489494	-2.89102669716	144.319304558	-59.6618234924	-151.226255553	-23.661242581	-21.9914000329
144687500.0	-21.7287021785	-74.4796739429	-2.85581378264	140.61410663	-59.8857857543	-169.987746927	-23.6892006038	-21.6366521691
145375000.0	-21.5032031809	-78.4382834958	-2.83266757806	137.021351275	-60.4112389545	162.171630373	-23.7200612521	-21.419727431
146062500.0	-21.3200677802	-82.6442382324	-2.82187031212	133.537539331	-60.2250747295	133.621256149	-23.7571621581	-21.1250089982
146750000.0	-21.1655885576	-86.9621808797	-2.81916337266	130.151544214	-60.2221016044	93.1478685422	-23.7938380736	-20.8502316906
147437500.0	-21.0513538086	-91.283070077	-2.82676385597	126.885911539	-60.0981504685	63.7834020251	-23.8145007112	-20.6010714506
148125000.0	-20.9736272252	-95.6365766008	-2.83607327917	123.701831105	-59.9686999079	24.6153868316	-23.8451169302	-20.3309609349
148812500.0	-20.9204025929	-100.070464438	-2.85348577138	120.61037983	-59.8089688394	-19.7524818837	-23.867708936	-20.0947020407
149500000.0	-20.883508255	-104.46678795	-2.87281515718	117.602419387	-59.8872472057	-76.2069723233	-23.9086793645	-19.831661281
150187500.0	-20.85500318	-108.834322139	-2.90100893702	114.688437865	-60.1347170843	-120.312511478	-23.9359680076	-19.5578923954
150875000.0	-20.8561254818	-113.142010712	-2.92636440589	111.846827717	-60.1992782884	-163.594224814	-23.9591056054	-19.2289592135
151562500.0	-20.8627185361	-117.469033227	-2.95996936146	109.090079862	-60.4172488771	164.483288472	-23.9869830904	-18.9556965885
152250000.0	-20.895284736	-121.659549905	-2.99298445799	106.393614198	-60.003875821	131.344432101	-24.0276327726	-18.6844157491
152937500.0	-20.916526903	-125.834062906	-3.03129238915	103.773421452	-59.9666596193	88.488833433	-24.0521793603	-18.3782633601
153625000.0	-20.9712772428	-129.943584019	-3.06670758765	101.215388957	-59.8473700732	45.6083998833	-24.088658812	-18.0248653513
154312500.0	-21.0109003426	-133.951190945	-3.1063152592	98.7199594839	-60.4458677917	8.53600703113	-24.1082140334	-17.7812550916
155000000.0	-21.0698347072	-137.945642861	-3.14547492756	96.2690650874	-60.4728648344	-22.3201407412	-24.1420628852	-17.5027410952
155687500.0	-21.1179650337	-141.877088409	-3.18766168008	93.8863838741	-60.9336001573	-63.015637429	-24.1762928187	-17.0897426596
156375000.0	-21.1936789083	-145.708934543	-3.22677682341	91.5491650467	-60.8348770985	-90.6500660296	-24.1888642661	-16.7867401369
157062500.0	-21.2542760668	-149.489079661	-3.26891704603	89.2732036709	-61.0367662327	-107.08409814	-24.2086039765	-16.3636857505
157750000.0	-21.3254960122	-153.202806998	-3.31043967133	87.034624135	-60.9215122221	-122.000724203	-24.2333957981	-15.9723877447
158437500.0	-21.3998434273	-156.839428891	-3.35412378583	84.8376112811	-61.2152431338	-134.132103198	-24.2620306292	-15.5323350167
159125000.0	-21.4719014676	-160.442691458	-3.39481559069	82.6994520677	-61.2264113137	-150.655093345	-24.2814759505	-15.0640526268
159812500.0	-21.5529318374	-164.02775807	-3.43923245551	80.6017575503	-61.2649407847	-172.01677884	-24.310335535	-14.6217859126
160500000.0	-21.6354741181	-167.447262688	-3.48063024088	78.541781825	-61.243764108	171.031910424	-24.3362119125	-14.2146378521
161187500.0	-21.7217623268	-170.833232175	-3.52339972693	76.5182791181	-61.2382395626	144.240449733	-24.3606845389	-13.7531390087
161875000.0	-21.8054384413	-174.143623612	-3.56469677781	74.5254519282	-61.2516460577	127.811387488	-24.3974374138	-13.2076396933
162562500.0	-21.9142857634	-177.428769967	-3.60675554528	72.5737385014	-60.8048468208	113.362862654	-24.4310784579	-12.6930002583
163250000.0	-22.0019799919	179.301803825	-3.64743237044	70.6520802496	-61.2189034604	85.7514300738	-24.4902031536	-12.2219108696
163937500.0	-22.1223826432	176.120437922	-3.68902810992	68.7658917673	-60.9079403175	58.6140376122	-24.5360533082	-11.7837474951
164625000.0	-22.2267760273	172.955521105	-3.72801175131	66.9077381428	-60.8576247993	31.676574096	-24.5932681314	-11.358722707
165312500.0	-22.349453275	169.894419057	-3.7692499277	65.0868622407	-61.4816079136	6.466678166	-24.6404155929	-11.0590670046
166000000.0	-22.4612756793	166.869938194	-3.80685473054	63.2855138499	-61.5323111555	-6.39764959137	-24.7009229307	-10.6819611063
166687500.0	-22.6065148215	163.846163719	-3.84636537407	61.5144729884	-61.7004116205	-19.172926483	-24.7591101311	-10.3433051498
167375000.0	-22.7416258817	161.000031365	-3.8835118812	59.7784154966	-61.7867220333	-34.8624863371	-24.8369111822	-10.0429466435
168062500.0	-22.882570533	158.06387619	-3.92276893125	58.0612363096	-61.5547502642	-47.9887103915	-24.8996353121	-9.81124955448
168750000.0	-23.0326984316	155.222763123	-3.95909856774	56.376854754	-61.9655661069	-70.1303309763	-24.9816058333	-9.6331015964
169437500.0	-23.1853009165	152.310461385	-3.99709648518	54.7216434337	-62.0697283965	-81.5325554045	-25.0566033412	-9.38317674673
170125000.0	-23.3522865845	149.454731267	-4.03092732327	53.0762862346	-62.1802481482	-86.8575372378	-25.1476634411	-9.27499113243
170812500.0	-23.5167907532	146.589286157	-4.06664639097	51.4592748476	-61.8953116137	-101.386782945	-25.2283103875	-9.15921426394
171500000.0	-23.701797443	143.623611563	-4.09906340736	49.8680212807	-61.4458846397	-114.049748062	-25.318974784	-8.98871747627
172187500.0	-23.8881287954	140.633550898	-4.1300783994	48.3128326065	-61.192202143	-128.615727088	-25.4080213671	-8.97715177372
172875000.0	-24.1001873659	137.55357111	-4.1591936935	46.7605460688	-60.928356479	-142.768977806	-25.485398273	-9.10192457898
173562500.0	-24.2809999158	134.395860819	-4.19062460447	45.2416818094	-60.8703760299	-157.383943592	-25.5979563638	-9.17173929809
174250000.0	-24.503178605	131.179040747	-4.21708266566	43.7352297083	-60.5384509208	-178.740383005	-25.6940849825	-9.417893025
174937500.0	-24.6811048205	127.85563069	-4.2428976276	42.255999529	-60.6056797332	166.767693199	-25.7871839272	-9.73384619211
175625000.0	-24.8859966448	124.404101952	-4.26492936395	40.7801809018	-60.3220491199	150.855684746	-25.8825847816	-9.98457777866
176312500.0	-25.0674731516	120.817539011	-4.28896802113	39.3333374573	-60.4871819986	136.633007396	-25.9864507343	-10.3534624154
177000000.0	-25.2440100395	117.197593896	-4.3068962916	37.8896299993	-60.4581566971	130.514902699	-26.0882054542	-10.8417813692
177687500.0	-25.3875069697	113.475513843	-4.32777081611	36.4656480883	-60.7967869347	118.686094129	-26.1829749431	-11.2675752694
178375000.0	-25.5382506153	109.782803081	-4.34315962399	35.0462909465	-60.774091757	119.258060426	-26.273603254	-11.7342453018
179062500.0	-25.6753910181	105.995246913	-4.36289911581	33.6502401032	-60.5806211125	111.429070981	-26.3538518235	-12.381208222
179750000.0	-25.7961784339	102.141660565	-4.37636102793	32.2532266053	-60.3411103067	100.342664215	-26.4310402687	-12.9621744911
180437500.0	-25.9136286956	98.2042431385	-4.39207591384	30.8631745737	-60.0632716586	100.119348773	-26.4750514092	-13.593036217
181125000.0	-25.9858521617	94.0838217676	-4.40150755647	29.4808616003	-60.1724120076	112.094063701	-26.5449155043	-14.1089502761
181812500.0	-26.072513121	90.1326642345	-4.413934205	28.1097508376	-59.8804592833	118.879721151	-26.5934830589	-14.6586155311
182500000.0	-26.1163560585	86.0410652992	-4.42114633252	26.7416432324	-59.2090389627	130.097342582	-26.6570197014	-15.0688640797
183187500.0	-26.1584247758	82.043585259	-4.43220930044	25.3975619409	-59.3386630703	131.436700334	-26.6898702974	-15.5155758962
183875000.0	-26.16170778	78.0959625544	-4.43874039979	24.0436762395	-59.0098350023	143.802642283	-26.7180368232	-15.9936202711
184562500.0	-26.1841937579	73.953484808	-4.44749961952	22.7119509992	-58.8972914253	151.327269744	-26.7182711971	-16.5580809049
185250000.0	-26.1588055537	69.9050218653	-4.45021523474	21.3769147038	-59.6774173765	165.995655811	-26.738938804	-16.9741053613
185937500.0	-26.1404357168	65.860093868	-4.45678493767	20.0439609326	-59.4580283734	-178.425691229	-26.7301808854	-17.3463992758
186625000.0	-26.1027279318	61.9300990282	-4.45757926568	18.7239533578	-59.5073232913	-164.636425208	-26.7314744679	-17.6663507069
187312500.0	-26.057172957	57.9151198361	-4.45910308055	17.4060602461	-59.4103130803	-156.071718675	-26.7049546333	-17.9654245506
188000000.0	-25.9918272026	54.0016112485	-4.45870171515	16.0918944903	-59.5848554285	-150.960987999	-26.6809189453	-18.2712785879
188687500.0	-25.9311880522	50.1292642074	-4.46127468845	14.778087443	-60.020896377	-142.063216955	-26.6566015907	-18.5622056009
189375000.0	-25.8461998506	46.3275815306	-4.46140795889	13.466070303	-60.2240809544	-138.012700608	-26.6257901024	-18.7061571794
190062500.0	-25.7496858761	42.6135464438	-4.46141525067	12.1653572992	-59.9947361647	-123.64763523	-26.5926103187	-18.7143744994
190750000.0	-25.6608625807	39.0178758886	-4.45763892101	10.8757631196	-60.5938771949	-115.980024243	-26.5518865319	-18.7153155219
191437500.0	-25.5562373671	35.4746390515	-4.45693031965	9.58890436978	-60.7391868243	-104.948320227	-26.5082717472	-18.6190889594
192125000.0	-25.4745229353	32.0033457939	-4.45556146365	8.3071949916	-61.0692426698	-90.6264283557	-26.444578552	-18.4422285353
192812500.0	-25.3621691632	28.5614679452	-4.45324158901	7.03483824655	-61.1667364592	-81.0984054197	-26.3969644445	-18.3358827292
193500000.0	-25.2917979059	25.2984497964	-4.45055222204	5.75271353731	-60.9536170533	-76.4151208128	-26.3269226922	-18.1539229195
194187500.0	-25.1957313438	22.0505577558	-4.45073422991	4.48354740307	-61.3464285111	-84.9833859967	-26.2538400321	-17.7661950512
194875000.0	-25.1490369268	18.8068592793	-4.44668845765	3.21062315749	-61.1533245917	-82.1629386786	-26.1882562823	-17.3884292814
195562500.0	-25.0738020518	15.47944999	-4.44407369908	1.94946162673	-60.9425512331	-85.6146179088	-26.142996999	-16.9642052819
196250000.0	-25.0198069571	12.2044719812	-4.43646623413	0.69384575751	-60.82704421	-85.7068770935	-26.0881109357	-16.4642250701
196937500.0	-24.9446633902	8.89914241494	-4.43178121975	-0.561461901949	-61.2312401014	-72.8135977839	-26.0283222358	-15.863281107
197625000.0	-24.9006795038	5.68639428874	-4.4232951059	-1.79834278317	-61.3714390359	-70.4989111201	-25.9639405237	-15.2980576147
198312500.0	-24.8582121668	2.55858381373	-4.41829155951	-3.02207839222	-61.3084314574	-67.9642078743	-25.8937167149	-14.7949418669
199000000.0	-24.819301696	-0.72976059908	-4.40778707542	-4.25912004899	-61.9743930064	-72.8848423968	-25.8239382863	-14.3641885142
199687500.0	-24.7771987998	-3.92343703067	-4.40172864375	-5.47858408184	-61.7764450015	-71.8696637751	-25.7692169675	-13.8597040032
200375000.0	-24.7395960569	-7.19892095834	-4.39141021607	-6.71777976475	-61.7432769776	-72.1371650593	-25.7279524335	-13.3789383884
201062500.0	-24.703363929	-10.5754774796	-4.38444163293	-7.93033728131	-61.651958494	-83.3218655506	-25.7062423867	-12.8644065974
201750000.0	-24.6511246196	-13.8653751578	-4.37122304447	-9.16288841842	-61.7204149181	-89.7544987548	-25.6687589813	-12.3135146685
202437500.0	-24.6223583399	-17.1613551789	-4.36346177695	-10.3694740256	-61.3798425657	-104.856921441	-25.6440805826	-11.8531284667
203125000.0	-24.5746172653	-20.4289110487	-4.34803946514	-11.5846948266	-61.2987835348	-118.86950877	-25.6038858396	-11.3063126958
203812500.0	-24.5191897924	-23.7592427131	-4.33784635753	-12.7862482326	-61.2459415961	-130.685667748	-25.5738799082	-10.8774067363
204500000.0	-24.4603352729	-27.1019416889	-4.32425281248	-13.997315374	-61.2838736604	-131.94121703	-25.5558496426	-10.4241161044
