#Frequency	|S11|	<S11	|S21|	<S21	|S12|	<S12	|S22|	<S22
100000000.0	-16.0032107005	139.15511288	-26.3904750052	-127.814524066	-67.904259867	20.9423710903	-21.8424000286	-39.4055627626
100687500.0	-15.9834245458	136.212439401	-26.1855396581	-128.607925704	-66.9225981458	-141.170026269	-21.9412577695	-39.707669815
101375000.0	-15.9445611079	133.390848063	-25.8406946647	-129.872309696	-65.3744397997	160.981433675	-22.0116436115	-39.4854821133
102062500.0	-15.9138268573	130.363529183	-25.4773424016	-131.268502491	-67.6775885883	133.273403154	-22.0656518464	-39.15104063
102750000.0	-15.8877296727	127.301691406	-25.1629587827	-132.569159536	-64.9710359853	68.4912745035	-22.1135215959	-38.769952276
103437500.0	-15.8690219437	124.326964262	-24.873580594	-134.053076965	-64.3798575137	26.5962694558	-22.1585997817	-38.3742978328
104125000.0	-15.8518627598	121.194934157	-24.6004099551	-135.541856186	-63.0934047276	25.0055586692	-22.2365441949	-37.9391956767
104812500.0	-15.8441529421	118.025300381	-24.3497632499	-136.96852151	-62.750300679	6.37165967992	-22.3001669007	-37.7004387
105500000.0	-15.840788204	114.721613304	-24.1344989861	-138.55597121	-62.6118932689	-25.6986624228	-22.357264418	-37.5234077255
106187500.0	-15.8527041924	111.341926604	-23.9539325009	-140.064301425	-62.3050934872	-33.6610648272	-22.4270462509	-37.4131798908
106875000.0	-15.8731610722	107.862356601	-23.8115898004	-141.557937121	-62.5824684632	-39.9190031923	-22.4967490528	-37.3403145214
107562500.0	-15.9146903658	104.221388053	-23.7082997271	-142.904341598	-62.420479122	-41.4553116634	-22.5584123345	-37.2246892769
108250000.0	-15.9594240969	100.413245184	-23.6403426056	-144.140760355	-62.525870761	-54.4126353026	-22.6148734981	-37.207345051
108937500.0	-15.9823373991	96.7920517917	-23.516403649	-145.343826082	-62.2068008809	-78.3350687109	-22.6708972801	-37.0582416977
109625000.0	-16.0126816757	93.1483972687	-23.4128712336	-146.480050104	-62.6685445974	-98.7886382631	-22.7129649323	-36.9180750687
110312500.0	-16.0464223596	89.3170623313	-23.3496372484	-147.325642471	-62.2128901096	-113.510643986	-22.7641491731	-36.8942281323
111000000.0	-16.0917713593	85.3985947413	-23.3124983374	-147.970135929	-62.5709233505	-132.811512352	-22.8093738422	-36.8046273551
111687500.0	-16.1405389258	81.3901603057	-23.3037300433	-148.241785987	-62.2406947841	-145.195702329	-22.8614311289	-36.8074803289
112375000.0	-16.1993303883	77.2846880081	-23.3072729455	-148.151888604	-61.9125382507	-164.991848608	-22.9111102671	-36.8307527811
113062500.0	-16.2609197655	73.0666293126	-23.3128690457	-147.605552222	-61.2733824634	-179.014783864	-22.9667659238	-36.8213097341
113750000.0	-16.3355682789	68.7084780696	-23.2802663616	-146.615939908	-61.8255910153	167.043019639	-23.0214023945	-36.846347881
114437500.0	-16.4223246744	64.2727263963	-23.2024351515	-145.295140518	-62.2509304489	152.660050762	-23.0718450796	-36.8929546671
115125000.0	-16.5193788485	59.6014218005	-23.0753705992	-143.704351257	-61.9884340913	128.082691981	-23.1263653877	-36.9490891092
115812500.0	-16.6167828044	54.8295126371	-22.8897047812	-141.947287777	-62.6097899523	110.261387936	-23.1706626716	-36.9565128626
116500000.0	-16.7347111998	49.8760126509	-22.6444849502	-140.071742162	-62.7938760179	81.0038179347	-23.2049382035	-37.0682329598
117187500.0	-16.8660058126	44.8623754929	-22.3473434004	-138.200000359	-63.1004267668	44.9293116828	-23.2421089523	-37.1090334999
117875000.0	-17.0265940383	39.6086716479	-21.9997393672	-136.344509988	-63.5823340287	18.5834568077	-23.279405336	-37.1153534322
118562500.0	-17.2046117501	34.2966811712	-21.6030631272	-134.530227342	-64.0268097032	-8.32744935843	-23.3131492323	-37.0757376369
119250000.0	-17.420548051	28.7664287965	-21.1585299301	-132.722691149	-64.2264306804	-24.2604414735	-23.3429682369	-36.9798706768
119937500.0	-17.6625152243	23.1434739082	-20.6713736096	-131.069128249	-63.9878324886	-49.2490494317	-23.3626464188	-36.9143978467
120625000.0	-17.9506648292	17.3101290842	-20.1443157089	-129.511083739	-63.8010575685	-76.5703470327	-23.385480016	-36.8479941323
121312500.0	-18.2935076943	11.3393166172	-19.5732369256	-128.141685303	-63.7024730573	-103.721641373	-23.3954129027	-36.7258090322
122000000.0	-18.6912300372	5.23209972101	-18.96478027	-126.875450118	-63.6385109313	-140.461171231	-23.4213075729	-36.6396332953
122687500.0	-19.1670149449	-1.01715625516	-18.3206021263	-125.819468944	-63.2793532142	-165.788413831	-23.4345231037	-36.4347040537
123375000.0	-19.7385305124	-7.19674273429	-17.6434028736	-124.952560727	-63.3258748322	166.686345888	-23.4453651851	-36.2686143602
124062500.0	-20.4987403386	-13.7252248721	-16.9353417245	-124.293654827	-63.1913969742	137.908385529	-23.449188449	-36.0527039686
124750000.0	-21.5533352178	-19.2406805243	-16.2036597121	-123.826374962	-62.8391595479	121.680263798	-23.458596668	-35.8032485948
125437500.0	-22.7016763285	-19.486576464	-15.438080397	-123.6040192	-62.7211459358	95.5269271484	-23.467620751	-35.4283310546
126125000.0	-23.4644852475	-19.6611159596	-14.642214657	-123.627983547	-62.6623142747	78.4332514212	-23.4865649088	-35.129141537
126812500.0	-24.0789679134	-19.7983998139	-13.8152731557	-123.958188931	-62.3347405819	58.4749330865	-23.5021586049	-34.7092674696
127500000.0	-24.5723871136	-20.1207565911	-12.9537538922	-124.698861558	-62.1750720723	42.5196129583	-23.5144381453	-34.3217598877
128187500.0	-24.9959141848	-20.4507342978	-12.0617656032	-125.856196486	-61.9293850399	24.2733640439	-23.5244459981	-33.8487972676
128875000.0	-25.3726965192	-20.8877962479	-11.1627085298	-127.516175881	-61.7978987689	0.77193646188	-23.530413516	-33.3432335602
129562500.0	-25.6955884023	-21.4797612003	-10.2478081656	-129.670472588	-62.0200400688	-12.832319988	-23.5224467669	-32.7211773716
130250000.0	-25.9954398219	-22.0677906994	-9.34846014804	-132.4809407	-62.0235371325	-38.1142932986	-23.5386112482	-32.2194309517
130937500.0	-26.2492039918	-22.7714361876	-8.4814677187	-135.874624332	-61.4410889074	-55.1924463322	-23.5366361805	-31.6056556505
131625000.0	-26.4888159678	-23.3931308293	-7.67676366043	-139.729026215	-61.0044271678	-67.6784957792	-23.5334044374	-31.0456425822
132312500.0	-26.7103803401	-24.1492234885	-6.924203065	-143.930170094	-61.019952214	-71.1387759787	-23.5311798095	-30.3392023135
133000000.0	-26.9082387392	-24.8786029514	-6.23914106259	-148.454541553	-60.910604327	-80.838303674	-23.5345015857	-29.7982043389
133687500.0	-27.0861915606	-25.692160662	-5.62344726239	-153.158515341	-60.7178876916	-79.3655849386	-23.541694937	-29.0672347914
134375000.0	-27.2481692309	-26.4657817607	-5.0682822986	-158.021975317	-60.6179163346	-82.6244177062	-23.542649007	-28.4947985974
135062500.0	-27.3707820714	-27.3017214555	-4.5717037644	-162.955295427	-60.2490721495	-88.7884371227	-23.5498604876	-27.8937671325
135750000.0	-27.4743366347	-28.1206584851	-4.13299951323	-167.942645497	-59.9332048106	-91.1137955364	-23.5523687361	-27.3800976122
136437500.0	-27.5352889225	-28.9329998445	-3.74603317792	-172.923003655	-59.6760571778	-94.7096301588	-23.5596247847	-26.8414933704
137125000.0	-27.5704481236	-29.7924535312	-3.40850993432	-177.899533071	-59.865874748	-98.4940057851	-23.5858302922	-26.2537831868
137812500.0	-27.5530746015	-30.4924059493	-3.11633796159	177.206563424	-59.9165662695	-106.915356087	-23.6034003084	-25.6541390522
138500000.0	-27.4765780907	-31.1989983027	-2.86623623692	172.341379243	-60.1820132039	-105.386093039	-23.6245686464	-25.1180505337
139187500.0	-27.3364180742	-31.8330344695	-2.65791542761	167.589919225	-60.155888554	-104.907520793	-23.6389644444	-24.5126215577
139875000.0	-27.1208205542	-32.5256934971	-2.48572331087	162.908608343	-59.9881861946	-106.852121443	-23.657184164	-23.9730789874
140562500.0	-26.7919196111	-33.2874154774	-2.34641538809	158.359158866	-60.1584573067	-120.009227115	-23.6909774123	-23.4481320413
141250000.0	-26.2789956077	-33.7559324617	-2.23420932105	153.920171978	-60.2172547319	-128.086309821	-23.7120712152	-22.9632615358
141937500.0	-25.469804998	-35.2340015226	-2.15063300252	149.622578273	-60.4044526999	-141.047959147	-23.7355004124	-22.5558677113
142625000.0	-24.5622190507	-42.0742244579	-2.08745703139	145.43857908	-60.8346976014	-142.56976944	-23.7557394376	-22.1473985547
143312500.0	-24.0327551321	-48.9270887732	-2.04908893147	141.398532058	-61.2214022799	-154.834062338	-23.7762362732	-21.7416384195
144000000.0	-23.6488931443	-55.9294701506	-2.02645796356	137.481185332	-60.8669246916	-168.397531871	-23.8079895192	-21.3690867022
144687500.0	-23.3733019722	-62.6561075181	-2.02021559444	133.711461443	-61.3937074919	169.241587467	-23.8429324458	-20.948667776
145375000.0	-23.1611054206	-69.4321686774	-2.02545994897	130.072724651	-61.2741338344	150.388379456	-23.8689878442	-20.6363128471
146062500.0	-22.989577958	-76.0294205859	-2.04359089334	126.555416768	-61.5787695525	133.810966178	-23.905544085	-20.2887532414
146750000.0	-22.8596623967	-82.406213551	-2.07051629212	123.157215611	-61.5497182019	106.60653266	-23.9425279927	-19.9741586891
147437500.0	-22.7584273534	-88.7047048188	-2.10827682539	119.887479182	-61.3234048445	92.6432256484	-23.969110701	-19.7132409222
148125000.0	-22.6882584647	-94.7945959725	-2.14964219033	116.728176761	-61.3968652854	69.1393223955	-23.9993271684	-19.4549049011
148812500.0	-22.6261200828	-100.989618203	-2.19801424655	113.678447199	-61.4576483496	55.1483427408	-24.0347563844	-19.1219320526
149500000.0	-22.5645529252	-106.828435248	-2.24892788446	110.727205717	-61.454635942	44.4619872556	-24.0844156848	-18.8308374211
150187500.0	-22.523086014	-112.687305281	-2.30232979991	107.88948063	-61.20561861	41.9575695674	-24.115572306	-18.4624378983
150875000.0	-22.4836048186	-118.235509056	-2.3565236014	105.142292169	-61.1765820404	30.8477666855	-24.1424198908	-18.1328918152
151562500.0	-22.441071201	-123.896295663	-2.41419809493	102.479563835	-60.9420590029	27.8508095081	-24.1679187091	-17.8108824433
152250000.0	-22.4151670634	-129.20370387	-2.47273624053	99.9102413341	-60.7944979676	19.8862711511	-24.1951440686	-17.4112099601
152937500.0	-22.3851845516	-134.474980011	-2.5328004816	97.4091560323	-60.4812886345	9.0444515434	-24.2257330929	-16.9982073546
153625000.0	-22.3682306002	-139.481863607	-2.59060074208	94.9763343867	-60.5991397837	2.26730422357	-24.2710621316	-16.5895411759
154312500.0	-22.3317457696	-144.43431942	-2.64834076019	92.6151616657	-60.64302016	-6.60126223693	-24.2775903737	-16.2513824948
155000000.0	-22.3080195786	-149.250761272	-2.70752250475	90.3020957499	-60.8381813258	-20.0781161918	-24.3021171633	-15.8398946909
155687500.0	-22.2814208344	-153.918467695	-2.76501356293	88.0711742194	-61.0254311837	-35.8730012956	-24.3342105126	-15.3613845211
156375000.0	-22.2653980895	-158.54357046	-2.82227924119	85.8706051373	-61.5448866766	-41.0990271854	-24.3569004886	-14.9488014281
157062500.0	-22.2300106188	-162.923684087	-2.87784611085	83.7508188132	-61.4660422527	-54.0692776521	-24.3826740033	-14.4608782695
157750000.0	-22.2129019835	-167.221498038	-2.93341655511	81.6580826227	-61.43813464	-67.602839989	-24.4038843106	-14.056159541
158437500.0	-22.1846080031	-171.380983368	-2.98848566384	79.6247286606	-61.4397941272	-83.6106042527	-24.4310426341	-13.5074545368
159125000.0	-22.1559259557	-175.463742206	-3.04029629608	77.6217632824	-61.1614504557	-95.7071459131	-24.4736424317	-12.9670195507
159812500.0	-22.1271958734	-179.416542928	-3.09138722253	75.6797110742	-60.9972584532	-121.938582332	-24.4999884378	-12.3850474828
160500000.0	-22.1154937722	176.698739337	-3.13985009893	73.7567636019	-60.6880327597	-137.273379095	-24.5372523036	-11.924655149
161187500.0	-22.0895389886	173.034992102	-3.18884175129	71.8785378399	-60.5276275536	-150.929461419	-24.556778597	-11.3890718007
161875000.0	-22.0813218493	169.394736813	-3.2356112895	70.0226509413	-59.9402040039	-154.561298676	-24.5979864318	-10.8407511609
162562500.0	-22.069682476	165.941625518	-3.28243930528	68.2185804728	-60.3289867947	-159.327041082	-24.6395192802	-10.3277551949
163250000.0	-22.0588055268	162.462153937	-3.32880298712	66.4310685759	-60.1343744786	-160.690719737	-24.6902048235	-9.74187509441
163937500.0	-22.0552444602	159.12681794	-3.37325241783	64.6882554864	-60.5507016891	-159.149387753	-24.7381153343	-9.2546883553
164625000.0	-22.0449072965	155.797451351	-3.41329767576	62.9506729325	-60.6997948127	-159.15429103	-24.7902030161	-8.70225295299
165312500.0	-22.0408157301	152.525757218	-3.45615590004	61.2659066639	-60.6313195843	-156.934936123	-24.8502290357	-8.17302613428
166000000.0	-22.0528486835	149.418216753	-3.49433661826	59.5932633755	-60.674502925	-168.913418165	-24.9123087838	-7.74927702058
166687500.0	-22.0660106467	146.221741324	-3.53440070416	57.9536986092	-60.3801728873	166.157971758	-24.9650960049	-7.29879392551
167375000.0	-22.0826212221	143.245342115	-3.57252984449	56.324552323	-60.4664332713	134.20625307	-25.0503292723	-6.91840274471
168062500.0	-22.1045597803	140.157302861	-3.61124478404	54.7219407264	-60.7617660017	106.02175933	-25.1291994909	-6.61307603034
168750000.0	-22.1329988009	137.29123357	-3.64527652037	53.1498056382	-60.8300180363	79.4038061289	-25.2269620141	-6.2552315442
169437500.0	-22.1567266043	134.305334974	-3.68054757462	51.5950359639	-60.8311350297	52.1332214922	-25.321376204	-5.98838706698
170125000.0	-22.1909589385	131.417612085	-3.71122707609	50.0567842024	-60.8792413483	23.5699166294	-25.416371106	-5.79630668602
170812500.0	-22.2201686531	128.422298458	-3.7439490717	48.5423030908	-60.7897068197	-4.72721288505	-25.5085921607	-5.58757697256
171500000.0	-22.2671017269	125.597509835	-3.77578795436	47.0515063222	-60.4451582112	-32.8594079904	-25.6279710649	-5.4391377557
172187500.0	-22.3096829881	122.548067111	-3.80202461334	45.5831663638	-60.3936830525	-61.9059183575	-25.7380250318	-5.42512305109
172875000.0	-22.3567885859	119.620692386	-3.8291621987	44.1216561868	-60.085043091	-88.7322197926	-25.8315856683	-5.39693594936
173562500.0	-22.3909563075	116.629517635	-3.85546133605	42.6911351973	-59.7154575477	-113.257434516	-25.9546520194	-5.43134382633
174250000.0	-22.4430694225	113.735604168	-3.87806629631	41.2700002323	-59.9546896962	-132.04955858	-26.0522625681	-5.59084183559
174937500.0	-22.4739240646	110.645408229	-3.89821831179	39.8628681613	-59.6757080528	-145.936157445	-26.1615678031	-5.72548624286
175625000.0	-22.5132876031	107.579728497	-3.91577210777	38.463251099	-59.6343851283	-148.455127961	-26.2593710299	-5.96533970927
176312500.0	-22.5555171338	104.389405308	-3.93332049427	37.0982849376	-59.6320072871	-151.185725509	-26.3700906277	-6.27461003909
177000000.0	-22.5888148953	101.339907075	-3.95049260833	35.7331098978	-59.6336866046	-150.426322347	-26.4869241299	-6.66914291642
177687500.0	-22.5980365798	98.2145696668	-3.96525455924	34.3857707472	-59.590873081	-156.54873866	-26.6095441191	-7.04183333446
178375000.0	-22.61745133	95.023915361	-3.97747454712	33.0424433679	-59.6442150109	-153.220265541	-26.7302396725	-7.39025315668
179062500.0	-22.6179779322	91.9214632049	-3.98826215329	31.7181469591	-59.6634696913	-149.359714737	-26.8314311468	-7.98425877339
179750000.0	-22.6193513512	88.7091518158	-3.99659322005	30.3908115161	-59.4349218395	-138.196754085	-26.9278602878	-8.4947070436
180437500.0	-22.6069247817	85.5325227032	-4.00213071125	29.0793477171	-59.446316284	-134.975373762	-27.0106506208	-9.1608015192
181125000.0	-22.5884441405	82.1744082783	-4.00747011202	27.7550820888	-59.2621538892	-122.131320779	-27.09225904	-9.66406538197
181812500.0	-22.5623920657	79.0153111767	-4.01226644058	26.464387284	-59.1707038312	-120.430570607	-27.1602914512	-10.2094113491
182500000.0	-22.5286626521	75.7052618018	-4.01371890793	25.1538568795	-59.3654828887	-108.412597623	-27.2377228583	-10.710308499
183187500.0	-22.4668505569	72.5107777206	-4.01647739297	23.8681435993	-59.4251578192	-92.9825985786	-27.3005998658	-11.1606502477
183875000.0	-22.4177003814	69.3252091888	-4.01494520137	22.5741594194	-59.4837669938	-76.963832216	-27.3469385463	-11.7357056682
184562500.0	-22.3491444042	66.1302169704	-4.01375817034	21.2920310438	-59.515693038	-55.9784072594	-27.3636302567	-12.3191351482
185250000.0	-22.2769934584	62.9775640931	-4.01069484334	20.0002724107	-59.285961344	-39.7044270248	-27.3985938881	-12.7843248998
185937500.0	-22.2033921057	59.8704564274	-4.00994977158	18.7233983505	-59.3027096358	-25.5703055642	-27.3887754732	-13.1753713881
186625000.0	-22.128510868	56.8039381194	-4.00411501734	17.4318273853	-59.402917468	-9.92244528555	-27.4123478386	-13.5749063643
187312500.0	-22.0372952235	53.673964294	-4.00064201536	16.1602290248	-59.6325499301	17.4195063743	-27.3935070591	-13.8379526121
188000000.0	-21.9490062789	50.7012578444	-3.99336502187	14.8830118727	-59.8176748608	31.6819957461	-27.382843557	-14.245203654
188687500.0	-21.8512166066	47.691831642	-3.9861317609	13.6222565866	-60.2149924822	47.1067464785	-27.3508376771	-14.4842081579
189375000.0	-21.7593302026	44.8562785327	-3.97868762218	12.3551520601	-60.0084828719	74.4401613485	-27.3391620933	-14.6512744301
190062500.0	-21.6622396636	41.9498541919	-3.97027317714	11.0977859718	-59.9588301469	91.5316942177	-27.3113734006	-14.7272471799
190750000.0	-21.5805546845	39.1735060142	-3.95817625759	9.83789049526	-59.8114284735	104.67553076	-27.2745300455	-14.7578383401
191437500.0	-21.4970638188	36.2893517968	-3.94822354806	8.59233379347	-59.4800665073	112.492746916	-27.2257128297	-14.6552073649
192125000.0	-21.4233017157	33.6856854928	-3.93735663031	7.33790496936	-59.7513754231	127.477042797	-27.1787649444	-14.5986110784
192812500.0	-21.3510471009	30.9441842639	-3.92761017036	6.10138572244	-60.1591113621	128.665552406	-27.1358261608	-14.4884214568
193500000.0	-21.2777992176	28.3996341505	-3.91497606149	4.84529909954	-60.5070527374	117.295052533	-27.0654704987	-14.2489704618
194187500.0	-21.2114897808	25.6858604782	-3.90455495736	3.59685259899	-60.1337878084	116.352559267	-26.9980429559	-13.9097351456
194875000.0	-21.1669224581	23.0646375611	-3.89159166348	2.352410752	-60.1913112091	116.488266868	-26.9253473285	-13.5685214881
195562500.0	-21.116078341	20.3916753546	-3.87762243757	1.11293897235	-60.5019809857	112.984354325	-26.8494835321	-13.2973298527
196250000.0	-21.0842272354	17.7705440694	-3.86465377966	-0.123918513268	-60.9374480914	106.389661802	-26.7842304659	-12.7977473172
196937500.0	-21.0477073459	15.070261585	-3.85150187412	-1.35956413056	-61.1147313098	95.7297525419	-26.7125551419	-12.1989410109
197625000.0	-21.0329765233	12.4671814056	-3.83646321172	-2.5809771387	-61.798958479	94.7072421968	-26.6298329263	-11.6318117274
198312500.0	-21.0182899391	9.8870240762	-3.82152682785	-3.79068644329	-61.7353834945	94.5779333815	-26.5770376864	-11.1696527938
199000000.0	-21.013375135	7.16352923947	-3.80423142083	-5.01886844634	-62.3223469976	94.3387944403	-26.4977591206	-10.6982725867
199687500.0	-21.0034248768	4.52420934927	-3.78907260461	-6.23467097503	-62.3025150815	81.0456585054	-26.4357992508	-10.2159567842
200375000.0	-21.003964099	1.76805643648	-3.77088318233	-7.45653623224	-62.6097749654	68.7208919015	-26.3753520002	-9.71025279681
201062500.0	-20.9990603546	-0.968794111882	-3.75414765624	-8.66527426445	-63.1010117349	55.4672471648	-26.3360996009	-9.20932673164
201750000.0	-21.0090838032	-3.82957300688	-3.73563479741	-9.87298027316	-63.4171591426	44.1666081781	-26.2920223883	-8.53514362893
202437500.0	-21.0110171011	-6.57599367011	-3.71755169437	-11.0677558471	-63.6809773819	43.9824436068	-26.2618929435	-8.0020840842
203125000.0	-21.0106160466	-9.47333620773	-3.69633973687	-12.2718216448	-63.9269915652	46.9173723854	-26.2304579338	-7.47467689864
203812500.0	-21.0024585178	-12.3128372074	-3.67654615053	-13.458684242	-64.2606908614	47.1172193874	-26.1947679486	-7.06404658535
204500000.0	-21.0102383029	-15.2167162687	-3.65432514016	-14.6636228271	-64.2363359463	37.2456829893	-26.1744029718	-6.57286302278
