#Frequency	|S11|	<S11	|S21|	<S21	|S12|	<S12	|S22|	<S22
100000000.0	-18.6658129608	144.662453602	-44.0248273801	-120.698881713	-73.987237168	48.0073286354	-20.4111609453	-36.7230461609
100687500.0	-18.5654758814	142.451059182	-43.3271785388	-118.577383947	-66.2194976212	-160.230052909	-20.5284233552	-35.7518335128
101375000.0	-18.5291836253	139.98578768	-43.138145996	-119.139281125	-65.1300687551	-119.122690523	-20.550886468	-34.9080463689
102062500.0	-18.4999219068	137.478119938	-43.0248417972	-119.817447411	-64.5560942491	-101.720163203	-20.6014157592	-34.1604926421
102750000.0	-18.4741201732	134.949526986	-42.8544890696	-121.424572528	-64.1569847145	-102.074714759	-20.6455802663	-33.574715741
103437500.0	-18.453511076	132.323436659	-42.4755627693	-122.206810376	-63.6263780034	-116.919114462	-20.6969756979	-32.8967692672
104125000.0	-18.441305643	129.504740025	-42.1707090959	-123.388839428	-63.2356058458	-98.9292364666	-20.759980896	-32.2003950956
104812500.0	-18.4480047954	126.719091713	-41.867623123	-124.198936555	-62.6384448558	-102.70337472	-20.8277911874	-31.6435978732
105500000.0	-18.4445875009	123.78523823	-41.5355012225	-125.133741661	-62.2944212154	-85.6456833969	-20.8982603466	-31.1394506137
106187500.0	-18.445316592	120.761775631	-41.3341915196	-126.666274501	-61.8423887549	-88.7084655798	-20.9724723642	-30.7068585287
106875000.0	-18.4471178387	117.558436826	-41.0545980249	-127.506115292	-62.1069694527	-120.40577403	-21.053813211	-30.2953693551
107562500.0	-18.4590945903	114.285040484	-40.8944729168	-128.469040819	-61.5935336397	-132.408510503	-21.1500067957	-29.801136805
108250000.0	-18.4694050321	110.805432747	-40.773152265	-129.747100597	-61.9251116452	-154.002937386	-21.2383937413	-29.5062948298
108937500.0	-18.4691014372	107.579827264	-40.5398011496	-131.00547574	-61.4364330775	-163.890452686	-21.3134504549	-29.0414078549
109625000.0	-18.4721503526	104.230704835	-40.435327483	-132.207463142	-61.3797329519	-177.225792846	-21.3887522245	-28.6289431341
110312500.0	-18.4688025438	100.78658389	-40.3223103317	-133.041220856	-60.9854454956	170.932215389	-21.476270142	-28.2341120113
111000000.0	-18.4712522329	97.2480673081	-40.1515719078	-134.405538684	-61.1794698278	158.6854733	-21.5594324489	-27.8360975356
111687500.0	-18.4678228463	93.6062007452	-40.1160697514	-135.132886962	-60.8559243876	146.618434929	-21.6538480754	-27.6006137954
112375000.0	-18.472371536	89.8824920321	-39.9512634337	-135.947519954	-60.5566729266	145.992060689	-21.7459470855	-27.3820523748
113062500.0	-18.4624300758	86.043450933	-39.9230063738	-136.257409203	-60.3735889593	137.343127625	-21.8417484583	-27.131921363
113750000.0	-18.458012273	82.1067836503	-39.8364595412	-136.355870245	-60.317551255	126.090418373	-21.9414297267	-26.9437443146
114437500.0	-18.4475871303	78.0562353629	-39.7834398601	-136.34545767	-60.1433423507	108.761388873	-22.0541928436	-26.7349127668
115125000.0	-18.4406463897	73.8962870745	-39.7372217168	-135.87423346	-59.8115458271	94.4253111202	-22.1599125237	-26.5975264067
115812500.0	-18.4210238981	69.5818986963	-39.715329669	-135.152369471	-61.1980891837	81.5754266303	-22.273374295	-26.4272727533
116500000.0	-18.4086106379	65.2309119268	-39.6472078969	-133.733711501	-61.6651534704	68.8845946976	-22.3778607221	-26.4144166332
117187500.0	-18.3872797939	60.771458062	-39.535009516	-132.250230324	-61.3772441454	45.9984925376	-22.4867351145	-26.3716291426
117875000.0	-18.3765594606	56.2120457854	-39.363678699	-130.401709097	-61.528506006	35.2866913554	-22.5988166838	-26.2373143288
118562500.0	-18.3632658344	51.4711546721	-39.1175750711	-128.700242029	-62.3628923929	20.9924179127	-22.7009610086	-26.1598208337
119250000.0	-18.360055664	46.6916933247	-38.8596236688	-126.527842121	-62.1659857265	7.41531150463	-22.8009658945	-26.0754737441
119937500.0	-18.3652903812	41.7558645952	-38.5543266081	-124.802810962	-62.0123690465	-18.4757975623	-22.9057362223	-26.0658450726
120625000.0	-18.3818476522	36.6668769423	-38.1357603462	-122.385160662	-62.0596688797	-31.5952886006	-23.0206206648	-26.0536762586
121312500.0	-18.4165230936	31.497745791	-37.6910592911	-120.681300922	-62.1142826133	-44.803363189	-23.121601985	-26.115642538
122000000.0	-18.4641933779	26.2459479288	-37.2331543565	-118.895979903	-62.182152316	-57.7835812411	-23.2341651444	-26.120266587
122687500.0	-18.5474652532	20.8867129037	-36.7256311576	-117.560103697	-61.9140293615	-71.1775160157	-23.3467870153	-26.2271520876
123375000.0	-18.6519760677	15.3829136482	-36.1630045141	-115.918861575	-62.0538950535	-84.4049674891	-23.4470485742	-26.3640972754
124062500.0	-18.8055059137	9.75817983144	-35.5265347691	-114.939132832	-62.0873958298	-102.360999787	-23.548371573	-26.5299000185
124750000.0	-19.0069627253	4.14159771862	-34.8851402287	-113.630875285	-61.9756286151	-120.64311336	-23.6486318547	-26.5736453311
125437500.0	-19.2550121779	-1.58735797427	-34.1772197645	-112.771412112	-61.6700317413	-137.1021188	-23.7477169614	-26.6087201459
126125000.0	-19.5772506518	-7.25473817221	-33.5038784592	-111.726475193	-61.5030579873	-154.42305088	-23.859239578	-26.7182546885
126812500.0	-19.9892667052	-12.8471041048	-32.7069045166	-111.402802618	-61.6258739125	-169.510630828	-23.957662867	-26.8165158701
127500000.0	-20.5001350747	-17.9893197447	-31.9322501108	-110.987205991	-61.719224575	162.164129809	-24.0457897071	-27.0005353923
128187500.0	-21.1304844942	-22.9005403481	-31.1318648709	-110.924692069	-61.5835483047	146.150722497	-24.1427708747	-27.1162845958
128875000.0	-21.8415142695	-26.5857160641	-30.2891905253	-110.885290215	-61.7033483925	118.884533923	-24.2262920395	-27.1935535239
129562500.0	-22.5196228101	-29.0098772798	-29.4370828521	-111.603930598	-61.9590343313	90.5923039205	-24.3110472426	-27.2806134704
130250000.0	-23.1271697669	-30.8370117084	-28.5818150453	-112.488189545	-62.3586577485	60.5225193881	-24.3997535064	-27.3756558803
130937500.0	-23.6531761672	-32.3805372404	-27.6818207897	-114.033080024	-62.4260033363	32.0192918202	-24.474563616	-27.4309035292
131625000.0	-24.1073431378	-33.7037590378	-26.8206659488	-115.549954105	-62.1988871177	16.0622588899	-24.5400484679	-27.6526456529
132312500.0	-24.5253727827	-34.8778160196	-25.9323948815	-118.030470645	-62.3514171722	2.36255583727	-24.6048382951	-27.7322685864
133000000.0	-24.9015332496	-36.025330375	-25.0767613454	-120.768874357	-60.9713892245	-10.1912839349	-24.6577485921	-27.9393442961
133687500.0	-25.2530267069	-37.2167322819	-24.2190006578	-124.406843385	-61.1148141716	-23.7056200119	-24.7149697306	-28.0104580107
134375000.0	-25.5608935986	-38.3766398851	-23.4544401496	-128.11907257	-61.0291703377	-39.9787991006	-24.7651528906	-28.2322579331
135062500.0	-25.842528762	-39.667357067	-22.7474348589	-132.425808461	-61.4618882105	-66.0465966479	-24.8001193888	-28.5450749104
135750000.0	-26.1000551526	-40.8417667818	-22.1051272933	-136.806047663	-61.3884043561	-79.7287758182	-24.8354271875	-28.8406219435
136437500.0	-26.3321299179	-42.1537340291	-21.5066268427	-141.60851311	-61.8555501896	-106.365452552	-24.8794179307	-29.171624537
137125000.0	-26.5485853095	-43.3994449611	-20.9585170625	-146.274500428	-61.8584180613	-131.627229496	-24.9155735868	-29.5034355235
137812500.0	-26.714887561	-44.5967858274	-20.4914284844	-151.165562543	-61.8029786998	-160.520449533	-24.9342268522	-29.7660003007
138500000.0	-26.8646184622	-45.8107787468	-20.0643593847	-155.972933181	-61.617430619	171.154050505	-24.9429303985	-30.084326739
139187500.0	-26.9744360794	-47.0510137079	-19.6993449388	-160.775648573	-61.1560449028	145.929439788	-24.950037463	-30.3936339557
139875000.0	-27.0493133855	-48.2250570874	-19.3709566593	-165.560736722	-61.1341845892	123.432484732	-24.9509720063	-30.7202205879
140562500.0	-27.0730027671	-49.3627581912	-19.0919521482	-170.2638676	-61.1997782433	98.9989558272	-24.9625648789	-31.0281889548
141250000.0	-27.0513828117	-50.4355545537	-18.8457639068	-174.913007392	-61.2534094254	76.7142474116	-24.9446525338	-31.3679907907
141937500.0	-26.9600829888	-51.5208915044	-18.6452737269	-179.421457827	-61.1116705437	56.4391273445	-24.9294857192	-31.7427917693
142625000.0	-26.8200033702	-52.5018246917	-18.4630248693	176.15762352	-60.8399364982	34.2880432062	-24.8926839801	-32.1278070717
143312500.0	-26.5830891663	-53.5597911463	-18.3216121773	171.864983238	-60.6556642696	20.5505560837	-24.8514066001	-32.3854101478
144000000.0	-26.2655750038	-54.677812812	-18.1943616551	167.613156405	-60.7297689134	6.8846527866	-24.8100887029	-32.700239535
144687500.0	-25.8416050549	-56.2166502962	-18.1001988576	163.557102597	-60.8053515205	-5.65138030737	-24.7742490829	-32.9941860828
145375000.0	-25.29013437	-57.9253896664	-18.0135164573	159.564651282	-60.8607712928	-30.3366849786	-24.7193865594	-33.316211411
146062500.0	-24.6564882765	-60.8359667233	-17.9552210438	155.701291022	-60.4409001894	-44.564506711	-24.6698795217	-33.6071198664
146750000.0	-24.0487836295	-64.9532982366	-17.9083471575	151.892750169	-60.1967420263	-68.5127722797	-24.6078713968	-33.8508646302
147437500.0	-23.5189681034	-69.6113577077	-17.8770840474	148.285910915	-59.9557753047	-86.7447542348	-24.535811415	-34.0995779804
148125000.0	-23.0633694432	-74.4793602915	-17.8532037445	144.778861654	-59.7649146254	-101.426039203	-24.4578339252	-34.3535194688
148812500.0	-22.6815999786	-79.5122869856	-17.844167925	141.36251148	-59.7894909273	-116.134230451	-24.371774809	-34.5217985708
149500000.0	-22.3305088897	-84.547731312	-17.8402014604	138.051468317	-59.5688545431	-140.81001041	-24.2847118362	-34.6874786657
150187500.0	-22.0386020064	-89.4957135114	-17.8480343602	134.846934315	-59.8586158603	-168.620846137	-24.2079114015	-34.7490589811
150875000.0	-21.7593951527	-94.314290292	-17.8605484592	131.757766401	-59.2510583707	163.14653822	-24.1145187607	-34.7491780852
151562500.0	-21.5318464739	-99.124634456	-17.8726351442	128.723071828	-59.7355495414	145.621563201	-24.0254696751	-34.7141499089
152250000.0	-21.3062015585	-103.64883543	-17.8936246029	125.806402146	-59.3894466709	130.49855561	-23.9429893698	-34.5500779667
152937500.0	-21.1226324783	-108.083040828	-17.9196583181	122.904366987	-58.74302626	104.010090977	-23.8580757134	-34.4365958862
153625000.0	-20.9486335063	-112.277232873	-17.9465792034	120.13580642	-58.7784221784	87.4890408238	-23.7713181666	-34.1591461043
154312500.0	-20.7898974878	-116.396260714	-17.9818268876	117.373373621	-58.8873285787	70.9207706814	-23.6674788347	-33.9218983904
155000000.0	-20.6663068761	-120.379005748	-18.0191567027	114.774484918	-59.2232909506	44.5363895367	-23.5777478126	-33.5787812551
155687500.0	-20.5468484546	-124.226489166	-18.0533528094	112.195039092	-59.1759651996	31.0389801078	-23.5028082086	-33.201765127
156375000.0	-20.4540340533	-127.852978975	-18.0929857593	109.715963031	-59.4987847198	15.2425822296	-23.4099921739	-32.7906285724
157062500.0	-20.3642007939	-131.397417054	-18.1283436329	107.240525533	-60.047524862	9.43977779301	-23.3141962336	-32.263958412
157750000.0	-20.3075760686	-134.810239493	-18.1728936984	104.86158351	-59.9182134752	-6.27405229874	-23.2129002385	-31.7316264107
158437500.0	-20.2459165755	-138.066520011	-18.2154644227	102.514353664	-59.7544825784	-31.084624761	-23.1332229441	-31.1127855598
159125000.0	-20.2122048247	-141.186078498	-18.2592044625	100.24793045	-59.6976789882	-58.5471747983	-23.0569216598	-30.4522211361
159812500.0	-20.1776054404	-144.218953353	-18.2998744233	98.0381580062	-59.8246358477	-85.4009456969	-22.9907535086	-29.7521279446
160500000.0	-20.1764273188	-147.125039753	-18.3455949301	95.8747002733	-60.3111129644	-113.894556464	-22.9276131441	-29.1484127981
161187500.0	-20.1716644208	-149.966398473	-18.3917369155	93.7615496153	-60.2400475369	-154.517430793	-22.8558487684	-28.4388437132
161875000.0	-20.1905396191	-152.652206184	-18.4341301787	91.6424785231	-60.9421076312	164.379547869	-22.7992615949	-27.6425332591
162562500.0	-20.224013914	-155.302205018	-18.4761766504	89.5892338369	-61.0394108302	122.334030619	-22.7497410284	-26.9312374709
163250000.0	-20.2700616129	-157.906329745	-18.5191167951	87.5930780676	-61.0203807358	79.662951134	-22.7067145307	-26.1145140918
163937500.0	-20.3276096796	-160.432512846	-18.5632283591	85.6695676926	-61.0388912917	35.8566910136	-22.6694049815	-25.328878458
164625000.0	-20.3989416995	-162.844022735	-18.6035970422	83.7320339353	-60.8354304559	-9.19988261239	-22.6434658961	-24.5456624909
165312500.0	-20.49277686	-165.20080397	-18.6516083418	81.8436321307	-60.9191296753	-49.5690043519	-22.6251546255	-23.7506129533
166000000.0	-20.6043423206	-167.501137713	-18.6909348043	79.984094083	-61.0013697164	-102.772473335	-22.6192952116	-22.8804807768
166687500.0	-20.7390104587	-169.803728901	-18.73629454	78.1737613566	-61.4435802103	-156.908126393	-22.6193193845	-22.0280075034
167375000.0	-20.8729380769	-171.993654122	-18.7730117285	76.3490427196	-61.1448201021	159.089903132	-22.6310150286	-21.2208676216
168062500.0	-21.0328783359	-174.269573516	-18.8147309257	74.6460332872	-61.2823455891	111.636069126	-22.6510368512	-20.4726562022
168750000.0	-21.2026943243	-176.463064821	-18.8534529018	72.9017004145	-61.1265882866	59.0781946068	-22.6791768616	-19.6905182927
169437500.0	-21.4039421895	-178.753252153	-18.8950109097	71.2102539313	-60.9139898057	15.5873723449	-22.7116328597	-18.9606369279
170125000.0	-21.6026596124	178.9714703	-18.9297824857	69.4979330216	-60.8298526041	-15.0848518534	-22.7551291706	-18.2130530638
170812500.0	-21.8505229759	176.626374257	-18.970240737	67.8842077727	-60.4355294833	-43.2120394301	-22.79552964	-17.5055244913
171500000.0	-22.0924859735	174.260992916	-19.0061042171	66.3131015256	-60.403983787	-68.9373642494	-22.8582271489	-16.8333308471
172187500.0	-22.3748766374	171.831735563	-19.0423198405	64.7390988473	-60.2050387029	-92.6705608285	-22.9284127471	-16.2676692878
172875000.0	-22.661716316	169.336425679	-19.0770935821	63.1609473411	-60.7777165979	-117.37088779	-22.992581363	-15.7026852174
173562500.0	-22.9694576878	166.525877802	-19.110835484	61.5972199075	-60.7322994545	-132.021765591	-23.0843235441	-15.1080421758
174250000.0	-23.2785767704	163.660505037	-19.1409833629	60.0821724993	-60.2116569296	-146.960110739	-23.1749210872	-14.5813031286
174937500.0	-23.6029983072	160.597247107	-19.170420041	58.5457293732	-60.2732853087	-160.08667907	-23.2863854733	-14.0857734757
175625000.0	-23.9198198772	157.203675494	-19.2016598984	57.0703046379	-60.6479625453	-162.281490338	-23.3897159374	-13.6563420222
176312500.0	-24.2375734594	153.526573235	-19.2288251567	55.5776896109	-60.6844349821	-153.068855904	-23.5056230492	-13.2861699931
177000000.0	-24.5363151735	149.679192928	-19.260307627	54.1022905737	-60.6874793102	-141.657523696	-23.6288273316	-12.95330217
177687500.0	-24.8208863099	145.625368678	-19.2805461425	52.6419425352	-60.6093585671	-127.355015092	-23.7748386994	-12.6323367817
178375000.0	-25.0988467249	141.497758442	-19.3045261157	51.2442975787	-60.4372412532	-109.807040472	-23.9167513676	-12.3802953158
179062500.0	-25.328263194	137.175346594	-19.3265568022	49.8155929137	-59.7904661618	-79.6312075762	-24.0611049202	-12.2858968973
179750000.0	-25.5430070769	132.63786078	-19.352181793	48.4680861784	-59.5715806212	-45.1296046393	-24.205226957	-12.1189084627
180437500.0	-25.7170830054	127.925357746	-19.3648738117	47.0798054739	-59.6936497573	-16.2636944262	-24.3479287417	-12.0477884077
181125000.0	-25.8747443245	123.202125252	-19.3890193131	45.6887175442	-59.8255572903	22.503271342	-24.4986737389	-11.9788766512
181812500.0	-25.9878172201	118.45352531	-19.4054902684	44.3183396012	-59.8916404503	67.237415429	-24.6544849116	-11.8761965242
182500000.0	-26.0812165399	113.603811256	-19.4219701725	42.9730075402	-60.036404122	110.478901056	-24.8178450124	-11.7358018606
183187500.0	-26.1264437378	108.725259956	-19.4357263258	41.6368897565	-60.2371641437	167.280563311	-24.9717574306	-11.8092705256
183875000.0	-26.1501828282	103.933186117	-19.4498969634	40.3046598485	-59.7502027053	-124.858201648	-25.1252165693	-11.8580022584
184562500.0	-26.1400490115	98.988790255	-19.4642808321	38.9809721823	-59.738157446	-64.9427990686	-25.2727129465	-12.1136089118
185250000.0	-26.1043020622	94.1223253554	-19.4782194925	37.6067836767	-59.4476401764	-1.1289036843	-25.4251787274	-12.2521073058
185937500.0	-26.0414696884	89.3044483083	-19.4876802022	36.2999500098	-59.0682152118	64.8206350821	-25.5729636692	-12.5132007071
186625000.0	-25.9599320689	84.5768973027	-19.4895946288	34.995458301	-59.3686914504	126.691171915	-25.7282482969	-12.736958798
187312500.0	-25.8478338866	79.8241789903	-19.5010737983	33.752404682	-59.6003078237	-171.349808466	-25.8591041185	-12.9272392925
188000000.0	-25.6869624808	75.192259667	-19.5071709101	32.4488722613	-59.9144346152	-108.211145053	-26.0010402202	-13.2459584685
188687500.0	-25.523791197	70.6143152923	-19.5129112036	31.1385832972	-59.9668715961	-38.0158338642	-26.1388903799	-13.5473524106
189375000.0	-25.3078424907	66.1225085808	-19.5156640096	29.87499267	-59.9591965561	30.3758991208	-26.2734541461	-13.8207237617
190062500.0	-25.0892491667	61.7004110896	-19.5231354712	28.6000460048	-59.4289344951	86.9637448174	-26.3948132894	-14.1648921635
190750000.0	-24.8358733755	57.5976167254	-19.5226108903	27.3217083097	-59.245638976	145.171626684	-26.5284438342	-14.5422889328
191437500.0	-24.5780052484	53.635035866	-19.5308678574	26.0936036339	-59.2205958242	-157.464663204	-26.6445509306	-14.9608103602
192125000.0	-24.2921560523	49.8732380165	-19.5274108672	24.8393827978	-59.5233042132	-101.31953862	-26.7445476045	-15.4502606069
192812500.0	-24.0186481759	46.4068583021	-19.5304157992	23.6221235332	-59.2406301748	-56.5845256259	-26.8518624374	-16.000793678
193500000.0	-23.7300186826	43.2797854975	-19.5307782813	22.3786881833	-59.6632761232	-22.7536702916	-26.9601780523	-16.5378079912
194187500.0	-23.4596112026	40.3292209611	-19.5343413189	21.1719067623	-60.3760382591	9.79549170763	-27.0339797862	-17.1048218081
194875000.0	-23.1942482215	37.5816956723	-19.5318198793	19.9241653755	-60.6103621472	41.6447249257	-27.0960632901	-17.6946357658
195562500.0	-22.9322464471	34.8958480843	-19.5352895063	18.6812327004	-60.940924396	71.8104850195	-27.1672328635	-18.3453987763
196250000.0	-22.7028650447	32.4247035568	-19.529869134	17.5261401504	-61.3421106321	88.7518630527	-27.2156840119	-18.9625644545
196937500.0	-22.4830336371	30.1148583803	-19.5307289349	16.2943184856	-61.4565664266	113.73058571	-27.2420581522	-19.4760468008
197625000.0	-22.2945550071	28.0176247089	-19.5300522702	15.0865252222	-62.0103738579	132.378678881	-27.27310257	-20.2168900415
198312500.0	-22.119848418	25.8950987779	-19.5260899843	13.8814189226	-61.8003933428	140.758479337	-27.2820044881	-20.9381510601
199000000.0	-21.9828172434	23.7882934295	-19.5231508762	12.6635711726	-61.740636815	137.778861457	-27.2819609337	-21.8865634518
199687500.0	-21.8418145914	21.7452272021	-19.5208000769	11.483508098	-61.4447047314	139.297085269	-27.2665917343	-22.7600038727
200375000.0	-21.7407367503	19.8186806832	-19.519276988	10.3077376996	-61.5580732637	129.87876172	-27.2559283488	-23.5719946697
201062500.0	-21.6403160817	17.773380546	-19.5166447153	9.14138305427	-62.0853122348	119.443827739	-27.2411027095	-24.4965273327
201750000.0	-21.5635118427	15.7786493354	-19.5114480659	7.99285539334	-62.2217079049	115.924482956	-27.2031905036	-25.2736988965
202437500.0	-21.4944010192	13.8262332485	-19.5032557701	6.83788970426	-62.4864029252	104.877231361	-27.1544403972	-26.1533811508
203125000.0	-21.4424809809	11.8436006194	-19.5021825185	5.66676001537	-63.0625197225	93.6592688068	-27.0956878485	-26.9585686528
203812500.0	-21.3747571949	9.80350101675	-19.4994290838	4.51576774982	-62.8881642027	75.2994365009	-27.0306059333	-27.8329637231
204500000.0	-21.3504028379	7.77450864249	-19.4940884668	3.36025472852	-62.7688260176	44.3908995229	-26.9637624461	-28.7170824724
205187500.0	-21.3208031157	5.70003362157	-19.4835200133	2.21454215892	-62.6121588035	13.2538096629	-26.885664689	-29.4808587845
