#Frequency	|S11|	<S11	|S21|	<S21	|S12|	<S12	|S22|	<S22
100000000.0	-15.1563628752	157.512725972	-27.9478547659	-123.087577684	-55.3673922174	-52.4743023993	-20.5136759132	-41.3672064946
100687500.0	-15.1011669391	155.371174225	-27.5728296046	-124.575125106	-60.1233033622	-90.9831414333	-20.6332454395	-41.2461593089
101375000.0	-15.108952531	152.914320297	-27.2414582467	-125.611200181	-59.478537133	-38.1395338784	-20.6820472377	-40.5883695803
102062500.0	-15.1137857662	150.3231147	-26.8522076842	-127.029045109	-59.4785287723	39.9912643468	-20.7453469213	-39.774865219
102750000.0	-15.1272385942	147.74940844	-26.4689667115	-128.512704353	-59.6199795997	99.4344060515	-20.8156570735	-39.120377382
103437500.0	-15.1412072839	145.126027714	-26.1380490813	-129.957548012	-59.1227950139	103.770843676	-20.8823572973	-38.3817132861
104125000.0	-15.1750121059	142.395584678	-25.8175588326	-131.444803943	-60.1381608319	91.7434891105	-20.9690139344	-37.651792832
104812500.0	-15.2189945814	139.580732843	-25.5184876782	-132.861971758	-60.7480582168	65.8563203646	-21.0454745066	-37.0782824777
105500000.0	-15.2695025747	136.706362639	-25.2427769273	-134.337288001	-60.6292337409	51.7820953461	-21.1301317128	-36.5666562072
106187500.0	-15.3278882008	133.694250814	-24.9992346113	-135.848014168	-60.4677607735	53.2478365181	-21.2291237326	-36.0515819819
106875000.0	-15.3977795834	130.55380765	-24.7820572274	-137.343348442	-60.3624679324	39.2243282299	-21.3329469615	-35.6366573656
107562500.0	-15.4831068897	127.302232532	-24.6057960799	-138.806280459	-60.6825254547	37.4535467746	-21.4452960921	-35.144235041
108250000.0	-15.5710273222	123.851058994	-24.4563171313	-140.192503678	-60.4439665372	33.5651366492	-21.5516621919	-34.8154379518
108937500.0	-15.6368940099	120.644348038	-24.2615261347	-141.541447261	-60.7279529423	35.4198313256	-21.6428067152	-34.3389112151
109625000.0	-15.7159259205	117.334739133	-24.0785093016	-142.862127597	-61.0833144013	43.3146639901	-21.7357534855	-33.908778556
110312500.0	-15.790855975	113.902270791	-23.9350668967	-144.144360128	-60.7442213061	44.7481443254	-21.8370205165	-33.4798078687
111000000.0	-15.8820797068	110.374977157	-23.800635581	-145.376903271	-60.9323222878	49.5827870583	-21.9417683083	-33.068893263
111687500.0	-15.9702229751	106.710652962	-23.7093390099	-146.421060903	-60.8605861202	60.8511633414	-22.0569087998	-32.7442107586
112375000.0	-16.0719167473	102.96267048	-23.6436221023	-147.382831226	-61.3928608108	64.4230705949	-22.1723354749	-32.4650416901
113062500.0	-16.1680023831	99.0575070777	-23.6199510645	-148.118385395	-61.0894468923	68.2314076245	-22.2929777322	-32.2027865818
113750000.0	-16.2757714737	95.0670473531	-23.6166555373	-148.475618716	-61.1378512917	72.7808430343	-22.4021709201	-32.0336752018
114437500.0	-16.3872713376	90.9182594314	-23.6402635479	-148.470247305	-60.8944965015	79.252251355	-22.5286986109	-31.8098230019
115125000.0	-16.5081795923	86.610011019	-23.6489705413	-148.019344274	-61.0598490951	93.846820519	-22.6530036902	-31.6613844931
115812500.0	-16.6273293517	82.1460573029	-23.6531277916	-147.086389631	-61.1137778103	112.289978118	-22.7763188903	-31.5208359583
116500000.0	-16.7549596144	77.5371389459	-23.6155380037	-145.833295708	-60.9224775003	132.401236722	-22.893984499	-31.4386019285
117187500.0	-16.8900459532	72.8083966771	-23.5232820109	-144.249454019	-60.5490884098	148.120495068	-23.0241910793	-31.3464632048
117875000.0	-17.0313140412	67.8976014139	-23.3760111495	-142.496070257	-60.6863009136	177.899509836	-23.1485407726	-31.2445253313
118562500.0	-17.1899608292	62.8563898264	-23.1742374469	-140.569872945	-59.9028027422	-150.74336283	-23.2761025095	-31.1394561037
119250000.0	-17.3527621364	57.5856116842	-22.9153043055	-138.582652955	-59.8073751893	-118.52509764	-23.3973478503	-31.0171276583
119937500.0	-17.537765315	52.1961113118	-22.6065939967	-136.607047582	-59.8229099054	-84.7594765816	-23.519214663	-30.9687616447
120625000.0	-17.7283135035	46.5561394849	-22.2425059684	-134.642744306	-59.7274389146	-47.7293757214	-23.6421763506	-30.9464876635
121312500.0	-17.9583038159	40.8154457662	-21.8306494487	-132.713306837	-59.7932774673	-7.57913260664	-23.7593167361	-30.9610240989
122000000.0	-18.1984951559	34.7890667565	-21.3759873446	-130.909927416	-59.6007088613	37.1025067724	-23.8800544204	-30.9795343899
122687500.0	-18.4936199687	28.6090689011	-20.8759949605	-129.190591495	-59.8255992299	84.2228269725	-23.9954838911	-31.0036856518
123375000.0	-18.8113247018	22.0669182035	-20.333245933	-127.600991393	-59.6935789493	128.670856532	-24.0948661848	-31.0830396256
124062500.0	-19.1884841237	15.3066968177	-19.7495786996	-126.192386597	-59.3182183622	173.368108656	-24.2060964963	-31.1034389857
124750000.0	-19.6488988709	8.20292435297	-19.1308281665	-124.9631607	-59.3754941295	-141.048733363	-24.31218479	-31.2047153202
125437500.0	-20.1468323567	0.627432914467	-18.4856579511	-123.887037713	-59.3849897875	-94.616718777	-24.4180576005	-31.1952014983
126125000.0	-20.7627350003	-7.52874402403	-17.793873359	-123.042501795	-59.1159251745	-51.0263471523	-24.5351127938	-31.3033897483
126812500.0	-21.4347175183	-16.5250075127	-17.0779644406	-122.369992048	-58.5086744633	-14.670489743	-24.6395002242	-31.3199191736
127500000.0	-22.2018582522	-26.8505581242	-16.323602437	-121.955708998	-58.6834011833	26.7718749681	-24.729662523	-31.4118005742
128187500.0	-22.8830958515	-38.2099679672	-15.5433276082	-121.77750067	-58.8002241033	58.3088451323	-24.8239289845	-31.4750589303
128875000.0	-23.5069188104	-50.4895562257	-14.7220856415	-121.972636095	-58.8230874884	78.304834219	-24.9012461998	-31.5890454557
129562500.0	-24.07858317	-63.2486061975	-13.8765244885	-122.363906875	-58.3811739941	108.018017643	-24.9680041836	-31.6521739417
130250000.0	-24.5978513496	-76.484690112	-12.9957453947	-123.189109032	-58.7577359791	129.11652695	-25.0601576517	-31.7901571239
130937500.0	-25.0711488882	-89.9968764778	-12.0970788829	-124.469127463	-58.6573666076	147.776327958	-25.1345394222	-31.7657220846
131625000.0	-25.4966566956	-103.881057112	-11.1793284685	-126.378737108	-58.7108558766	173.30888914	-25.1962996605	-31.9028795103
132312500.0	-25.8954219363	-117.83712894	-10.2763129059	-128.820017406	-59.1777012205	-171.881378737	-25.24873855	-31.9772639779
133000000.0	-26.2879371511	-132.091715249	-9.37954518287	-131.901330912	-59.4513648993	-156.713604285	-25.3077651965	-32.172741058
133687500.0	-26.6416695059	-146.48767878	-8.54440749334	-135.42287428	-59.2925946388	-136.21098599	-25.3557026312	-32.2834674135
134375000.0	-26.9865190719	-161.081738432	-7.75529284164	-139.407693708	-59.9496190084	-104.474659172	-25.3921405011	-32.5234401278
135062500.0	-27.3083464799	-176.028409291	-7.0404037487	-143.691277674	-59.8101088843	-73.9864022783	-25.4240780226	-32.7313347169
135750000.0	-27.6007408431	169.043279411	-6.37956099271	-148.264450925	-60.1403703098	-41.9065163601	-25.455326116	-33.0632241163
136437500.0	-27.8603015316	153.891709361	-5.79084228317	-152.979666938	-60.2596057994	-5.68764213226	-25.4812353299	-33.437257539
137125000.0	-28.1056290308	138.700660974	-5.2531164354	-157.819132646	-60.1399841536	23.8903979244	-25.5120066164	-33.7321113897
137812500.0	-28.2970095037	123.4217703	-4.78052581247	-162.72517561	-60.2142269121	52.1645674349	-25.5183275205	-34.0663962505
138500000.0	-28.448279137	108.110733527	-4.35630696863	-167.659582944	-60.0327128091	72.1718794517	-25.523810907	-34.3849924848
139187500.0	-28.5543662577	92.7613421195	-3.98780207922	-172.581973847	-60.088655618	88.3740089297	-25.5245778789	-34.7281151796
139875000.0	-28.5847843938	77.475592545	-3.66165233228	-177.473797828	-60.2875920358	97.542334419	-25.5208550452	-35.0776165654
140562500.0	-28.5778332147	62.3737546654	-3.38385950357	177.682241736	-60.2550353208	111.993241428	-25.523955066	-35.473616767
141250000.0	-28.4815592774	47.415995604	-3.14313999497	172.924095105	-60.0767360138	113.92641865	-25.5022530699	-35.856047412
141937500.0	-28.2886028471	32.722354724	-2.94239612105	168.249492409	-60.0024284813	129.144216541	-25.4792991355	-36.2347190061
142625000.0	-28.0292092949	18.4346903789	-2.77245940998	163.669825329	-60.0351894884	131.850784036	-25.4382775069	-36.5661914902
143312500.0	-27.6333270194	4.70976597313	-2.63835452414	159.206880436	-60.1048827796	141.209022546	-25.3962990594	-36.9400035369
144000000.0	-27.1614690353	-8.25768205956	-2.52835413748	154.850191507	-60.3581745207	155.617963889	-25.3484483033	-37.2950132815
144687500.0	-26.5887606335	-19.8247795869	-2.44382615266	150.628978325	-60.229167144	162.971791058	-25.3063566871	-37.6897349463
145375000.0	-26.0775405698	-30.4159124931	-2.38250102727	146.533471335	-59.8879648477	177.891784467	-25.2433671428	-38.0714960577
146062500.0	-25.616025454	-39.9924374061	-2.34227893081	142.568488641	-60.1767881862	-154.564282652	-25.1873878147	-38.3840542364
146750000.0	-25.1835012297	-49.0507196287	-2.31722942507	138.71438962	-60.1476933154	-130.489733137	-25.1256289306	-38.6243347068
147437500.0	-24.8049728909	-57.4972709384	-2.30932408855	135.003891332	-60.0049535134	-107.209660916	-25.0430976833	-38.8803523291
148125000.0	-24.4440079456	-65.6681150577	-2.31200733619	131.406768442	-60.0459041734	-90.4701754464	-24.9642978995	-39.1615151847
148812500.0	-24.1338720385	-73.33873514	-2.32696389502	127.939830793	-59.9908202894	-71.8916380642	-24.8798477287	-39.3871407063
149500000.0	-23.8310420138	-80.8113454896	-2.34876440812	124.579434445	-59.5765579625	-54.434240796	-24.8013589807	-39.5356746714
150187500.0	-23.5265782876	-87.8337961932	-2.38152083475	121.347218636	-59.4226713907	-30.5187574963	-24.7126885468	-39.5220796388
150875000.0	-23.2439691275	-94.5659689651	-2.41634897308	118.216326181	-59.4266247754	-13.0842681762	-24.6316111006	-39.5138044592
151562500.0	-22.9548117273	-101.038109673	-2.45850800579	115.189593094	-58.8718305839	1.65991396353	-24.5467361211	-39.4362320969
152250000.0	-22.6820236841	-106.94624689	-2.50391927252	112.257941332	-59.2162165705	4.23567790178	-24.4667320418	-39.3515672008
152937500.0	-22.4128828128	-112.691451856	-2.55703221358	109.422145491	-59.0999228401	6.36701849896	-24.3758752229	-39.0690541983
153625000.0	-22.1741767416	-117.982068383	-2.60700459405	106.679685054	-59.7409190371	12.4183244455	-24.2964018059	-38.7649950036
154312500.0	-21.9177327415	-123.114054313	-2.66326692306	104.018892328	-59.6643001085	13.1421566311	-24.1986516658	-38.4611852787
155000000.0	-21.7074371536	-127.846154191	-2.71933664339	101.422942586	-59.8062474941	5.59158953712	-24.1212263326	-38.0904466534
155687500.0	-21.4929013781	-132.413854311	-2.77748349564	98.9235492087	-59.900387282	5.44404187249	-24.043748944	-37.6502935704
156375000.0	-21.3178250009	-136.567645897	-2.83413018101	96.4756063131	-60.053770226	5.4751218227	-23.9604463118	-37.1335358716
157062500.0	-21.1540823846	-140.637029788	-2.89276025874	94.1074482641	-59.9070500002	6.50342232556	-23.8756358528	-36.4825941085
157750000.0	-21.0024565153	-144.46177779	-2.94939368649	91.7821758609	-59.8337684741	7.84833824535	-23.7925659121	-35.8847741197
158437500.0	-20.8685603238	-148.120917787	-3.00935490117	89.5316079484	-60.305208943	18.4178086161	-23.7132816372	-35.1865672093
159125000.0	-20.7534253977	-151.624152934	-3.06506969769	87.3322372274	-60.3454601025	19.4289538506	-23.6529685511	-34.4315787795
159812500.0	-20.6589122136	-154.984542228	-3.12264617735	85.1904043587	-60.4861646919	19.8167568233	-23.5917910579	-33.6954660732
160500000.0	-20.5885914102	-158.181518698	-3.1746111292	83.0887734776	-60.4118578391	11.8978786173	-23.5324759035	-32.9657763078
161187500.0	-20.531164376	-161.229204986	-3.23018749782	81.0400517558	-60.1660137404	11.3523048056	-23.4817966574	-32.1679860507
161875000.0	-20.4829221539	-164.198625238	-3.28266768708	79.033578554	-60.1439795377	7.62187573411	-23.4459633028	-31.2976378181
162562500.0	-20.4610426102	-167.000232037	-3.3374508122	77.0631248373	-60.6925144616	3.9598241361	-23.4101302344	-30.4092033218
163250000.0	-20.439002038	-169.818344771	-3.38813271709	75.1375972179	-60.512291074	-8.78594296558	-23.3888030603	-29.4862361348
163937500.0	-20.4398415972	-172.491656832	-3.44105417352	73.2566890201	-60.6103389427	-27.189730798	-23.3721462822	-28.5928725728
164625000.0	-20.4484145045	-175.18094493	-3.48842858793	71.3973449165	-60.2567197409	-38.4061148876	-23.3566897738	-27.6275629912
165312500.0	-20.4930245798	-177.698037053	-3.53893370257	69.5852906719	-60.1442260246	-36.5462565389	-23.3529860279	-26.6834292676
166000000.0	-20.5293728682	179.757481235	-3.58336531348	67.7961036964	-60.1691308807	-46.6697457802	-23.3662789119	-25.7645608784
166687500.0	-20.5943923059	177.270273034	-3.63247061281	66.0472225701	-59.9129492151	-58.2761565575	-23.382446945	-24.8308153667
167375000.0	-20.6684519256	174.782885805	-3.6762105221	64.3267578742	-60.018683112	-68.8236447175	-23.4248580613	-23.9328517895
168062500.0	-20.7630210918	172.317251197	-3.72207223102	62.631493491	-60.1577599902	-83.3470517259	-23.4410656659	-23.1196418461
168750000.0	-20.8609690228	169.88515182	-3.76585992452	60.978174069	-60.2821660655	-98.3659663529	-23.4887300811	-22.2643185413
169437500.0	-20.9748727521	167.406119579	-3.80773789624	59.3362868494	-60.1930787241	-109.56325831	-23.5418800481	-21.3659425643
170125000.0	-21.1010569178	164.901604141	-3.84433466185	57.7170803353	-60.1331176749	-123.047016854	-23.6088805859	-20.5582806586
170812500.0	-21.2383077159	162.307853015	-3.8849914917	56.1245245997	-59.6480568946	-149.752529755	-23.6755785964	-19.7548882103
171500000.0	-21.3860721177	159.702963964	-3.92021319193	54.5684042321	-59.6187392432	-163.656401207	-23.7618913615	-18.9934736976
172187500.0	-21.5470423312	156.9344815	-3.95439280908	53.0429552458	-59.3495533702	179.93729219	-23.8485088866	-18.2503597916
172875000.0	-21.7237078494	154.109791869	-3.98801694715	51.5253079276	-59.2426008087	166.697219452	-23.9374103353	-17.5796714277
173562500.0	-21.880918826	151.153790076	-4.02092543411	50.0383944049	-58.9595529153	153.809389682	-24.0562665823	-16.9487116074
174250000.0	-22.0504717621	148.253308795	-4.05014603346	48.5670145592	-58.7767246206	151.211689996	-24.15870012	-16.3382870844
174937500.0	-22.2007295594	145.063753392	-4.07886886228	47.1121729942	-58.8151736173	138.513172096	-24.2900254735	-15.7732136633
175625000.0	-22.3662322009	141.781764062	-4.10283273521	45.6538737825	-59.3210761266	119.095655731	-24.4235565393	-15.2474898953
176312500.0	-22.5111190332	138.360578184	-4.13012935475	44.2395163409	-59.7551561401	105.443937194	-24.5723995318	-14.8833755069
177000000.0	-22.6508837359	134.945947431	-4.1512668331	42.8337337376	-59.8580852333	91.9275167189	-24.7224943217	-14.4857298772
177687500.0	-22.7632015319	131.278821043	-4.17614672857	41.4387903651	-60.0681091855	91.8406314497	-24.9014173667	-14.1664783257
178375000.0	-22.873244768	127.644033897	-4.19492853312	40.0521979735	-60.2253532524	84.1778710026	-25.0616973666	-13.7611839066
179062500.0	-22.9637604258	123.862308748	-4.21526993498	38.6816695523	-60.534681568	86.8669109321	-25.2317437059	-13.6132226278
179750000.0	-23.0339062721	120.0234883	-4.23080297551	37.3249427204	-60.1208609247	81.0577102656	-25.3937587737	-13.3489754417
180437500.0	-23.0923798143	116.123553718	-4.24729552706	35.9692595306	-59.8118314441	80.6509338193	-25.5691484671	-13.2732323659
181125000.0	-23.1254843899	112.106231456	-4.25891966026	34.6225692261	-60.4874451352	77.8583042371	-25.7430314647	-13.1258609134
181812500.0	-23.1409024791	108.198280739	-4.27537258736	33.3009648041	-60.6730684564	76.4680848047	-25.9340294205	-13.119347053
182500000.0	-23.1231758107	104.089093104	-4.2837522798	31.9787005906	-60.6873450812	63.1119988906	-26.1217439809	-13.0953919708
183187500.0	-23.0959880401	100.144330222	-4.29786288926	30.6730716574	-60.9008960396	62.2597024771	-26.3103918363	-13.037440485
183875000.0	-23.0395301521	96.1832333221	-4.30436939948	29.3592954676	-60.8444452368	73.682310286	-26.4868011065	-13.1814456857
184562500.0	-22.9667192965	92.2365776382	-4.31462153753	28.0617042942	-60.9616624039	76.0290152276	-26.6558860521	-13.3928316779
185250000.0	-22.866499849	88.2348281369	-4.31860572005	26.7792541817	-60.7810568673	87.1393662096	-26.8492178291	-13.4496761845
185937500.0	-22.7662219283	84.349988768	-4.32588731143	25.4960568445	-60.7918832075	87.6409390628	-27.0166231786	-13.6718420456
186625000.0	-22.634922758	80.5111443419	-4.3280882489	24.215999602	-60.4376509831	83.7549371366	-27.2051670149	-13.9434135319
187312500.0	-22.4935600366	76.7086236563	-4.33450135457	22.9398787747	-60.7119134989	82.4654843362	-27.3669870618	-14.1746786771
188000000.0	-22.3262247653	73.0167471223	-4.33382281011	21.6708530506	-60.4013152766	85.314773342	-27.5143768218	-14.5621962196
188687500.0	-22.1613022795	69.4128870314	-4.33863256916	20.4044152417	-60.3206852593	84.752609249	-27.6612201658	-14.9332173146
189375000.0	-21.9639656111	65.9928973998	-4.33928196745	19.1456747685	-60.3612880227	86.214880752	-27.8256517402	-15.4489394238
190062500.0	-21.7580068431	62.6850090096	-4.34043901742	17.8894214119	-60.2261083011	81.5244959577	-27.9751708459	-15.8319403105
190750000.0	-21.549379127	59.4307921902	-4.33635298517	16.6397331308	-60.411988301	82.5913938182	-28.1323883901	-16.2458378153
191437500.0	-21.3363036438	56.2862655712	-4.33859422964	15.391260358	-60.8699226456	83.8945709996	-28.2681272246	-16.7988129369
192125000.0	-21.1306234104	53.405556583	-4.33591712027	14.1582678816	-60.9770057371	85.8052629057	-28.3936688978	-17.4435033324
192812500.0	-20.9207342337	50.6133322297	-4.33390869023	12.9401609699	-60.5067718304	95.3989679681	-28.5105376564	-18.1565772476
193500000.0	-20.7223381488	48.0419301312	-4.32954976884	11.7014199946	-59.9945175612	95.9359751068	-28.6231448557	-18.7179620482
194187500.0	-20.5200292109	45.4417761462	-4.32883704976	10.4746764433	-59.8914486863	110.207816648	-28.7011231812	-19.3994833256
194875000.0	-20.3475455862	43.0595399228	-4.32154710346	9.25390288332	-59.838270503	112.847166571	-28.7761301315	-20.088509837
195562500.0	-20.166846446	40.6895776718	-4.31715986974	8.04442027976	-59.6241088829	116.274592086	-28.8500842147	-20.9263549799
196250000.0	-20.013911533	38.497875899	-4.31192191016	6.83692473299	-59.4178549519	114.115348841	-28.9207806966	-21.6372855239
196937500.0	-19.858580251	36.31377172	-4.30718702542	5.62861666318	-59.1718869637	109.744172793	-28.9684792222	-22.3743295473
197625000.0	-19.7288421831	34.2919537393	-4.29909939189	4.43164831492	-59.6742151661	96.8395435797	-29.0017938103	-23.0675813163
198312500.0	-19.6046259307	32.3144339226	-4.29279539852	3.2458302596	-58.9622742826	95.5806481014	-29.0337613338	-24.0765820814
199000000.0	-19.50434062	30.3424315559	-4.28050752938	2.0442771305	-59.1588699126	95.4418453542	-29.0188827848	-24.998404713
199687500.0	-19.4073843304	28.4326194174	-4.2735939334	0.858135317199	-59.624003349	99.6118651282	-29.0186055016	-25.9995191303
200375000.0	-19.3303323593	26.4767688732	-4.26189644793	-0.336792903819	-59.6792525874	102.54969266	-28.9972745967	-26.9173926565
201062500.0	-19.2579637736	24.5225537671	-4.25229889938	-1.50946160053	-59.9021569925	99.4336517095	-28.9822357654	-27.9232860972
201750000.0	-19.2049917182	22.6048868174	-4.24031929748	-2.68954890816	-60.0522986025	99.881052883	-28.9312698972	-28.7631080894
202437500.0	-19.1608614163	20.7325684861	-4.23151966225	-3.86392488694	-60.0478649186	102.577788474	-28.8747150336	-29.9689742017
203125000.0	-19.124423366	18.8637589542	-4.21649844656	-5.04397685637	-60.2285151224	105.197621735	-28.8045878687	-30.8940530539
203812500.0	-19.0882707917	16.9327452599	-4.20578225783	-6.20459684173	-60.55718791	121.192445655	-28.7095995383	-31.98560656
204500000.0	-19.0763740526	14.9947025039	-4.18958508717	-7.37678857974	-60.7927053793	128.953762033	-28.6197560666	-32.9153433863
205187500.0	-19.0686169967	13.0821071635	-4.1779932963	-8.52882690164	-60.874457675	143.783985491	-28.5321113433	-33.865555618
