#Frequency	|S11|	<S11	|S21|	<S21	|S12|	<S12	|S22|	<S22
100000000.0	-19.709238215	120.958757039	-15.6080671558	-124.275714412	-52.6642218241	133.529319217	-20.0680523054	-68.3446461095
100687500.0	-19.4988788133	118.136915951	-15.2326864794	-125.207216021	-57.2507737184	-66.0934933004	-20.1355826203	-68.4759410495
101375000.0	-19.3524493818	114.9956157	-14.8398680132	-126.473783987	-61.1369497024	-90.1451600463	-20.2145832904	-68.4008866534
102062500.0	-19.2289452271	112.285304983	-14.4935480712	-127.804105507	-63.6837327032	-90.8033354049	-20.2998118606	-68.3632883822
102750000.0	-19.1211932785	109.372545703	-14.1672584656	-129.147540799	-64.3066277543	-51.6936164107	-20.4312214775	-68.2812031364
103437500.0	-19.0232737848	106.574241594	-13.8585590435	-130.490900206	-63.6408897765	-55.4806818803	-20.5483572357	-68.2606172668
104125000.0	-18.9259662271	103.562644343	-13.5731193448	-131.863952482	-63.2089396219	-68.3192936839	-20.6657560968	-68.1999066284
104812500.0	-18.8420292827	100.548649215	-13.3151872126	-133.18389548	-62.4458815936	-113.905136999	-20.7690206028	-68.3439204908
105500000.0	-18.7707474411	97.4509087779	-13.0809449629	-134.544348425	-62.4429627118	-129.345177198	-20.8711779062	-68.4454928216
106187500.0	-18.6956686354	94.1900848855	-12.883994393	-135.897298464	-62.3858072459	-136.413489593	-20.9822301163	-68.5647577042
106875000.0	-18.6222341873	90.8000252921	-12.7219772161	-137.175937301	-62.7094129154	-157.638055819	-21.0826605813	-68.725760269
107562500.0	-18.5612065661	87.3132462453	-12.5983214903	-138.343576998	-62.3174674781	178.561473737	-21.1942990236	-68.8605315209
108250000.0	-18.4945207421	83.6926710953	-12.5200008595	-139.331876992	-61.9637449149	-178.723483188	-21.2903856919	-68.9783499491
108937500.0	-18.4131132521	80.2384189126	-12.376049215	-140.358047217	-62.1758112154	-177.57877053	-21.3956962928	-69.0393671696
109625000.0	-18.3432163168	76.7294407766	-12.2565450055	-141.262042035	-62.2168251868	171.524899144	-21.496050622	-69.0704681397
110312500.0	-18.260989002	73.1752756012	-12.1710468871	-142.002824188	-62.9376917012	157.848548444	-21.6072603746	-69.1554461581
111000000.0	-18.1967917311	69.4916753625	-12.109383946	-142.486113459	-62.6501602152	142.679641367	-21.714863762	-69.1917629049
111687500.0	-18.1203631179	65.7439320167	-12.0751390398	-142.670662658	-62.3707736901	130.746179207	-21.8187917903	-69.2812094017
112375000.0	-18.0513956899	61.8559765831	-12.0443038387	-142.471253787	-62.0984928994	116.800062445	-21.9269282553	-69.3367488148
113062500.0	-17.9863993317	57.927839599	-12.0128962168	-141.881867192	-62.3131152691	100.838656758	-22.0426293957	-69.3426636464
113750000.0	-17.9266478267	53.8847892064	-11.9504945298	-140.895395099	-62.2690672328	71.6271352898	-22.138440529	-69.3391429253
114437500.0	-17.8679546518	49.7718864595	-11.8545867089	-139.548625494	-62.0751369404	37.5394194935	-22.2496433369	-69.3514424342
115125000.0	-17.810667161	45.4852638904	-11.703985501	-137.963601308	-61.7936446816	9.53996040682	-22.3591218829	-69.3312371768
115812500.0	-17.7574166259	41.1262670838	-11.5042315497	-136.196079862	-61.8536528836	-15.7558511051	-22.4640697528	-69.2118051541
116500000.0	-17.7133226261	36.6459776235	-11.244231056	-134.321102758	-61.8974180432	-42.9684954093	-22.5722387469	-69.0708288032
117187500.0	-17.6784048848	32.1322651551	-10.9338305784	-132.42964524	-61.8167161664	-67.0960315866	-22.6732071458	-68.8845656104
117875000.0	-17.6500480119	27.4876046735	-10.5688424739	-130.566044903	-61.8233030056	-82.4791854251	-22.7865996738	-68.4957674544
118562500.0	-17.6449509182	22.7007346108	-10.155683699	-128.749661073	-62.2563524144	-95.309954416	-22.8911376546	-68.0810479551
119250000.0	-17.6490246898	17.8491660286	-9.69621658597	-127.008736756	-61.9169656405	-108.025843006	-22.9924402677	-67.5021021997
119937500.0	-17.6822305406	12.9039292318	-9.19462813687	-125.394656832	-61.8651720973	-119.877975342	-23.0703679051	-66.8539858356
120625000.0	-17.7360728257	7.93253299064	-8.64770362539	-123.903237386	-61.4256946568	-123.875257171	-23.1624786968	-66.1790255059
121312500.0	-17.8342910212	2.89859949219	-8.06472491996	-122.580366436	-61.5655638586	-135.345894935	-23.2312673501	-65.3884282059
122000000.0	-17.9598966692	-2.11052068202	-7.44360774859	-121.440629997	-61.7113575441	-144.382795813	-23.3071142965	-64.5452875054
122687500.0	-18.143487946	-7.15959996602	-6.78933576528	-120.496674336	-61.1342621689	-145.397708826	-23.3620719746	-63.6109134849
123375000.0	-18.3686448748	-12.0333607633	-6.1032659338	-119.744763987	-61.0170472852	-147.413738403	-23.3975808167	-62.5776747953
124062500.0	-18.6604766255	-16.8800108998	-5.39015050317	-119.233979948	-60.8997031964	-149.329418956	-23.4317913107	-61.5489874451
124750000.0	-19.009928085	-21.2380054435	-4.64660357389	-118.944699081	-60.918957102	-160.552285849	-23.4563156012	-60.492637193
125437500.0	-19.3977354832	-25.3098564142	-3.87762307978	-118.930129483	-60.7121813762	-175.401295168	-23.4738026117	-59.3145814311
126125000.0	-19.8090116832	-28.6286231164	-3.07856078421	-119.158858331	-61.249494286	170.951099222	-23.476503271	-58.2135359303
126812500.0	-20.2234277898	-31.5475146733	-2.25600288239	-119.701107699	-61.1514029752	166.28043668	-23.4739093917	-57.0629556701
127500000.0	-20.603881646	-33.805847902	-1.40508128463	-120.571983658	-60.3355587835	155.823739221	-23.4422938092	-55.9407681544
128187500.0	-20.9557642228	-35.8592554372	-0.535560938162	-121.86251387	-60.4685705906	156.994254477	-23.4101639048	-54.8040062084
128875000.0	-21.2773057293	-37.5774273402	0.353661008152	-123.591776119	-60.2279232611	156.149556683	-23.3730214971	-53.5714258336
129562500.0	-21.5586767299	-39.2585248562	1.24120405642	-125.859995351	-59.69054367	150.862693197	-23.3237811969	-52.3724199489
130250000.0	-21.8284771587	-40.8160742996	2.1243161926	-128.646180339	-58.9040546178	152.156611876	-23.2666550142	-51.2526336082
130937500.0	-22.053573349	-42.3392928525	2.96841201067	-131.982979365	-58.7240883678	161.666589778	-23.2096798236	-50.1615619227
131625000.0	-22.2773511095	-43.7170127913	3.77000164262	-135.77889395	-58.1549122148	169.953386938	-23.1322512613	-49.1008845421
132312500.0	-22.4751732414	-45.0479654988	4.50900899848	-139.951450382	-58.0897783382	175.13958182	-23.0559078844	-48.0416322959
133000000.0	-22.6633361263	-46.3537682693	5.1921849766	-144.407279755	-57.7782595073	-174.602760611	-22.9713787341	-47.0699979674
133687500.0	-22.8287860974	-47.6045100042	5.80489129665	-149.084249419	-57.728794609	-166.542570769	-22.8893439967	-46.1451350605
134375000.0	-22.9871635064	-48.8122106168	6.36275146034	-153.883322845	-57.2396306528	-153.46772886	-22.795465998	-45.3194033234
135062500.0	-23.1178829055	-50.0569072724	6.85842501139	-158.770237461	-57.3881513733	-146.264717241	-22.6980715936	-44.6624227393
135750000.0	-23.2419558385	-51.197311676	7.30054541584	-163.680187482	-56.700543978	-136.720558919	-22.5881315609	-44.0325353616
136437500.0	-23.3361536171	-52.3316837685	7.68749206152	-168.606836112	-56.7605515572	-134.74769996	-22.4960860517	-43.6537289134
137125000.0	-23.4078249905	-53.4618370875	8.02835551207	-173.493799397	-56.7515656747	-135.292276848	-22.4113827171	-43.2932159804
137812500.0	-23.4484016418	-54.5234108696	8.32153745511	-178.326856766	-57.0515589438	-145.782977017	-22.32218937	-42.9844708066
138500000.0	-23.4608151089	-55.6298561012	8.5774420513	176.912966956	-56.8328239335	-147.083415256	-22.2373249245	-42.8095784519
139187500.0	-23.4372284977	-56.7486910464	8.79073551297	172.247906332	-57.2503782464	-147.492286242	-22.1592480258	-42.7077688529
139875000.0	-23.3595092789	-57.8980927359	8.97346018553	167.689746158	-57.0651750965	-155.802256098	-22.0907314968	-42.6472800118
140562500.0	-23.2374863525	-59.1966700016	9.12421777084	163.244388446	-56.8202933748	-157.644492127	-22.039269672	-42.7778803358
141250000.0	-23.050609123	-60.569571698	9.25152590604	158.914828101	-57.1221215261	-162.979803523	-21.9858774707	-42.8776748746
141937500.0	-22.8227225739	-62.3775294613	9.35106411181	154.718160961	-56.9749298632	-165.706719299	-21.9439893679	-43.0882923089
142625000.0	-22.5471286805	-64.4897998201	9.43423768251	150.643342767	-57.1798937738	-173.832291705	-21.9020575417	-43.293583383
143312500.0	-22.2508885759	-67.3613265374	9.49558686211	146.699368844	-56.4673006723	-176.073472516	-21.8760553956	-43.5715887521
144000000.0	-21.9569702936	-70.6275696233	9.54368565204	142.863415693	-57.0842365674	175.522310869	-21.8545624544	-43.8536825531
144687500.0	-21.7137844365	-74.5347092577	9.57739495051	139.163206471	-56.8103576079	173.540496961	-21.8547332261	-44.1779403802
145375000.0	-21.4860862779	-78.5365224583	9.6009870594	135.565641232	-56.6096720181	166.265414839	-21.8528879351	-44.5245879427
146062500.0	-21.3085793717	-82.836283387	9.61144831269	132.084790418	-56.6191539437	164.286789685	-21.864433005	-44.9577739224
146750000.0	-21.1650689096	-87.1275744619	9.61595828189	128.697443488	-56.7430982333	160.008313977	-21.8909476148	-45.3693996112
147437500.0	-21.0447469441	-91.535511995	9.60868697446	125.415368745	-56.9993518641	156.947831621	-21.9035396962	-45.7583505661
148125000.0	-20.961933704	-95.8602212104	9.60021155319	122.233263999	-57.0078341454	151.031105023	-21.9351299991	-46.149485391
148812500.0	-20.8971765626	-100.334204375	9.58248538784	119.140064459	-56.9301180118	146.734343961	-21.9618926906	-46.5211917552
149500000.0	-20.8590102807	-104.636522839	9.56335697494	116.136339435	-56.8820807785	145.595563529	-21.9959555725	-46.8880637555
150187500.0	-20.8345099551	-109.041571532	9.53613275896	113.217589706	-56.9980957586	141.558022196	-22.0359493521	-47.2210100294
150875000.0	-20.832555536	-113.297097427	9.51063306029	110.387636869	-56.786305554	138.500564258	-22.0769377873	-47.5532594162
151562500.0	-20.8346527592	-117.716669595	9.47783143486	107.620236366	-57.0000063997	126.379148661	-22.1232653217	-47.8838586045
152250000.0	-20.8567615154	-121.875948684	9.44575526598	104.926252289	-56.7254693906	125.30422279	-22.182321431	-48.1620758918
152937500.0	-20.8778372699	-126.035078174	9.40666554917	102.291538887	-56.9100879485	119.655110971	-22.23751411	-48.3997181027
153625000.0	-20.9271562441	-130.127254731	9.37305365796	99.7364863715	-56.5787886951	117.857255044	-22.3104852479	-48.5619790235
154312500.0	-20.9694690143	-134.117756972	9.33293968463	97.2227452738	-56.5527169326	111.481941261	-22.358165727	-48.7424463036
155000000.0	-21.0370221954	-138.109087044	9.29380751452	94.7736321799	-56.1065899726	111.218926398	-22.4219947938	-48.9297853093
155687500.0	-21.0916336525	-141.985274106	9.25158922435	92.3787214049	-56.1912956458	106.434805949	-22.4929071522	-49.0542238898
156375000.0	-21.160949579	-145.824253527	9.21176194146	90.040052884	-55.3026507882	106.749639641	-22.5643522849	-49.1656302827
157062500.0	-21.2275732804	-149.574686017	9.16819781634	87.7474457101	-55.9144564056	106.212272934	-22.6300613449	-49.2487644798
157750000.0	-21.3070228483	-153.322583017	9.12761869549	85.5054157791	-55.9963462461	105.016737839	-22.7031296353	-49.3273084821
158437500.0	-21.383985951	-156.944295228	9.08315869189	83.3054122515	-55.7451299012	101.860336389	-22.7820882109	-49.3674005601
159125000.0	-21.4559956394	-160.601191252	9.04299334805	81.1658192193	-55.6340950882	101.789471296	-22.8699744434	-49.4559170957
159812500.0	-21.5425329669	-164.094459303	8.99909632334	79.0652597443	-55.5052272678	101.169405529	-22.9482561931	-49.5195642184
160500000.0	-21.6333356783	-167.526394385	8.95809619694	77.0040080168	-55.5588391086	101.497878459	-23.0320156643	-49.584455518
161187500.0	-21.7258446733	-170.910326143	8.91457573804	74.9748177036	-55.2230362527	100.402234592	-23.1181716652	-49.6316393134
161875000.0	-21.8203209184	-174.207372827	8.87250255361	72.977618701	-55.354184764	95.8046339479	-23.2268572461	-49.7373507229
162562500.0	-21.9303052305	-177.478502952	8.82875862224	71.0201360808	-55.2664898097	93.1969787954	-23.319984693	-49.8009727846
163250000.0	-22.0292454655	179.345366261	8.78933384033	69.0908378047	-55.2514129497	87.7572935221	-23.4248415901	-49.8669154013
163937500.0	-22.1426380839	176.151880045	8.74757131161	67.2066255047	-55.0074105761	88.0642314652	-23.5137417592	-49.9481264006
164625000.0	-22.2526660958	173.031574515	8.70961829404	65.3455700984	-54.9496159562	90.5925088398	-23.6231956928	-50.0839786819
165312500.0	-22.3836831717	169.943025974	8.66693670329	63.518628023	-54.8296599719	89.7629650015	-23.7278638969	-50.2025858929
166000000.0	-22.5036649104	167.034488042	8.62939837121	61.7165648163	-55.0930735644	88.1287781397	-23.8334437988	-50.3733253686
166687500.0	-22.652688726	163.992885405	8.58865642523	59.9445647175	-55.0181396493	88.5377935669	-23.9604461715	-50.6222059666
167375000.0	-22.783213995	161.15333241	8.55123909734	58.2002011672	-55.1199168691	85.4177283305	-24.0704515294	-50.9388496964
168062500.0	-22.9292925575	158.224787308	8.51247035653	56.4802331481	-55.1152512736	85.1410602354	-24.1795993989	-51.2774141771
168750000.0	-23.0880721174	155.539621307	8.47759393867	54.7981291587	-55.2203287117	91.5574463825	-24.2915947797	-51.6439312141
169437500.0	-23.2504854846	152.563458787	8.44024534129	53.1357616662	-55.1907972982	89.7175756713	-24.4051836497	-52.0797228579
170125000.0	-23.4147782824	149.718222626	8.40884449893	51.4921169969	-55.9673053137	86.375962726	-24.5127500173	-52.5291699565
170812500.0	-23.5863765632	146.756295842	8.37339321093	49.8624876833	-55.9172086622	86.7253760651	-24.6251759954	-53.0572114159
171500000.0	-23.7732353347	143.882011426	8.34347258052	48.2743506672	-56.1488900598	84.3131987231	-24.7464964197	-53.6244863337
172187500.0	-23.9518532056	140.814752691	8.31313636316	46.7036464528	-56.2658193874	81.4515740701	-24.8506826431	-54.2698447592
172875000.0	-24.1533668238	137.758538575	8.28452600392	45.1530361923	-56.423044603	78.9471438244	-24.9416909636	-54.8125569434
173562500.0	-24.3405185982	134.519803959	8.25623170005	43.6245179405	-56.4488127698	74.5669067367	-25.0514402056	-55.5789073707
174250000.0	-24.5480619558	131.366877151	8.23286898481	42.1205191455	-55.9150275302	73.0250155188	-25.146052577	-56.2391194881
174937500.0	-24.7285200268	128.001108097	8.20833637432	40.6175461697	-55.7839309839	69.2392273748	-25.2282778326	-56.9958049838
175625000.0	-24.916620991	124.61226818	8.18851945748	39.1385818073	-55.872776213	68.9278174179	-25.3114588742	-57.7026937146
176312500.0	-25.0929067726	121.164842921	8.16532751633	37.6756875189	-56.3927836973	61.6224618892	-25.3883632096	-58.4650839566
177000000.0	-25.2670799047	117.53662963	8.14760024812	36.2184459509	-56.1812497623	59.2700391363	-25.475257762	-59.2272185771
177687500.0	-25.4128565409	113.896162644	8.12869494011	34.7718567112	-56.3845318163	54.819250002	-25.5529982349	-60.0609718897
178375000.0	-25.5658937214	110.129906471	8.1140099038	33.342847226	-55.982910684	55.1824314541	-25.6392276852	-60.7598796298
179062500.0	-25.6967615619	106.428798923	8.09807959367	31.9217862317	-56.0783924495	52.514566678	-25.66958286	-61.4870724763
179750000.0	-25.8102184368	102.477568476	8.08683481778	30.5120497225	-56.2357769605	51.2945826745	-25.7308587486	-62.1701337094
180437500.0	-25.9221287316	98.4722770138	8.07283228753	29.1034192889	-56.2661697903	49.5755073021	-25.7607594159	-62.8233522539
181125000.0	-26.0094989752	94.4466990525	8.06298608477	27.7106122624	-56.2652478527	48.0300538836	-25.8137732504	-63.4912361827
181812500.0	-26.0804546086	90.5356298704	8.05148837953	26.322613384	-56.2892628192	40.0623277391	-25.8340713397	-64.0257740078
182500000.0	-26.125557123	86.4424345557	8.04443542926	24.9429488286	-56.1995956112	39.290238264	-25.8759669975	-64.569999167
183187500.0	-26.1681868313	82.3602096897	8.03508852068	23.5745814104	-56.6337564127	38.699612148	-25.898960999	-64.946984615
183875000.0	-26.169212631	78.3089026801	8.03024795222	22.2044727996	-56.6785108809	32.7843580571	-25.9028915378	-65.3118387769
184562500.0	-26.1864281524	74.2315724546	8.02315585391	20.8483951312	-56.9716196629	31.9147043617	-25.9004968167	-65.5912007536
185250000.0	-26.1653170582	70.1345796964	8.01936151384	19.4988577509	-57.0724262899	31.0804905452	-25.9136304878	-65.8272205415
185937500.0	-26.1384756314	65.9869717196	8.01107794078	18.1506194519	-56.991253886	28.6000684495	-25.9082311062	-65.9425373225
186625000.0	-26.0973096299	62.1512672796	8.01019187943	16.814820964	-57.0139100638	23.65266519	-25.912579017	-66.1451629068
187312500.0	-26.0538925984	58.0810298571	8.00584589691	15.4789509015	-56.3824422731	24.9500645629	-25.9110938488	-66.0730755262
188000000.0	-25.9840767246	54.3010821298	8.00509194991	14.1570392946	-56.7199384375	21.8357278702	-25.891318836	-66.0851822677
188687500.0	-25.9191188829	50.3127327846	8.00096446666	12.8345413613	-56.6980487661	23.9100201413	-25.8671371743	-65.93604555
189375000.0	-25.8285832108	46.6129052411	8.00077666374	11.519554528	-56.7338524214	20.7025369294	-25.8696787118	-65.7384212569
190062500.0	-25.7354743987	42.7671803397	7.99922806202	10.2070663378	-56.6416038011	19.7747579814	-25.8762178518	-65.5206607641
190750000.0	-25.6426449852	39.1515089554	8.00178941287	8.90259291564	-56.9683882042	15.136287309	-25.8736226291	-65.0929723127
191437500.0	-25.5393556284	35.4823582301	7.99983266861	7.60818698749	-56.8189096342	16.2966361027	-25.8679134832	-64.733377906
192125000.0	-25.4533375042	32.115909045	8.00067944065	6.32953708622	-57.1328752831	16.9788246828	-25.8653407097	-64.2430101191
192812500.0	-25.3555881501	28.6079259816	8.00005262642	5.05328875956	-57.2608715727	18.2690838911	-25.8613402331	-63.8220087987
193500000.0	-25.2727377557	25.3125510085	8.00377386956	3.76452857842	-57.2722017094	20.3579751326	-25.8635537045	-63.2318449837
194187500.0	-25.1800019198	22.0095973638	8.00429407426	2.49181583713	-57.505939029	22.1359596095	-25.8569993683	-62.5471080141
194875000.0	-25.1265900021	18.6496281884	8.00929720966	1.22486560053	-57.6893441707	21.9779078932	-25.8572466793	-61.8597297171
195562500.0	-25.0385194729	15.4312564559	8.01212798277	-0.0368344008812	-57.8373180377	24.4186254956	-25.8518249049	-61.2395654268
196250000.0	-24.9859591873	12.1296879551	8.01717771825	-1.29038573755	-58.1650016259	25.9648547723	-25.8740744593	-60.5648208627
196937500.0	-24.9260761529	8.9695989708	8.02052618775	-2.54632576341	-57.9342929976	25.4456745327	-25.8919900501	-59.7266691725
197625000.0	-24.8773350263	5.7511708864	8.02817204913	-3.78560171187	-57.9953277426	26.288990255	-25.9137922592	-58.943159426
198312500.0	-24.8275845555	2.57228057849	8.03255923671	-5.02419932744	-58.1305067306	25.8287880276	-25.9236037798	-58.2083680827
199000000.0	-24.7987740679	-0.799832506244	8.04221868024	-6.25546352443	-58.3508585292	25.5752765328	-25.942814759	-57.4867150583
199687500.0	-24.749352416	-3.94851603161	8.04911077043	-7.48537344699	-58.4583436301	27.7416030904	-25.9590822144	-56.8478422214
200375000.0	-24.7177569392	-7.30197778625	8.0591041376	-8.71184774468	-57.9263217178	25.690608361	-25.9914430264	-56.1835439589
201062500.0	-24.6798868028	-10.6224055033	8.06653693626	-9.92930854725	-58.3119501475	27.3554034511	-26.0274212808	-55.6345075534
201750000.0	-24.6360109263	-14.0279800511	8.07931221508	-11.1445598012	-58.1426766554	26.9337717286	-26.0712599754	-54.9646948684
202437500.0	-24.6010995169	-17.3118332579	8.08865566637	-12.3554781506	-58.1817723157	23.858476473	-26.117181324	-54.4377767322
203125000.0	-24.5532021196	-20.6490382661	8.10461839445	-13.5686526501	-58.2302927314	23.7257932849	-26.151721103	-53.7739565884
203812500.0	-24.5004420804	-23.9803865914	8.11432737703	-14.7815383112	-58.5025989678	29.1953795719	-26.2022533498	-53.1916479795
204500000.0	-24.4480723996	-27.2801387254	8.13011318251	-15.9875885457	-58.4450102446	31.1150731847	-26.2452768525	-52.6091726024
205187500.0	-24.3939833834	-30.7017694095	8.14381471265	-17.1891632995	-58.7695017115	26.4575300396	-26.3061250728	-52.0792295079
