#Frequency	|S11|	<S11	|S21|	<S21	|S12|	<S12	|S22|	<S22
100000000.0	-19.6385565605	120.814267719	-43.8561671638	-119.8808906	-62.1854958441	-132.139543418	-21.9357114647	-34.6502824626
100687500.0	-19.4671337219	118.477961372	-43.1012939234	-119.910910449	-58.9140296779	-130.602088956	-21.9580430066	-33.9028806825
101375000.0	-19.3461975303	115.5676827	-42.186580571	-122.452551046	-58.9353062075	-73.5206545238	-21.9854281655	-33.7249672392
102062500.0	-19.2091315477	112.576223002	-41.758520229	-123.296187776	-58.9566998006	-125.036088679	-22.0175904444	-33.3209335652
102750000.0	-19.0904587343	109.69474904	-41.4963831097	-123.840128005	-59.6670209495	-165.635815839	-22.0646946381	-32.85935586
103437500.0	-18.9880457014	106.865264351	-41.1913602751	-125.143080826	-60.4106829391	145.554610585	-22.096971304	-32.523897569
104125000.0	-18.9017665966	103.806333612	-40.9223029691	-126.533196684	-59.8220317818	112.066927507	-22.152099336	-32.1732972217
104812500.0	-18.8174648522	100.757311064	-40.6305490993	-127.731974835	-59.3546127098	84.3818626345	-22.2203924835	-31.974092419
105500000.0	-18.7361521938	97.59974273	-40.4045181527	-129.260231898	-59.4853480159	75.5125420007	-22.2674554207	-31.8266417439
106187500.0	-18.6590065465	94.3943989931	-40.2124702413	-130.57041553	-59.7837218387	85.0309543079	-22.3150324907	-31.692538243
106875000.0	-18.5944275944	91.0119758598	-40.0488315827	-131.862709417	-59.9589335402	86.8419365311	-22.3673574191	-31.688304368
107562500.0	-18.5372894801	87.548176405	-39.9234313642	-132.861769265	-60.4557527297	90.0464660871	-22.4242217611	-31.6450778501
108250000.0	-18.4762188275	83.9033918114	-39.8732240339	-133.831382033	-60.296823792	96.0752136314	-22.4662602456	-31.7265715517
108937500.0	-18.3982770051	80.4872685977	-39.7237540741	-134.354930387	-60.3287593391	97.22899137	-22.5111896548	-31.614245778
109625000.0	-18.3297146524	76.985997634	-39.6022144747	-135.278714509	-60.5764082012	98.5171617261	-22.5513117068	-31.5258358897
110312500.0	-18.2499134385	73.3530987849	-39.5031211193	-135.644296649	-60.7915317702	98.2726196655	-22.5902431352	-31.5121959226
111000000.0	-18.1812500208	69.6848356393	-39.5105104647	-135.678924515	-60.6493970138	87.068175983	-22.6333198819	-31.5010547696
111687500.0	-18.111478926	65.8694798835	-39.5130420002	-135.585713142	-60.7962425472	74.9451873569	-22.6723267993	-31.5384277506
112375000.0	-18.0494885695	62.0362241237	-39.4983968323	-135.266836572	-61.1994067183	65.1277784029	-22.7074893509	-31.616980511
113062500.0	-17.983208796	58.0778400815	-39.4508601833	-134.436583417	-61.2099643812	65.2577976186	-22.7474443284	-31.6448682908
113750000.0	-17.9282049206	54.0227373697	-39.3702074446	-133.384703566	-60.8633444794	55.4866005204	-22.7845680607	-31.7739273284
114437500.0	-17.8682086943	49.9006721783	-39.2828073273	-131.864031151	-61.2244738935	57.1289098106	-22.8242532933	-31.8597804789
115125000.0	-17.8198376071	45.6177087912	-39.0907683022	-130.0587081	-60.9831950794	60.1913411108	-22.8674145486	-31.9577098447
115812500.0	-17.7585094461	41.2381283722	-38.9095016915	-128.290170392	-61.0591461764	53.7392078129	-22.8974884414	-32.0500457155
116500000.0	-17.718155878	36.7738315582	-38.648827969	-126.094951173	-60.9775383301	54.5672930351	-22.930827283	-32.1870738764
117187500.0	-17.6758466497	32.2610244004	-38.3384934733	-124.167600406	-61.4040993157	59.1003419521	-22.9546070949	-32.3265775947
117875000.0	-17.6607495241	27.5875197402	-37.965547162	-121.994018111	-61.6539164313	58.4031909308	-22.9824208783	-32.4105903844
118562500.0	-17.6450456889	22.8291269501	-37.5743022721	-120.332038636	-61.6434881592	50.283453736	-22.9972482388	-32.437082578
119250000.0	-17.6559961587	17.952118557	-37.1139673336	-118.633082831	-61.6544048428	44.699473276	-23.0187945642	-32.4708675028
119937500.0	-17.6889994786	13.032698766	-36.6084538071	-116.647943641	-61.9797946211	39.8483977969	-23.026454694	-32.4743232368
120625000.0	-17.7453078259	7.96486059661	-36.0412554162	-115.204873883	-62.2927268662	27.1290556881	-23.0491682612	-32.4865262048
121312500.0	-17.8436730279	2.93429342177	-35.4785400853	-113.667803738	-62.1726572708	24.9714697666	-23.0543609939	-32.5321505344
122000000.0	-17.9682847969	-2.1557716695	-34.8425140881	-112.381310703	-61.8950192877	17.1923266438	-23.0782614051	-32.4922828296
122687500.0	-18.1464693031	-7.16399140715	-34.2023580364	-111.346029192	-62.0249900592	17.9474104732	-23.0812903627	-32.3986589545
123375000.0	-18.3685041182	-12.1507689559	-33.4936038729	-110.789155993	-61.7666725701	13.2474935907	-23.0794160974	-32.3087548156
124062500.0	-18.6565293543	-16.8536993695	-32.8122315883	-110.064965016	-61.4736395514	3.17535707872	-23.0824330306	-32.1718995643
124750000.0	-19.0123665008	-21.3040361497	-32.0657754733	-109.774598723	-61.165957313	-7.16730359283	-23.0960792334	-32.0334049705
125437500.0	-19.3977899997	-25.3054797052	-31.2729756769	-109.54294705	-61.652135027	-15.6274607652	-23.0998886594	-31.7295093574
126125000.0	-19.8047426635	-28.7140734132	-30.442019876	-110.092534799	-61.5237938921	-25.9434747019	-23.1139943888	-31.5187929239
126812500.0	-20.2086972498	-31.5581321494	-29.6040489744	-110.450105223	-61.5236906445	-37.4542009016	-23.1215009086	-31.223422629
127500000.0	-20.5818322841	-33.8591713859	-28.7550952743	-111.606348121	-61.2642273765	-50.2245252402	-23.1306244344	-30.9274431563
128187500.0	-20.9380323097	-35.9381519858	-27.8690472983	-112.921940857	-61.0775919475	-61.7320300983	-23.1311828126	-30.4888737373
128875000.0	-21.2537232326	-37.7293385406	-26.952964518	-114.842911108	-61.2452761368	-63.8872494138	-23.1326107949	-30.061668353
129562500.0	-21.5362440359	-39.4116264442	-26.0688587282	-117.070084064	-60.8450186821	-67.8704117019	-23.1388872543	-29.5787849248
130250000.0	-21.7985724062	-40.9921467161	-25.206434604	-120.034525682	-60.7769949121	-82.8574388455	-23.1496164581	-29.1196831036
130937500.0	-22.0278692539	-42.4858634813	-24.355038622	-123.339919898	-60.7057606482	-95.0778837813	-23.1619472983	-28.5435240489
131625000.0	-22.2451361774	-43.8724019788	-23.5551659098	-127.365331713	-60.7510298645	-106.887737112	-23.1523289468	-28.0483994781
132312500.0	-22.4488013754	-45.2274581177	-22.8299406358	-131.566449245	-60.6344437052	-111.18065826	-23.1516643051	-27.473043614
133000000.0	-22.638863514	-46.4685743315	-22.159889563	-135.99838364	-60.6702691712	-117.852087506	-23.1556098141	-26.9109036202
133687500.0	-22.804620788	-47.7361496051	-21.5342070959	-140.645747928	-61.0704283294	-134.146474945	-23.159645511	-26.3239110706
134375000.0	-22.9651785357	-48.9182615748	-20.9860536201	-145.523467388	-60.8197828002	-161.018015048	-23.1640288635	-25.7115183233
135062500.0	-23.099610596	-50.1286526266	-20.4897866804	-150.320341613	-60.886423324	-174.35173234	-23.1669205328	-25.1749683838
135750000.0	-23.2238224057	-51.2274786426	-20.0559937477	-155.263496113	-60.8567519133	-174.650689272	-23.1746772166	-24.6593596277
136437500.0	-23.3165064552	-52.3743908041	-19.6623287566	-160.113871823	-60.8428599474	175.724460231	-23.1868226951	-24.1166967423
137125000.0	-23.3952124161	-53.4575343062	-19.3304107533	-164.989647061	-60.511867112	154.92323432	-23.2068071596	-23.5399166128
137812500.0	-23.4313854085	-54.4895556306	-19.0347580826	-169.775977173	-60.452874351	139.653444441	-23.2172595474	-22.9639771228
138500000.0	-23.4447134048	-55.5410856953	-18.7858615346	-174.484907279	-60.426865727	126.390380773	-23.2296645656	-22.382440821
139187500.0	-23.4124193553	-56.594065811	-18.5695990888	-179.129980246	-60.484942177	111.93520755	-23.2357519097	-21.8159364914
139875000.0	-23.3433178025	-57.7443949714	-18.3965703814	176.358794792	-60.3470327607	87.3492740791	-23.2538628523	-21.2884551941
140562500.0	-23.2223733243	-58.9624130682	-18.2373150414	171.979208629	-60.1553891794	74.5607323864	-23.2845781367	-20.7941881799
141250000.0	-23.0494338034	-60.4905862723	-18.1117360357	167.709833271	-60.2104298962	58.5854625941	-23.3003271766	-20.3371004363
141937500.0	-22.8019898122	-62.1822569475	-18.0084215579	163.490339738	-60.5864398895	44.6460080303	-23.3151139267	-19.8137205365
142625000.0	-22.5285529795	-64.3734626424	-17.9276003454	159.468533938	-60.2345893872	30.3304201281	-23.3350187381	-19.3747323377
143312500.0	-22.2331711881	-67.1015621636	-17.864854993	155.548737598	-60.012167011	17.2678495473	-23.3447249991	-18.9267039226
144000000.0	-21.9519562521	-70.4300776855	-17.8204501505	151.760799804	-59.8292927769	2.40165469367	-23.3670534324	-18.5370184612
144687500.0	-21.7138274104	-74.197264582	-17.7912898597	148.063768922	-60.0571800586	-21.2444549325	-23.3925412663	-18.1170861514
145375000.0	-21.4869553943	-78.2178878264	-17.7682751951	144.533059316	-60.8850780204	-35.2467865243	-23.4209261428	-17.851724598
146062500.0	-21.3120813122	-82.402481329	-17.7605975086	141.053203634	-60.475931088	-47.1998825145	-23.4464205461	-17.4169460865
146750000.0	-21.1655312474	-86.7672875467	-17.7538914732	137.712979751	-60.8759213339	-58.534558973	-23.4787312725	-17.0466886169
147437500.0	-21.0571596179	-91.0632946332	-17.7624656772	134.472043759	-60.9077417714	-57.1392548628	-23.4910090511	-16.7445662335
148125000.0	-20.9809690164	-95.4732467083	-17.7725328572	131.340001525	-60.6200135476	-58.779734555	-23.504699777	-16.5334282431
148812500.0	-20.9295436909	-99.9270380399	-17.7912613979	128.298767966	-60.5390583483	-72.013270654	-23.532134095	-16.2629503775
149500000.0	-20.879599207	-104.299436044	-17.8021058614	125.349537368	-60.3441295512	-95.9707897061	-23.5614439115	-15.980413097
150187500.0	-20.8664308466	-108.709281934	-17.8337831575	122.504452739	-60.0679641387	-105.674742098	-23.5849294296	-15.6648786973
150875000.0	-20.8594444984	-113.024622567	-17.8542432519	119.681579163	-59.8350538848	-103.670329145	-23.6041770184	-15.3635501775
151562500.0	-20.8688903644	-117.407810995	-17.8847766248	116.969538074	-59.8050568803	-102.139402546	-23.6157239434	-15.0924783062
152250000.0	-20.8814295632	-121.589861453	-17.9156728343	114.283298004	-59.5059091384	-100.522785137	-23.6491742393	-14.6933828934
152937500.0	-20.9111523102	-125.813036035	-17.956171812	111.714544753	-59.5785626134	-111.931115731	-23.6647813459	-14.3224188815
153625000.0	-20.9527772553	-129.86481503	-17.9895808347	109.164016021	-59.7809427601	-111.902206685	-23.6973597298	-13.9733524294
154312500.0	-20.9915666877	-133.958356575	-18.0291007606	106.715377701	-59.6498242596	-110.583375182	-23.7043032877	-13.7003953231
155000000.0	-21.0550445643	-137.923869509	-18.064998025	104.291529538	-59.5295233636	-106.401149124	-23.7291591088	-13.3656096172
155687500.0	-21.1095482645	-141.876577965	-18.0987075493	101.949358416	-60.1285398552	-111.602336679	-23.7572780427	-12.9626612598
156375000.0	-21.1920772738	-145.722302605	-18.1412546948	99.6479420516	-60.1337706752	-108.837150997	-23.7759601748	-12.6096626021
157062500.0	-21.2483122349	-149.537504254	-18.1805468014	97.4101489897	-60.0573652782	-99.0727533842	-23.7819515449	-12.151238541
157750000.0	-21.3288895627	-153.270021475	-18.2281006914	95.1846066391	-60.0492313955	-95.8788289719	-23.7958852469	-11.7404062255
158437500.0	-21.3873817968	-156.881902145	-18.2699813383	93.0801855188	-60.4850832999	-85.2519454916	-23.8161216845	-11.2443495072
159125000.0	-21.4726557606	-160.513364629	-18.3140736977	91.0045491406	-60.5814695641	-73.7791972643	-23.8380732883	-10.8264297007
159812500.0	-21.5532172954	-164.049403134	-18.3575443392	88.9472696577	-60.662726265	-60.2440224642	-23.8518445849	-10.3630754151
160500000.0	-21.6548235612	-167.530202182	-18.4026262981	86.9051025517	-61.070632439	-59.079415283	-23.88041341	-9.93380513151
161187500.0	-21.739005385	-170.936882191	-18.4369019831	84.9057810037	-61.163097635	-55.8276547036	-23.8978367554	-9.50560609284
161875000.0	-21.8313535429	-174.285423334	-18.4783196904	82.9508024164	-61.014878792	-46.232247292	-23.9350721122	-9.03595009332
162562500.0	-21.9376730159	-177.512861273	-18.5171338587	81.0171524793	-60.4859475826	-45.7526015039	-23.9603899178	-8.59190341752
163250000.0	-22.0360863865	179.162762936	-18.5569851929	79.1508265868	-60.7553673755	-57.8866125159	-23.9953211326	-8.17014931366
163937500.0	-22.1400466523	176.044994856	-18.5947967049	77.30454647	-60.2014084232	-65.2045964442	-24.0280212462	-7.7466068039
164625000.0	-22.2500488634	172.891752835	-18.6333244074	75.4794694696	-60.2845508625	-77.4629806035	-24.0736155504	-7.25864496417
165312500.0	-22.3638210561	169.908821995	-18.6716905473	73.6554142018	-60.712944835	-77.4565531063	-24.117782678	-6.83320271455
166000000.0	-22.486108997	166.90940636	-18.7099389322	71.9009073178	-60.5695426479	-75.6419314387	-24.1625199081	-6.42312512486
166687500.0	-22.6215919968	163.954105141	-18.7537853617	70.1407438862	-60.7866445593	-61.9750134415	-24.2165061546	-6.03655787262
167375000.0	-22.7494492112	160.98384181	-18.7876730054	68.4575812526	-61.5486270981	-52.0210951071	-24.2766456739	-5.75497610212
168062500.0	-22.8961355552	158.083814867	-18.829498069	66.7481601162	-61.7037239576	-53.2643179869	-24.3306114189	-5.50656739147
168750000.0	-23.039953229	155.271145071	-18.8658932548	65.0956200164	-61.7197871349	-50.5665555981	-24.4161060357	-5.27388445874
169437500.0	-23.2090694408	152.343873398	-18.9010226822	63.4441286314	-61.8950793857	-50.4831924249	-24.4778591552	-5.09981187125
170125000.0	-23.3716696979	149.507165424	-18.9305064689	61.8314970063	-62.2508229298	-50.0200670363	-24.5528448621	-4.96518491509
170812500.0	-23.5465725107	146.626738829	-18.9693565517	60.2524738093	-61.8619381758	-57.6020264911	-24.6275630542	-4.77059023701
171500000.0	-23.7250311818	143.767091282	-18.9986160158	58.6917795867	-61.9167473948	-58.3374403903	-24.7098361905	-4.72112150381
172187500.0	-23.9105514711	140.781155588	-19.0342306992	57.186202992	-61.8466001786	-61.4778908196	-24.7918033165	-4.74201922471
172875000.0	-24.0898806975	137.70149687	-19.0627341383	55.7020571108	-61.4978534873	-68.891074606	-24.871032714	-4.81992881808
173562500.0	-24.2746006907	134.560338753	-19.0898761193	54.1944091224	-61.3980519884	-74.9900221909	-24.9698867758	-4.84674711715
174250000.0	-24.471910507	131.48438131	-19.1139673139	52.7449066643	-62.2162689675	-80.3200708475	-25.0523660691	-5.02207352572
174937500.0	-24.6616226127	128.129467589	-19.1394004379	51.320389449	-62.292069075	-81.2264861147	-25.1448458393	-5.20088132534
175625000.0	-24.8520765653	124.730223124	-19.1603020346	49.8535666693	-62.095226729	-81.6745234728	-25.2234257048	-5.43895523506
176312500.0	-25.0409664811	121.06031467	-19.1829997791	48.4518720875	-61.7247667523	-90.5763983261	-25.3190551329	-5.84968887764
177000000.0	-25.2149308399	117.556736785	-19.2021282582	47.0352111316	-61.6798677797	-90.9043183034	-25.4151229552	-6.27872063839
177687500.0	-25.3583370296	113.828122878	-19.2244925264	45.6781928034	-61.9708688042	-90.9302542258	-25.499348458	-6.62905937061
178375000.0	-25.5192119531	110.160960938	-19.2424723256	44.2743168428	-62.4537017506	-91.3856172455	-25.592631554	-7.05013819402
179062500.0	-25.6589118554	106.3596927	-19.2632783466	42.9332329064	-62.691089268	-86.1825482646	-25.6587557567	-7.5698447551
179750000.0	-25.7826790438	102.423437891	-19.2777172769	41.5563796272	-62.8453497246	-84.0115608105	-25.736859444	-7.99615355219
180437500.0	-25.8835976668	98.4810862689	-19.2910760792	40.2072608409	-62.7241890241	-69.0460659435	-25.7943375781	-8.58421996678
181125000.0	-25.9757761507	94.3757359528	-19.3077362564	38.8495658201	-63.0372437368	-47.5877240574	-25.854532478	-9.13686080974
181812500.0	-26.039862514	90.4122000228	-19.319214162	37.542082264	-63.2193147189	-31.6305547906	-25.9011148739	-9.69941503129
182500000.0	-26.10453431	86.2495821867	-19.3309473888	36.2232713306	-62.8698337405	-27.2419120884	-25.9725733797	-10.1508031183
183187500.0	-26.1260530823	82.2158358826	-19.3404423531	34.9338456963	-62.6969431803	-13.3097799247	-26.0121756418	-10.571195272
183875000.0	-26.1555166443	78.0940717708	-19.3475633185	33.6000024028	-62.7447458907	1.92552542544	-26.0400067993	-11.1044638947
184562500.0	-26.1681463543	74.1271191876	-19.3581806213	32.2941931531	-62.7788079746	7.47564802403	-26.0575030961	-11.5789912309
185250000.0	-26.1517846331	70.0356954423	-19.3657351614	31.0071142947	-62.6795310998	22.0326934133	-26.081893243	-11.956134159
185937500.0	-26.1242325481	66.0157771514	-19.3705864632	29.7324727343	-62.8037571962	33.1284989223	-26.0705424582	-12.3273867445
186625000.0	-26.0926722883	62.0408523853	-19.3756520019	28.465471512	-62.8691443596	35.6580951277	-26.0731169664	-12.7260540683
187312500.0	-26.047166915	58.0239093118	-19.3814467695	27.1893915118	-62.660610619	47.7415513749	-26.0489815512	-13.0039826187
188000000.0	-25.9871197497	54.0363392047	-19.3818337735	25.9129478567	-62.776670939	68.7028161813	-26.0226965077	-13.3704403044
188687500.0	-25.9181060485	50.1790371973	-19.3845161904	24.6339112574	-62.8224492574	80.3603998581	-26.0003320823	-13.5299602476
189375000.0	-25.8421526329	46.3412236037	-19.3890242562	23.3546690881	-62.7175624275	86.4631614083	-25.972339052	-13.6813294942
190062500.0	-25.7741641763	42.7045453449	-19.3874298859	22.0555965692	-62.119154647	104.00575669	-25.9251032953	-13.7376080998
190750000.0	-25.6818810952	38.9979754712	-19.383200802	20.8266482425	-61.9326624234	110.247851091	-25.8898214721	-13.7665068687
191437500.0	-25.6030617516	35.3346874659	-19.3828020779	19.5539797641	-61.0975521148	107.457810413	-25.8615714351	-13.712647369
192125000.0	-25.4941712386	31.9340029466	-19.3787758633	18.305224394	-61.2410756255	97.8612718584	-25.7984534187	-13.6429648255
192812500.0	-25.4042504392	28.4564539349	-19.3739318519	17.0229908705	-61.0526255099	86.4169844047	-25.7557754042	-13.5794361487
193500000.0	-25.3024594133	25.275187391	-19.3720894607	15.7938870475	-60.8208917609	84.7531595381	-25.6845647242	-13.2787401901
194187500.0	-25.2208687397	21.9518590381	-19.3684422453	14.5539450861	-60.8475281913	71.9505962049	-25.6190592938	-13.0613363169
194875000.0	-25.1524991284	18.7220421379	-19.3590806952	13.2873193864	-60.4193638598	58.1837691019	-25.558782465	-12.8077447664
195562500.0	-25.0673726265	15.3958881597	-19.3582913211	12.0540203882	-60.1549610488	53.0768911686	-25.4891240956	-12.4932991542
196250000.0	-25.0041995058	12.1546365316	-19.3489260331	10.8337857048	-59.8248753437	35.968008337	-25.4216854839	-12.0978165605
196937500.0	-24.9341752572	8.97038647912	-19.3464585068	9.6323083006	-59.5365801362	32.7895907631	-25.3507164465	-11.693587746
197625000.0	-24.8898056177	5.80345700129	-19.3407593119	8.4245690023	-59.457850584	17.7453377174	-25.284946204	-11.187347354
198312500.0	-24.8439412894	2.64963986913	-19.3331781087	7.22513414462	-59.2195318565	-5.81854963868	-25.2267362324	-10.7779607536
199000000.0	-24.8228836897	-0.617379409877	-19.3203918393	6.03196892282	-59.4718086535	-31.7334189609	-25.1638383828	-10.3863737217
199687500.0	-24.7601330545	-3.86156756071	-19.313447335	4.85015340339	-59.6825051091	-48.3355334168	-25.0883194999	-9.97295508262
200375000.0	-24.740342334	-7.11885408911	-19.2985941784	3.63958649063	-60.059125966	-63.8898670292	-25.0409756536	-9.58342149439
201062500.0	-24.6914100707	-10.3660521462	-19.2912803479	2.49529212451	-60.0726797148	-92.0487771472	-24.9982360593	-9.12242760091
201750000.0	-24.6598352045	-13.699793251	-19.273798415	1.30916118369	-59.8952751079	-120.022699285	-24.9522817615	-8.60918090403
202437500.0	-24.622586726	-16.9388615317	-19.2629800612	0.145914266078	-59.5982930861	-145.717838923	-24.9172318079	-8.24236485618
203125000.0	-24.582710893	-20.3202828511	-19.2483416291	-1.06871366207	-59.3312394741	-158.366084917	-24.8808622527	-7.78152267996
203812500.0	-24.5040490513	-23.6116569281	-19.2393972833	-2.21891161328	-59.2969201395	-170.936716685	-24.8520011825	-7.28734314405
204500000.0	-24.4576163685	-27.0025025585	-19.2220106516	-3.39482681072	-59.4719759867	166.814429756	-24.8422751269	-6.87561744916
205187500.0	-24.391995381	-30.2644921808	-19.2090776144	-4.54118360986	-59.4180668927	131.962775185	-24.8176915191	-6.41089806436
