#Frequency	|S11|	<S11	|S21|	<S21	|S12|	<S12	|S22|	<S22
100000000.0	-18.5711541126	127.759577567	-20.1764564976	-128.314194267	-61.9985045064	139.588124389	-22.1152591967	-60.4958067075
100687500.0	-18.6064002736	124.747448324	-19.8156082418	-129.321923586	-60.7148549186	-138.746352337	-22.1653147507	-61.343549412
101375000.0	-18.5575183129	121.50063885	-19.4245510996	-130.348122937	-62.0887352487	-147.449765369	-22.1751133212	-60.9868871218
102062500.0	-18.5077958865	118.426746283	-19.057375664	-131.62101686	-63.6760108628	-116.046972915	-22.2476287857	-60.9617809077
102750000.0	-18.4562532276	115.203976988	-18.71091236	-132.899132158	-63.186534692	-128.142037636	-22.2967764997	-60.8677618781
103437500.0	-18.4248854677	112.055726749	-18.400454589	-134.325919639	-62.6810570952	168.965455966	-22.3555639166	-60.7554106284
104125000.0	-18.3919859872	108.727471524	-18.1054991566	-135.722048993	-62.6410869029	129.849771437	-22.4290291913	-60.6024570194
104812500.0	-18.3670124042	105.397662045	-17.8329541397	-137.09326133	-63.2989259157	119.046290547	-22.4954001461	-60.7457532798
105500000.0	-18.3507124174	101.887125404	-17.5930593435	-138.50014181	-63.4926914612	90.6919264056	-22.5444113589	-60.8332139505
106187500.0	-18.3417853589	98.2481384359	-17.3836072878	-139.874065394	-63.3469693122	54.1762914942	-22.6037109584	-60.8646764459
106875000.0	-18.3340194759	94.5025050086	-17.2118622852	-141.178786842	-63.3855045493	42.4489459085	-22.6644981507	-61.0024686886
107562500.0	-18.3322090708	90.6465379436	-17.0806228347	-142.442539627	-63.270879188	19.8001433597	-22.7342618052	-61.0455450538
108250000.0	-18.3290395121	86.6107058325	-16.9909276226	-143.492716729	-63.2442080462	-13.4469310105	-22.7923986788	-61.1836882563
108937500.0	-18.3194272258	82.7784123462	-16.83861143	-144.552137186	-63.2324767809	-42.9516258986	-22.848787725	-61.1812003278
109625000.0	-18.3030764806	78.883301502	-16.7135184986	-145.513905305	-63.5786471665	-69.357504628	-22.8947050811	-61.1896030197
110312500.0	-18.2837397409	74.8222407982	-16.6141427676	-146.281132535	-63.5288162117	-98.1563943689	-22.957969768	-61.1906773634
111000000.0	-18.2750047756	70.6866638226	-16.5467186187	-146.862131545	-63.6433171697	-125.586697391	-23.0237325462	-61.2372280734
111687500.0	-18.2599597059	66.4320052526	-16.5032444424	-147.114728081	-63.5597654581	-144.193317692	-23.0846626045	-61.3184258775
112375000.0	-18.2539389904	62.0879205032	-16.4696699385	-147.019620438	-62.6643678969	-171.972843867	-23.1422325961	-61.3628095587
113062500.0	-18.2409001544	57.6152983346	-16.4303994404	-146.508265114	-62.9670305937	160.111541847	-23.2007807017	-61.434175158
113750000.0	-18.2424594807	53.0694670941	-16.3734423727	-145.608573356	-62.8581965539	132.216768465	-23.2557534118	-61.508864288
114437500.0	-18.2292615297	48.3894060123	-16.2765600473	-144.324415992	-62.8110895774	104.56814855	-23.319101825	-61.5649033123
115125000.0	-18.2246623387	43.5207194952	-16.1239704314	-142.762818327	-63.2057140082	89.800158639	-23.3788488101	-61.5752608533
115812500.0	-18.2102232758	38.5775751387	-15.9169997643	-141.012985319	-63.5294419589	87.7734476382	-23.4416484716	-61.5801712602
116500000.0	-18.2102735482	33.467142908	-15.651529419	-139.171602541	-63.7394065288	85.6076107782	-23.4990740897	-61.5330808588
117187500.0	-18.2073634683	28.3261480241	-15.3353646748	-137.280873987	-63.2890005009	87.6109897967	-23.5511452526	-61.5567678013
117875000.0	-18.2251618545	22.960202901	-14.9648472981	-135.434793243	-63.1598590784	89.480253252	-23.6180702702	-61.367115952
118562500.0	-18.2465388866	17.5188230604	-14.5448011579	-133.632917221	-62.5317655058	79.0327377842	-23.6633156785	-61.1779835923
119250000.0	-18.2868317474	11.9246216814	-14.0718883473	-131.911729528	-62.6497258848	76.9570146854	-23.7238618767	-60.8554741893
119937500.0	-18.349148633	6.23649401816	-13.5602547173	-130.312470699	-62.5088792525	79.5114235645	-23.7777777563	-60.5762319674
120625000.0	-18.4343248726	0.420046718377	-13.0014695598	-128.86404023	-62.1604215566	91.6715150028	-23.8396599669	-60.2617143762
121312500.0	-18.5466854729	-5.43428079602	-12.4074415513	-127.591274	-62.407605568	91.9933849387	-23.8847781172	-59.8819596257
122000000.0	-18.6899895087	-11.4127014253	-11.7705892268	-126.510642622	-62.2744520899	82.6061523545	-23.9387276487	-59.4813804398
122687500.0	-18.8968020892	-17.3384462944	-11.1053568196	-125.627815924	-62.1219916925	69.9316705182	-23.9718227863	-59.0289146858
123375000.0	-19.1378001467	-23.2487299378	-10.4050204722	-124.949458543	-62.039530454	68.3921107453	-24.0004960933	-58.5026927539
124062500.0	-19.4564471309	-28.9825069241	-9.67776188087	-124.47562627	-61.8689016548	69.6792572346	-24.0357586465	-58.0145891882
124750000.0	-19.8323386623	-34.4681594624	-8.9223800236	-124.290493026	-62.2226056816	76.1982046125	-24.0691553729	-57.4417903081
125437500.0	-20.2634687533	-39.5508876332	-8.14267919497	-124.341663013	-61.7738122785	91.4995591735	-24.0998100215	-56.7481014012
126125000.0	-20.7204627572	-43.8793589278	-7.33237440386	-124.672137331	-61.7169452513	107.325628579	-24.1321368688	-56.197210628
126812500.0	-21.180628129	-47.637576493	-6.5004831875	-125.304981162	-61.3867654714	120.753554286	-24.1704044278	-55.5612012356
127500000.0	-21.5976933473	-50.6893843801	-5.64040614841	-126.30337315	-61.2300473147	135.137080832	-24.1854763742	-54.9849224426
128187500.0	-21.9786967408	-53.5238578658	-4.76241082652	-127.691021334	-60.7066494874	150.970816903	-24.2067367317	-54.344991769
128875000.0	-22.2988311631	-56.0398748169	-3.86122068313	-129.558325399	-60.6777025194	153.716599186	-24.2160953393	-53.6302256905
129562500.0	-22.5952175873	-58.473945502	-2.96645303527	-131.91238127	-61.1264550618	167.026650464	-24.2253090895	-52.9258075438
130250000.0	-22.8439628339	-60.8055347804	-2.07717218814	-134.845643129	-60.9030579661	171.12386638	-24.2392534076	-52.2571821645
130937500.0	-23.0601439361	-63.0274351985	-1.22196917191	-138.305530452	-60.8476522456	-178.562121151	-24.2533609611	-51.5280088739
131625000.0	-23.2580898961	-65.1018953835	-0.41117604681	-142.281549908	-61.8679299532	-162.769566462	-24.2555357753	-50.91357632
132312500.0	-23.437413375	-67.1463561622	0.333444594979	-146.620710737	-61.5647454816	-150.385683524	-24.2602503425	-50.2645144685
133000000.0	-23.5986000024	-69.1172447223	1.0169853459	-151.277149298	-61.1262304573	-148.895068024	-24.256060015	-49.7393999971
133687500.0	-23.7391517994	-71.01033608	1.63023182451	-156.125779152	-61.5394365947	-148.869219218	-24.2528554104	-49.1873319549
134375000.0	-23.8672813074	-72.8237816683	2.18355896297	-161.144819347	-61.5652568621	-151.02996954	-24.239904221	-48.7182397606
135062500.0	-23.9562176602	-74.6158454823	2.67376244757	-166.209556339	-61.8291314155	-161.88908385	-24.2270984039	-48.2990214398
135750000.0	-24.0392813089	-76.3289193754	3.10627545906	-171.328912547	-61.6477365077	-165.290240045	-24.2233045376	-47.8869364656
136437500.0	-24.0851592057	-77.9369538217	3.48170542616	-176.433638584	-62.0513352369	-176.623328206	-24.2050111059	-47.6901845284
137125000.0	-24.110231418	-79.4927408396	3.80852694955	178.478095379	-61.5273865963	167.646533893	-24.2025416702	-47.4940960171
137812500.0	-24.099605308	-80.8804263092	4.08645859003	173.479525809	-61.5658593168	146.373304272	-24.1788199761	-47.2542854944
138500000.0	-24.0640463457	-82.2777674787	4.32333584917	168.549453851	-61.5520543539	130.732382105	-24.1627559907	-47.196988959
139187500.0	-23.9798954409	-83.5359990295	4.51824973589	163.738715258	-61.2771701555	115.187171906	-24.1545691743	-47.123955835
139875000.0	-23.8449480007	-84.8676772588	4.68024755998	159.037966745	-61.153135314	112.290985656	-24.1614821296	-47.0831850225
140562500.0	-23.6616662736	-86.2239158766	4.81037349533	154.473377539	-61.1860621154	99.2048200372	-24.1648129632	-47.1561747122
141250000.0	-23.4138728312	-87.712117613	4.91291312063	150.033509762	-60.9390393756	83.8363325083	-24.1613827806	-47.2642394097
141937500.0	-23.1057520924	-89.4285684555	4.99119502161	145.748991181	-60.3031341345	65.0031867062	-24.1619791958	-47.4519492489
142625000.0	-22.7423891055	-91.4882448307	5.05023175023	141.588681534	-60.3935036281	50.8502067178	-24.1624451817	-47.6964682018
143312500.0	-22.3526718457	-94.1858374342	5.08811810368	137.58463038	-60.235721012	36.5203450352	-24.1587283321	-47.9086909357
144000000.0	-21.9676372186	-97.488180961	5.11381140419	133.690563329	-60.4190231113	21.1046872724	-24.1608597247	-48.1453956912
144687500.0	-21.6398153725	-101.36130476	5.1249303948	129.964681665	-60.4798604985	-0.977504654407	-24.1624401068	-48.4054505564
145375000.0	-21.3341570283	-105.396988727	5.1265259846	126.339676261	-60.709719718	-15.5587460147	-24.1652117973	-48.748438973
146062500.0	-21.1042345456	-109.647435665	5.11632444971	122.850602585	-60.954612659	-31.0287044958	-24.184885011	-49.0426921905
146750000.0	-20.8879282478	-113.949387745	5.10084570411	119.454917575	-61.1920175914	-54.3801714796	-24.1992893353	-49.3382411719
147437500.0	-20.7376282888	-118.214323367	5.07520540244	116.194048048	-61.0174548118	-69.0755306426	-24.2041817172	-49.6153340778
148125000.0	-20.6167801001	-122.56988536	5.04851682218	113.024131376	-60.9185576205	-87.4071678927	-24.208973301	-49.9214690227
148812500.0	-20.5322800555	-126.973034511	5.01373394163	109.952709431	-59.8345885368	-103.028039917	-24.2076617517	-50.1809879126
149500000.0	-20.4594553271	-131.238922905	4.97963438272	106.973460649	-60.0007199579	-128.174786024	-24.2221728632	-50.4065253482
150187500.0	-20.419073322	-135.535541802	4.93848610793	104.088983508	-60.433101254	-156.588657634	-24.2324440153	-50.5753196483
150875000.0	-20.3961684691	-139.701928432	4.89886775485	101.274078135	-60.2714778873	163.113629151	-24.2440650981	-50.7336066114
151562500.0	-20.3896623959	-144.004450048	4.85434946096	98.5497345476	-60.3087489201	120.647054695	-24.2547772259	-50.8312325978
152250000.0	-20.4098913746	-148.053423657	4.81142690016	95.8844985854	-59.7678519463	76.3935457314	-24.2675395347	-50.9185842384
152937500.0	-20.4351831207	-152.138513012	4.76341869048	93.3037783366	-60.2845990256	32.4802099703	-24.2708794606	-51.0154377521
153625000.0	-20.4863266706	-156.100586052	4.71875780844	90.7722871183	-59.8007134605	-11.532416251	-24.2968804425	-51.026195167
154312500.0	-20.5352791325	-160.062846772	4.67027845334	88.3198330084	-60.1212576323	-44.9276643475	-24.3014627608	-51.0092003713
155000000.0	-20.6036476407	-164.018508491	4.62448387	85.9136539111	-60.0217774551	-77.2409495598	-24.3161280961	-50.9965851411
155687500.0	-20.661988997	-167.935054182	4.57576457612	83.5771590717	-60.354124789	-103.675140902	-24.3419965571	-50.9792801955
156375000.0	-20.7503732839	-171.805491625	4.53015333719	81.2748274433	-60.3270974256	-132.786023343	-24.3489070956	-50.8062759038
157062500.0	-20.8182680221	-175.626281808	4.48149095991	79.035231205	-60.5034438996	-171.187705822	-24.3620598759	-50.6771722549
157750000.0	-20.9166794209	-179.455626659	4.43532146123	76.8346564188	-60.305070115	161.186288655	-24.3714267829	-50.4522046208
158437500.0	-20.9970616738	176.803053087	4.38751109939	74.6869281439	-60.6965837765	132.143399673	-24.3942038504	-50.2563408541
159125000.0	-21.0906500619	173.080847096	4.34303727663	72.5846716555	-61.0883878618	104.049067963	-24.413055094	-49.91273329
159812500.0	-21.1785948548	169.415814621	4.2968913146	70.5283106726	-60.768167471	76.3704403337	-24.4397173786	-49.5967045339
160500000.0	-21.2764791453	165.696689805	4.25470050688	68.4937484059	-60.734246825	46.3593544387	-24.469486836	-49.3294337478
161187500.0	-21.3610218697	162.154613946	4.20984154408	66.512939437	-60.7556260504	10.8104097643	-24.4947095478	-48.9808910167
161875000.0	-21.4529924862	158.635885054	4.16834832688	64.5463289765	-60.7278822046	-20.4967694961	-24.5382485015	-48.6157444368
162562500.0	-21.5536590731	155.116547969	4.12514254839	62.6364556626	-60.3431277226	-61.4254241758	-24.5715810782	-48.1746554827
163250000.0	-21.6362480456	151.610238559	4.08403225997	60.733361046	-60.1945673025	-88.8034861707	-24.6191728294	-47.8757515308
163937500.0	-21.7414537399	148.215494469	4.04322674703	58.889823181	-60.0495399861	-106.627286511	-24.6672566654	-47.539735184
164625000.0	-21.8251123358	144.747375778	4.00559653706	57.0507334292	-60.0236835666	-136.454706574	-24.7138927825	-47.2257776756
165312500.0	-21.9214753855	141.380406142	3.96546479462	55.263375794	-60.1461465374	-166.903424096	-24.7722240196	-46.9204068687
166000000.0	-22.0271673054	138.013976066	3.92899351935	53.4976113393	-60.1065012081	165.58362721	-24.8380552031	-46.657548093
166687500.0	-22.1372493289	134.703318439	3.89020275719	51.7524887228	-59.4186512705	138.493136637	-24.9104306628	-46.3112773666
167375000.0	-22.2416069689	131.495164725	3.85485323437	50.0285439664	-58.8760880583	114.182813418	-24.9694593315	-46.1267094961
168062500.0	-22.3450263883	128.211827247	3.81923515108	48.3515318134	-58.3753802974	101.13871454	-25.0355110915	-45.9201096125
168750000.0	-22.4429255139	125.033290483	3.7868454483	46.6883533578	-58.8448640194	92.9089446444	-25.1223919975	-45.7731160194
169437500.0	-22.5379124186	121.809833475	3.75282140493	45.0649952315	-58.8913660934	92.6727321189	-25.2079964899	-45.584451562
170125000.0	-22.6447568917	118.59403292	3.72389001396	43.4379015173	-58.5631707677	93.7842500437	-25.2935051744	-45.5532469532
170812500.0	-22.7480957665	115.321327095	3.69372025512	41.85015485	-58.510204512	98.0649855447	-25.3827790209	-45.3642743788
171500000.0	-22.8519463914	112.162840133	3.66750370121	40.2829730799	-58.7603873906	93.7496037804	-25.4807728404	-45.3536396724
172187500.0	-22.9485145517	108.854487574	3.640661229	38.7404444162	-58.9255104581	91.7844947912	-25.5833488999	-45.4106982774
172875000.0	-23.0624548265	105.66030517	3.61727547713	37.2097142964	-58.3911173882	82.1231560928	-25.6716362739	-45.3359956382
173562500.0	-23.1506457951	102.332157438	3.59255303344	35.7111533623	-58.8162711517	82.3912883459	-25.7789300449	-45.425143458
174250000.0	-23.2580867533	99.0730078473	3.57442824826	34.2185850701	-58.6895819698	82.6877975676	-25.8844976747	-45.5169376989
174937500.0	-23.3310495273	95.7594514997	3.55619069374	32.7492587176	-58.9623151718	81.3047482076	-25.9818843294	-45.7499130045
175625000.0	-23.4105807679	92.4430670628	3.54236893097	31.2834105567	-58.86693661	74.1317435133	-26.0841722189	-45.8125984783
176312500.0	-23.4825678751	89.0578480166	3.52624384529	29.83955838	-58.5305117904	71.3585575185	-26.1759300843	-46.1600529318
177000000.0	-23.5544991957	85.7108765908	3.51483958438	28.3980006451	-58.7162059886	59.2355848953	-26.2738567156	-46.4504685195
177687500.0	-23.5994257614	82.3101484428	3.50192370824	26.9710102322	-58.662506853	58.4310688368	-26.3784089518	-46.7734316242
178375000.0	-23.6662104409	78.8399151487	3.49552723689	25.5522802881	-58.4716903024	59.6041994759	-26.4868975869	-47.0210919046
179062500.0	-23.7012401902	75.3799080796	3.48650084672	24.1497709975	-58.4784180271	65.0023020911	-26.5728053397	-47.4487984363
179750000.0	-23.742601564	71.9432878996	3.48242746775	22.7455605064	-58.5411960738	67.255846803	-26.6597745213	-47.8341254676
180437500.0	-23.7815649938	68.4234186204	3.47635027464	21.3597627121	-58.8489872953	60.6266000572	-26.7375934334	-48.2270049859
181125000.0	-23.8069119239	64.7946465343	3.4742770039	19.9581483621	-58.3072542777	50.797697187	-26.8240636918	-48.46168432
181812500.0	-23.8306100995	61.3200794319	3.47015380251	18.5866487563	-59.0623266082	49.9087101332	-26.902392894	-48.7821879971
182500000.0	-23.8358175416	57.7543178663	3.4714898446	17.2058422163	-59.1065916964	48.9903070345	-26.9866715926	-49.023506681
183187500.0	-23.8147524219	54.302158501	3.47099467671	15.8448227164	-59.2744365818	41.0082897888	-27.0749806951	-49.2588738765
183875000.0	-23.7937665939	50.7524055057	3.47452503831	14.4749825947	-59.4746934629	39.7199173921	-27.1247633757	-49.5341274786
184562500.0	-23.7651019645	47.1806411792	3.47657479907	13.1292947451	-59.5441529213	41.59436306	-27.1939128576	-49.8236809415
185250000.0	-23.7322820711	43.5850538082	3.48134946055	11.7633259293	-59.3333377406	42.4323557512	-27.2592228901	-49.9724000068
185937500.0	-23.7028359564	40.0817267953	3.48284973934	10.4186403477	-58.8748874803	38.0850253101	-27.3153322629	-50.0739760371
186625000.0	-23.6717072084	36.5065777106	3.49110326848	9.06067397042	-58.8091477794	38.1973288775	-27.3761131276	-50.2617096788
187312500.0	-23.6173217472	33.0083117195	3.497408796	7.72332031217	-59.6196734754	32.5898624797	-27.4383170726	-50.2727835805
188000000.0	-23.5634004057	29.4902501377	3.50602584177	6.37559268055	-59.7418853747	32.0173813042	-27.4748890516	-50.3160763927
188687500.0	-23.5079385163	25.9208143544	3.51243709837	5.04180408112	-59.2808679597	34.9383075782	-27.5178847332	-50.2955979929
189375000.0	-23.4428877633	22.4921803239	3.52197805624	3.69892657246	-59.1743406684	37.2153715243	-27.5651835782	-50.2055681162
190062500.0	-23.3742088331	18.9593181914	3.53041256434	2.37344045629	-59.1934875063	35.3256801072	-27.6260253519	-50.0883651833
190750000.0	-23.3023296533	15.4770062424	3.54264698296	1.04318564485	-59.3706220154	34.9062152065	-27.6915777205	-50.0197047058
191437500.0	-23.2327869763	11.9768936605	3.55084633446	-0.276241000348	-59.2751228449	35.7091316867	-27.7410869431	-49.9184669444
192125000.0	-23.1616076748	8.55947785421	3.56183342288	-1.60295523284	-59.4018111622	31.6345917697	-27.789496274	-49.647237831
192812500.0	-23.0896556873	5.02192875059	3.57177221506	-2.90843361168	-59.068460407	30.9112332769	-27.8427566504	-49.6302927445
193500000.0	-23.011543355	1.63914367056	3.58423308486	-4.23321898958	-59.3292938629	34.3950336884	-27.9073110755	-49.3715731178
194187500.0	-22.9263170612	-1.83761085782	3.59479633124	-5.53214651463	-59.0834490726	33.9515041599	-27.9526200981	-48.9641617353
194875000.0	-22.8614934973	-5.23307462832	3.60846778566	-6.83609580701	-59.440861827	32.9070815386	-27.9960368812	-48.5408819044
195562500.0	-22.7685941771	-8.69841890669	3.61967359059	-8.13105019787	-59.4257778925	31.3563948245	-28.0384481944	-48.2224188584
196250000.0	-22.6907341114	-12.0887200721	3.63334723423	-9.42632635069	-59.4904503765	19.184264512	-28.1044006491	-47.8990717027
196937500.0	-22.5935104254	-15.5513248004	3.64475039245	-10.7094860862	-59.3060701497	17.7575913482	-28.1613148234	-47.4039897645
197625000.0	-22.4977624165	-18.8693560866	3.66118796811	-11.9895774508	-58.8006755802	14.9073267169	-28.2175649725	-46.9971191078
198312500.0	-22.390590466	-22.1587839476	3.67492364524	-13.2522190416	-59.3107578657	14.9385008523	-28.2537476351	-46.7773210608
199000000.0	-22.2920092536	-25.532545286	3.69387376119	-14.5359731977	-59.1398218669	6.02244561368	-28.3270349543	-46.6667165713
199687500.0	-22.1730542344	-28.7922203696	3.70845150314	-15.8048057202	-59.0685093437	5.36352364425	-28.3863900121	-46.4800781868
200375000.0	-22.07443669	-32.0342405361	3.72646784978	-17.0857444752	-59.0312566257	3.5244220498	-28.4446008284	-46.3600550678
201062500.0	-21.9541295019	-35.2374447395	3.74298215946	-18.3365772865	-59.2875866461	3.96513917079	-28.5196376624	-46.176722959
201750000.0	-21.8379029702	-38.4216374637	3.76303925436	-19.6030844256	-59.2343557132	4.10296626269	-28.5903110731	-46.0060836034
202437500.0	-21.7105334039	-41.466177344	3.78095886573	-20.8519474265	-59.6733306909	2.50948705821	-28.6410104689	-46.0446962376
203125000.0	-21.5892880272	-44.540615883	3.8041313001	-22.1158966563	-59.4615257232	3.97586721151	-28.690348366	-46.1292676184
203812500.0	-21.4446838791	-47.4568486381	3.82299759378	-23.3621371677	-60.2945796241	2.13888450958	-28.7245690098	-46.1743308284
204500000.0	-21.3194355705	-50.4305076789	3.84589650203	-24.619325063	-59.4879163317	-0.478850043854	-28.7830933672	-46.2736226602
205187500.0	-21.1774482491	-53.2239856807	3.86748622874	-25.8583402313	-59.4570250126	-4.4977923806	-28.8493950289	-46.4933616996
205875000.0	-21.031258541	-55.964832746	3.89397302167	-27.1169307485	-59.5348497237	-7.76479161525	-28.8883123355	-46.6419415219
