#Frequency	|S11|	<S11	|S21|	<S21	|S12|	<S12	|S22|	<S22
100000000.0	-16.3435759067	150.379288243	-16.1709542405	-124.567217257	-65.6701288264	140.653914128	-19.0411660898	-68.6095364163
100687500.0	-16.2926440291	148.183085681	-15.7464043043	-125.697086935	-62.2031466223	179.496776164	-19.0436607201	-68.5698956617
101375000.0	-16.2897669487	145.639411876	-15.3300075206	-126.905501397	-60.4468987413	118.857049485	-19.1599799189	-68.3125933268
102062500.0	-16.2996038446	143.193262953	-14.9465816972	-128.129886091	-60.9321539515	70.5025193993	-19.2603801657	-67.9626441469
102750000.0	-16.3062873087	140.680918881	-14.5846707662	-129.494483469	-60.3161805628	32.2152276952	-19.3604604791	-67.5996800004
103437500.0	-16.3151001974	138.165366049	-14.244379599	-130.837318424	-60.1089645864	10.2917605983	-19.4884418829	-67.270677281
104125000.0	-16.3363951069	135.429998523	-13.9201742565	-132.209807127	-59.3961890474	-25.8531047773	-19.6425697082	-66.9953423116
104812500.0	-16.3682739839	132.630814662	-13.6197278222	-133.582326999	-59.7481349835	-64.5919507938	-19.7744173307	-66.8209982935
105500000.0	-16.4022794062	129.727524616	-13.3403167014	-134.996753054	-59.8097036968	-101.612875073	-19.9155195528	-66.6404794691
106187500.0	-16.4416089991	126.704555298	-13.0897633994	-136.401986609	-61.0205119346	-147.528269144	-20.0772426769	-66.6123908406
106875000.0	-16.4893770051	123.560465175	-12.8714393126	-137.796311803	-62.0729502686	-179.573436679	-20.2283931343	-66.5665614799
107562500.0	-16.5479277508	120.294384307	-12.6843118021	-139.167137801	-61.9064313396	153.993530169	-20.4017144667	-66.4819592188
108250000.0	-16.6062124708	116.837824713	-12.5329824595	-140.48476862	-61.9823659545	131.730191849	-20.5643576265	-66.5242639433
108937500.0	-16.6504795585	113.639009905	-12.3245732504	-141.77886508	-61.7693797299	114.984669528	-20.7131167867	-66.4398496562
109625000.0	-16.6986708237	110.337233027	-12.1398729541	-143.012954114	-62.2533423798	87.6695026595	-20.8696782314	-66.3740700575
110312500.0	-16.7488559212	106.909814406	-11.9835930477	-144.224501929	-62.2758851738	64.4695517968	-21.0355613756	-66.3407094963
111000000.0	-16.801780872	103.392621516	-11.8553290485	-145.335125431	-62.208153747	47.1402949743	-21.202624005	-66.3844528092
111687500.0	-16.8580578353	99.8124573711	-11.7541501495	-146.342075143	-62.548073449	20.0995965215	-21.3569818967	-66.4360645749
112375000.0	-16.9173033888	96.0977580627	-11.6842370532	-147.190796587	-62.7635751784	-9.04594729332	-21.5222447708	-66.4944885774
113062500.0	-16.973797108	92.2348013611	-11.6427581401	-147.84696901	-62.5673721969	-39.0086415407	-21.6930435952	-66.5079833906
113750000.0	-17.035365319	88.2798015634	-11.6265640353	-148.185658187	-62.6140764858	-74.1373693815	-21.8704871889	-66.6111838706
114437500.0	-17.0938111398	84.2310879474	-11.6295266297	-148.158121152	-63.0798538658	-102.753813391	-22.0527405979	-66.7766034599
115125000.0	-17.164831279	80.0065839752	-11.6310808515	-147.73053427	-62.976607731	-130.730135545	-22.2424219708	-66.8851405489
115812500.0	-17.2255975304	75.6564421667	-11.6190331731	-146.865966649	-63.1166647547	-154.267343222	-22.4202134661	-66.9223082033
116500000.0	-17.2990917754	71.1922882079	-11.5683942183	-145.622718842	-63.5984968296	-168.041782972	-22.6022131842	-66.9981365463
117187500.0	-17.3610053682	66.6311477943	-11.4743911528	-144.051734622	-63.8478349025	178.361032554	-22.7815468484	-67.1046187115
117875000.0	-17.4405667931	61.9575435684	-11.321906151	-142.288305187	-63.9895428687	164.766681738	-22.9810574025	-67.1202003929
118562500.0	-17.5186734554	57.1275783394	-11.1179503344	-140.393532918	-64.0143152052	147.645451213	-23.1639597432	-67.0549554202
119250000.0	-17.6144788486	52.1269385895	-10.8571523788	-138.411201511	-64.2062826326	137.533201367	-23.3497467633	-66.9026303743
119937500.0	-17.7157035197	47.0217108891	-10.5456200237	-136.427051013	-64.3748800578	135.821301779	-23.5208508965	-66.7522360646
120625000.0	-17.8367242908	41.766629663	-10.1785093612	-134.471147152	-64.105798	139.514516054	-23.7033578875	-66.5324175453
121312500.0	-17.9806853594	36.3514021305	-9.76807963991	-132.581481292	-63.680452608	141.46376595	-23.8604338054	-66.261251851
122000000.0	-18.1411674287	30.775478249	-9.30408067585	-130.790319036	-63.4026468087	140.916663227	-24.0351818088	-65.8875192689
122687500.0	-18.3364937935	25.1346160716	-8.8015560618	-129.111346771	-62.9022960816	142.297537036	-24.1961694955	-65.637943091
123375000.0	-18.5564191765	19.2647324482	-8.25464949132	-127.559506034	-62.7206746829	146.597603556	-24.339736353	-65.1968056245
124062500.0	-18.8341331888	13.2647553559	-7.67279091639	-126.182321264	-62.5295021354	146.164635031	-24.472087272	-64.7555662522
124750000.0	-19.1645791372	7.14980148394	-7.05127422678	-124.964583995	-62.1412621569	156.989715599	-24.6014530652	-64.1886922913
125437500.0	-19.5714217008	0.846233876004	-6.39678045947	-123.94546903	-62.1063106843	158.397786207	-24.7130993995	-63.5822103201
126125000.0	-20.0916909424	-5.69272228603	-5.70747755542	-123.108726301	-62.65769789	150.565692226	-24.8190081885	-62.9788981246
126812500.0	-20.735842815	-12.3176173415	-4.98854058914	-122.509955458	-61.8345397904	149.456378242	-24.8976262596	-62.2942897347
127500000.0	-21.6302794064	-18.9273885242	-4.23374302884	-122.134657497	-61.7067882442	146.013198083	-24.9434239391	-61.595217329
128187500.0	-22.9740194457	-26.7283306427	-3.45242400862	-122.040508984	-61.5169842054	143.058748834	-24.9767702623	-60.8382532838
128875000.0	-23.9836019161	-41.0721768811	-2.63677019545	-122.218703011	-61.1930975736	147.059179838	-24.9965447051	-60.0831416407
129562500.0	-24.7196027157	-55.2770372339	-1.79466108505	-122.743037314	-61.1962142557	158.047505384	-25.0024005284	-59.4316434075
130250000.0	-25.3492621568	-69.6755404044	-0.921339068982	-123.615172512	-60.8538926621	169.917368091	-24.9982142596	-58.8150925352
130937500.0	-25.8721101989	-84.3893606294	-0.0286802190392	-124.962165958	-60.7651114744	-173.634326355	-24.9739489774	-58.1144046651
131625000.0	-26.336438647	-99.1526920069	0.877726228416	-126.810714986	-60.0479879473	-159.801786456	-24.9242518848	-57.4742414539
132312500.0	-26.7560424495	-113.921546177	1.7777368391	-129.228505957	-60.1144855977	-153.622109431	-24.8507120629	-56.8909139014
133000000.0	-27.1310786403	-128.799351948	2.6586330362	-132.199687492	-59.8969248953	-144.004751156	-24.7749740226	-56.4689003271
133687500.0	-27.4891572803	-143.811721526	3.49254661815	-135.709119335	-59.6469416273	-138.723385416	-24.685367452	-56.013149355
134375000.0	-27.8123047032	-158.919374054	4.27695029357	-139.650984972	-59.1459356159	-139.148334803	-24.5746373965	-55.6587502566
135062500.0	-28.1144909863	-174.240751149	4.99641773422	-143.925844354	-58.6068872125	-136.615131422	-24.4475125043	-55.3682595186
135750000.0	-28.3788821668	170.423116496	5.65496165452	-148.42172247	-58.3338370034	-125.902146383	-24.3076753426	-55.2930188827
136437500.0	-28.6202099741	155.086924851	6.24901962168	-153.119727058	-57.8713748713	-124.810467937	-24.1683096925	-55.2976484681
137125000.0	-28.8492544567	139.652177439	6.78598894979	-157.91558786	-57.5710463451	-128.738186649	-24.0314188809	-55.3908813916
137812500.0	-29.0175771797	124.203948245	7.26340775058	-162.782961567	-56.9816232819	-132.478522846	-23.8665198389	-55.4450863996
138500000.0	-29.1681986779	108.749460238	7.6894816174	-167.673564923	-56.9112087688	-137.756316677	-23.7034006664	-55.7212008316
139187500.0	-29.2637068193	93.2177243888	8.06184616658	-172.568073802	-56.4193133939	-139.523649091	-23.5292103121	-56.0843760032
139875000.0	-29.3239948123	77.698123874	8.38775745409	-177.413975566	-56.3192879923	-145.242752216	-23.352827246	-56.3772186654
140562500.0	-29.3266713325	62.2693199213	8.6708145928	177.773530096	-56.074834303	-149.625149333	-23.1829347777	-56.8994239268
141250000.0	-29.2695352598	46.9799517651	8.91419329212	173.064761662	-56.262614631	-155.618264596	-23.0147703791	-57.3559040184
141937500.0	-29.1365181253	31.7176583221	9.11758999505	168.425952504	-56.2579682352	-167.010151543	-22.8362506981	-57.9956194821
142625000.0	-28.9251667292	16.6014153786	9.29137474593	163.896453511	-56.2111677888	-178.185578592	-22.6743422877	-58.6322546349
143312500.0	-28.5744687573	1.71505367413	9.43268975451	159.471314534	-55.39078759	177.132422664	-22.5035193122	-59.3035348879
144000000.0	-28.0963420771	-13.1125483393	9.54794131862	155.162586611	-55.3655459768	169.792744928	-22.3504887697	-60.0253346868
144687500.0	-27.3581587264	-27.8813550724	9.63925326706	150.980945493	-55.2260627401	168.444747131	-22.209356728	-60.8042953827
145375000.0	-26.1591202293	-41.4658539888	9.70998668664	146.932074061	-55.2544319874	166.485380352	-22.0821462596	-61.5489671892
146062500.0	-25.277476714	-48.514772266	9.75988448407	142.998483266	-55.2330084707	162.916714923	-21.9691265451	-62.2858119618
146750000.0	-24.6640911806	-55.6431647689	9.79446640616	139.190158677	-54.9439582672	157.647164994	-21.8625822762	-62.919608855
147437500.0	-24.1528580783	-62.4736085936	9.81116066561	135.508506901	-55.1143633594	157.351991714	-21.7440855268	-63.5770052357
148125000.0	-23.7390731841	-68.9334260911	9.82044846332	131.94012681	-54.9413104061	154.207824725	-21.6412757256	-64.2138302391
148812500.0	-23.3875637603	-75.2826490815	9.81662682146	128.481629698	-55.6634942861	156.281188845	-21.5401951783	-64.8332359334
149500000.0	-23.060632697	-81.4878886914	9.80818016159	125.148251452	-55.4644053418	154.694941399	-21.466715843	-65.3737462723
150187500.0	-22.7816203807	-87.4922549936	9.78716621671	121.904941868	-55.6682051715	151.083232711	-21.3851583036	-65.8262817962
150875000.0	-22.4987174701	-93.2287759588	9.7637859547	118.780333404	-55.3390871128	147.887476698	-21.3216044349	-66.1763630382
151562500.0	-22.2691640034	-98.7769861749	9.73235422455	115.743552104	-55.5598026914	143.634970577	-21.2576796293	-66.5086883964
152250000.0	-22.0241296926	-103.980060281	9.69862268796	112.805571342	-55.4430906809	142.351325057	-21.2162794493	-66.7415675773
152937500.0	-21.8275021671	-108.98088216	9.65876680807	109.946231687	-55.6648953283	136.166221655	-21.1722642387	-66.9089031589
153625000.0	-21.6324468997	-113.787468614	9.62050787695	107.18204943	-55.5569993955	133.962945599	-21.1428274208	-67.0333637394
154312500.0	-21.4430288616	-118.405568169	9.57648444306	104.484461335	-56.136804799	124.58262274	-21.0978931301	-67.1001375011
155000000.0	-21.2884071517	-122.791700166	9.53122822476	101.870513349	-56.1269072823	109.860336725	-21.0798792618	-67.0867972201
155687500.0	-21.1325978698	-127.007127391	9.48305626648	99.3250286429	-55.9328882676	92.9290659123	-21.0734256128	-67.0303756018
156375000.0	-21.0151794001	-130.91308023	9.43565008256	96.8471230198	-56.0284824614	78.0686847934	-21.0663147812	-66.8622033967
157062500.0	-20.8913311212	-134.739273262	9.38687662516	94.4230982095	-56.0632259084	59.0873648224	-21.0709403803	-66.6799174422
157750000.0	-20.8047599587	-138.364843176	9.33747631727	92.0768352783	-56.0629496299	43.8090460243	-21.0695115601	-66.3965788819
158437500.0	-20.7169455132	-141.947742681	9.28623144678	89.7681675051	-55.9139206351	26.1372097499	-21.0826727501	-66.1999490171
159125000.0	-20.656735839	-145.313557422	9.23807069172	87.5347752527	-56.079945193	11.5242758878	-21.1074309739	-65.9327110223
159812500.0	-20.5954136267	-148.54373553	9.1879320426	85.3422497344	-55.9867636006	-1.38137391637	-21.1364651559	-65.5724357294
160500000.0	-20.568058926	-151.704382936	9.13924258461	83.2019984738	-56.3390771582	-16.7853641317	-21.1683679214	-65.258947507
161187500.0	-20.5446331465	-154.76427821	9.08908326406	81.1051814212	-56.4219991928	-34.7852089623	-21.2140986066	-64.899397108
161875000.0	-20.5386020873	-157.67344615	9.04047618442	79.0521651659	-56.6618319192	-51.3846216394	-21.2768549205	-64.5208108864
162562500.0	-20.5452756138	-160.511293475	8.99107716614	77.034695947	-56.6217176324	-67.5405027273	-21.3358986933	-64.1437158548
163250000.0	-20.5737387816	-163.272885215	8.94338055488	75.0598831389	-56.6574772443	-90.1543683977	-21.4071411119	-63.7775286721
163937500.0	-20.6086870386	-165.939519344	8.89578871295	73.1192595006	-56.4613939734	-107.101588071	-21.4817190436	-63.397843304
164625000.0	-20.6575546874	-168.571390265	8.85248191859	71.2206800261	-56.5486856379	-127.332885367	-21.5721814412	-63.0267935981
165312500.0	-20.7244491285	-171.135504181	8.80586996426	69.3546617831	-56.5592169103	-142.327091181	-21.670051369	-62.6431838788
166000000.0	-20.8064170331	-173.657368385	8.76395254806	67.5244375185	-56.0280890839	-161.719937164	-21.7757479241	-62.301141863
166687500.0	-20.9121782941	-176.153547247	8.71910559555	65.7132244691	-55.6760416451	-176.593246747	-21.8952027911	-61.9628422907
167375000.0	-21.0267885681	-178.534573783	8.67852625919	63.9516892552	-55.5267591148	165.391957252	-22.0220979804	-61.7692306818
168062500.0	-21.1589078872	178.964029119	8.6370772591	62.210488646	-55.6102774546	149.606461503	-22.1458705596	-61.5694284718
168750000.0	-21.3030781945	176.543082903	8.59923965825	60.512733865	-55.8314454128	131.541710267	-22.2855396165	-61.4662456715
169437500.0	-21.4752756404	174.015317582	8.55895770115	58.8313092889	-56.0429628196	116.048975613	-22.4345217535	-61.3246597894
170125000.0	-21.6493452016	171.512084782	8.52393704878	57.1784088676	-55.7644488835	100.027053671	-22.5894544995	-61.2766692168
170812500.0	-21.8408896323	168.921225271	8.4872233372	55.5408881424	-56.0051555592	85.2744010703	-22.761075231	-61.1683218787
171500000.0	-22.0357951413	166.326254622	8.45323301958	53.9448856131	-55.3449761203	76.1889253551	-22.9315806695	-61.1864298763
172187500.0	-22.2680584432	163.54649313	8.42138436375	52.3581546857	-55.4119058847	73.9267241465	-23.0988051246	-61.2951102706
172875000.0	-22.4967239516	160.725446664	8.39071482401	50.7895091586	-55.3505905582	72.2166968229	-23.2585357407	-61.4268295491
173562500.0	-22.7305739085	157.667492681	8.35982920485	49.2488951364	-55.715609517	69.7841744352	-23.4394207449	-61.6591559477
174250000.0	-22.9635596382	154.590019014	8.33309455727	47.728670638	-55.4385854693	68.4225871714	-23.6194773859	-61.9277903039
174937500.0	-23.1955215279	151.284254345	8.3066322396	46.2120845475	-55.8172990904	66.3802985351	-23.7962857214	-62.3178609378
175625000.0	-23.4079795054	147.851475314	8.28395280936	44.718204256	-55.63561386	65.6221449783	-23.9868593982	-62.6330968853
176312500.0	-23.6359453623	144.240350091	8.26018276948	43.2407521182	-55.9640951236	64.214518969	-24.1723490153	-63.1832641856
177000000.0	-23.8341125323	140.480531682	8.23838201741	41.7835781733	-55.8761707004	63.9329171416	-24.36397522	-63.7921090306
177687500.0	-24.0099665716	136.527415785	8.21635255063	40.3301138906	-55.7340900169	68.0372180988	-24.5596985321	-64.4584875661
178375000.0	-24.1767424485	132.57548592	8.20006485801	38.893889162	-55.5557204472	70.7865722609	-24.7547195316	-65.1451957882
179062500.0	-24.3106263558	128.494890171	8.18095878169	37.4620065758	-55.8218519733	68.2759350628	-24.9255633089	-65.9642480077
179750000.0	-24.4328250401	124.257021554	8.16490286657	36.0499086577	-55.8291957953	66.8647461499	-25.1059164162	-66.7915842737
180437500.0	-24.5272756632	119.919934234	8.14808629426	34.6367459737	-55.8076197828	71.8388409336	-25.2682551663	-67.7024366144
181125000.0	-24.5982046042	115.542767766	8.13544975618	33.2511313623	-55.8548748014	71.7083329563	-25.4392179798	-68.491469614
181812500.0	-24.6363215124	111.208887555	8.12005166758	31.8599205171	-55.8709898828	67.6859700263	-25.5935400754	-69.4304367175
182500000.0	-24.6674266823	106.763653274	8.11021661252	30.5020624426	-55.7460308832	66.0670340068	-25.7762505539	-70.3917175159
183187500.0	-24.6449524953	102.354595569	8.09618912273	29.1364932846	-55.6288553152	60.1424002765	-25.9374917068	-71.3220073716
183875000.0	-24.6062317209	97.9714828922	8.08717213178	27.7897472406	-56.0695004503	59.1646319912	-26.081751058	-72.2806286953
184562500.0	-24.5433408733	93.4948700847	8.07537114388	26.4335248924	-56.4514664169	57.8558153844	-26.1968082563	-73.257449908
185250000.0	-24.466004271	89.1841114164	8.06647022334	25.0982539888	-57.2844524258	57.8040067776	-26.3225140724	-74.1426241313
185937500.0	-24.3500694976	84.8527705784	8.05468732365	23.7524493233	-56.873827497	56.496994876	-26.4390934242	-74.9809433671
186625000.0	-24.2179961976	80.6523367953	8.05032866773	22.4330728367	-57.0457704181	56.246515884	-26.5333314377	-75.9614212152
187312500.0	-24.0656003971	76.3982030787	8.04282464056	21.1006948249	-57.0524839539	56.9550857741	-26.6311024906	-76.8585595321
188000000.0	-23.8892475418	72.3234240927	8.03746907169	19.789871935	-57.079370648	60.169227585	-26.6846972532	-77.8317539232
188687500.0	-23.7034944589	68.2551594612	8.03065108416	18.4808455833	-57.1289792738	58.126588291	-26.7495658384	-78.6913337819
189375000.0	-23.4801409028	64.4441210303	8.02712846909	17.1913805241	-57.7057222338	55.2635068624	-26.8039830437	-79.6152224818
190062500.0	-23.2535844887	60.6932720175	8.0236933951	15.9008434614	-57.7053074716	56.1673411115	-26.8830430942	-80.4120028467
190750000.0	-23.0083620963	57.1680783752	8.0225513845	14.6288365007	-57.5177383885	52.7114270862	-26.922149591	-81.3480459386
191437500.0	-22.7686545304	53.7886160053	8.01966569951	13.3558614782	-57.8520014715	55.8375024293	-26.9541765404	-82.0808327917
192125000.0	-22.5095046444	50.5983240465	8.01837389661	12.0944691202	-57.8579735044	52.2804534759	-26.9577767371	-82.8541278297
192812500.0	-22.2772371362	47.5570378461	8.01661063395	10.8384388294	-58.1147829956	53.2232077549	-26.9619143023	-83.6814098996
193500000.0	-22.016968156	44.7483533558	8.01688067818	9.58179391031	-57.8109017717	47.4184268413	-26.9562582136	-84.2824469629
194187500.0	-21.7896077039	42.0518750279	8.01491148787	8.32564090117	-57.8464573475	43.7992326993	-26.945242062	-84.8114330663
194875000.0	-21.5704058687	39.6037729319	8.01819288539	7.08898545252	-57.4403142558	35.3176352017	-26.9169873432	-85.4108262223
195562500.0	-21.3551962641	37.1546007652	8.01812895618	5.84739720994	-57.5808179612	33.5297615969	-26.8864563514	-85.981109997
196250000.0	-21.161788905	34.779578108	8.02101670694	4.6276412533	-56.9826531295	33.0257841194	-26.8407049635	-86.5599201308
196937500.0	-20.9792029856	32.5759039384	8.02353883345	3.40221100791	-57.2548426835	35.1477062625	-26.8085505285	-86.9038828554
197625000.0	-20.814800607	30.4911845985	8.03023063629	2.20488790244	-57.2797530924	33.2456606609	-26.7608383533	-87.2745015545
198312500.0	-20.6692533406	28.4100930498	8.03432473331	0.995380227033	-57.7521024915	32.9781605559	-26.6962058319	-87.7326862696
199000000.0	-20.5467285978	26.3232184078	8.04223687804	-0.20915753327	-57.6277343227	36.7725320386	-26.6180238347	-88.0754878797
199687500.0	-20.4209179594	24.3636689684	8.04728605992	-1.41890887443	-57.7397765195	36.4331908553	-26.5180621999	-88.3649521594
200375000.0	-20.3382301281	22.4030475935	8.0565326293	-2.61602918779	-57.6443317863	37.5972420942	-26.4278222036	-88.6799528248
201062500.0	-20.2574133359	20.4117467628	8.0625945654	-3.81489742936	-57.7944048697	37.3425444854	-26.3221454267	-88.9897414382
201750000.0	-20.1930724841	18.4650557057	8.07395651899	-5.00057090926	-57.2917920585	38.3063145247	-26.2421176131	-89.1771615523
202437500.0	-20.1294583643	16.5183363027	8.08260562682	-6.19420182942	-56.743613959	36.3008559154	-26.1287926056	-89.4980795984
203125000.0	-20.0886077022	14.5357022837	8.09608089546	-7.37688299581	-56.781881263	36.4155876401	-26.0196105134	-89.6564652704
203812500.0	-20.0403807272	12.4853418504	8.10529508099	-8.5691619399	-56.8541983862	30.8540787963	-25.9004851721	-89.7411737833
204500000.0	-20.0146886533	10.5301748359	8.11932187781	-9.74775465818	-56.8048468501	30.0858999249	-25.7837020308	-89.7535856387
205187500.0	-19.9934675742	8.51099653166	8.13061649514	-10.9263970021	-57.1931857443	17.7858675063	-25.6788586072	-89.7761478655
205875000.0	-19.9794949082	6.51695213838	8.14685631008	-12.1086330901	-57.332260504	18.2071013667	-25.570123445	-89.7383854923
