#Frequency	|S11|	<S11	|S21|	<S21	|S12|	<S12	|S22|	<S22
100000000.0	-19.8921431233	138.417915419	-18.9701939132	-122.40633536	-56.4830479063	-123.06712194	-20.3348963108	-56.7822158321
100687500.0	-19.7917961965	134.781962629	-18.5591206081	-123.603043897	-58.4712234511	104.854648644	-20.428526675	-56.2999085105
101375000.0	-19.7048991968	131.410954072	-18.1448544876	-124.872748903	-59.1300906855	76.7334769347	-20.5133730295	-55.5891657682
102062500.0	-19.6170323658	128.233553627	-17.7574605138	-126.071142625	-59.8438557695	74.3865579482	-20.6764501	-54.8857549159
102750000.0	-19.5318424694	124.964063548	-17.3933914566	-127.272129754	-60.79991984	108.254625819	-20.7800567524	-54.4188763787
103437500.0	-19.4387059673	121.949572941	-17.0551820646	-128.583938986	-62.840613464	111.222205261	-20.8963748015	-53.8242039521
104125000.0	-19.3630656362	118.707076901	-16.7380674816	-129.873632695	-62.0393754762	112.909507209	-21.0511270128	-53.3029977139
104812500.0	-19.289014735	115.567862119	-16.4416180695	-131.183641853	-62.3912292373	121.722848397	-21.2073157924	-52.8794218622
105500000.0	-19.2201328036	112.332521147	-16.1700520712	-132.494787345	-62.6032900117	134.84217915	-21.3571742339	-52.5503504083
106187500.0	-19.1565409226	109.051646071	-15.9251882466	-133.819869536	-62.392686555	155.5797275	-21.5293075412	-52.256374972
106875000.0	-19.0999187462	105.680384814	-15.7117959659	-135.122973399	-62.2567889335	-175.719265272	-21.7065386394	-52.0745586196
107562500.0	-19.059972789	102.250804996	-15.5319925429	-136.359748452	-62.1441578772	-129.524360757	-21.8958778489	-51.866434218
108250000.0	-19.0157142714	98.6699577751	-15.3889874357	-137.504588298	-62.8359886407	-75.3309300954	-22.0856196809	-51.8094076924
108937500.0	-18.9649578287	95.1757874512	-15.1873237227	-138.66173256	-62.9825748352	-55.2575716733	-22.2543164996	-51.5062870368
109625000.0	-18.9198847296	91.6844307998	-15.013713016	-139.721204265	-63.2079288872	-26.8577051262	-22.4227174301	-51.3019250318
110312500.0	-18.8631822392	88.063579049	-14.8600270737	-140.75654843	-63.4145001503	14.0487802194	-22.6047270549	-51.074071092
111000000.0	-18.8251497458	84.4107867504	-14.7393268089	-141.631101835	-63.7061902375	47.871592443	-22.7872972265	-50.9731763614
111687500.0	-18.7715655117	80.6705833398	-14.6449643261	-142.347643759	-63.5706726194	78.0089324409	-22.982374684	-50.9329089105
112375000.0	-18.7363234199	76.8476844799	-14.5796271435	-142.822310497	-63.3296179812	109.351009529	-23.1728952974	-50.9434657674
113062500.0	-18.6908947136	72.9572334364	-14.5325106569	-143.013109481	-62.9955646444	141.189004791	-23.3683020435	-50.8982268714
113750000.0	-18.6632624224	68.9602316432	-14.4988592884	-142.836322989	-62.7664997812	162.618767447	-23.5596683718	-50.9679640707
114437500.0	-18.6297408277	64.9671634904	-14.4581615367	-142.258261961	-62.5637295591	177.024389532	-23.7706424398	-51.0913114157
115125000.0	-18.6052365554	60.6778970052	-14.3960787172	-141.254999162	-62.0981345407	-167.727787854	-23.985142447	-51.2438733904
115812500.0	-18.572318386	56.3650676578	-14.2953321955	-139.889438206	-61.3671675807	-153.890115209	-24.2044497212	-51.382937228
116500000.0	-18.5483870405	51.8785339106	-14.1417773353	-138.279194462	-61.5401344414	-151.432835432	-24.4047604273	-51.5281488408
117187500.0	-18.5272023456	47.3868440926	-13.9327041861	-136.48282003	-61.8726083719	-149.587525528	-24.6094344025	-51.7776415356
117875000.0	-18.522553554	42.6649914318	-13.6657749055	-134.589031809	-61.9088832479	-146.725470317	-24.8204779161	-51.9420786971
118562500.0	-18.523073832	37.8517108088	-13.3467230256	-132.659487536	-61.4632929222	-152.521086889	-25.0249452781	-52.1571727924
119250000.0	-18.5285384136	32.8446063463	-12.9715143591	-130.750158053	-61.0349407202	-165.920202889	-25.2209031384	-52.1580140152
119937500.0	-18.5611396217	27.7781438927	-12.5456827591	-128.888455555	-61.0612424448	-170.886415785	-25.4132723926	-52.3191767388
120625000.0	-18.5921900901	22.4849351416	-12.0707584961	-127.120696468	-61.0936434027	177.48892393	-25.6092717342	-52.5166938569
121312500.0	-18.6706364704	17.1177219226	-11.5533752149	-125.490546414	-60.9910106051	165.729179106	-25.7770369579	-52.6680876123
122000000.0	-18.7526649872	11.5906961436	-10.9893761335	-124.004948265	-61.1100094501	159.90285136	-25.9625431258	-52.7432726725
122687500.0	-18.8882401944	6.00084987533	-10.3893730883	-122.699949524	-61.0792532038	143.858749012	-26.107527899	-52.9240666656
123375000.0	-19.0394276074	0.278431583641	-9.7526752902	-121.588786223	-61.1087182574	116.771328388	-26.2475253859	-52.9391047315
124062500.0	-19.2588850353	-5.57354311668	-9.08222760838	-120.6980914	-61.0716204171	90.8158496405	-26.3633071653	-53.0433042202
124750000.0	-19.5225370737	-11.2793104248	-8.38247182171	-120.02349902	-60.4953797926	53.0010887363	-26.4800946749	-53.0673266855
125437500.0	-19.8566649816	-17.0263360722	-7.65438506406	-119.589446958	-59.851967042	10.8397558741	-26.5727245283	-53.0563351374
126125000.0	-20.2559697728	-22.381419331	-6.89930506697	-119.376940484	-60.3556303636	-22.517607968	-26.6629756462	-53.2032669881
126812500.0	-20.7369605951	-27.5238802211	-6.11780438473	-119.43863405	-60.1399045098	-61.2961652219	-26.7269597885	-53.2794866432
127500000.0	-21.2400233999	-31.6778679484	-5.31370280069	-119.75003857	-60.723008015	-99.4262524882	-26.7649648172	-53.3923575494
128187500.0	-21.7500023486	-35.4122383478	-4.48480767587	-120.391430094	-60.4988254186	-141.039688321	-26.7882683267	-53.4757703184
128875000.0	-22.2094533715	-38.3340872945	-3.6315627115	-121.345159565	-60.720106755	178.516273596	-26.7870042632	-53.5515552816
129562500.0	-22.6260585113	-41.1270666667	-2.75658978659	-122.727688731	-60.7501541937	134.619327036	-26.7652149699	-53.6632383029
130250000.0	-22.9949256015	-43.6588914989	-1.87088678109	-124.538886201	-61.3767425333	94.2738505579	-26.7370952347	-53.8949027351
130937500.0	-23.3094388531	-46.1612707271	-0.978904915773	-126.889337634	-61.163941615	61.6472453046	-26.70511956	-53.9854185811
131625000.0	-23.5962155547	-48.4549624531	-0.101347479106	-129.762993203	-61.3387152231	28.2604827888	-26.6397793107	-54.2191652251
132312500.0	-23.8457587329	-50.6562244403	0.748411532601	-133.202154304	-61.3079387346	-1.62195535796	-26.5587774667	-54.351209642
133000000.0	-24.0812603727	-52.8232629542	1.54885998386	-137.100506829	-61.2495109619	-26.5847478867	-26.4600461378	-54.6683155675
133687500.0	-24.2778822734	-54.9568815168	2.28813822652	-141.384131201	-61.1647287796	-42.6575332722	-26.3536100406	-54.9161458431
134375000.0	-24.4692546683	-56.9452525323	2.96240128098	-145.963471177	-60.4996146296	-55.9392011188	-26.2323216028	-55.2000682306
135062500.0	-24.6177571117	-58.9531960902	3.57400291257	-150.756335795	-60.1825724763	-70.7798944965	-26.1045774437	-55.4962850293
135750000.0	-24.7548337378	-60.8782581592	4.11978166739	-155.655402636	-60.2436263841	-82.4660867206	-25.9393139917	-55.8917202559
136437500.0	-24.8670722869	-62.7225658076	4.60561707572	-160.667146628	-60.3860572274	-86.8967877607	-25.7985084783	-56.4432703626
137125000.0	-24.9619547336	-64.5720445281	5.03300116746	-165.695344869	-59.9499859638	-98.6298549827	-25.6378197083	-56.931865269
137812500.0	-25.0282591252	-66.1632501372	5.40781667981	-170.725990858	-60.1772340521	-104.549655114	-25.4672631116	-57.3286424965
138500000.0	-25.0599099743	-67.7793027141	5.73071415833	-175.690851916	-60.0492747597	-118.057855594	-25.2841446057	-57.8468875773
139187500.0	-25.0642187559	-69.2186091823	6.006701234	179.391106926	-59.9254043486	-131.254972762	-25.0938815899	-58.3724900261
139875000.0	-25.0240658588	-70.6654031295	6.23998561298	174.586808143	-59.3700557459	-143.378336304	-24.9187494227	-58.8630834001
140562500.0	-24.9517178124	-71.9513340912	6.43836045586	169.875232811	-59.6897553101	-149.892019626	-24.7360696053	-59.4946070828
141250000.0	-24.8109100321	-73.1955764239	6.60039411971	165.29966439	-59.3622715976	-165.73456302	-24.5453988634	-60.0524969378
141937500.0	-24.6319646989	-74.4715200519	6.73455759104	160.843199646	-59.3353134336	-176.095983283	-24.3600287167	-60.6380492081
142625000.0	-24.3766040311	-75.7527991094	6.84231752418	156.534519886	-59.2390617512	-177.879398413	-24.1695964599	-61.1725293977
143312500.0	-24.0555444868	-77.3856020753	6.92696217236	152.354911429	-58.6367783933	175.329612493	-23.9784907891	-61.6679041894
144000000.0	-23.6496543769	-79.2782861916	6.9925845134	148.307241937	-58.5312950958	172.995533405	-23.8050276373	-62.1086800951
144687500.0	-23.2402909276	-82.0270497129	7.04303089968	144.394462501	-57.4864063602	161.288798896	-23.6382992337	-62.564732183
145375000.0	-22.8078802862	-85.1973012839	7.07848152572	140.614433941	-57.5027915395	156.621215284	-23.4792355647	-62.9491132443
146062500.0	-22.4454536276	-89.1045065703	7.10212208259	136.963404371	-57.3509093846	155.053866282	-23.3235204467	-63.2722730823
146750000.0	-22.1100419215	-93.1409527021	7.11476634774	133.419163868	-57.7231446728	151.979666643	-23.1793802175	-63.5395108119
147437500.0	-21.846462135	-97.3377903978	7.11783991522	129.99107741	-57.0051681733	149.345169364	-23.0160680399	-63.721290236
148125000.0	-21.6175088939	-101.535074714	7.1150749093	126.670663753	-57.7210700618	147.121648528	-22.872951447	-63.8759016652
148812500.0	-21.440871677	-105.960441447	7.10468531079	123.442219197	-57.3871464419	142.259134251	-22.7230147595	-63.892855183
149500000.0	-21.296341187	-110.227624423	7.09041959867	120.317245428	-57.54468357	141.24718904	-22.5932634414	-63.9079206123
150187500.0	-21.181666052	-114.602266934	7.06897571323	117.277229793	-57.4653561371	140.02392577	-22.4660701384	-63.8160585357
150875000.0	-21.0994160796	-118.765446848	7.04677683589	114.330661905	-57.6233215571	128.597178976	-22.3588520834	-63.6419105771
151562500.0	-21.0340495651	-123.160842093	7.02074756341	111.451013906	-57.6043219061	128.470915165	-22.2383777996	-63.4083053269
152250000.0	-20.9987317149	-127.272909665	6.99157512904	108.655392218	-58.0503070392	129.095206202	-22.135037718	-63.091887405
152937500.0	-20.9699071872	-131.447208392	6.95865066686	105.920403268	-58.0440125652	128.249686359	-22.038481589	-62.7073888303
153625000.0	-20.9748781568	-135.46561187	6.9263436949	103.271923557	-58.3719070302	128.555862944	-21.9528995083	-62.2563145404
154312500.0	-20.9733708544	-139.486972264	6.88992735175	100.661661989	-58.5752073135	127.694621111	-21.8567579669	-61.7688343798
155000000.0	-21.0052445573	-143.495481672	6.85162083963	98.1265613848	-58.3584554657	122.808079751	-21.7768710411	-61.2011043315
155687500.0	-21.0302628906	-147.485876043	6.81403398185	95.6371194127	-58.2367503137	122.192886881	-21.7121092315	-60.5781821043
156375000.0	-21.0841128928	-151.467223348	6.77415082282	93.2085335941	-58.1782158781	112.489828308	-21.6572453165	-59.9064706186
157062500.0	-21.128358735	-155.377290102	6.73476094334	90.8282538604	-58.3652325261	111.423974546	-21.5943364409	-59.1201700734
157750000.0	-21.1925472362	-159.344344721	6.69232951423	88.5143182722	-57.7078388946	108.732276263	-21.5455293079	-58.3233314051
158437500.0	-21.2507104014	-163.179819113	6.64989130441	86.2374545541	-58.0523449893	108.478651358	-21.5185138875	-57.5053732333
159125000.0	-21.3182669443	-167.051279254	6.6075669573	84.0366547621	-57.9849515822	110.052724048	-21.5009078099	-56.6386197581
159812500.0	-21.3892781458	-170.816861394	6.56606979106	81.8511586454	-58.7933197004	108.644423058	-21.4916522949	-55.7451601821
160500000.0	-21.4622044005	-174.684021897	6.52397825099	79.7255635264	-58.8791172425	107.825988743	-21.4906831741	-54.8472871412
161187500.0	-21.5316296316	-178.406505776	6.48202164049	77.630641479	-59.2275166652	103.398852947	-21.4909358905	-53.9176570391
161875000.0	-21.6011723261	177.821364134	6.43876556766	75.5810250925	-59.3647366913	102.573457531	-21.5148729298	-52.9676164925
162562500.0	-21.6802073637	174.102076738	6.39677412469	73.5643173818	-59.5805099845	98.168184899	-21.5341885064	-51.9959666917
163250000.0	-21.7415111687	170.380148334	6.35391811874	71.5734597387	-59.4859552993	97.9344620453	-21.5833729982	-51.0040681151
163937500.0	-21.8282391463	166.791241295	6.31305560851	69.6267792653	-59.3355965457	95.5764002264	-21.6244039842	-49.955895264
164625000.0	-21.8830243027	163.146945059	6.2722920372	67.7150147475	-59.3384420338	94.9480413524	-21.6890541452	-48.9839347221
165312500.0	-21.9670931881	159.583524324	6.22973102212	65.8334702463	-58.7947330492	91.5077313801	-21.7523286144	-47.9552394164
166000000.0	-22.0221750159	156.066602186	6.19013862921	63.9883008703	-58.9897531181	90.8836505671	-21.8360008275	-46.9703432514
166687500.0	-22.0950482335	152.474786084	6.14956930174	62.1681799569	-58.9466439307	86.6483374373	-21.9167223341	-45.9821268036
167375000.0	-22.1526752717	149.080905482	6.1104339692	60.3845795269	-58.9498116597	85.1259042747	-22.0153005778	-45.0476382997
168062500.0	-22.2189433041	145.612067876	6.07165246695	58.6191308674	-58.709380935	88.4388335189	-22.1110620966	-44.128810808
168750000.0	-22.2681138571	142.290814769	6.03361612024	56.9056903562	-58.7894526495	89.3700168206	-22.2388133417	-43.314194198
169437500.0	-22.3223323247	138.78270265	5.99707348471	55.2056818388	-58.4879948375	81.5998763717	-22.3625817312	-42.4072485049
170125000.0	-22.3779533882	135.436438558	5.96318843371	53.527302743	-58.4979790109	82.7729993164	-22.514221675	-41.5521077602
170812500.0	-22.4290366719	131.960453749	5.92819821272	51.8685745425	-58.0832208489	77.8038000695	-22.6647547083	-40.6614695091
171500000.0	-22.4794464198	128.676158664	5.89564926061	50.2626475527	-58.52010841	76.8332917673	-22.8311004064	-39.9838217531
172187500.0	-22.5169145762	125.259562506	5.86510695786	48.6644326951	-58.5087813457	75.4973767676	-23.0069026395	-39.2335621968
172875000.0	-22.5616462582	122.000651424	5.8342237167	47.0951192027	-58.8158328025	74.0841393602	-23.1875896519	-38.6188271802
173562500.0	-22.5837664939	118.673076401	5.80579943078	45.5488134494	-58.6357380604	73.1691292724	-23.3901090462	-37.933594337
174250000.0	-22.6204951845	115.53098978	5.77988777975	44.0226863215	-58.7248139052	61.1764829092	-23.5945285834	-37.309815394
174937500.0	-22.6269412639	112.303247641	5.7562990003	42.494372679	-58.7799132037	48.7460827508	-23.8216516855	-36.8537313541
175625000.0	-22.6439055036	109.082275716	5.73471760431	40.9998266239	-58.6378110306	32.2277909935	-24.0401554603	-36.3936388891
176312500.0	-22.6409887953	105.81303909	5.71249550532	39.5104661463	-58.5218293334	17.2412662333	-24.2854374277	-36.0451156455
177000000.0	-22.6420281604	102.605322798	5.69234942335	38.0455657025	-58.6241902658	4.21983276351	-24.538403913	-35.8147295755
177687500.0	-22.6137577853	99.4715921523	5.6739334375	36.5778195467	-58.4884494997	-11.5179778659	-24.8155911263	-35.5459515182
178375000.0	-22.6118243203	96.30488578	5.65774704402	35.1400837023	-58.2162343296	-30.4983873279	-25.0980078703	-35.2811969294
179062500.0	-22.5768805031	93.2506071624	5.64300072926	33.7041313366	-58.3368899743	-46.076369684	-25.3704162176	-35.3398497014
179750000.0	-22.5452956074	90.1193231032	5.62967028753	32.286286343	-58.3508871775	-62.4756440745	-25.6530646574	-35.3429778719
180437500.0	-22.5065578887	87.064386532	5.61755436315	30.8657791016	-58.3187113359	-77.8268073182	-25.9337620645	-35.5724337991
181125000.0	-22.4531976065	83.8697957098	5.60583027212	29.466724761	-58.3718333814	-94.333160666	-26.2487208982	-35.8857026318
181812500.0	-22.406478508	80.8942923587	5.59576060036	28.0651956943	-58.7058875933	-108.446071044	-26.5485833852	-36.2519615637
182500000.0	-22.3492507924	77.789225164	5.58899798538	26.6918771495	-58.6546086146	-125.198929289	-26.8759383922	-36.6548762799
183187500.0	-22.2872086956	74.8925040059	5.58026229371	25.309852172	-58.3757933286	-138.43084391	-27.1688718026	-37.2122176973
183875000.0	-22.213774372	71.986341061	5.57439050103	23.9388827305	-58.43882968	-153.755019193	-27.4762945898	-37.9159711155
184562500.0	-22.1440549114	69.1116072067	5.56903111762	22.5768985023	-58.6145888242	-166.879155079	-27.7553616202	-38.6792992455
185250000.0	-22.058137755	66.2387686098	5.56433332302	21.2341045103	-58.4228652618	178.7328059	-28.067925071	-39.5088454458
185937500.0	-21.9840637216	63.4786340729	5.56010404469	19.8704400758	-58.5618926566	162.789702771	-28.3374497539	-40.4869723801
186625000.0	-21.9031557286	60.7923495998	5.55864880565	18.5330859716	-58.5112166989	145.956888774	-28.6384820199	-41.7078750585
187312500.0	-21.8279529509	58.1042959568	5.55780956295	17.1891228017	-58.4034151812	131.204699045	-28.8806092664	-42.8035387438
188000000.0	-21.7336198344	55.5070293571	5.55766221589	15.8611331398	-58.4306350887	114.949500918	-29.1273795908	-44.0530903859
188687500.0	-21.6607240991	52.882040944	5.55752990537	14.5213861562	-58.2407586452	89.0421583315	-29.3622428117	-45.3491773725
189375000.0	-21.5796664745	50.3293720742	5.55840184221	13.2062042218	-58.0700948468	61.3162486146	-29.6030373697	-46.9272915395
190062500.0	-21.5157396261	47.7765678806	5.55985680938	11.8837092044	-58.0377235347	35.2823215498	-29.8135549182	-48.3307228439
190750000.0	-21.451902227	45.3104980697	5.56308313931	10.5760333799	-58.311799437	7.61347617615	-30.0100036176	-50.045629716
191437500.0	-21.3970514309	42.6856994817	5.56544295496	9.26567688309	-58.5630513323	-15.0410459571	-30.1661854308	-51.7503573133
192125000.0	-21.3489086876	40.2829117581	5.56784700225	7.97722399215	-58.4871170835	-34.5439726084	-30.2874505948	-53.3334059895
192812500.0	-21.3149069152	37.8014348652	5.57201629773	6.67959735546	-58.4347197947	-53.5859304188	-30.4073433028	-55.0247018686
193500000.0	-21.285003284	35.4839619327	5.577652033	5.3873962595	-58.6043959929	-71.0182776894	-30.4862730878	-56.8799569603
194187500.0	-21.2654586882	33.0042792123	5.58258156043	4.10352383463	-57.8798994977	-93.2700902365	-30.5341939107	-58.4606190021
194875000.0	-21.276600435	30.6505809982	5.58968230064	2.82869467845	-57.877394382	-106.693331276	-30.546109869	-60.3566516652
195562500.0	-21.2683304206	28.1184559542	5.59614369506	1.55027704349	-57.8804897023	-119.079052818	-30.5411472162	-62.2399231944
196250000.0	-21.2876123254	25.6592045942	5.60217045697	0.280543578829	-57.6189615305	-131.423545118	-30.4961971954	-64.0319754408
196937500.0	-21.3027632411	23.1259965217	5.60893991228	-0.988743534086	-57.750501	-143.086148432	-30.467149839	-65.6220481028
197625000.0	-21.3388990075	20.6560113986	5.61788143029	-2.23682930937	-57.8671493764	-155.042539867	-30.3750749193	-67.2176689134
198312500.0	-21.3702552675	18.1606877433	5.62756242742	-3.48611791629	-57.5073627281	-171.160426909	-30.2619328891	-68.699430138
199000000.0	-21.4274485287	15.5729927979	5.63983504252	-4.73309103761	-57.291372147	164.67900662	-30.1069828887	-70.1798975068
199687500.0	-21.4589765173	13.0373648959	5.65044362167	-5.99113781975	-57.2573145138	148.446502264	-29.942717731	-71.6872459582
200375000.0	-21.5192157409	10.3957091008	5.66298595736	-7.23196069311	-57.3325700863	127.005274387	-29.7770300524	-73.1169584417
201062500.0	-21.5661583702	7.72712403019	5.67451774087	-8.47478033529	-57.089994674	111.727870893	-29.5997639245	-74.4093084726
201750000.0	-21.6275837176	4.98528996612	5.68875207082	-9.71519117994	-57.1454595909	89.355949837	-29.403014532	-75.5986070723
202437500.0	-21.682026051	2.29339349495	5.70296401749	-10.9635246303	-57.246819145	74.067755434	-29.175330984	-76.7522965615
203125000.0	-21.7438529578	-0.536909728589	5.7187097848	-12.1978931805	-57.9483715943	52.1633243506	-28.9501840587	-77.6333157071
203812500.0	-21.7875804949	-3.24465775373	5.73256556224	-13.4385154697	-57.9448403836	37.876232099	-28.6829658431	-78.4749353413
204500000.0	-21.8389844908	-6.12001917683	5.74735478204	-14.6662745847	-57.9752167763	14.5702112493	-28.4447644055	-79.2453281097
205187500.0	-21.8949075195	-8.86020733388	5.76192365063	-15.8936015845	-57.8280438866	0.783837434087	-28.1905888559	-79.9228781796
205875000.0	-21.9297629751	-11.6995648541	5.78006212404	-17.117845695	-57.3497512111	-10.1486937143	-27.9274296499	-80.299667332
