#Frequency	|S11|	<S11	|S21|	<S21	|S12|	<S12	|S22|	<S22
100000000.0	-16.6227163661	135.256999011	-19.3933988828	-127.821880118	-55.9565726288	-9.48748245045	-21.9847431387	-58.95341776
100687500.0	-16.5440228144	132.19706832	-19.0418236795	-128.750154245	-57.2290275217	-37.3720099005	-21.9939729257	-59.2118584653
101375000.0	-16.4876849906	129.208936986	-18.6775009137	-130.00478086	-57.2936824621	-47.4217532383	-22.0769583826	-59.1428923065
102062500.0	-16.4296673589	126.159991687	-18.3145777805	-131.449170984	-58.8785568089	-35.8437669002	-22.1299865163	-58.8022126576
102750000.0	-16.3704013458	123.180640742	-17.9796998254	-132.862807151	-59.4498132722	-66.2869056406	-22.2034904925	-58.6932955218
103437500.0	-16.3344592753	120.176031427	-17.6749748805	-134.280868374	-60.1406717764	-140.233283793	-22.2886551554	-58.502342211
104125000.0	-16.3091776587	116.998977224	-17.3906767498	-135.759754057	-59.9102017539	163.47305195	-22.4010184157	-58.2571398047
104812500.0	-16.2955973125	113.814237938	-17.1443596522	-137.262090461	-61.0341699764	131.328129884	-22.4861426018	-58.225415998
105500000.0	-16.28760709	110.542525393	-16.9236459922	-138.776429896	-61.4154153574	122.841844133	-22.5680032593	-58.2667455768
106187500.0	-16.2941392145	107.114903454	-16.7435186258	-140.245253824	-61.0477291746	99.7345768401	-22.6707159675	-58.3558279372
106875000.0	-16.304612304	103.607847308	-16.5999063096	-141.669081923	-61.0441339271	84.4224301645	-22.7658605238	-58.5179477088
107562500.0	-16.3276110624	100.01342149	-16.4992692117	-142.974507046	-61.2580713566	59.4607103325	-22.8644279782	-58.6104466138
108250000.0	-16.357591306	96.2314124497	-16.4416947622	-144.131427556	-61.8088117313	47.6067213039	-22.9412918025	-58.7903420031
108937500.0	-16.3623279936	92.6157138744	-16.3204813784	-145.27339204	-62.0420949785	20.322921324	-23.0248152935	-58.7680484434
109625000.0	-16.3762752311	88.9500067375	-16.2205185465	-146.322456681	-62.4241016554	-9.51335450479	-23.1031647131	-58.7636384319
110312500.0	-16.3888578625	85.1573872489	-16.1630909851	-147.162849071	-62.217033409	-38.459325505	-23.1910820924	-58.837825278
111000000.0	-16.4150530011	81.2678255275	-16.1247855336	-147.754769345	-62.3132377137	-64.5791367927	-23.2674291105	-58.8908251974
111687500.0	-16.439750332	77.2720975842	-16.1190532808	-148.04084515	-62.5964224121	-92.3196482421	-23.3454789752	-58.9943701483
112375000.0	-16.4762707342	73.1926961986	-16.1218986	-147.892402247	-62.0812065537	-109.983012939	-23.426908973	-59.1259924418
113062500.0	-16.5045710659	68.9868811147	-16.1243668465	-147.31465065	-62.3077350843	-127.031397719	-23.5157870014	-59.2347549902
113750000.0	-16.5563201478	64.6775733128	-16.0958121239	-146.319432482	-62.4899489523	-141.606225397	-23.5962038271	-59.3471200079
114437500.0	-16.6085879394	60.2561000093	-16.0265898485	-144.974882398	-62.6017904789	-152.309426813	-23.6719038075	-59.3937822946
115125000.0	-16.6720951066	55.7008739585	-15.8989342796	-143.379511191	-62.6523317358	-152.646486259	-23.7599299461	-59.5139650717
115812500.0	-16.7370493563	51.0105278017	-15.7235088659	-141.595812349	-62.5697402587	-142.492997678	-23.8263197829	-59.5125517898
116500000.0	-16.8185589129	46.1879605349	-15.4888945912	-139.715987956	-62.8742443204	-138.923894574	-23.8946638117	-59.5652762139
117187500.0	-16.9049958705	41.2747384356	-15.2009744077	-137.800437831	-62.4856338391	-126.287155066	-23.9461027399	-59.6106468912
117875000.0	-17.01363451	36.219321107	-14.8545323667	-135.893076403	-62.2057578524	-124.293238179	-24.0181999684	-59.5152709751
118562500.0	-17.1443912145	31.0465085169	-14.4633668239	-134.04581246	-61.8358008252	-124.037455493	-24.0849306214	-59.3897131263
119250000.0	-17.2913011437	25.6970474013	-14.0235363391	-132.265510186	-61.5603939661	-125.430411326	-24.1416543027	-59.1678642359
119937500.0	-17.4782472076	20.3056741695	-13.5408027018	-130.587891756	-61.5242073145	-134.013995691	-24.1966277264	-58.9362152934
120625000.0	-17.6811529454	14.7646684609	-13.0124015944	-129.025651033	-61.9577893882	-134.564349801	-24.2518361083	-58.7012529974
121312500.0	-17.9504025367	9.23171419759	-12.4456421469	-127.650292763	-61.8968259312	-136.351752347	-24.2839700691	-58.3647834524
122000000.0	-18.2544026726	3.55602500755	-11.8411561588	-126.403486369	-62.6290501263	-150.673518347	-24.3244434871	-58.0066403026
122687500.0	-18.6572187061	-2.08983772922	-11.198492887	-125.363096937	-62.5369044987	-165.347722971	-24.360506002	-57.5539970979
123375000.0	-19.1161969179	-7.75108978141	-10.5229354281	-124.499838275	-62.5023492032	-174.021316763	-24.3890544127	-57.0923735081
124062500.0	-19.7341176678	-13.0553354961	-9.8147230653	-123.878346586	-62.0149435194	172.73777343	-24.4126333124	-56.5847078457
124750000.0	-20.4576347874	-17.7366187529	-9.07571622929	-123.437835941	-61.3991171639	156.791831366	-24.4324948009	-56.0098828293
125437500.0	-21.2851283354	-21.1212649795	-8.31079200396	-123.277881898	-61.0853875343	146.115979485	-24.4542180394	-55.3121018011
126125000.0	-21.9735821906	-23.0936435171	-7.50568065992	-123.378082676	-60.8633954583	138.474813245	-24.4792748707	-54.7287434048
126812500.0	-22.5776056665	-24.3794654151	-6.67619732169	-123.782397821	-60.5124462886	138.556075168	-24.4997331827	-54.0309931048
127500000.0	-23.05603298	-25.4008979002	-5.81461262287	-124.536057619	-60.5045073411	137.101948561	-24.49945116	-53.347601248
128187500.0	-23.4875310822	-26.2894960524	-4.93406810977	-125.738744899	-60.5321074223	135.874332191	-24.506441532	-52.6088394478
128875000.0	-23.8430463294	-27.1812609851	-4.02599300589	-127.369141956	-60.1189469597	127.350968846	-24.5031569296	-51.7798722845
129562500.0	-24.1702289392	-28.0316230762	-3.11922433424	-129.601441035	-60.74540262	116.387708254	-24.4995603819	-50.9989534286
130250000.0	-24.4669390796	-28.9231745111	-2.2187035444	-132.379193414	-60.4679512812	95.3591911266	-24.4993112129	-50.1529683694
130937500.0	-24.7230006431	-29.8768998161	-1.35824275605	-135.75893527	-60.3885785378	83.3495833551	-24.4943873454	-49.2844107831
131625000.0	-24.9572967749	-30.7413262448	-0.546042446572	-139.570320037	-59.8950648567	68.2801797142	-24.4718644022	-48.4750544338
132312500.0	-25.1698305928	-31.602154592	0.202192271683	-143.794613953	-59.9517314263	50.3779079709	-24.4514505787	-47.6102628378
133000000.0	-25.3665401419	-32.5058211013	0.891335649126	-148.292409326	-59.4703461751	27.7208926728	-24.4360713388	-46.8905071255
133687500.0	-25.5340299659	-33.402097158	1.50962153264	-153.00402467	-59.7010465609	0.587486716011	-24.4262762631	-46.1201544934
134375000.0	-25.6989180674	-34.2656625916	2.07241463538	-157.847785417	-59.6895327811	-24.388852813	-24.4138464837	-45.4448090942
135062500.0	-25.8297332183	-35.2591071815	2.56899456603	-162.772520266	-59.3092373353	-47.7773696377	-24.3945733762	-44.8270829376
135750000.0	-25.9426619332	-36.1436088457	3.01385065805	-167.720933409	-59.2857284944	-64.2642026942	-24.3642814501	-44.2865086403
136437500.0	-26.0297641508	-37.0652084827	3.40155488046	-172.697127274	-59.3807741157	-85.2309323133	-24.3520298881	-43.7724814375
137125000.0	-26.0854225223	-37.9742340328	3.74282518963	-177.642647906	-59.1198803865	-102.280755233	-24.350875875	-43.3243469994
137812500.0	-26.1034433075	-38.7999303082	4.03443525191	177.459926213	-58.808595446	-126.588297925	-24.3451570368	-42.8145846203
138500000.0	-26.0647742125	-39.7108889024	4.28817082058	172.6366812	-58.7196707994	-143.414201898	-24.3390159044	-42.4429622541
139187500.0	-25.98012586	-40.5839760606	4.49832184941	167.898705596	-57.7865379221	-152.545551307	-24.3406932877	-42.0361020746
139875000.0	-25.8029519344	-41.5451480557	4.67550679468	163.261546377	-58.1851461091	-153.176593725	-24.3493073354	-41.7658097168
140562500.0	-25.5614696664	-42.5729514645	4.81779822421	158.741853768	-58.1282376411	-158.610582519	-24.3646490165	-41.5129897801
141250000.0	-25.1663969952	-43.9474947412	4.93409531131	154.341711294	-58.0967699123	-163.213950013	-24.3675656945	-41.3261931773
141937500.0	-24.6669232565	-45.969870224	5.02162293262	150.063152299	-58.1759303757	-171.075252149	-24.3830320356	-41.1608736503
142625000.0	-24.0519844486	-49.353367295	5.09040187889	145.914811603	-58.1287614018	-173.238747725	-24.4062670402	-41.1050511037
143312500.0	-23.5710553203	-54.0581657335	5.13380008475	141.902590451	-58.2381515886	-175.597295177	-24.4128541768	-40.9922480052
144000000.0	-23.172455848	-59.5978845789	5.16476181167	138.015465977	-58.6613013442	-174.514135164	-24.4399016139	-40.9968883994
144687500.0	-22.9120483542	-65.2913024404	5.17894888927	134.268818276	-58.8031701167	177.154122728	-24.4690326979	-40.9585427109
145375000.0	-22.6750003046	-71.1450769959	5.18187977143	130.642712505	-58.477686705	167.894798262	-24.503665223	-41.0224967279
146062500.0	-22.5270871545	-76.9033181674	5.17144614222	127.140758456	-59.1486396829	165.705644583	-24.5492522256	-41.0620034979
146750000.0	-22.3897652021	-82.7121458871	5.15479001031	123.743332756	-58.4047224511	157.854103968	-24.6054520408	-41.029349885
147437500.0	-22.298760616	-88.3680611856	5.12639381706	120.473015391	-58.9076078558	155.578553573	-24.634286537	-41.1563977641
148125000.0	-22.2228501485	-93.9942358813	5.09585665014	117.309650133	-58.5393011869	145.137464101	-24.6767234836	-41.2189598918
148812500.0	-22.1766649772	-99.6281403209	5.05675360695	114.247274671	-58.6516485861	144.733642065	-24.7300143083	-41.3127258028
149500000.0	-22.1401892825	-105.173471614	5.01693570159	111.284654525	-58.5428950394	136.640862457	-24.7912951774	-41.3436072395
150187500.0	-22.1168038126	-110.618142506	4.97048133685	108.41664582	-58.8170451798	135.076646204	-24.8442114581	-41.301915881
150875000.0	-22.1072800342	-115.881381017	4.92631011425	105.642214324	-58.4179894683	136.054359979	-24.9089853504	-41.2647410542
151562500.0	-22.0908535916	-121.202885033	4.87534640897	102.939275198	-58.8559144482	134.203484419	-24.9650316359	-41.2783840606
152250000.0	-22.0897635526	-126.221345291	4.82659557712	100.320023395	-58.9762972237	131.645800402	-25.0404404705	-41.1258233215
152937500.0	-22.0817704451	-131.256192995	4.77231010007	97.7670691377	-58.9957394287	127.35311233	-25.1073232033	-41.0019174362
153625000.0	-22.0867578737	-136.043928451	4.72331469666	95.3002448684	-58.8845023378	126.436556065	-25.187326779	-40.8452127791
154312500.0	-22.075967415	-140.859475096	4.67010416372	92.8922168455	-58.8504669649	128.095474858	-25.2394865627	-40.7522410372
155000000.0	-22.0833100485	-145.499037349	4.62011525057	90.5402223615	-58.6531803394	129.915684063	-25.3078379267	-40.505510993
155687500.0	-22.0839925644	-150.070757492	4.56773281495	88.2496007615	-58.4793182615	125.843294738	-25.3960709295	-40.3400190992
156375000.0	-22.1083780756	-154.525923248	4.51752780327	86.0087351577	-58.7829090976	123.334485012	-25.4605297517	-40.1068643427
157062500.0	-22.1024084368	-158.884993536	4.46551420029	83.8231835413	-58.2533936451	124.95553287	-25.5224389559	-39.7710629696
157750000.0	-22.1126747544	-163.139121571	4.41727879966	81.6831427452	-58.4973876976	124.987177417	-25.5900608733	-39.3696109978
158437500.0	-22.1140140292	-167.303468806	4.36576588471	79.5846014501	-58.2491344449	123.747180014	-25.6797288952	-39.1044654969
159125000.0	-22.1068322887	-171.370552022	4.31944831164	77.547788573	-58.2433443327	122.234016043	-25.7772169829	-38.7746309326
159812500.0	-22.1066158052	-175.281196983	4.26947001979	75.542206173	-58.1395473434	113.244327331	-25.8610572059	-38.389986303
160500000.0	-22.1230638052	-179.193278164	4.22484166968	73.5916969033	-58.1654326503	113.911021086	-25.9581504501	-38.1198076895
161187500.0	-22.127846878	177.155079395	4.17623710793	71.6634156896	-57.6498061149	105.589646	-26.0423172032	-37.7738368503
161875000.0	-22.1376213562	173.521374945	4.13145639893	69.7648838599	-58.0484219903	104.387195441	-26.1695213602	-37.4710892563
162562500.0	-22.1620953008	170.018475045	4.0861086605	67.9068959262	-58.1192175059	106.209365753	-26.2803436779	-37.1206610793
163250000.0	-22.1663931118	166.51202793	4.04319589477	66.0728521223	-58.0369009613	105.426962452	-26.4050667658	-36.75561
163937500.0	-22.19535755	163.217588792	3.99951058334	64.2716568639	-58.120706354	104.931733138	-26.5188530784	-36.4561932477
164625000.0	-22.2071557813	159.869609136	3.96085431737	62.4988183395	-57.9840240419	105.341574565	-26.6413748829	-36.1375246533
165312500.0	-22.2431472526	156.693880035	3.91835391052	60.765983827	-58.4080159268	103.903958281	-26.7773162885	-35.9322784064
166000000.0	-22.268405363	153.559566052	3.88158563779	59.0474343213	-58.7326515816	103.750378577	-26.8963105352	-35.7595928717
166687500.0	-22.317237959	150.463092161	3.84225326787	57.3654710767	-58.5724825297	103.562628791	-27.0457871969	-35.6133896351
167375000.0	-22.3596045292	147.447385221	3.80615114093	55.7057950797	-59.0321140215	103.687510762	-27.197157141	-35.720653165
168062500.0	-22.4176076896	144.500292844	3.76900283811	54.0773792083	-58.812006705	102.703218672	-27.3454635398	-35.7422696079
168750000.0	-22.4777237439	141.599472011	3.73588837478	52.4774200719	-58.5316810651	93.4594927749	-27.5017805955	-35.8396381777
169437500.0	-22.5375345284	138.601767182	3.70135100908	50.897411025	-58.7133374979	80.1416007512	-27.6626383325	-35.9514829575
170125000.0	-22.6076364166	135.720850863	3.67279556232	49.3340716281	-58.7106114456	63.8096890598	-27.810443298	-36.2284556948
170812500.0	-22.6849939053	132.759719195	3.64071653654	47.7847616267	-58.7504409906	46.4726272945	-27.9770833267	-36.4325437577
171500000.0	-22.7653855212	129.879185768	3.6131717651	46.2699604438	-58.4600882639	28.0004482865	-28.1354371712	-36.830991099
172187500.0	-22.8425549518	126.81409857	3.58612881931	44.7713989804	-58.7444457465	13.0726132877	-28.2979538734	-37.3320987965
172875000.0	-22.925017556	123.82141446	3.56099061132	43.2837122178	-58.8273712095	-1.10698525877	-28.412951934	-37.8665264477
173562500.0	-22.9835612652	120.725405384	3.53615251208	41.8249264378	-58.4656091718	-14.6120116041	-28.5753310697	-38.3892711358
174250000.0	-23.0770377128	117.714936109	3.51543882454	40.3789297169	-58.452467522	-38.1898253527	-28.7142778386	-39.053663738
174937500.0	-23.1397926849	114.503490717	3.49435605178	38.9452009907	-58.5335675607	-52.6582504095	-28.8518980841	-39.885541568
175625000.0	-23.2164158548	111.331818901	3.4776928492	37.525603375	-59.0854217805	-66.3563135294	-28.9686882669	-40.5309919152
176312500.0	-23.2810286227	108.093500132	3.45837123777	36.1192961343	-59.3427671501	-82.1350592772	-29.0803416194	-41.3679267598
177000000.0	-23.3466043292	104.82773813	3.44461440805	34.7289626495	-59.272856337	-95.3088966271	-29.204864521	-42.3042934216
177687500.0	-23.3820554834	101.463978943	3.42903153365	33.3372979389	-59.2931420927	-110.096488051	-29.3110400108	-43.2225968825
178375000.0	-23.4400375342	98.1335448907	3.41977312849	31.9677300401	-59.6016369052	-123.59580237	-29.4144253011	-44.1213299769
179062500.0	-23.4592103153	94.7765628455	3.40815399877	30.6073698656	-59.55395399	-142.283247653	-29.463193097	-45.1730938006
179750000.0	-23.4808742716	91.3548330861	3.39980393964	29.2579226162	-59.5902023749	-158.476257782	-29.5520282533	-45.9946554283
180437500.0	-23.4944505497	87.917441654	3.39107624346	27.8981212986	-59.2600683174	177.724537527	-29.575678612	-47.0139851944
181125000.0	-23.4959375258	84.330023144	3.38619207915	26.5625621739	-59.6281894781	161.282543532	-29.627204085	-47.8989493169
181812500.0	-23.4867543163	80.9344987522	3.37821302654	25.2264127053	-59.3971524838	146.967081877	-29.6537138075	-48.8813099724
182500000.0	-23.4632185329	77.3930094547	3.37717463188	23.8977406102	-59.1635488151	134.351108738	-29.7007941543	-49.667734622
183187500.0	-23.4291542173	74.0092845822	3.37301378997	22.5806503037	-58.7060929562	110.889060546	-29.7348990814	-50.405439643
183875000.0	-23.3717192754	70.5778545357	3.37299430215	21.2632186429	-58.8234128095	98.5827423189	-29.7263660344	-51.0826778611
184562500.0	-23.32080259	67.2126081226	3.37146658634	19.9494107137	-58.2509792253	84.4803446231	-29.6919683222	-51.6234706324
185250000.0	-23.2412251525	63.6933110078	3.37335401938	18.6423718488	-58.631580357	70.7336461683	-29.6612291078	-52.0463305662
185937500.0	-23.1704750227	60.3821024752	3.37170265157	17.3344906094	-58.9730452987	56.3343314338	-29.6331781389	-52.428266349
186625000.0	-23.0861097857	57.13052289	3.37658317799	16.036156522	-58.7967989093	43.7451136252	-29.599155051	-52.8434819497
187312500.0	-22.9963243156	53.8520126387	3.37871701761	14.7350671675	-59.223542351	38.1260263586	-29.5606892935	-53.0338860893
188000000.0	-22.8907084643	50.5871997901	3.38508290011	13.4467747692	-59.5729413542	26.0770907912	-29.4907614621	-53.2162511873
188687500.0	-22.7958857989	47.4299909858	3.38768693686	12.1564658021	-59.8232099229	6.62234220081	-29.4442844514	-53.1881163635
189375000.0	-22.6933421382	44.3477469444	3.39327556443	10.8744633111	-59.9129131319	-8.74782736464	-29.386174092	-53.1582272096
190062500.0	-22.5978344984	41.2738940582	3.39785134789	9.60607189891	-60.2802546436	-23.3593264323	-29.3487623557	-52.8922592595
190750000.0	-22.5017981341	38.3219367243	3.407682231	8.33619578038	-60.614427933	-36.9817259971	-29.2943647109	-52.7078294527
191437500.0	-22.4073918464	35.3240660548	3.41286165202	7.07082028208	-60.7649484765	-51.5994813884	-29.2409016088	-52.3245457438
192125000.0	-22.3203914648	32.5615721318	3.42165545521	5.81046966806	-60.7127692989	-73.8157073186	-29.1713466572	-51.8192614148
192812500.0	-22.228806763	29.662058157	3.42916030795	4.56438308217	-60.5752038322	-92.211001933	-29.1315472915	-51.3892991312
193500000.0	-22.1509657195	26.8896907023	3.4396077223	3.30564954589	-60.9900637528	-111.915148616	-29.0661776575	-50.7843892453
194187500.0	-22.078826288	24.1246812673	3.44720866723	2.05920595259	-61.2633075874	-125.054182146	-29.0044969634	-50.0302344836
194875000.0	-22.0273020351	21.4948377737	3.45950998098	0.806654152869	-61.4041333709	-143.119488047	-28.9440519925	-49.3112009185
195562500.0	-21.9556300323	18.6825829782	3.4690525357	-0.435575116417	-61.2530789985	-161.099134704	-28.9035280084	-48.5409216703
196250000.0	-21.9151377365	15.9571075654	3.48137392844	-1.67658522696	-60.9453015777	-178.84652029	-28.8659815532	-47.651152284
196937500.0	-21.8654045896	13.1638008007	3.4925627017	-2.91908682409	-61.2576272539	167.400541732	-28.821155998	-46.6313690683
197625000.0	-21.8380006808	10.4766100219	3.50749188583	-4.13468525654	-61.207710313	154.620207594	-28.7925518437	-45.7625258779
198312500.0	-21.7996466918	7.77642248282	3.519478173	-5.3542954565	-60.9818417035	139.711554768	-28.7689554008	-44.9101273891
199000000.0	-21.7976968406	4.99201321138	3.53645568388	-6.58156267758	-60.747484518	118.511769299	-28.7498094491	-44.1040860603
199687500.0	-21.7734449204	2.2284781188	3.54978446418	-7.80160723082	-60.8984480585	104.44824145	-28.7218962414	-43.1837041393
200375000.0	-21.7746009735	-0.645898877166	3.56625119167	-9.0223332777	-60.8133572501	92.0183574151	-28.7200901827	-42.3702788218
201062500.0	-21.7668290949	-3.53170555241	3.58047837432	-10.2379420341	-61.1556285174	77.2669369053	-28.7263658402	-41.6621176888
201750000.0	-21.7621291564	-6.46510774628	3.59849576095	-11.4468421885	-61.072553842	54.0751199249	-28.7381617773	-40.8489534583
202437500.0	-21.7600567133	-9.29628155084	3.61416400358	-12.661336478	-61.3097792701	38.9050085704	-28.7494120757	-40.2092552854
203125000.0	-21.7524031633	-12.251476634	3.63577770252	-13.8681858104	-60.8525912888	25.0930856774	-28.7606053904	-39.5370023708
203812500.0	-21.7352306657	-15.2077491681	3.65170924482	-15.0830611606	-61.3283314551	23.0553200941	-28.7713676005	-38.8840359376
204500000.0	-21.7338095398	-18.2617094234	3.67142108078	-16.2855156058	-60.8823814146	11.9410094914	-28.804205932	-38.1517398751
205187500.0	-21.7213554525	-21.1830515655	3.68974317788	-17.4915369309	-60.6905675456	3.39532367151	-28.8513185864	-37.4149555323
205875000.0	-21.6940557935	-24.2268641721	3.71344838115	-18.7045158327	-60.4141738545	1.51675750305	-28.8706435648	-36.8531568719
