#Frequency	|S11|	<S11	|S21|	<S21	|S12|	<S12	|S22|	<S22
100000000.0	-18.826552401	142.091310789	-18.7925494146	-124.848998512	-64.2410585808	-102.594909725	-20.2251626133	-55.7248055488
100687500.0	-18.7030689016	138.855925082	-18.3302540533	-125.436418218	-59.9577606368	-90.3205071306	-20.3515245519	-55.7361535958
101375000.0	-18.6550077031	135.501907077	-17.910937177	-126.628703654	-58.3856416531	-144.44801342	-20.4470953406	-55.4381761243
102062500.0	-18.5921878647	132.34350457	-17.5215213324	-127.813808721	-57.7679861756	143.352379922	-20.5869241622	-54.8116486232
102750000.0	-18.5450548821	129.087665375	-17.1526640022	-129.11211974	-58.3109883038	105.157102652	-20.7152567577	-54.1877254999
103437500.0	-18.5027103538	125.943927049	-16.8178632625	-130.463463014	-60.288531428	65.7468687421	-20.8328327862	-53.5948707253
104125000.0	-18.4725881387	122.708280045	-16.5051171265	-131.830256137	-60.1666342176	34.4629941198	-20.9953457677	-52.9847401412
104812500.0	-18.4378265414	119.554865384	-16.2134940663	-133.154301047	-60.3675410785	11.9317433181	-21.1438301929	-52.6662665735
105500000.0	-18.4068795864	116.269220416	-15.9457533306	-134.494615062	-60.3249390261	8.38083394601	-21.2949089171	-52.4117735971
106187500.0	-18.3733871892	112.97632111	-15.7038122893	-135.859851596	-60.6932548042	2.64667359195	-21.4629156739	-52.1587505713
106875000.0	-18.3480249482	109.60961959	-15.4951422185	-137.168963995	-60.6514149284	-8.70710889015	-21.6425704507	-52.0595951487
107562500.0	-18.3362420637	106.131378998	-15.3170373292	-138.455710164	-60.8898921775	-31.7510134241	-21.8247661159	-51.8154540189
108250000.0	-18.3261575221	102.546360946	-15.1799532881	-139.615973287	-61.4221599212	-76.3070603339	-22.0066615977	-51.7412937261
108937500.0	-18.3028663805	99.0365064608	-14.9808209462	-140.753254754	-61.1492342311	-107.724618089	-22.1749742784	-51.4527322888
109625000.0	-18.2969298674	95.4723218913	-14.8136794874	-141.888218279	-61.8721255504	-145.223928795	-22.3463629758	-51.2964434077
110312500.0	-18.2763209711	91.8040254235	-14.6682608207	-142.908480659	-62.2436656208	-172.93071706	-22.527327139	-51.1080785729
111000000.0	-18.2737204309	88.1160911063	-14.5540706	-143.82579221	-62.4331084075	163.033740246	-22.7117797371	-50.9409562382
111687500.0	-18.2625629619	84.2919331176	-14.4663236645	-144.54578524	-62.8539539421	140.548453402	-22.8889581594	-50.8412482016
112375000.0	-18.2664127616	80.4221413128	-14.409056241	-145.060507949	-63.5666073847	128.931447304	-23.0753749123	-50.8753929919
113062500.0	-18.2656548127	76.4309894599	-14.3772477304	-145.258826229	-63.5562831101	115.911202307	-23.2645070816	-50.856680409
113750000.0	-18.2695223186	72.3859508905	-14.3570980587	-145.073792397	-63.5380094382	101.792954964	-23.4574258226	-50.9200921304
114437500.0	-18.2743324253	68.2259661292	-14.3314579423	-144.458195311	-63.543744955	88.4074435454	-23.6691811018	-51.0481884971
115125000.0	-18.2820009674	63.9387051097	-14.2763008659	-143.447107976	-63.4536854927	72.1938900527	-23.8737166671	-51.1818317146
115812500.0	-18.292144148	59.5068953857	-14.1829685093	-142.047265671	-63.237641003	56.534285326	-24.0812169939	-51.3283387128
116500000.0	-18.3030594426	54.949200663	-14.0353214114	-140.384826495	-63.0099670858	44.7007768264	-24.2795561964	-51.5392272029
117187500.0	-18.32168035	50.323879126	-13.8360609681	-138.5384222	-63.3083671109	32.3966541032	-24.4817865286	-51.8135325554
117875000.0	-18.3494050152	45.5195072557	-13.5768515966	-136.611996619	-62.9794008374	17.1791545437	-24.6899221838	-51.8613078618
118562500.0	-18.3930066316	40.5546444706	-13.2627791243	-134.643274938	-62.9326198168	5.86127657458	-24.9029279899	-52.0331077372
119250000.0	-18.4423380244	35.4304161271	-12.8902364088	-132.692333153	-63.2640294179	-15.9579131635	-25.0954805326	-52.0280245976
119937500.0	-18.5143940194	30.2174405954	-12.4728792049	-130.801135033	-63.0144777838	-29.9969925801	-25.2835702979	-52.1450443048
120625000.0	-18.5965772995	24.7417222805	-12.0027232271	-129.001737839	-62.8190083292	-47.7657162534	-25.4797946211	-52.2518372435
121312500.0	-18.7137560614	19.1745577051	-11.4896798938	-127.310723146	-62.8779631651	-62.1176951777	-25.6449674616	-52.3799473171
122000000.0	-18.8455811469	13.4159073309	-10.9306156251	-125.794753804	-63.1747312874	-74.4755285409	-25.8212950031	-52.3726667869
122687500.0	-19.0289876451	7.5883793923	-10.334797226	-124.449315144	-63.1165246905	-87.7754688648	-25.972550676	-52.3988939414
123375000.0	-19.2422792582	1.57655336975	-9.7025720676	-123.278180401	-62.9324237102	-98.482748501	-26.1045057169	-52.3761877578
124062500.0	-19.5114986845	-4.44690465669	-9.03599787411	-122.318607447	-62.8848955484	-110.198078674	-26.237143035	-52.460393358
124750000.0	-19.8498772233	-10.5482362074	-8.33668136651	-121.600552261	-62.4381869201	-109.625120956	-26.3480694612	-52.420881222
125437500.0	-20.2428676198	-16.6541002277	-7.60990316386	-121.115251084	-62.1796579554	-95.5940058039	-26.4420323154	-52.3314235749
126125000.0	-20.7547201833	-22.4147573315	-6.85377582724	-120.872350511	-62.169471287	-93.4288861096	-26.5299514545	-52.4113372283
126812500.0	-21.3428146522	-27.7843903829	-6.06942104812	-120.865978033	-61.1699710276	-82.817823559	-26.5951766921	-52.294985899
127500000.0	-22.013319297	-31.8272012159	-5.26055126069	-121.159824607	-60.8821225556	-81.1270790736	-26.6293323794	-52.3564106505
128187500.0	-22.6123080446	-35.2842004391	-4.42889093469	-121.74270401	-60.7670143507	-81.3620535529	-26.6542587241	-52.3941900929
128875000.0	-23.1644474902	-37.9636158884	-3.57214647975	-122.678163101	-60.3668969197	-85.2118366458	-26.6631372528	-52.4668017697
129562500.0	-23.6133059329	-40.4284171818	-2.6928669209	-124.012080788	-59.6855698752	-98.0921925171	-26.6466986919	-52.458080628
130250000.0	-24.019113483	-42.7869938141	-1.7942466332	-125.81541344	-59.9551090392	-100.907729929	-26.625892965	-52.6682583463
130937500.0	-24.3642713295	-45.0883374607	-0.892909141764	-128.148625973	-59.9994458042	-107.956432273	-26.5924105952	-52.7485538043
131625000.0	-24.690290335	-47.2038853778	-0.00548222346594	-131.043795841	-60.0110200305	-110.706565607	-26.5196728582	-52.9594320312
132312500.0	-24.9667354062	-49.3069933247	0.846829324562	-134.464890281	-59.5807412294	-109.536902796	-26.4472030025	-53.0670120461
133000000.0	-25.2216465973	-51.3416411905	1.65067419922	-138.391815458	-59.3129035364	-111.034259579	-26.3612372837	-53.371538834
133687500.0	-25.4458780248	-53.4359992801	2.39409690686	-142.691215972	-59.3291281195	-114.515224864	-26.2693873425	-53.588686715
134375000.0	-25.6451870716	-55.3753556601	3.07324838153	-147.311274439	-58.8916402563	-122.182004449	-26.1410888698	-53.882657762
135062500.0	-25.7999109048	-57.4181381289	3.68786309508	-152.106288995	-59.0662172806	-121.961927889	-26.0056855763	-54.2519713786
135750000.0	-25.9413267494	-59.3201719027	4.23630301872	-157.050533563	-58.8974775565	-131.788490807	-25.843784449	-54.6083092461
136437500.0	-26.0536677324	-61.1498632246	4.72255149642	-162.062804713	-58.9339214868	-131.660559854	-25.7000661302	-55.0919853537
137125000.0	-26.1435208949	-62.9549477044	5.15113501312	-167.120059902	-58.8272501197	-143.023725902	-25.5481334669	-55.599260244
137812500.0	-26.1998338509	-64.575618807	5.52557953103	-172.155767527	-59.0709453973	-146.073882944	-25.3727511338	-56.0262594446
138500000.0	-26.2288343724	-66.0794498041	5.84826128917	-177.165877249	-58.6387340701	-158.831327886	-25.2011102888	-56.5066026632
139187500.0	-26.2239305706	-67.5075937357	6.12430197376	177.916603705	-58.2582698749	-159.958734636	-25.0173232298	-57.1313523432
139875000.0	-26.1556737989	-68.8972100707	6.35726255007	173.071126271	-57.8896184134	-169.594732799	-24.8391532563	-57.6533903254
140562500.0	-26.0563683924	-70.1191980093	6.55337192965	168.344130517	-57.5360593117	-169.857861808	-24.664627341	-58.4060268147
141250000.0	-25.8931770991	-71.3392528386	6.71340958084	163.73042301	-57.2304201368	-167.667556348	-24.4735273977	-58.915030979
141937500.0	-25.6678248471	-72.4799331386	6.84307664121	159.27167616	-57.2038277879	-168.016465373	-24.2927237951	-59.6298474287
142625000.0	-25.3837144613	-73.6329522775	6.94759623338	154.930126223	-57.0664304769	-179.504537715	-24.1132086724	-60.1529524695
143312500.0	-24.97376904	-75.0663727916	7.0283951445	150.747076396	-57.0481736326	-179.613609415	-23.9271601496	-60.7470501789
144000000.0	-24.4812235629	-76.9001539463	7.08827958084	146.679580483	-57.0837847468	169.784657635	-23.752425409	-61.2960862156
144687500.0	-23.9193004805	-79.954114447	7.13327179788	142.769948843	-57.075252734	161.786814883	-23.5883657054	-61.8525233173
145375000.0	-23.4099234362	-83.6061965413	7.16452104885	138.976681124	-56.9590381284	156.880148787	-23.4257839047	-62.3237239352
146062500.0	-22.9581111404	-87.9639570281	7.1820503816	135.324755808	-57.015482814	148.917469317	-23.2800452695	-62.6917460384
146750000.0	-22.6016753937	-92.5458083632	7.19039224882	131.780468675	-57.5255405374	149.299134354	-23.1387021921	-63.0003666485
147437500.0	-22.299415291	-97.0973439402	7.18686133056	128.370978737	-57.2078016015	144.386389141	-22.9915996254	-63.2286030886
148125000.0	-22.0550874537	-101.687459987	7.17812523686	125.061148207	-57.4617687765	143.428049715	-22.8418160534	-63.4073042633
148812500.0	-21.8380610804	-106.376559044	7.16340576061	121.847238481	-57.1304979969	139.40429542	-22.7071659706	-63.4861435269
149500000.0	-21.6672870144	-110.96486955	7.14375368046	118.732898732	-57.7672948185	136.641766059	-22.58437258	-63.5502456673
150187500.0	-21.5171602812	-115.5428669	7.11913622012	115.715280758	-57.3817074741	130.813422446	-22.4621314627	-63.4528938343
150875000.0	-21.4024500326	-119.944163088	7.09288474856	112.78652664	-58.537466907	131.57118757	-22.3355575966	-63.2800686865
151562500.0	-21.3055603663	-124.513158308	7.06265210109	109.938801889	-58.6011289181	128.023521794	-22.2307950436	-63.0021476881
152250000.0	-21.2538684418	-128.795442018	7.02931036742	107.153944215	-58.5845606851	126.032758673	-22.1344308998	-62.7046833189
152937500.0	-21.2057029593	-133.083716501	6.99271709016	104.459223888	-58.6833706016	127.233070157	-22.0449183482	-62.3566311193
153625000.0	-21.1855023706	-137.29059433	6.95815013154	101.823547454	-58.6805044571	125.120895285	-21.9627381235	-61.9686847419
154312500.0	-21.1616835314	-141.494214886	6.91961698732	99.2587136871	-58.7951718781	127.081626396	-21.8722263127	-61.4629969842
155000000.0	-21.1714656999	-145.625401108	6.87945805742	96.7423412987	-58.4449642288	128.980221219	-21.7943854914	-60.940312875
155687500.0	-21.1697743077	-149.80164664	6.83944578336	94.299480027	-58.4093144177	132.896711158	-21.739120434	-60.2971871025
156375000.0	-21.2007394995	-153.834936843	6.79817299542	91.8981023297	-58.4310097615	136.404996945	-21.6784309402	-59.6010419222
157062500.0	-21.2288966799	-157.859368386	6.75629160106	89.5664050847	-58.5790853865	135.353893142	-21.6299325975	-58.8651694984
157750000.0	-21.2627806692	-161.861596482	6.71426138965	87.2730654134	-58.822888539	127.593210952	-21.5836627189	-58.0632077071
158437500.0	-21.3013423855	-165.761682087	6.67256261585	85.038494598	-59.1771823996	126.173218492	-21.5586780123	-57.2977983444
159125000.0	-21.3286408193	-169.648246872	6.63187826855	82.8462362195	-58.9941540025	122.9827463	-21.5407413359	-56.3712768865
159812500.0	-21.3689262951	-173.503575229	6.58983716366	80.7106984925	-59.208113794	121.705567949	-21.5323354172	-55.5176889428
160500000.0	-21.4115525875	-177.387661976	6.5482163358	78.5921497331	-59.1399387474	114.235777426	-21.5294421771	-54.5855003325
161187500.0	-21.4535117898	178.846425489	6.50620214145	76.5319479201	-59.2829404527	112.069317054	-21.529907899	-53.6287113145
161875000.0	-21.490403756	175.053790343	6.46400984929	74.4986461348	-59.142522658	113.535423101	-21.560600736	-52.6481873873
162562500.0	-21.548585302	171.311298705	6.42285360593	72.5171047506	-59.5591461906	116.952212106	-21.5859546286	-51.656581996
163250000.0	-21.5817327987	167.598957806	6.38094426385	70.5468758185	-59.3903087765	118.621813478	-21.62357472	-50.6695819356
163937500.0	-21.6310993735	163.974709609	6.33956165966	68.6338271125	-59.1802761002	117.730846669	-21.66346904	-49.6617536794
164625000.0	-21.6584003446	160.336327504	6.30004413439	66.7327896576	-58.9823740519	114.914851456	-21.7253242359	-48.67246926
165312500.0	-21.7033831102	156.769384566	6.25970596151	64.8880854951	-59.1123038454	102.328218815	-21.7969732818	-47.646130165
166000000.0	-21.7369100144	153.198793447	6.22063268491	63.0602029881	-59.1720182414	85.4573295809	-21.8770642329	-46.589967147
166687500.0	-21.7759415812	149.637532272	6.18259684863	61.2727656975	-59.1816905395	72.8318098463	-21.9644034728	-45.5459158844
167375000.0	-21.808090291	146.188715866	6.14525192232	59.5090798899	-59.5312167503	55.1134741734	-22.0713386643	-44.6244834351
168062500.0	-21.8390342368	142.738372433	6.10856138174	57.7759900635	-59.0481344012	40.3809434059	-22.1814341717	-43.7000032399
168750000.0	-21.8747268727	139.403171858	6.07167850828	56.0714825656	-59.0147706808	24.3666380661	-22.3148671198	-42.8674813859
169437500.0	-21.8960682169	136.022956589	6.03582184753	54.400641219	-59.1997273902	2.05503866154	-22.4462609184	-41.9386784395
170125000.0	-21.916987487	132.680543009	6.0047472901	52.7365934893	-58.9187954931	-13.3361694286	-22.5970925267	-41.1366281205
170812500.0	-21.9413856313	129.363009533	5.97108050867	51.1117431591	-58.6685187127	-35.9984751881	-22.7511609292	-40.2827137009
171500000.0	-21.9636897651	126.153376688	5.93970312668	49.505079155	-58.8309580901	-51.248304361	-22.934869321	-39.5256131272
172187500.0	-21.9731350582	122.908905842	5.91197490514	47.9337126435	-58.7252599688	-72.4456239303	-23.1144414443	-38.8332005029
172875000.0	-21.999865334	119.764570397	5.88377152346	46.3670251977	-59.4998545377	-87.4322271804	-23.2918012439	-38.2159358523
173562500.0	-21.9911376779	116.577349515	5.85825252963	44.8398827695	-59.3850360699	-112.35138846	-23.5008683455	-37.6163318869
174250000.0	-22.0080637929	113.563327945	5.83567852897	43.3137281674	-59.470998155	-127.060751055	-23.7128661964	-37.0602835282
174937500.0	-21.9973808863	110.461460637	5.81319449549	41.8128558075	-59.4364326789	-144.528855709	-23.9399047707	-36.6373682663
175625000.0	-21.9975121303	107.400904719	5.79223631129	40.3215827105	-59.6880125922	-158.844169817	-24.1776286302	-36.133208358
176312500.0	-21.9842939422	104.266624468	5.77158695386	38.8566025138	-59.8066335941	-176.875475662	-24.4274198935	-35.8670200103
177000000.0	-21.9643306223	101.264297133	5.75413957651	37.3959862345	-59.7038508935	167.069487173	-24.68848064	-35.6975123113
177687500.0	-21.9336199119	98.2892178838	5.73671089349	35.9550389029	-59.9790312955	151.344504386	-24.9677070325	-35.5791420743
178375000.0	-21.9123308652	95.30930559	5.72283027959	34.517925859	-59.8708664497	135.194804086	-25.2709846419	-35.4844315961
179062500.0	-21.8803002939	92.3890393609	5.70911536138	33.1008074184	-60.3338516463	119.248922782	-25.5440911418	-35.6417758207
179750000.0	-21.828166116	89.4498146732	5.69722665827	31.6897944384	-59.8599285613	101.733943858	-25.8342224979	-35.7807490055
180437500.0	-21.7921869495	86.5709930608	5.6873838292	30.2922637861	-59.8634637758	86.1969813241	-26.1158358285	-36.1532916459
181125000.0	-21.7322494263	83.6577878668	5.67823605244	28.8994707914	-59.4425971182	75.836274433	-26.4161672689	-36.3746671845
181812500.0	-21.6859438586	80.8440482793	5.67007831933	27.5219899945	-59.67816973	62.0530112253	-26.7082279161	-36.8625929308
182500000.0	-21.6194977924	77.9613972394	5.6646223844	26.1361910422	-59.1743622568	53.6171566918	-27.0191321448	-37.2887719736
183187500.0	-21.5514516237	75.2426040496	5.66009941035	24.7776601313	-59.1449708564	53.3597854669	-27.3373106633	-37.9872265746
183875000.0	-21.4765569161	72.5198777594	5.65583629026	23.4057114163	-58.7745970744	48.5365844702	-27.6462156578	-38.7103526913
184562500.0	-21.4103564448	69.8106506896	5.65174633851	22.0551376564	-58.6558348758	50.7893089595	-27.919427602	-39.5524730917
185250000.0	-21.3293323235	67.0993296169	5.64972904386	20.6986429457	-58.0123716067	44.6812659357	-28.2106941441	-40.3984938286
185937500.0	-21.2490614534	64.5004364519	5.64809396019	19.3554264912	-58.4804492779	47.7492640722	-28.4807039656	-41.2537540983
186625000.0	-21.1739005622	61.9215127582	5.64951097594	18.0129107852	-57.9194043221	48.2825743105	-28.7603033487	-42.4764286324
187312500.0	-21.1044916871	59.3781717894	5.64964368977	16.6870424204	-58.2220681824	46.194202046	-29.0077014424	-43.4876719818
188000000.0	-21.0183787083	56.8414177383	5.65185654599	15.3457359188	-58.0799051878	49.6146345122	-29.2409032301	-44.8835406948
188687500.0	-20.9500700829	54.3954249853	5.6539741182	14.0272629695	-58.5634889102	48.5101594799	-29.4525455149	-46.2127397814
189375000.0	-20.882997885	51.9950188545	5.65574068197	12.703502285	-58.5032087975	48.2915784798	-29.6686417996	-47.7676230342
190062500.0	-20.8199211252	49.5554640157	5.65915712195	11.3998710125	-58.0547365914	46.3978428091	-29.871773209	-49.1629605486
190750000.0	-20.7705238641	47.1067688783	5.66411731245	10.0806141366	-58.0904037856	46.7138339785	-30.0551160844	-50.8534041238
191437500.0	-20.7224830399	44.6369318114	5.66885973584	8.79102716982	-58.0161317193	47.0645925395	-30.2013310547	-52.3325444521
192125000.0	-20.6900435248	42.2684988051	5.67420753002	7.49240321298	-57.8538730277	48.6965802905	-30.3175220782	-53.8850212961
192812500.0	-20.6494069116	39.8311380257	5.68032399163	6.21609363846	-57.3294063965	51.334333238	-30.4119496566	-55.5896969302
193500000.0	-20.6376034464	37.5775581046	5.68703061294	4.91923188698	-57.3162443498	49.7155691853	-30.4970373231	-57.2876865148
194187500.0	-20.6213950065	35.1880758118	5.69431610833	3.63823531593	-57.3624314186	54.0338678272	-30.5258348331	-58.854321407
194875000.0	-20.6361983412	32.8237270367	5.70275092786	2.35182228948	-57.2807297018	54.6009194037	-30.5492625853	-60.6183599659
195562500.0	-20.6367577573	30.3692132766	5.7120243425	1.08228575021	-57.1799988999	54.2192143483	-30.5193181859	-62.3886242533
196250000.0	-20.6673104514	27.9480146996	5.72154248882	-0.183106215458	-57.2470186396	53.2455350465	-30.5068447719	-64.053081812
196937500.0	-20.692789064	25.5012967999	5.73136247061	-1.45216686069	-57.1175310558	48.7266450078	-30.4674109938	-65.5805102049
197625000.0	-20.740240933	23.0489490735	5.74209908205	-2.70417125291	-57.5403674954	47.5818342283	-30.3891461593	-66.9482840792
198312500.0	-20.7807835498	20.5087358568	5.75464312472	-3.95669594088	-57.4592460138	38.5795894931	-30.2863463506	-68.5493499566
199000000.0	-20.846891557	17.974595661	5.76894567552	-5.21428404661	-57.6573900556	36.505090899	-30.1521481157	-69.9416150365
199687500.0	-20.8963807013	15.3927760666	5.78119875659	-6.45358392861	-57.8284442144	35.2087257354	-29.9934888295	-71.5410616035
200375000.0	-20.9645424317	12.764049255	5.79412844128	-7.70673628093	-58.1112632008	33.6935135349	-29.8076799071	-72.8116319146
201062500.0	-21.0276854729	10.1160162605	5.80755539912	-8.93693048929	-57.8999611083	28.8757487981	-29.6133623723	-74.1595596309
201750000.0	-21.0930991139	7.42619212905	5.82327053743	-10.1863305428	-58.2712906912	28.0265460276	-29.4213813969	-75.2240603162
202437500.0	-21.1684983616	4.75841054966	5.8378938618	-11.4162250506	-58.2002581583	27.2948571763	-29.1996731354	-76.4287876162
203125000.0	-21.237780647	2.00545635491	5.85423720564	-12.6538635221	-57.7775655941	25.4992100937	-28.9772244201	-77.3680628442
203812500.0	-21.2980782835	-0.776423646804	5.87049806642	-13.883957519	-58.0381347736	28.1030703302	-28.7273753136	-78.2680363627
204500000.0	-21.3645883674	-3.58941199895	5.88822083904	-15.1303419814	-57.9623936573	27.2238927426	-28.4960205782	-79.0383910994
205187500.0	-21.4381982448	-6.28304957073	5.90517805597	-16.3476308024	-58.0249831894	26.1636004928	-28.2702471261	-79.6332405708
205875000.0	-21.4869534831	-9.05944401626	5.92564072458	-17.5864318877	-57.5590440315	25.6437563606	-28.0245678037	-80.0218938375
