#Frequency	|S11|	<S11	|S21|	<S21	|S12|	<S12	|S22|	<S22
100000000.0	-17.2481797165	131.888000433	-27.5137146463	-128.074034658	-55.9175795344	-13.4747629279	-21.7373992988	-40.4433241528
100687500.0	-17.2277959996	129.251249787	-26.9301536506	-129.897662195	-60.754139721	-159.770047726	-21.7698849599	-40.8014888245
101375000.0	-17.22436138	126.204287532	-26.4469136254	-131.45291974	-62.2622773409	172.500323278	-21.8032585036	-40.7770252712
102062500.0	-17.2116753275	123.03512087	-26.0667392591	-132.685825349	-61.1729767499	128.760970776	-21.8493181818	-40.4836463535
102750000.0	-17.2008181017	119.89683278	-25.7258097594	-134.262683356	-60.3450110552	145.14653918	-21.8559942996	-40.2951620743
103437500.0	-17.1987661776	116.773331481	-25.4010983526	-135.715978702	-60.4308513095	161.531118693	-21.8797571218	-40.0329309849
104125000.0	-17.198928696	113.423868665	-25.0992062374	-137.247075258	-60.1624208546	-160.776544531	-21.9202262954	-39.7062834216
104812500.0	-17.2066776578	110.056372358	-24.845590293	-138.699559936	-60.4530201071	-156.625376972	-21.9574344173	-39.6334503707
105500000.0	-17.2208015284	106.583454876	-24.5969261113	-140.171330847	-60.4413110932	-176.561258808	-21.986045138	-39.5732625049
106187500.0	-17.2432919035	102.985464849	-24.3844865633	-141.570295269	-60.6033044724	153.874174186	-22.0272107737	-39.5636613556
106875000.0	-17.2701627435	99.2638600167	-24.2128921756	-142.925091172	-61.3487839648	98.8399330854	-22.0593131245	-39.6179709449
107562500.0	-17.3152453934	95.3926723878	-24.0912189553	-144.248881705	-61.3175958664	65.7803166287	-22.1040004315	-39.5183919454
108250000.0	-17.3511422277	91.3027339034	-24.0107599773	-145.369497054	-61.30135324	27.6623156897	-22.1282512596	-39.5391338033
108937500.0	-17.3799736821	87.4470616958	-23.8497649851	-146.564733629	-61.3889841293	-1.87081315975	-22.1547092525	-39.452585068
109625000.0	-17.4127086664	83.4806809125	-23.7312656224	-147.659257044	-61.2659587644	-24.5531700682	-22.1796572721	-39.4040636186
110312500.0	-17.4388609114	79.4245400535	-23.6414476711	-148.434798436	-61.1639727457	-42.3783469351	-22.2216862955	-39.3596205967
111000000.0	-17.4737134712	75.2292722495	-23.579704269	-149.075405849	-61.207585472	-71.4477509123	-22.251337081	-39.2771896297
111687500.0	-17.5041923558	70.9253200367	-23.5583276047	-149.382751199	-60.6230899853	-97.0167361388	-22.2861837356	-39.3424503272
112375000.0	-17.537933242	66.4954500347	-23.5350252741	-149.366747517	-60.9305975644	-113.946725128	-22.3170300072	-39.3788436195
113062500.0	-17.5755823048	61.9837040048	-23.5214157813	-148.842358294	-60.8149197041	-142.429451195	-22.3536346476	-39.4034426008
113750000.0	-17.6182342843	57.2998854769	-23.4697206356	-147.952064396	-60.9032148219	-170.741339512	-22.3844260179	-39.4193201325
114437500.0	-17.664787669	52.5201652592	-23.3828811621	-146.623754444	-61.3640105413	158.191232253	-22.4219283432	-39.4742202282
115125000.0	-17.7128272471	47.5208364685	-23.2497342359	-145.096403175	-61.2890870369	131.101143889	-22.4551860763	-39.4979305194
115812500.0	-17.7582312649	42.4337382882	-23.0537009623	-143.353735198	-61.357218191	99.2323472454	-22.4896906058	-39.5686755642
116500000.0	-17.814873805	37.1760741733	-22.8055884724	-141.467505882	-61.4281874659	66.0073958639	-22.5115998869	-39.6054906676
117187500.0	-17.8743723864	31.8148298263	-22.5010929771	-139.583142307	-61.5627248849	27.1085564111	-22.5415878363	-39.6903071953
117875000.0	-17.948822875	26.2857323551	-22.1373706202	-137.716153177	-61.4081335237	-0.603526523524	-22.5752485783	-39.5784966182
118562500.0	-18.0346717876	20.6174096129	-21.7229942313	-135.904828538	-61.8361939931	-28.6294050689	-22.5988469879	-39.5588933335
119250000.0	-18.1360302554	14.8256456101	-21.2689713712	-134.180239548	-61.6527619831	-57.3770887897	-22.6277020009	-39.4516917975
119937500.0	-18.2565215388	8.8147521197	-20.7672194804	-132.564274679	-61.762062479	-92.646282039	-22.6537858032	-39.3916837064
120625000.0	-18.4003546901	2.75319808042	-20.2211930022	-131.103998133	-61.4887221848	-124.131860411	-22.678115673	-39.2770880927
121312500.0	-18.5863858127	-3.48975772804	-19.6419938596	-129.797650855	-61.6008546303	-150.179637001	-22.6944677298	-39.1783750783
122000000.0	-18.8127176772	-9.69922651015	-19.0220297129	-128.674726629	-61.4529748678	-174.89880304	-22.7255097921	-38.9887173434
122687500.0	-19.0828970054	-16.06621754	-18.3609957816	-127.769318628	-61.2915294771	170.119541502	-22.7441734137	-38.812189048
123375000.0	-19.4157258075	-22.3141739749	-17.6691274729	-127.026230743	-60.9200615789	155.188976065	-22.7628893631	-38.6174096907
124062500.0	-19.8180013695	-28.6636822495	-16.9458735627	-126.524004181	-61.0702484585	129.955958475	-22.7735010679	-38.4262550554
124750000.0	-20.3134037546	-34.5957488696	-16.1953604595	-126.277542753	-60.890626217	107.497941059	-22.7978469092	-38.1542528506
125437500.0	-20.8686237965	-40.1309826426	-15.4170050444	-126.274072477	-61.0501650705	95.5587448414	-22.8217744698	-37.83224249
126125000.0	-21.5015078238	-44.4491032861	-14.6091331109	-126.535218658	-61.4749994101	74.3222133748	-22.8597179121	-37.5552792132
126812500.0	-22.0847425081	-48.2267751253	-13.7719948445	-127.091190276	-61.3348834506	54.680540797	-22.8789648635	-37.1956995607
127500000.0	-22.594870258	-50.9699752293	-12.9150746596	-128.056777149	-61.4054604308	35.7745983703	-22.8899047207	-36.8566820692
128187500.0	-23.0413476215	-53.660997408	-12.0377695829	-129.358263183	-62.830953078	25.3787883501	-22.9078075388	-36.4677134943
128875000.0	-23.4209293085	-55.9917611876	-11.1317416775	-131.175511905	-62.7585823478	12.0104967253	-22.9232367397	-36.0467531396
129562500.0	-23.7532764606	-58.2945178437	-10.2264929196	-133.529443508	-62.5975477129	-5.05345158173	-22.9366597753	-35.6148467321
130250000.0	-24.039824131	-60.5203612405	-9.32761594761	-136.464042133	-62.4573352208	-16.0457001036	-22.9522408749	-35.1880720695
130937500.0	-24.2805902862	-62.6696740978	-8.47370033424	-139.907141432	-62.3709007622	-31.1305039176	-22.9739773207	-34.7204555495
131625000.0	-24.4923793264	-64.7805010174	-7.66080400259	-143.890367663	-61.8813439388	-43.3165763799	-22.9880660675	-34.2632575756
132312500.0	-24.6776929354	-66.7746973925	-6.91259742611	-148.215344918	-61.6932943923	-59.0169019707	-23.0040628014	-33.7637753269
133000000.0	-24.8440369265	-68.7223759323	-6.22679463267	-152.887552631	-61.6374282856	-70.3614328717	-23.0219244456	-33.3351642572
133687500.0	-24.9850306224	-70.5905506441	-5.61323734435	-157.748183695	-61.6748709775	-93.520416832	-23.045918052	-32.87462306
134375000.0	-25.1073197003	-72.42506947	-5.05685238736	-162.785378889	-61.3454509624	-106.496608666	-23.0574226196	-32.4980962543
135062500.0	-25.1939262331	-74.2083634881	-4.56889209209	-167.86142039	-61.1476062535	-120.707016501	-23.0752435762	-32.1380920087
135750000.0	-25.2641009571	-75.894846818	-4.13433766544	-172.986999203	-60.798958775	-134.513465854	-23.0876518763	-31.7677063565
136437500.0	-25.3093881017	-77.4789949726	-3.76231464463	-178.098271692	-60.7728895256	-137.148551351	-23.109029602	-31.4020879725
137125000.0	-25.3192935054	-78.9575857078	-3.43501671875	176.812822255	-60.6393512644	-137.648704007	-23.132929195	-31.0862726501
137812500.0	-25.2986825918	-80.3020493053	-3.15855915553	171.801332202	-60.673734513	-144.233612839	-23.1546439958	-30.7444625846
138500000.0	-25.235448287	-81.5553235174	-2.92311221584	166.842856419	-60.747405697	-145.464927602	-23.1743690562	-30.4813269012
139187500.0	-25.1247445466	-82.8484656737	-2.73497030632	162.029367788	-60.4501566782	-147.984851888	-23.1941131835	-30.2133642399
139875000.0	-24.9588089664	-84.0140271349	-2.57760864228	157.31422688	-60.5583854454	-159.110384067	-23.2158560938	-29.9384319556
140562500.0	-24.7215087949	-85.2518816388	-2.45316230574	152.742730676	-60.7181623212	-169.574682515	-23.2461425501	-29.7983126175
141250000.0	-24.4177595727	-86.4376394312	-2.35529283275	148.284721402	-61.0434031369	-170.874310405	-23.2599561642	-29.6299182551
141937500.0	-24.0250401993	-87.8953501967	-2.2855106976	143.991895669	-61.0021889048	-173.134814395	-23.2781137327	-29.5315259435
142625000.0	-23.5663954109	-89.7424599713	-2.23494728667	139.825273851	-60.699433254	-175.006984866	-23.2862307036	-29.437641692
143312500.0	-23.0214243623	-92.7177294247	-2.20555186986	135.821068629	-60.0721145553	-177.613206697	-23.3010159355	-29.3471855415
144000000.0	-22.5319473704	-96.2023606697	-2.18953319424	131.930738486	-60.6190954248	169.988973063	-23.3223753073	-29.2918502839
144687500.0	-22.1165535713	-100.681638947	-2.18745788641	128.206017118	-60.7643312522	153.239901638	-23.3497774414	-29.2618427139
145375000.0	-21.761213592	-105.067480062	-2.19557032482	124.603466576	-59.3295684756	126.954349343	-23.3692039398	-29.245438322
146062500.0	-21.4761360103	-109.801697129	-2.21546359705	121.139475786	-59.3501829496	111.938227609	-23.3936773624	-29.2089710926
146750000.0	-21.2448327134	-114.384429291	-2.24259068149	117.777582372	-59.1052056593	100.668094217	-23.4090175763	-29.1833978511
147437500.0	-21.0545214208	-118.990478489	-2.27734497233	114.551238512	-59.2677748767	95.5571847536	-23.4155038337	-29.2387658239
148125000.0	-20.916092279	-123.550812426	-2.31375576031	111.418472016	-59.2421440442	90.5009556191	-23.4279975378	-29.2290010727
148812500.0	-20.8053000523	-128.12066825	-2.35604208186	108.393481069	-59.6484437002	91.8807045309	-23.4334067524	-29.3632482781
149500000.0	-20.7200885737	-132.569509929	-2.39872253808	105.465184609	-59.5484955872	96.1902573563	-23.4488907412	-29.3513412452
150187500.0	-20.6541295266	-137.040856658	-2.44681979411	102.630574768	-59.7240405709	108.164168071	-23.4475229908	-29.3556526571
150875000.0	-20.617979344	-141.377619198	-2.49295847257	99.8847077818	-60.2752261114	128.166770341	-23.4446358727	-29.2600747318
151562500.0	-20.5913446454	-145.685282925	-2.54365446386	97.2175125861	-60.3217105331	140.188981876	-23.4447881491	-29.2167887937
152250000.0	-20.5908239566	-149.832466034	-2.5925099287	94.6148361369	-60.2936157457	144.359703993	-23.4560581413	-29.1780867257
152937500.0	-20.5988353614	-153.970435048	-2.64582536043	92.0919987066	-60.659229293	157.410691103	-23.4453695179	-29.1141574252
153625000.0	-20.6218407571	-158.06807694	-2.691693853	89.6295919248	-60.494301171	164.959679125	-23.4495049868	-29.0215525642
154312500.0	-20.6546047484	-162.062569805	-2.743115174	87.2377825288	-60.6052488865	168.093344584	-23.4275283864	-28.9378318192
155000000.0	-20.6948614755	-166.095803895	-2.79262216516	84.8942657713	-60.5099868944	-177.339783245	-23.4134297954	-28.776795609
155687500.0	-20.7378720567	-170.028072334	-2.84338071937	82.6189288393	-60.4357334346	-165.593336607	-23.4056854851	-28.50980426
156375000.0	-20.790390863	-173.936176777	-2.89072487492	80.3695126971	-60.2616318085	-150.99784079	-23.3848084451	-28.2967568605
157062500.0	-20.8493841833	-177.772081488	-2.94002119871	78.1902088013	-60.5991030928	-135.599538939	-23.3648284705	-28.0794008103
157750000.0	-20.9125397392	178.384115373	-2.98599755224	76.0343262086	-60.7316349139	-133.172156846	-23.340323685	-27.7607704352
158437500.0	-20.9736547643	174.674580795	-3.03469924217	73.9462050032	-60.6706102186	-142.272669536	-23.3261226921	-27.4827602026
159125000.0	-21.0384004075	170.90879084	-3.07870094769	71.8842119399	-60.5777270496	-142.808372693	-23.3266783325	-27.1449035043
159812500.0	-21.1031317328	167.258895435	-3.12452737767	69.8794207675	-60.5466677331	-151.346848792	-23.3120039666	-26.7494754439
160500000.0	-21.1770439174	163.62099489	-3.16582384639	67.9011709125	-60.7815171828	-156.084597475	-23.2948220122	-26.4263167529
161187500.0	-21.2499601845	160.038693698	-3.20957327483	65.9799019909	-60.1800878035	-158.433383649	-23.2789883632	-26.0044466191
161875000.0	-21.322842049	156.574862945	-3.24965692208	64.0555544842	-60.378443646	-156.114474423	-23.2767058263	-25.6270273029
162562500.0	-21.3995824129	153.009014788	-3.29257169439	62.1925770546	-60.4146022495	-143.381926703	-23.2648606088	-25.2271000796
163250000.0	-21.4702726561	149.630649593	-3.33033870603	60.333024705	-60.4805590163	-139.874929841	-23.2647123061	-24.8209413745
163937500.0	-21.5460258606	146.163786201	-3.37059290189	58.5272497504	-60.360577483	-137.610649151	-23.2529636895	-24.4167717206
164625000.0	-21.6176074027	142.816974915	-3.40496126572	56.7240901276	-60.542235324	-145.55077993	-23.2644801644	-24.0115633332
165312500.0	-21.6945486733	139.443980786	-3.44396818062	54.9730516119	-60.4047680083	-162.558225917	-23.2671755614	-23.5878230189
166000000.0	-21.7770685958	136.242654087	-3.47799223522	53.2360578507	-60.1238614269	169.405734189	-23.2802667084	-23.0692031816
166687500.0	-21.8553036048	132.916807779	-3.51429572693	51.5326774548	-60.6153827469	140.90014139	-23.2880227716	-22.6397410608
167375000.0	-21.9447585564	129.819071373	-3.54713401878	49.8475956387	-60.7096464658	99.2357496614	-23.3165282257	-22.2899181751
168062500.0	-22.024636112	126.576782519	-3.58096029085	48.2001119898	-60.2918196678	50.6566578386	-23.3438206146	-21.9902227125
168750000.0	-22.1123075523	123.469429162	-3.61103366045	46.5714293431	-60.4551401254	6.30446714372	-23.380020763	-21.6501390493
169437500.0	-22.1903996429	120.223054263	-3.643426066	44.9738572571	-60.6008470207	-38.2819171965	-23.4087802305	-21.2876944842
170125000.0	-22.2822513543	117.107733825	-3.66961628188	43.3845756966	-60.0783063091	-92.5585763615	-23.4551782879	-21.021495611
170812500.0	-22.3670783307	113.91051368	-3.69895211386	41.8298292174	-60.4864104579	-139.341819221	-23.4974590422	-20.7534094309
171500000.0	-22.4534703984	110.771326655	-3.72431405006	40.2867960418	-60.459310961	177.444501871	-23.5449691849	-20.5000908427
172187500.0	-22.5380860807	107.587669317	-3.74837538695	38.7784936482	-60.6344026827	131.009339272	-23.6027971306	-20.3502575457
172875000.0	-22.6270195393	104.393936929	-3.76931323508	37.275029542	-60.4440452251	77.7215577734	-23.6493851062	-20.2397976569
173562500.0	-22.7060783722	101.224035993	-3.7886444619	35.8069619727	-60.8502852555	23.3273463775	-23.729180374	-20.092614594
174250000.0	-22.788110114	98.077557366	-3.80523826882	34.3340652614	-60.3859428099	-20.9731577866	-23.7898325202	-19.9515981374
174937500.0	-22.8588212423	94.9298286635	-3.82191649035	32.8950889624	-60.4034650546	-52.2981368275	-23.8558330226	-20.0268571295
175625000.0	-22.9248552029	91.660851253	-3.83396459846	31.4607944985	-60.0926262803	-79.0263596577	-23.9165061028	-19.9241267783
176312500.0	-22.990222418	88.4248246874	-3.84798019226	30.0474157252	-60.1082884418	-109.90014825	-23.981912854	-19.9709154881
177000000.0	-23.0410994002	85.0798518033	-3.85498577417	28.6360749946	-60.2126473583	-140.043221697	-24.054210776	-20.0492278819
177687500.0	-23.0898587228	81.7972777989	-3.86628476482	27.2318280721	-60.3403107411	-173.422159167	-24.1327279232	-20.1376230229
178375000.0	-23.1342893629	78.4680081573	-3.87219506021	25.8297087387	-60.0625635537	164.189801685	-24.2066355827	-20.1340895355
179062500.0	-23.1745106625	75.1582802067	-3.87956944964	24.4550092191	-59.6222283635	135.708840283	-24.2763340532	-20.3021713732
179750000.0	-23.2098800114	71.7497551672	-3.88109743527	23.0676844169	-60.2788190783	102.653359592	-24.3486794618	-20.3585197891
180437500.0	-23.2391844052	68.3415099003	-3.88482264072	21.6967651573	-60.4462644189	72.5387209415	-24.3978257869	-20.5440232115
181125000.0	-23.2534854316	64.8960288723	-3.88168475636	20.322384979	-60.6543961818	45.5194909678	-24.4803102525	-20.5836809584
181812500.0	-23.2733697663	61.4791382243	-3.88419515252	18.9732291261	-60.5459232981	25.3993316332	-24.5446721149	-20.7004718921
182500000.0	-23.2632248979	58.0084519385	-3.87852461182	17.6098262888	-60.9362799753	10.2323822075	-24.6222918068	-20.7374597925
183187500.0	-23.2417938975	54.5386705268	-3.87694580259	16.2745125339	-60.8920760188	-1.52213338776	-24.6843174187	-20.8921418396
183875000.0	-23.2308521667	51.1478644234	-3.86945607831	14.9179225747	-60.6066346652	-17.6248329182	-24.7424697929	-21.0780552136
184562500.0	-23.2079504717	47.5415360723	-3.8651502839	13.5923828732	-60.2661135891	-32.931696809	-24.785445437	-21.2412187226
185250000.0	-23.1772273914	44.1125257801	-3.85576183999	12.2461042859	-60.1577712273	-48.3927411178	-24.8430706634	-21.3183427943
185937500.0	-23.1441824269	40.5412788156	-3.85032564861	10.9171537217	-59.9872905969	-60.6724277557	-24.8758855118	-21.3364352028
186625000.0	-23.1151948987	37.1102512331	-3.83692261778	9.57367714068	-60.6989657926	-73.2102320519	-24.9366427655	-21.3494789767
187312500.0	-23.064803777	33.5517856912	-3.82802538402	8.24394577123	-60.6687123066	-84.3981736091	-24.9628667048	-21.285821997
188000000.0	-23.0132622122	30.1586959763	-3.81584375584	6.89748718764	-60.3620261936	-97.9030684673	-24.9907138477	-21.2605651081
188687500.0	-22.9626248028	26.6063588368	-3.806123114	5.57486577429	-60.3316400304	-107.266989541	-25.0244987553	-21.1813182073
189375000.0	-22.9136104989	23.1680955562	-3.79230553208	4.22936646941	-60.7733441999	-112.022474743	-25.0652945905	-21.0552823745
190062500.0	-22.8487286203	19.6593953879	-3.78048169877	2.90297695186	-61.0768095283	-108.417327699	-25.0965812126	-20.8900847246
190750000.0	-22.7847329564	16.219503492	-3.7645803325	1.57034464459	-61.1529087173	-94.940004435	-25.1255507878	-20.735107373
191437500.0	-22.7206255108	12.6868971892	-3.75385831769	0.264934939819	-61.1425686963	-92.4696281441	-25.1543805921	-20.5714428472
192125000.0	-22.6587298613	9.24683265956	-3.73969953295	-1.05587399431	-60.7620060436	-91.4549027479	-25.183438163	-20.296399121
192812500.0	-22.5892858651	5.799568161	-3.72724545175	-2.35771317279	-60.6806039476	-93.1213736927	-25.2210836088	-20.1371721947
193500000.0	-22.5219899039	2.3566604533	-3.71103618591	-3.6771704115	-61.0477834506	-95.7695310334	-25.2544258526	-19.9320102284
194187500.0	-22.4526661399	-1.03701396696	-3.69966577487	-4.97496116705	-60.9030377904	-95.6418794398	-25.2663988654	-19.5930541238
194875000.0	-22.3814951311	-4.52561476424	-3.68256079152	-6.27890680765	-60.5505353752	-94.7643931751	-25.2911767372	-19.2497413175
195562500.0	-22.2980719817	-7.98210793249	-3.66708686157	-7.57950310357	-61.1352160782	-96.1783556686	-25.315452735	-18.9806953247
196250000.0	-22.2180215891	-11.5281950772	-3.65004513891	-8.87410481141	-61.2201349453	-86.2414395521	-25.3337079599	-18.6310257398
196937500.0	-22.1256834034	-14.8787846817	-3.63544293622	-10.1671939634	-60.5896386266	-81.383951823	-25.3525299337	-18.235066796
197625000.0	-22.0369719638	-18.2699317118	-3.61832578895	-11.4454884878	-60.4027329359	-82.2486515454	-25.3802994218	-17.8835507746
198312500.0	-21.9381648894	-21.5715560402	-3.6034386899	-12.711130944	-60.4931280036	-82.8188440924	-25.3984779482	-17.6339636648
199000000.0	-21.8419517246	-25.0054754516	-3.58309643711	-13.9988788893	-60.4516384365	-81.1886852637	-25.4074575806	-17.3082606197
199687500.0	-21.7404838712	-28.259102552	-3.56610218533	-15.2640573455	-60.7090127094	-81.5088828459	-25.4249727118	-17.0915146807
200375000.0	-21.6447672649	-31.5936996106	-3.54699750851	-16.5427513313	-60.8396366783	-80.7086847986	-25.4448805184	-16.8836278807
201062500.0	-21.5327209957	-34.8712431981	-3.5299151344	-17.7898058016	-60.7934656236	-79.1706680195	-25.4831133769	-16.5688039723
201750000.0	-21.413972069	-38.0356401562	-3.50806568798	-19.0618880195	-60.8323185356	-74.2717409719	-25.5091711752	-16.2970806077
202437500.0	-21.2913146867	-41.1217211312	-3.48860412127	-20.312634835	-60.8330120374	-60.998524359	-25.543641665	-16.1763770094
203125000.0	-21.1622829569	-44.1536815309	-3.46482690489	-21.5723555868	-60.9909084608	-54.3612375505	-25.5746452187	-16.0222595091
203812500.0	-21.0198486206	-47.1239618319	-3.44614514232	-22.8116084787	-60.0243253529	-38.1154455913	-25.5992861163	-16.0042746104
204500000.0	-20.8874702862	-50.0764306453	-3.42215089651	-24.0714078868	-60.282103412	-23.3963602352	-25.6344389343	-15.9752297681
