#Frequency	|S11|	<S11	|S21|	<S21	|S12|	<S12	|S22|	<S22
100000000.0	-18.6732434762	145.142934222	-36.9998334761	-120.504929025	-77.3297580855	129.830448924	-20.5661245119	-36.2016120267
100687500.0	-18.6022337028	142.857010852	-36.669527172	-119.059948504	-67.653871846	-169.516807817	-20.6157550618	-36.0278602338
101375000.0	-18.5660142455	140.086315561	-36.1145958593	-121.196243593	-65.0418486515	-24.613542505	-20.6306119052	-35.2403394198
102062500.0	-18.5286577404	137.585495433	-35.6736868108	-122.096553186	-64.3066780429	51.7274835494	-20.6601345191	-34.4536879165
102750000.0	-18.4927577688	134.934430057	-35.3107465757	-122.952858668	-65.3507952854	109.007647672	-20.7129801003	-33.8292453343
103437500.0	-18.4610602895	132.289554941	-34.9412136297	-124.351109921	-63.8126705857	112.469380394	-20.7543346859	-33.1161821372
104125000.0	-18.4553524807	129.513466418	-34.5876003683	-125.504800887	-62.9150680032	101.117590928	-20.8238888702	-32.3700599003
104812500.0	-18.4493917919	126.753933006	-34.2988804799	-126.973719689	-62.1145197675	56.1468021397	-20.8934869813	-31.7782365616
105500000.0	-18.450061392	123.824452322	-34.011905674	-128.305066728	-61.8996278061	25.1155477298	-20.962238119	-31.2365643785
106187500.0	-18.4506201777	120.766370422	-33.7470417578	-129.611757115	-62.0974168749	17.8366797855	-21.0367355723	-30.7683419594
106875000.0	-18.4526638459	117.578356854	-33.5246458339	-131.035216133	-61.576613996	-4.06622078402	-21.116921717	-30.3639288409
107562500.0	-18.4639885327	114.320188512	-33.3327888282	-132.30952316	-61.2868498461	-32.7654822969	-21.2085820348	-29.9266382082
108250000.0	-18.4704534445	110.845934223	-33.1498509334	-133.533014601	-61.5367340534	-43.2872769424	-21.2995294904	-29.6668786904
108937500.0	-18.4640980808	107.6004329	-32.9306441333	-134.624242645	-60.6210305873	-39.1037451205	-21.3732649091	-29.2210853733
109625000.0	-18.4661766382	104.278699575	-32.7159641506	-136.043039169	-60.7642609951	-38.4848772405	-21.453101465	-28.8220743004
110312500.0	-18.4618056774	100.807829683	-32.5442942746	-136.975117823	-60.6565396974	-51.2292093126	-21.5490959041	-28.4346117761
111000000.0	-18.4595375495	97.2961736159	-32.4019995464	-137.912578709	-60.6442385218	-65.8824361925	-21.640581569	-28.0841907184
111687500.0	-18.4539452187	93.6694079298	-32.2849529476	-138.713805408	-60.8043164311	-90.4231490982	-21.7412546198	-27.843605796
112375000.0	-18.4547235281	89.9655424353	-32.1989671122	-139.449564021	-60.8086863955	-105.35929312	-21.8397486532	-27.6034881055
113062500.0	-18.4445892267	86.1123359586	-32.16049497	-139.985816882	-60.5086048922	-129.6432021	-21.9424903268	-27.3571334307
113750000.0	-18.4402267047	82.2013702192	-32.129139456	-140.334724239	-60.1200302009	-146.21354412	-22.046649008	-27.1674535595
114437500.0	-18.4359262005	78.1697581985	-32.1117174166	-140.257959877	-59.2949931562	-174.034291784	-22.156356529	-26.9596954368
115125000.0	-18.4280279175	74.0399272989	-32.0841267386	-139.772600172	-59.5223137942	170.15003187	-22.2643022088	-26.8254757456
115812500.0	-18.4148952187	69.7711721587	-32.0526651233	-138.912728784	-59.7253990307	157.791681305	-22.37350976	-26.6268881506
116500000.0	-18.4048810156	65.407089616	-31.9929065708	-137.646127688	-59.7152372511	147.152890281	-22.4733076966	-26.5587839467
117187500.0	-18.3845683415	60.9251222013	-31.8782930668	-136.09774686	-60.109716937	137.151288306	-22.575834405	-26.5308471508
117875000.0	-18.3787203402	56.3193704582	-31.6995404987	-134.319489476	-60.2583767168	126.573008279	-22.6843082713	-26.4560690876
118562500.0	-18.3709231013	51.6020217412	-31.4728656483	-132.47418161	-60.2568025046	114.698029895	-22.7959963777	-26.4008166935
119250000.0	-18.3707184027	46.7413585972	-31.192060798	-130.46307925	-60.6592354651	101.232112996	-22.9008108821	-26.3637039846
119937500.0	-18.3688036372	41.8382059862	-30.8588316136	-128.528438305	-60.7323134376	88.106268945	-23.0149661823	-26.3731204728
120625000.0	-18.3862872834	36.7385260749	-30.4762361893	-126.571948465	-60.9084757316	73.2680818282	-23.1360668207	-26.3788047235
121312500.0	-18.4194712658	31.6274334461	-30.0469769309	-124.75854235	-60.6717773607	48.7932667296	-23.2409180562	-26.3972641215
122000000.0	-18.4762018761	26.3062240732	-29.5621139536	-122.9316704	-61.1113902307	35.4926926102	-23.3602129487	-26.4399614302
122687500.0	-18.5524725875	20.9663523437	-29.0412013143	-121.270490187	-61.4374200819	26.9850923661	-23.474626119	-26.4797514025
123375000.0	-18.6605067582	15.4126438654	-28.4804440465	-119.838458456	-61.2294516557	25.5542389265	-23.5798800277	-26.5727827185
124062500.0	-18.8095807052	9.83387241358	-27.8751466967	-118.436003547	-61.5316195812	27.6662276927	-23.6862912906	-26.6731375271
124750000.0	-19.0120945221	4.22353258502	-27.252756516	-117.333722222	-61.1745817478	17.9185921618	-23.7872737047	-26.7160124972
125437500.0	-19.252173392	-1.55343515136	-26.5937205606	-116.338268943	-61.1861123984	1.86765111324	-23.8908497865	-26.6945399774
126125000.0	-19.5855025063	-7.26410310116	-25.8899113959	-115.608710061	-61.4124827274	-18.7602221137	-24.0004665011	-26.7986826947
126812500.0	-19.9877799825	-12.8852406208	-25.1632075656	-114.99765917	-61.1214274918	-42.343809345	-24.1003091563	-26.7699424949
127500000.0	-20.5275575002	-18.0693633395	-24.404325819	-114.862509853	-61.0632867237	-55.803219097	-24.1811185253	-26.8369102826
128187500.0	-21.145570619	-22.96935197	-23.626620147	-114.872136584	-61.1182256188	-81.3744819513	-24.2665361396	-26.8621277734
128875000.0	-21.8537834984	-26.5870828875	-22.8130055011	-115.17177307	-60.8823773084	-95.8402312135	-24.3411707139	-26.8637925813
129562500.0	-22.5392539562	-29.1151545405	-21.9728782143	-115.829233821	-60.9353979585	-123.509481059	-24.4225397453	-26.9891596227
130250000.0	-23.1348822658	-31.1358526279	-21.0910412194	-116.820569496	-60.8490637798	-153.400579664	-24.5032975364	-27.0825722149
130937500.0	-23.6481443232	-32.6778895823	-20.2052554395	-118.151714257	-61.0907307057	164.938391912	-24.5794654365	-27.1131108213
131625000.0	-24.1156136237	-33.9608444755	-19.2963854683	-120.187019994	-61.3872253072	129.529715638	-24.6379153485	-27.2762526238
132312500.0	-24.5375569324	-35.1917212145	-18.4219432968	-122.570511808	-61.2488903744	91.2796228776	-24.7068964694	-27.3609247402
133000000.0	-24.9119353005	-36.3235494456	-17.5453019102	-125.577377581	-61.2978147898	51.9850495708	-24.7695545027	-27.5384852191
133687500.0	-25.2469405878	-37.5173877781	-16.7215102184	-129.039099891	-61.4242654536	11.4730957	-24.8298505411	-27.6829656552
134375000.0	-25.5605024799	-38.6465752056	-15.9428106419	-133.068606108	-60.9938177455	-18.7514477883	-24.8872586249	-27.8864065978
135062500.0	-25.8430575018	-39.940937044	-15.2375934355	-137.222027789	-60.9496182336	-49.1590736721	-24.932797074	-28.1142155251
135750000.0	-26.0951167665	-41.1540334691	-14.5753585153	-141.681626672	-61.0634547469	-76.1772163853	-24.9655534305	-28.376047462
136437500.0	-26.3230572607	-42.4575460304	-13.9957594291	-146.316727028	-60.8300446228	-105.376264471	-25.0001747893	-28.6655917165
137125000.0	-26.5369954975	-43.7232289922	-13.4553820078	-151.136378923	-60.5766673122	-131.886318693	-25.028721674	-28.9345566215
137812500.0	-26.7032281754	-44.9185917266	-12.9895976155	-155.917851968	-59.9565610128	-159.168221309	-25.047576452	-29.1883608128
138500000.0	-26.8520965282	-46.1450636512	-12.5616573523	-160.811567231	-60.3564420839	172.186342148	-25.0573921277	-29.5226769205
139187500.0	-26.9592793265	-47.3453107904	-12.195482676	-165.62235277	-60.75628666	145.901997623	-25.0650903587	-29.8323905923
139875000.0	-27.0334086051	-48.5204906684	-11.8681406514	-170.45980892	-60.4416958227	115.622221069	-25.0610014418	-30.1735265313
140562500.0	-27.0606734097	-49.6047566012	-11.5872207351	-175.196133733	-60.8201909989	84.5430976409	-25.0599346037	-30.5371599531
141250000.0	-27.0372151038	-50.6885181877	-11.3441346993	-179.88630236	-60.8193843159	44.3363958757	-25.038554242	-30.846463742
141937500.0	-26.952715323	-51.7373941529	-11.1395585158	175.556276866	-60.7239221599	17.8007898984	-25.0180417071	-31.2165073255
142625000.0	-26.8202423645	-52.6818772399	-10.9619601353	171.064409317	-60.6511734902	3.83110808298	-24.9867294161	-31.5919256523
143312500.0	-26.5848261327	-53.6284617581	-10.8181614077	166.713390022	-60.5180429836	-13.1870382667	-24.9453860258	-31.9292804551
144000000.0	-26.2761506288	-54.7419375501	-10.6962412637	162.448729057	-60.714065893	-30.2052877244	-24.9038434204	-32.3433112768
144687500.0	-25.8281963368	-56.1932776905	-10.5980521727	158.328092901	-60.3437264217	-57.8079061642	-24.8613655569	-32.7118157832
145375000.0	-25.2913170787	-57.9458444181	-10.5207060442	154.325963149	-60.3360331087	-76.1688025788	-24.8094360807	-33.1477261238
146062500.0	-24.6614643469	-60.8970766519	-10.4602526145	150.451176673	-61.0328769367	-108.31420953	-24.7670116543	-33.4481576776
146750000.0	-24.0444918964	-64.9490518528	-10.4140418897	146.672517337	-60.9332635481	-131.049444077	-24.7139441285	-33.6782912754
147437500.0	-23.5214538435	-69.3347742987	-10.3821695323	143.016820727	-61.1353137939	-143.720320911	-24.6408400027	-33.9373030452
148125000.0	-23.0750141533	-74.2171840094	-10.3613081661	139.474441192	-61.0767022974	-156.839787626	-24.5619039628	-34.198140393
148812500.0	-22.6775245819	-79.2717014668	-10.3519821214	136.0284491	-60.8358299677	-176.257625855	-24.4884759069	-34.356936307
149500000.0	-22.3305639203	-84.3052302551	-10.3484655093	132.707542897	-60.7246011071	157.319135742	-24.4115014718	-34.5386572792
150187500.0	-22.0257162623	-89.3156842167	-10.3546523581	129.475445169	-60.7051005934	140.123437842	-24.3280447084	-34.6654284299
150875000.0	-21.7588324285	-94.1497447675	-10.3640711512	126.342270354	-60.7786973292	116.154510658	-24.2390620662	-34.6809685361
151562500.0	-21.5205526525	-98.9468018096	-10.3808526279	123.290932878	-61.001102209	91.0280850515	-24.146878574	-34.6582372427
152250000.0	-21.3036974795	-103.456810117	-10.4009186367	120.329407383	-61.1882566064	66.0610816376	-24.0626265618	-34.5617003305
152937500.0	-21.1123489524	-107.904144535	-10.4298022373	117.453040097	-61.294240494	39.695116416	-23.9710614684	-34.3774557992
153625000.0	-20.9411793502	-112.065770976	-10.4564696331	114.665729523	-60.8259254993	14.0033662576	-23.8872309969	-34.1615161729
154312500.0	-20.7830116622	-116.193632206	-10.4920469989	111.951880748	-61.1777294938	-13.5801620386	-23.7848277713	-33.9127590551
155000000.0	-20.6572747443	-120.157713256	-10.5246045216	109.280512027	-61.3051785093	-42.1582297468	-23.6850820818	-33.6424155069
155687500.0	-20.5359286524	-124.000906214	-10.5620111899	106.703012522	-60.9753377543	-70.3861636477	-23.6028745324	-33.2676529556
156375000.0	-20.4455994981	-127.612511722	-10.5991949771	104.167869945	-60.069510611	-109.668401004	-23.5077341559	-32.8427905387
157062500.0	-20.355269987	-131.206637106	-10.6399630598	101.712450648	-60.1047131214	-138.308932397	-23.4174856025	-32.3309815472
157750000.0	-20.2885128693	-134.589314295	-10.6809447467	99.2916835376	-59.9245939125	-176.969198969	-23.32701344	-31.7769953679
158437500.0	-20.2278165927	-137.872741764	-10.7257264338	96.934122204	-59.7650768868	152.734063466	-23.250906561	-31.2169386229
159125000.0	-20.1842649031	-141.061542729	-10.7666314464	94.6278280908	-60.0728305072	110.705446123	-23.1762801733	-30.5967601942
159812500.0	-20.1530001515	-144.10071913	-10.8112371652	92.392525349	-60.5134766911	67.7374906469	-23.107858232	-29.8981751784
160500000.0	-20.1502318248	-147.086411716	-10.8516936586	90.1657457822	-60.7049720958	25.8285475912	-23.0434246228	-29.2284912414
161187500.0	-20.1487199714	-149.936617833	-10.8988764795	88.0393256087	-60.7965071242	-16.4966644523	-22.9785276654	-28.4793233889
161875000.0	-20.1648534579	-152.665555875	-10.9405727883	85.9084746814	-61.0091667782	-58.4424585171	-22.9287534776	-27.694269465
162562500.0	-20.199871068	-155.316713491	-10.9870466622	83.8422846582	-61.1879860509	-109.202389111	-22.8802071536	-26.8576992923
163250000.0	-20.2428071276	-157.981408217	-11.0300923602	81.8000678612	-60.4873880498	-148.947232814	-22.8333396736	-25.9884073547
163937500.0	-20.3095292916	-160.49562526	-11.0760513954	79.823515071	-60.6102409169	162.959855142	-22.7838106809	-25.1241956271
164625000.0	-20.3902597639	-163.048303194	-11.1185403693	77.8705301101	-60.6426284646	106.348401	-22.757777843	-24.2927286608
165312500.0	-20.4808040819	-165.41802399	-11.1669729293	75.973393981	-61.1811293418	62.8267811616	-22.7430233277	-23.4218379901
166000000.0	-20.5927993127	-167.732020318	-11.2080900177	74.0956716394	-61.4794853639	19.4323257871	-22.7286831468	-22.5491246516
166687500.0	-20.7197488887	-169.997409277	-11.2545383642	72.2380254216	-61.7583761773	-24.6725088438	-22.7218002799	-21.6705531536
167375000.0	-20.8551371311	-172.252506584	-11.2954694441	70.4138593163	-61.687313171	-67.9945816685	-22.729223336	-20.824945376
168062500.0	-21.0135997217	-174.48015881	-11.3386312814	68.6483599289	-61.3421846763	-101.400159055	-22.7424935952	-20.0222344058
168750000.0	-21.1874309794	-176.709733225	-11.3795183674	66.8999823826	-61.418340347	-132.178428584	-22.7745387043	-19.1690436289
169437500.0	-21.3791207398	-178.926117619	-11.423413178	65.1908177798	-60.9646321406	-156.576080767	-22.8025248837	-18.3727090274
170125000.0	-21.5965594298	178.767192989	-11.4608203822	63.4877723581	-60.5842225809	-170.273843811	-22.8479856787	-17.668439863
170812500.0	-21.8247224707	176.491034593	-11.5028848781	61.7947704905	-60.5926999852	171.177896117	-22.8909372514	-16.9179244547
171500000.0	-22.0718129553	174.110739999	-11.5396267878	60.1487944894	-60.3698364683	155.400833105	-22.9590079815	-16.1998770859
172187500.0	-22.3328114185	171.660222671	-11.5784966313	58.5469302223	-60.4550932652	143.25479828	-23.0408704929	-15.5618982469
172875000.0	-22.620639714	169.020023721	-11.6154377253	56.9523242219	-60.623868233	141.872324371	-23.123701442	-14.9456990864
173562500.0	-22.9166276449	166.206486982	-11.6507743525	55.3778830315	-60.7255249589	140.416191112	-23.207189186	-14.2939424403
174250000.0	-23.2302575228	163.464474191	-11.6838867386	53.8318809258	-60.8268197964	128.328981512	-23.3038391043	-13.7562019887
174937500.0	-23.5425161508	160.270390445	-11.7146356919	52.2996437392	-60.8427645388	117.550908156	-23.3977620195	-13.2895159168
175625000.0	-23.8680545948	156.866026193	-11.7404304491	50.7888776254	-60.8574456346	102.643233158	-23.4936457428	-12.7806429871
176312500.0	-24.1886834956	153.226492997	-11.7718292505	49.2840743904	-60.3007321362	90.8378767749	-23.6097687092	-12.3729450024
177000000.0	-24.4865246856	149.496412577	-11.7985414061	47.8200393008	-59.9162057429	76.3517638665	-23.7407920011	-12.0642743351
177687500.0	-24.7547026816	145.361533283	-11.826447339	46.3533855778	-59.8993404518	62.2872169714	-23.8757313525	-11.7107176254
178375000.0	-25.0214461175	141.319348953	-11.8477143731	44.9046537471	-59.9095329014	50.3761151964	-24.0168357408	-11.3978490947
179062500.0	-25.2500592818	136.876753193	-11.8709518861	43.4824033751	-59.9998220284	49.3334863028	-24.1557933248	-11.232656936
179750000.0	-25.4589149671	132.37226063	-11.8920078872	42.0706753569	-60.319260548	50.8456978269	-24.307398284	-11.0652829657
180437500.0	-25.6485437832	127.83454359	-11.9131747298	40.6654300372	-60.396469417	54.7455098547	-24.4555493976	-11.051095063
181125000.0	-25.7968193227	123.061355403	-11.9308608373	39.2496764244	-60.224290659	62.0270463295	-24.6141572612	-11.018470057
181812500.0	-25.9133620941	118.411390436	-11.9515154001	37.8758061163	-60.1631191399	78.6090214883	-24.7711618325	-10.9065554684
182500000.0	-26.0099046084	113.562668229	-11.9615646258	36.4923789917	-60.1909420261	83.2213986337	-24.9438059852	-10.8917406524
183187500.0	-26.0537140221	108.74289252	-11.9794839354	35.1506781033	-59.994107991	95.2223258095	-25.1013908668	-10.8675533056
183875000.0	-26.0799115167	103.840674111	-11.9926897057	33.8018912391	-60.0632100225	105.578595722	-25.2522847347	-11.0586588532
184562500.0	-26.0842303749	99.0125980527	-12.0098154433	32.4778235632	-60.1485311575	107.160915014	-25.4104793792	-11.2238815455
185250000.0	-26.0535182716	94.0847886439	-12.0190261711	31.1135558918	-60.1710956914	108.83134782	-25.5657566592	-11.3538725933
185937500.0	-25.9964840197	89.3220069281	-12.0346756818	29.7855982452	-60.3516176752	103.944927493	-25.7068945424	-11.5981141195
186625000.0	-25.9169489812	84.5255394892	-12.0400898755	28.4306729831	-60.5969545973	100.918965473	-25.8567951221	-11.8118866063
187312500.0	-25.7935853283	79.8793426793	-12.0519582763	27.1140480085	-60.6603287464	97.5494632818	-25.9984134865	-11.9842610891
188000000.0	-25.6574444721	75.1358151025	-12.0534831652	25.7933212051	-60.7674783669	97.3264051214	-26.1355123696	-12.3290074827
188687500.0	-25.492742435	70.6317406041	-12.0632542159	24.4949799719	-60.895292695	99.2855212691	-26.2708544095	-12.7006553158
189375000.0	-25.303864227	66.1497927045	-12.065049599	23.1744943099	-60.8432776948	99.0461267811	-26.4000622247	-13.0033197282
190062500.0	-25.0790310751	61.935099233	-12.0720744577	21.8858355479	-60.6543456951	86.2271968015	-26.5250363855	-13.262011014
190750000.0	-24.8354919628	57.829248474	-12.0737883515	20.5978761914	-60.8899905546	74.1314864723	-26.6629898105	-13.731088387
191437500.0	-24.5779135941	53.8099993687	-12.0811704293	19.3224341088	-60.6776875914	65.3094208165	-26.7691565035	-14.1127993663
192125000.0	-24.3093772281	50.1420921826	-12.0833550408	18.0458924846	-60.6404744371	65.2155550297	-26.8742703224	-14.546836798
192812500.0	-24.0272369274	46.7072731282	-12.0890038834	16.7893113184	-60.3405302148	69.1817855078	-26.9981885762	-15.1293337857
193500000.0	-23.747737139	43.5570661147	-12.0885174435	15.5464420585	-60.7342883752	81.6368746592	-27.1048671924	-15.6729586878
194187500.0	-23.4687925851	40.497933713	-12.0913092186	14.2821003119	-60.8326779808	87.4458736342	-27.1779898763	-16.2169816997
194875000.0	-23.2203662928	37.8335697039	-12.0920629988	13.0488983413	-60.6494942094	104.51631255	-27.2541445082	-16.8170028409
195562500.0	-22.9613888069	35.1005944106	-12.094133709	11.8017479139	-60.6336388909	131.219729577	-27.3228091701	-17.4871859284
196250000.0	-22.7388656124	32.7335979411	-12.0959808177	10.5750030312	-60.301373638	159.175526259	-27.3798070743	-18.1088350653
196937500.0	-22.521461923	30.4015384634	-12.0954817733	9.35347530763	-59.7504939393	-172.220423096	-27.4166870371	-18.7151669065
197625000.0	-22.3190378982	28.190740042	-12.0964666554	8.12862637277	-59.5261370118	-143.295316297	-27.4485010401	-19.2956586587
198312500.0	-22.1443653619	26.1031044324	-12.0965983792	6.9298223438	-59.5791724536	-115.391176006	-27.4631980487	-20.0773534408
199000000.0	-22.0018204597	24.0067538066	-12.092029533	5.7071785221	-59.6612425108	-86.7603590184	-27.4677955323	-20.9731647444
199687500.0	-21.864606085	21.9713419196	-12.0911300161	4.48654759104	-59.0574554824	-49.5434780417	-27.4454089422	-21.839524728
200375000.0	-21.7627061761	19.9732735136	-12.0872242911	3.26188376468	-58.8477107565	-16.3071237035	-27.4435786097	-22.7727214397
201062500.0	-21.6620038023	18.0110442809	-12.0816626299	2.05201048914	-59.2050079234	26.8257275305	-27.4341704432	-23.550482222
201750000.0	-21.579772238	15.9758347709	-12.0743528043	0.847031708688	-58.9720533079	69.9920689549	-27.4055144585	-24.3219842385
202437500.0	-21.5089291449	14.0359285622	-12.0726395819	-0.347749288196	-59.1855265144	101.425473797	-27.3615579747	-25.2261466224
203125000.0	-21.44688002	12.0177289262	-12.062880088	-1.52779185014	-58.6930609356	137.519923605	-27.3201010883	-26.0413128392
203812500.0	-21.383449755	10.0110832715	-12.0573764891	-2.69248159359	-58.6836995595	167.663476706	-27.2530016902	-26.9610978644
204500000.0	-21.3571590817	7.92064021659	-12.048489889	-3.86591783214	-59.0991982515	-164.195030247	-27.1817696878	-27.8621750167
205187500.0	-21.3213640908	5.88366295016	-12.044670825	-5.01163464374	-58.9536814001	-143.248011603	-27.104205201	-28.5592223266
