#Frequency	|S11|	<S11	|S21|	<S21	|S12|	<S12	|S22|	<S22
100000000.0	-15.6180302387	153.997757092	-42.895271731	-110.82592284	-67.0427762562	-102.05365603	-20.6509721674	-37.997395853
100687500.0	-15.5888310241	151.819134251	-42.7961918005	-114.544840251	-64.5102204766	107.123693671	-20.5415225686	-36.8573568488
101375000.0	-15.588269983	149.350740961	-42.7241255227	-118.356274242	-61.7655210497	57.2867764507	-20.5368399107	-35.8384592716
102062500.0	-15.5901910198	146.846151304	-42.4496474822	-120.689640627	-61.737690121	-42.4781661731	-20.5607891644	-35.0077376019
102750000.0	-15.5968168232	144.289665717	-41.966563899	-121.96061705	-59.992260453	-128.60410406	-20.5950827827	-34.3041188137
103437500.0	-15.6139706264	141.725774639	-41.6248751892	-123.157729848	-59.9291959259	169.922142698	-20.6519165064	-33.6529673321
104125000.0	-15.6454654002	138.975759012	-41.3032431674	-123.961299169	-59.9755108	108.409694678	-20.7087863577	-32.8631337472
104812500.0	-15.681501241	136.196630707	-40.9848642767	-126.392334275	-59.4982667306	38.141752221	-20.7767454539	-32.2627720003
105500000.0	-15.7310992154	133.323804127	-40.6814278507	-128.029496229	-59.8921286352	-33.4643426006	-20.8484461622	-31.7601711835
106187500.0	-15.7848545001	130.295656142	-40.4572792383	-129.261080946	-59.6026393996	-86.4944139321	-20.9311213889	-31.3397391371
106875000.0	-15.8486159013	127.157062692	-40.2563188574	-130.785756095	-59.7457236051	-111.761520396	-21.0259137712	-30.899091769
107562500.0	-15.923157713	123.896471177	-40.0572723782	-132.199780665	-59.7542245245	-148.194228007	-21.1193232605	-30.4272278224
108250000.0	-16.0011209064	120.452716247	-39.9441128594	-133.494405508	-60.012226595	171.481641791	-21.2125621621	-30.089831138
108937500.0	-16.0579618505	117.240017554	-39.7623040843	-135.112468944	-60.14137094	117.034267589	-21.2828928254	-29.6342228097
109625000.0	-16.1236527552	113.947240689	-39.5925178332	-136.220722084	-60.1705633953	62.2165300748	-21.3561226822	-29.224649593
110312500.0	-16.1884585813	110.512476974	-39.3901801966	-138.017055916	-59.9396603897	6.54948561371	-21.4457223998	-28.8529312288
111000000.0	-16.2647297735	107.005230463	-39.2749947165	-139.147294843	-60.2099652594	-60.0200648654	-21.5375364618	-28.4955150124
111687500.0	-16.3351760401	103.35259962	-39.1135232916	-140.179390605	-60.1885360797	-116.07595401	-21.6261180224	-28.2110200466
112375000.0	-16.4214061985	99.6348549166	-38.9987926423	-141.083984563	-60.0831022295	-167.517093157	-21.7274294483	-27.9704975084
113062500.0	-16.504734913	95.7893212493	-38.9875578828	-141.57494245	-59.6687167487	148.669771448	-21.826223721	-27.7188212645
113750000.0	-16.5925546275	91.7918663189	-39.0138455027	-141.867436025	-59.9759710578	105.122610532	-21.9232225486	-27.5382045753
114437500.0	-16.6829097982	87.7227545913	-39.0672000444	-141.919429662	-60.2296691437	60.9265601687	-22.0370849686	-27.3650847446
115125000.0	-16.7818889414	83.4555663749	-39.062711893	-141.508866383	-60.3638559594	28.3791137879	-22.1488725255	-27.168854343
115812500.0	-16.878262232	79.0386368407	-39.0716006892	-140.914344458	-60.4225668002	-11.5639593921	-22.2509688572	-26.9858245676
116500000.0	-16.9781308584	74.4948985814	-39.0523222322	-139.797897265	-60.7935947859	-41.1179049461	-22.3538472625	-26.8881501298
117187500.0	-17.0825491946	69.8599116971	-38.9583749707	-138.264248463	-60.7438199736	-68.4590336322	-22.4685320118	-26.8734679192
117875000.0	-17.1980638115	65.0460729478	-38.7867181228	-136.251714107	-60.8327649867	-86.7255345586	-22.5796551016	-26.7918973986
118562500.0	-17.3224586601	60.0946665565	-38.59502747	-134.103124633	-61.2946956889	-111.518258686	-22.6901014335	-26.6631643352
119250000.0	-17.4495388024	54.9804945352	-38.3413053179	-132.02697791	-61.1377066684	-124.190998906	-22.7913536434	-26.5767107219
119937500.0	-17.599941052	49.7082315453	-38.011932506	-130.049903568	-60.7499023559	-136.722164554	-22.89746575	-26.5484042101
120625000.0	-17.7555289237	44.2894462725	-37.6564008837	-128.295206829	-60.6332274083	-162.661808612	-23.0032595333	-26.5464296877
121312500.0	-17.944259917	38.7123435601	-37.2124324309	-126.279666361	-60.8796946404	178.018678706	-23.1053769383	-26.5189600796
122000000.0	-18.1474188806	32.9648805643	-36.7221760463	-124.438071541	-61.0768851644	150.878125718	-23.2205545354	-26.5643189059
122687500.0	-18.3945967749	26.9927887393	-36.2233419931	-122.644546401	-60.9913538564	122.163819945	-23.3244639132	-26.6009586571
123375000.0	-18.669353859	20.9022301938	-35.6872259819	-121.177576434	-60.8707104814	94.0326649682	-23.4264047699	-26.7002746307
124062500.0	-19.0161777825	14.5036259046	-35.1036437706	-119.567359006	-61.1352061084	67.7871714447	-23.5310346489	-26.781751058
124750000.0	-19.4164620125	7.998514311	-34.4498747847	-118.232007106	-61.2298588812	39.2610552846	-23.6379713232	-26.8628470345
125437500.0	-19.8776889731	1.06762218245	-33.7833414916	-117.274053243	-61.1662526498	-1.71788382612	-23.7391245549	-26.8468917334
126125000.0	-20.4714587071	-6.09741478939	-33.0873519896	-116.369211132	-60.7619194142	-29.0531780357	-23.8450014637	-26.8814877688
126812500.0	-21.1778591935	-13.9982680686	-32.3697969516	-115.599428492	-60.5032354479	-43.5328978467	-23.9531434422	-26.8286460065
127500000.0	-22.1547906764	-23.1882061839	-31.6535472184	-115.095092824	-60.4959693514	-44.9442318959	-24.0402396967	-26.9031359635
128187500.0	-23.061967967	-34.1659443804	-30.8393334793	-114.840647232	-60.190127643	-42.6974253034	-24.1338918982	-26.8607488476
128875000.0	-23.8323178128	-47.1346956201	-30.0499342727	-114.832461333	-60.1754483997	-39.4332476062	-24.2265992171	-26.9413921082
129562500.0	-24.4854305003	-60.3886390289	-29.1943973164	-115.35206866	-60.2014413882	-38.8649879491	-24.3010624402	-26.9754181461
130250000.0	-25.080814046	-74.016914112	-28.3022579929	-116.046006402	-60.3054903488	-36.9494198166	-24.3843385091	-27.0207868296
130937500.0	-25.5836445422	-88.1234255222	-27.3446182177	-117.470810632	-60.8004512275	-35.4627295417	-24.4718653158	-27.0180087474
131625000.0	-26.0382493652	-102.314067713	-26.432185942	-119.22894467	-60.659268654	-46.6955371307	-24.5369429674	-27.1167767337
132312500.0	-26.4427644602	-116.841402506	-25.5028939306	-121.629569187	-60.5582770866	-56.0771633544	-24.5940139191	-27.1952769772
133000000.0	-26.8216569728	-131.275942539	-24.6227939412	-124.386525988	-60.4866985375	-68.440662579	-24.6587417909	-27.3856326525
133687500.0	-27.1749847731	-145.982431168	-23.7418330297	-128.03372156	-60.0947727334	-93.5395997434	-24.7159828596	-27.5730517365
134375000.0	-27.5087337247	-160.857724035	-22.9602226903	-131.960847577	-60.7166712868	-107.101009808	-24.7684229355	-27.6855953386
135062500.0	-27.8103966466	-175.923828764	-22.2255938187	-136.255719351	-60.6234238354	-117.383444056	-24.816167816	-27.8908747884
135750000.0	-28.0923609052	168.955906361	-21.5893585445	-140.619195063	-60.4759162662	-132.749171484	-24.8573372309	-28.1953565684
136437500.0	-28.3421209778	153.747148966	-20.9839588628	-145.314049176	-60.6724536285	-157.330875434	-24.9011464543	-28.5399560976
137125000.0	-28.5782777751	138.379819933	-20.4747903521	-149.990505206	-61.0026590999	-168.204950175	-24.9398124137	-28.7593820788
137812500.0	-28.7612753416	123.037863452	-19.977507238	-154.890288668	-61.203332699	-167.537163542	-24.9701327097	-28.9855951414
138500000.0	-28.9075319894	107.671426035	-19.5661114894	-159.754854171	-61.1216131971	-175.269385628	-24.9866185693	-29.2957826263
139187500.0	-29.0132941124	92.2902636219	-19.1935427	-164.69996764	-60.7622900789	-175.266375918	-24.9924173463	-29.5600267655
139875000.0	-29.0607951526	76.9130692093	-18.8691617591	-169.49295397	-60.6512406453	175.494920726	-25.0000662686	-29.8211826072
140562500.0	-29.0562026928	61.6413470894	-18.5835837009	-174.321033885	-60.8367099969	177.71019631	-25.0052730208	-30.1138932117
141250000.0	-28.9637028883	46.4717790453	-18.3380004331	-179.070462093	-60.7548134662	-170.217318999	-24.9903802081	-30.4061238481
141937500.0	-28.8083580973	31.4187345397	-18.1297864259	176.276607921	-60.8695349155	-155.692734537	-24.9692647002	-30.7909524972
142625000.0	-28.5647949831	16.6891650602	-17.9627895582	171.764022756	-60.4228982344	-129.891173921	-24.9382223986	-31.0984043076
143312500.0	-28.1801461822	2.23587568587	-17.8251526015	167.365407124	-60.5345761159	-103.690250124	-24.901020074	-31.4373519957
144000000.0	-27.6587425152	-11.5599875496	-17.7160902426	163.067212944	-60.6182297477	-88.4556117712	-24.863697784	-31.8227744645
144687500.0	-26.8677015156	-23.9898190511	-17.6259604123	158.882215366	-60.5743950641	-72.633012118	-24.8263225133	-32.1185299417
145375000.0	-26.1153496445	-34.6454069112	-17.5609427707	154.817630625	-60.4446836499	-50.054720161	-24.7751644937	-32.5425574915
146062500.0	-25.5025214665	-43.2825756732	-17.5204287044	150.872749605	-60.4795402378	-36.6710738465	-24.7218035746	-32.77332472
146750000.0	-24.9787987751	-51.6020602681	-17.4915229037	147.048198681	-60.5248917165	-25.9153660775	-24.6687022075	-33.081318261
147437500.0	-24.5126634154	-59.4746532744	-17.4828356126	143.392670257	-60.7020651685	-23.0422675926	-24.5988252297	-33.321047341
148125000.0	-24.1227176738	-66.7631958708	-17.4768001878	139.849625919	-60.2128590938	-8.03476834578	-24.5184848879	-33.5858527095
148812500.0	-23.7833653534	-73.9624132501	-17.4907238813	136.476548363	-60.4586018301	7.3500286906	-24.4371333401	-33.7447279111
149500000.0	-23.4723172926	-80.6183944446	-17.503962446	133.16342751	-60.5334687225	10.6701487059	-24.3710294917	-33.9576201831
150187500.0	-23.1838192528	-87.2870094433	-17.535351025	129.997847297	-60.7831960055	26.3330292346	-24.2915085543	-33.912758402
150875000.0	-22.913461718	-93.5000239851	-17.5658661618	126.91937012	-61.0864377031	53.6218394895	-24.2117532316	-33.8836105699
151562500.0	-22.6502525304	-99.5144696517	-17.6042900154	123.930409179	-60.2009949648	69.7910796165	-24.1165567091	-33.8629090231
152250000.0	-22.4098823994	-105.126510681	-17.6413401378	121.013934639	-60.1806599286	73.5849397762	-24.0277490785	-33.7381256865
152937500.0	-22.1733439307	-110.532514318	-17.6856435332	118.213834104	-60.1609619557	88.5938214408	-23.9319216164	-33.5333985888
153625000.0	-21.9629798765	-115.622349013	-17.7313218717	115.486939733	-60.3766991202	100.831303229	-23.8441912334	-33.245800103
154312500.0	-21.7395515706	-120.450269649	-17.7839055768	112.847160399	-60.0181366882	99.9358896469	-23.7459573743	-32.989769165
155000000.0	-21.5667022652	-125.064807578	-17.8373920876	110.296742017	-60.4120462985	99.5172690606	-23.6491204427	-32.7003245432
155687500.0	-21.389769451	-129.483775507	-17.8882630554	107.814738243	-60.2768969776	103.802190564	-23.570500374	-32.2513672521
156375000.0	-21.2413810507	-133.63713348	-17.9422191791	105.386368712	-61.1340925922	102.376411426	-23.4765264137	-31.8547001689
157062500.0	-21.098462599	-137.526221434	-17.9931567533	103.022704697	-61.6903481289	100.77124796	-23.3852478526	-31.4012945395
157750000.0	-20.9802387868	-141.351950443	-18.0467729956	100.763647509	-61.6317238723	99.9528163061	-23.2883393576	-30.8386578516
158437500.0	-20.8744909189	-144.908696108	-18.0958718632	98.4949871805	-61.6110071675	90.5159881877	-23.2120082453	-30.2642321076
159125000.0	-20.7813221671	-148.383270343	-18.1531021171	96.3358712021	-61.4906031297	88.5097405429	-23.1394766471	-29.5398833943
159812500.0	-20.7077649463	-151.66103791	-18.2041816117	94.1802437334	-61.561967488	81.3475936431	-23.0749482539	-28.877238257
160500000.0	-20.6529008091	-154.898471777	-18.2628630456	92.1101176027	-61.5172007017	70.1623196464	-23.0108948402	-28.1932116419
161187500.0	-20.6126397314	-157.990981234	-18.3063812696	90.0576630087	-61.7187279816	58.2257460722	-22.9379010234	-27.4658896397
161875000.0	-20.5761425995	-160.968265297	-18.3553012715	88.1055969642	-61.8277883487	44.635335502	-22.8880209283	-26.676835128
162562500.0	-20.5748837023	-163.819608516	-18.3989084406	86.1359173418	-62.1998902402	24.7882059416	-22.8482686333	-25.889733994
163250000.0	-20.5683308916	-166.612940764	-18.4434384642	84.2671029086	-62.337951663	13.7526561144	-22.8111963337	-25.0592437523
163937500.0	-20.591294636	-169.302772329	-18.4887371198	82.4194226172	-62.3778632073	1.9327862945	-22.7749765217	-24.1894274595
164625000.0	-20.6205524492	-171.954373672	-18.5362364612	80.5731693784	-62.5670243022	-9.84735866039	-22.7586599756	-23.3464005792
165312500.0	-20.6819418266	-174.567174261	-18.5841291376	78.7526904046	-62.3510916344	-21.9861649854	-22.7456256727	-22.5051374823
166000000.0	-20.7396942747	-177.075220629	-18.6297138163	76.9869887774	-62.1896298571	-30.8241774739	-22.7326079259	-21.6792284554
166687500.0	-20.8277496838	-179.611612243	-18.675173445	75.2259764498	-61.9803632817	-32.9384145044	-22.7208233223	-20.7796828026
167375000.0	-20.9229638418	177.98988638	-18.7173172936	73.5150251994	-61.7554225817	-41.7287553203	-22.732651252	-20.011473854
168062500.0	-21.0385666638	175.476926036	-18.7609130233	71.8119565064	-61.8613025464	-51.8224313402	-22.7426584785	-19.2067660738
168750000.0	-21.1598595068	173.079631666	-18.8033376871	70.1942091479	-61.9385537649	-64.4281713392	-22.7726791862	-18.3733021632
169437500.0	-21.2939454772	170.47838824	-18.8435930057	68.5696232901	-62.1536168523	-64.9751020703	-22.8094501493	-17.5677806152
170125000.0	-21.4420425092	167.991386291	-18.8814502472	66.9795039481	-62.0203182493	-68.0146609764	-22.8580834793	-16.8299015728
170812500.0	-21.6107914035	165.358665014	-18.9215191827	65.4445719958	-61.6921243214	-61.0983990754	-22.9105266165	-16.0546134309
171500000.0	-21.7836887502	162.727765617	-18.9524435548	63.8591593728	-61.9206828169	-47.6970098932	-22.9750563498	-15.3370993218
172187500.0	-21.9608773836	159.888610163	-18.9849371982	62.3537055238	-61.5849668178	-33.5918401694	-23.0471745195	-14.6310422525
172875000.0	-22.166646168	157.111227037	-19.0179106848	60.8476282213	-61.9102866809	-22.7259308682	-23.123883709	-14.0697396651
173562500.0	-22.349590104	154.032782972	-19.0513339203	59.3883094951	-61.3361876519	-17.7471508441	-23.2072444601	-13.4046858128
174250000.0	-22.557392375	151.002634304	-19.0753460225	57.9023981397	-60.7335393632	-5.31417409353	-23.3010888417	-12.8035944678
174937500.0	-22.7365410824	147.733556869	-19.1028978628	56.4602226567	-60.5674922849	-1.19485874934	-23.4039620104	-12.3373533845
175625000.0	-22.9246786515	144.271569402	-19.1289044073	55.051791125	-60.4047046857	0.130801021241	-23.5027775653	-11.8544106522
176312500.0	-23.0973714912	140.771561084	-19.1552427421	53.6772471278	-60.2546345238	4.63450421891	-23.6221858888	-11.4736413232
177000000.0	-23.2604916268	137.138694448	-19.1729617014	52.2872834067	-60.2369444805	4.67452552592	-23.7479669216	-11.105552602
177687500.0	-23.3949851495	133.395373225	-19.191025739	50.9048796057	-59.9728012871	6.32262597272	-23.8782338585	-10.6839266417
178375000.0	-23.53021061	129.551209393	-19.2119862272	49.5490589611	-59.9528072563	17.8370666744	-24.0328508951	-10.3618503893
179062500.0	-23.6394664471	125.704404835	-19.2333231344	48.1823603357	-59.9176215095	21.7956651301	-24.1721208063	-10.1547733748
179750000.0	-23.7290419448	121.665545695	-19.2524878701	46.8668222767	-59.9018291536	28.5651366158	-24.3154082182	-9.89044060691
180437500.0	-23.8044294984	117.630825856	-19.2701734302	45.5230415886	-59.844855238	27.7067542117	-24.4635229009	-9.79736768278
181125000.0	-23.8523370327	113.417956252	-19.2825781004	44.1672375583	-60.0575252084	33.4075279547	-24.6187869928	-9.64912771429
181812500.0	-23.8733453488	109.256672318	-19.2946654773	42.8420316055	-59.6576079884	39.3065085487	-24.7738268891	-9.65231872385
182500000.0	-23.8684517511	105.045962158	-19.3044879685	41.5574656224	-59.794903647	36.4956268522	-24.9343810155	-9.60876129229
183187500.0	-23.8354183944	100.858294189	-19.3101346228	40.235324091	-60.2766975998	40.8790304098	-25.1040913246	-9.50284931613
183875000.0	-23.7819749104	96.6706790853	-19.3204294125	38.9988641869	-60.2081412752	44.9385091754	-25.2720418698	-9.55168386631
184562500.0	-23.7209921204	92.4768315674	-19.3233059431	37.7047693611	-60.2064825327	54.6118890074	-25.4270924654	-9.67196559458
185250000.0	-23.6173555308	88.3441442102	-19.3268440507	36.4553538279	-60.2361549732	52.6285411502	-25.5839635089	-9.78755009491
185937500.0	-23.5118868722	84.2506059796	-19.3343512687	35.1774054897	-60.2737193007	52.7350472033	-25.7459480074	-9.89105220292
186625000.0	-23.3848580278	80.3524967163	-19.3399884783	33.9551639481	-60.1453297607	40.292636123	-25.899422133	-10.1104846686
187312500.0	-23.2361861042	76.3247553102	-19.3416033507	32.6690634102	-60.1157874329	18.7795335938	-26.0525673122	-10.3118069621
188000000.0	-23.0522690794	72.494183954	-19.3468664356	31.435889858	-60.2828750267	-1.85185459159	-26.188787431	-10.6097657781
188687500.0	-22.8754983437	68.7151930647	-19.344850416	30.1987794662	-60.1764393946	-26.4011353718	-26.3350596487	-10.9390776392
189375000.0	-22.6724152385	65.1861769659	-19.3480474672	28.9524298431	-60.1341221058	-62.4859295744	-26.4765006669	-11.2699359229
190062500.0	-22.4503534912	61.604363587	-19.3454172918	27.7026524884	-60.0123410055	-88.6426372488	-26.6006298129	-11.5295778833
190750000.0	-22.2335237852	58.301147432	-19.3427177022	26.5196236611	-59.834922942	-107.340707	-26.7354151696	-11.9342214356
191437500.0	-22.0024899019	55.002332694	-19.3451335354	25.3070193923	-60.285832732	-133.725741374	-26.8395904667	-12.3719322762
192125000.0	-21.7828984539	52.0536934144	-19.3459819638	24.0982920966	-60.0627035355	-151.289260296	-26.9525378115	-12.8296137513
192812500.0	-21.5533634443	49.1875896783	-19.3408921576	22.8876596311	-59.850682781	-163.646301521	-27.0820650204	-13.3860173308
193500000.0	-21.3332942391	46.5099898437	-19.3419129742	21.6718382984	-59.9493878223	171.636344509	-27.1816882242	-13.8932830724
194187500.0	-21.1170830438	43.8800909303	-19.3421724611	20.4941857047	-59.832373657	155.120296056	-27.2625601961	-14.4580970129
194875000.0	-20.9251913341	41.4407105909	-19.3343942397	19.3039991157	-59.870828283	140.081789178	-27.3486835188	-15.0817741795
195562500.0	-20.7267434781	39.0565327957	-19.3322151366	18.1458298436	-60.2007353962	116.240786368	-27.4193895444	-15.7080505673
196250000.0	-20.5594403157	36.7494694598	-19.3250562244	16.9735317547	-60.3751619503	98.7764756793	-27.4951673735	-16.3342963704
196937500.0	-20.3914584412	34.5593675739	-19.3195672076	15.8002071345	-60.0514253466	80.2171164637	-27.5480274249	-16.9428977334
197625000.0	-20.2456635109	32.4466419464	-19.3088616335	14.613221799	-60.0450434162	67.2969835852	-27.5868304606	-17.5622076941
198312500.0	-20.1063114257	30.416657895	-19.3059167037	13.4979720586	-60.4162411392	50.3330954767	-27.6114741145	-18.4374247223
199000000.0	-20.0063948793	28.4229622798	-19.294121349	12.311459205	-60.3866238894	43.0832122264	-27.6186524937	-19.2141931963
199687500.0	-19.8989812985	26.4643157069	-19.285882382	11.1604033616	-60.3013801618	46.0668953012	-27.6222544244	-20.0743131958
200375000.0	-19.8272771136	24.544976706	-19.2733812932	9.98500157728	-59.9119650814	40.6606643598	-27.6421827521	-20.9894855143
201062500.0	-19.7498628293	22.6119301696	-19.2618989424	8.82059183688	-59.8477632788	41.2255293465	-27.6191189252	-21.8714188752
201750000.0	-19.6851028483	20.6541005447	-19.2501153669	7.66776181164	-59.732514722	40.7036006429	-27.6011195149	-22.7109494795
202437500.0	-19.6344606298	18.733997489	-19.2449316464	6.53529356562	-59.4868038917	42.3968204076	-27.5693096882	-23.6060589642
203125000.0	-19.5906343235	16.7598361802	-19.225629711	5.37945850134	-59.4336613796	43.923612055	-27.5083820994	-24.533626073
203812500.0	-19.5469960616	14.7833559549	-19.2154966738	4.23169224506	-59.3919501271	46.3881245203	-27.4383966336	-25.4259453051
204500000.0	-19.5291117828	12.8264116999	-19.2003945113	3.06635174491	-59.4434257273	54.5307848381	-27.3639352375	-26.2907986874
205187500.0	-19.5148530788	10.8467175161	-19.1861866939	1.92982779015	-59.2867216464	56.1829280163	-27.2889975138	-27.0959365167
