#Frequency	|S11|	<S11	|S21|	<S21	|S12|	<S12	|S22|	<S22
100000000.0	-15.7014746064	140.598102271	-34.1212721966	-125.297982523	-62.8473866817	-94.9355171983	-21.4033767602	-36.3843591109
100687500.0	-15.6867192673	137.589456869	-33.5840912473	-128.108853978	-61.0730370201	112.780791322	-21.5921213642	-37.0890350435
101375000.0	-15.669375601	134.440941224	-33.1781968413	-129.544808892	-61.3934314702	16.1666207025	-21.657181683	-36.9144558279
102062500.0	-15.6659724216	131.362146522	-32.8005209096	-131.21890479	-63.6144916468	-36.5618674853	-21.6621797336	-36.5946328601
102750000.0	-15.6538790186	128.232529304	-32.4078432469	-132.834284105	-63.3099148187	-42.8225354298	-21.6670984656	-36.369581304
103437500.0	-15.6623047226	125.031742451	-32.1052881019	-134.33840878	-62.5925513933	11.1735928396	-21.6787177404	-36.1357364999
104125000.0	-15.6884164645	121.68052222	-31.7967686123	-135.980793449	-62.9580905389	53.6713443781	-21.7092773804	-35.9352919408
104812500.0	-15.7186663075	118.3011322	-31.5308160258	-137.390506911	-62.2915746734	70.745222425	-21.7385182649	-35.8895547915
105500000.0	-15.7608182738	114.788019304	-31.2767428448	-139.106892115	-61.8531941023	67.7558514843	-21.7646853328	-35.8773443365
106187500.0	-15.8086371026	111.161178056	-31.0735238115	-140.721216271	-61.8145088578	43.211390015	-21.7824494093	-35.8708935807
106875000.0	-15.8680822049	107.383989962	-30.9272435334	-142.21851497	-61.8171647213	26.0641498598	-21.8147779503	-35.8391406109
107562500.0	-15.943780284	103.440465539	-30.8063833502	-143.529474975	-62.0772820173	12.6020362182	-21.8477925325	-35.7535316494
108250000.0	-16.0244565524	99.317421931	-30.7456521585	-144.852620841	-62.3260397965	0.681565980217	-21.8699902615	-35.8067530582
108937500.0	-16.0870185274	95.4465438906	-30.5881973851	-146.082571878	-62.2447729406	-13.2040217068	-21.9027669667	-35.7490725924
109625000.0	-16.1542376259	91.4483697054	-30.4802490524	-147.148062944	-62.3571971762	-27.4250983719	-21.9230334669	-35.6706063906
110312500.0	-16.219903041	87.3240572657	-30.4014674381	-148.154076367	-62.7180823955	-38.3021276663	-21.946321757	-35.6215392096
111000000.0	-16.3026726108	83.0804643759	-30.3509507668	-148.861865281	-62.4632979506	-38.748058895	-21.9657373452	-35.5539613162
111687500.0	-16.3816066796	78.7055942198	-30.3330310524	-149.353436611	-62.1051250094	-45.9736082976	-21.9879327982	-35.6051804404
112375000.0	-16.4799886667	74.1928100195	-30.3209611192	-149.281108075	-61.9278256761	-42.9293576876	-22.0149306883	-35.6419509392
113062500.0	-16.5695480327	69.5045527528	-30.317297375	-148.751103445	-61.4112323807	-49.9888304425	-22.0420856328	-35.7105069467
113750000.0	-16.6817609256	64.7032985583	-30.2801375499	-147.749690626	-61.1687650999	-51.0830156422	-22.0686368221	-35.7465184424
114437500.0	-16.7954830956	59.7422933833	-30.2015246964	-146.462364813	-61.1848497682	-50.9246190122	-22.1025329238	-35.8247165953
115125000.0	-16.9190634285	54.5953970921	-30.0428653529	-144.941620513	-61.261760817	-61.946880786	-22.1337852841	-35.8734091529
115812500.0	-17.0370453678	49.2802931055	-29.8594048771	-143.218264568	-61.3732180375	-84.8976204781	-22.1528302471	-35.8968661223
116500000.0	-17.1762486368	43.8065639907	-29.605441466	-141.381791949	-61.0277595013	-100.039427133	-22.1695771393	-35.9502070427
117187500.0	-17.3214407416	38.1599241656	-29.3134239979	-139.550374558	-61.3542334247	-123.020332076	-22.1971455743	-36.0244254025
117875000.0	-17.483871625	32.3115166146	-28.9572199353	-137.779502264	-61.2737192585	-145.806280056	-22.2260889745	-35.9578001671
118562500.0	-17.670563901	26.2575017212	-28.5524079247	-136.037939894	-61.2947248258	-159.641813718	-22.2514840739	-35.9546826858
119250000.0	-17.8708958967	20.0131295871	-28.0988180018	-134.305624078	-61.3646459942	-165.18540613	-22.2688112004	-35.854655447
119937500.0	-18.1055235875	13.613982991	-27.6143217152	-132.66688488	-61.2889140983	-174.682697435	-22.2881025821	-35.7606931441
120625000.0	-18.3616810623	7.00587459037	-27.0688310379	-131.22082741	-60.980592999	-175.786245638	-22.309964936	-35.6214443954
121312500.0	-18.668014653	0.210239963764	-26.4996262548	-129.840202643	-60.94205047	-164.872640265	-22.3324989068	-35.5266142682
122000000.0	-19.0080854182	-6.76993239709	-25.8751393845	-128.746231538	-61.0241203136	-164.111789159	-22.352675792	-35.4153548525
122687500.0	-19.4333453733	-13.9375204234	-25.2136002495	-127.76869578	-60.6677878693	-163.296014612	-22.3703437329	-35.2902852795
123375000.0	-19.9134888929	-21.2386606072	-24.5250712616	-127.131306945	-60.6165549183	-172.540226622	-22.383205197	-35.1277706713
124062500.0	-20.4929558562	-28.7502299162	-23.8093868752	-126.570996104	-60.3010907562	-174.183369712	-22.4011613002	-34.9237855478
124750000.0	-21.2564639962	-36.5260092805	-23.0488430132	-126.269109286	-59.8986110062	173.776778403	-22.4171241399	-34.6736219123
125437500.0	-22.2278679675	-43.8800680895	-22.2705659978	-126.166674785	-59.9471998526	160.760571235	-22.4388432896	-34.3810259974
126125000.0	-23.4344348428	-45.7386351536	-21.4670879092	-126.486552484	-59.9247610418	149.833791699	-22.4650836398	-34.1199137681
126812500.0	-24.340289791	-47.1903715042	-20.6267405155	-127.050166432	-59.6710014727	139.002235615	-22.482242683	-33.7689491497
127500000.0	-24.9594227673	-48.4537649008	-19.7582294151	-127.921188008	-59.9588801148	127.787366832	-22.5048017118	-33.4618723422
128187500.0	-25.5104415127	-49.9472499554	-18.8629578201	-129.142049441	-60.1304810243	114.658407572	-22.5257677282	-33.1044005581
128875000.0	-25.9656004109	-51.5307711877	-17.9528319375	-130.988439667	-60.2586720719	97.6237381339	-22.5429878208	-32.6680101181
129562500.0	-26.3429569064	-53.1825490044	-17.0291674466	-133.34935377	-60.1498751925	82.8277861659	-22.5599144469	-32.2069567217
130250000.0	-26.679127601	-54.954853947	-16.1310387327	-136.421894601	-60.2378632216	78.5125815221	-22.5891095084	-31.7587090141
130937500.0	-26.9597008097	-56.7746643285	-15.2694306201	-140.021682588	-60.49511619	63.9528396818	-22.6013059265	-31.2830369985
131625000.0	-27.2171738189	-58.6076877608	-14.4651875382	-144.112908858	-60.5840799418	40.9381148288	-22.6195103501	-30.7921812483
132312500.0	-27.433465321	-60.376890228	-13.7256654451	-148.499496949	-60.5339040078	21.727912658	-22.6379249204	-30.2679604923
133000000.0	-27.6311915688	-62.1730525095	-13.0500056983	-153.272861748	-60.6878878042	4.16426148011	-22.6679953692	-29.8320711665
133687500.0	-27.7819623563	-63.9678550017	-12.4359954156	-158.175643421	-60.3427855301	-19.1420161394	-22.69236535	-29.3354837444
134375000.0	-27.9141187402	-65.6899245974	-11.8929972932	-163.23715385	-60.093201745	-44.7316784068	-22.717839183	-28.8651032896
135062500.0	-28.001331357	-67.3938433467	-11.404051972	-168.374071985	-60.2765275552	-64.5678330028	-22.7346410085	-28.4286844302
135750000.0	-28.0747604362	-68.9383262067	-10.9823814354	-173.528296893	-60.6371680617	-88.0138381016	-22.7512089747	-28.0395717777
136437500.0	-28.0937337368	-70.3932002659	-10.6099248044	-178.674123506	-60.9137490062	-116.060561742	-22.7764426528	-27.7158630223
137125000.0	-28.0869840334	-71.8036870666	-10.2961871904	176.182907047	-60.8465881964	-146.17046639	-22.8119048227	-27.3588448058
137812500.0	-28.0320948937	-72.9754418716	-10.0256518867	171.085718213	-60.9232639565	-173.889901024	-22.8337912641	-27.016539997
138500000.0	-27.9357192963	-74.0417005796	-9.79920088511	166.099779358	-61.1907225074	147.347622413	-22.8561441865	-26.7546342055
139187500.0	-27.7771906879	-74.9258865065	-9.6150821395	161.202721144	-61.5719742776	117.283855295	-22.8786984261	-26.4100220935
139875000.0	-27.5365641429	-75.6936784712	-9.47175116635	156.441255945	-61.6389667635	91.9342703203	-22.9041859419	-26.13363075
140562500.0	-27.2261477181	-76.3470936718	-9.35744606402	151.795881198	-61.7038658301	75.6314131758	-22.9382957011	-25.8895068685
141250000.0	-26.8115185511	-76.7421521304	-9.27431776356	147.293469671	-61.5438746684	47.2536454472	-22.9572877419	-25.6755876018
141937500.0	-26.2121273545	-76.8691165739	-9.21613883703	142.930834995	-61.3457108645	21.2722779371	-22.9834302981	-25.4764467103
142625000.0	-25.3890850736	-77.3392850583	-9.18130484446	138.719620368	-61.7658723588	8.17052420993	-23.0006082537	-25.2951889219
143312500.0	-24.3266035905	-83.2762555825	-9.16763202845	134.654660903	-61.5954014874	-6.14702809651	-23.0154976863	-25.1154236157
144000000.0	-23.5519892471	-89.5541709386	-9.17119080746	130.742830886	-61.7740117371	-19.0226232813	-23.0368313761	-24.9826224623
144687500.0	-23.0799044054	-95.9505283727	-9.18882027345	126.976690036	-61.5023819902	-33.1912419077	-23.0580784542	-24.8959799584
145375000.0	-22.6505986722	-102.027840124	-9.21869626448	123.356521919	-61.7580044311	-45.5370961006	-23.0688825983	-24.8596278577
146062500.0	-22.3302234161	-107.88264595	-9.25889998108	119.89934671	-61.8684580099	-46.113090731	-23.1009931994	-24.7738156373
146750000.0	-22.0649181202	-113.595369945	-9.30495246381	116.549268003	-62.2601881701	-57.8021937512	-23.1199337784	-24.7509769155
147437500.0	-21.8552731275	-119.045924924	-9.3608241176	113.329514114	-62.0692449945	-76.320764031	-23.125776391	-24.7260970733
148125000.0	-21.6789413331	-124.380941933	-9.41642181743	110.225882341	-61.7667628521	-89.2640353021	-23.1360785181	-24.6799142642
148812500.0	-21.5276760064	-129.566581284	-9.4773611166	107.246376471	-62.0243554805	-106.254846513	-23.1417256185	-24.7554356505
149500000.0	-21.4057267261	-134.628524217	-9.5378563266	104.349168406	-62.1423204236	-125.354553006	-23.1425265439	-24.713215909
150187500.0	-21.3032113052	-139.558824203	-9.6019524359	101.577694117	-61.9056260101	-133.620388279	-23.149280497	-24.6672965674
150875000.0	-21.2313859104	-144.28824048	-9.66599918914	98.8852433849	-62.4107703906	-134.765870683	-23.1446992782	-24.5597065151
151562500.0	-21.164258101	-148.99252524	-9.7330327946	96.2907219804	-62.2361254479	-128.855888828	-23.1357701812	-24.5082565026
152250000.0	-21.1350454557	-153.477177141	-9.79654391394	93.7617528013	-62.5367738212	-126.990851564	-23.1372034845	-24.3977084402
152937500.0	-21.0901253262	-157.930359085	-9.86170099888	91.3219385075	-62.4517203101	-130.830564762	-23.1306180369	-24.3060052865
153625000.0	-21.0850014307	-162.263431824	-9.92370498614	88.9314112595	-62.4201004262	-130.178112984	-23.135701437	-24.1390521771
154312500.0	-21.0658538998	-166.473011758	-9.98402621016	86.6193131252	-62.4947957572	-131.027690477	-23.1071047579	-24.019727478
155000000.0	-21.077214127	-170.665318256	-10.0457858671	84.3594129675	-62.4931755835	-129.105957196	-23.092609948	-23.8302542935
155687500.0	-21.0723550337	-174.788153598	-10.1025853131	82.1791904123	-62.8481097837	-118.8359044	-23.0872942039	-23.6121482417
156375000.0	-21.0961045743	-178.880792192	-10.159743532	80.0413569472	-62.4234425588	-110.565392602	-23.0722856609	-23.41932898
157062500.0	-21.1107360749	177.133887786	-10.2127149501	77.9525733093	-62.3496047233	-99.9529930826	-23.0523811294	-23.1356434008
157750000.0	-21.13516689	173.213342766	-10.2678041786	75.8751865395	-62.1367865798	-85.1051730574	-23.0226976322	-22.8857830501
158437500.0	-21.1544859195	169.351802264	-10.318154496	73.8745434175	-62.2206618021	-57.1385565915	-23.0121276828	-22.590300464
159125000.0	-21.1739313347	165.591838099	-10.3691391581	71.9291865726	-62.0576225614	-29.6065229052	-22.9976236687	-22.2229120806
159812500.0	-21.2018004619	161.87598739	-10.4159395144	70.0135817645	-61.6995958014	-4.46838126676	-22.9833178842	-21.8816902732
160500000.0	-21.2276296172	158.159807666	-10.4626958898	68.1296457988	-61.7454324796	12.6290351358	-22.9667910457	-21.5856557784
161187500.0	-21.2658349035	154.567005574	-10.5066959914	66.2769407991	-61.4818170183	33.0848813658	-22.9494579511	-21.2326756464
161875000.0	-21.2939917404	151.040785801	-10.5502249692	64.4546191753	-61.3858993738	59.372720016	-22.938880151	-20.8368169382
162562500.0	-21.3397771187	147.516944395	-10.5911016061	62.6676251336	-61.2575421012	87.0169937968	-22.9254859814	-20.4090901832
163250000.0	-21.3551990421	144.035190261	-10.6302859063	60.890605481	-60.8740144253	104.290219678	-22.9167132276	-19.9964254814
163937500.0	-21.392893736	140.615413592	-10.6689152969	59.1530938047	-60.3205547407	131.715094875	-22.9060132241	-19.525169576
164625000.0	-21.4130509709	137.26336189	-10.7049491986	57.4453706234	-60.6148313886	157.573352405	-22.9018339691	-19.1257861332
165312500.0	-21.4532138984	133.929041738	-10.7425868056	55.7612325993	-61.014466785	-171.71981558	-22.9092857569	-18.7088744114
166000000.0	-21.4889903812	130.678304878	-10.7782447464	54.0988291096	-60.3616206023	-140.022830118	-22.9202478093	-18.274888325
166687500.0	-21.5333074827	127.39946972	-10.8128572134	52.4693512084	-60.213193781	-100.622935359	-22.9256146417	-17.9250164571
167375000.0	-21.5729160514	124.258667626	-10.8458670734	50.858727815	-60.2621456716	-75.1074668254	-22.9429155491	-17.6081782144
168062500.0	-21.6173482782	121.054101148	-10.8766385703	49.2801223108	-59.7155414881	-56.8320729243	-22.9608242492	-17.3024376653
168750000.0	-21.6611827479	118.022584314	-10.9042088749	47.7329089631	-59.7495837032	-35.7454353828	-22.9905435747	-17.0438596784
169437500.0	-21.6881499764	114.898975199	-10.933787706	46.1986931136	-59.3467843983	-6.78764618791	-23.0138745285	-16.7151626731
170125000.0	-21.7301950373	111.840839895	-10.9584478551	44.6821602992	-58.9248789026	19.7459745707	-23.0488795407	-16.4817720296
170812500.0	-21.7683216964	108.747769462	-10.985338798	43.1887118828	-58.5234677515	38.3752033507	-23.0698874726	-16.1786420636
171500000.0	-21.8151661089	105.703126705	-11.0061742597	41.732366367	-58.5588531207	67.5577454624	-23.1231227569	-15.9796699964
172187500.0	-21.848058501	102.59581804	-11.0275657226	40.2885948728	-58.6174730805	84.7025672551	-23.1693582101	-15.8264599307
172875000.0	-21.8975848269	99.5355390298	-11.046202811	38.8442066561	-58.2640622071	103.713265608	-23.2061680212	-15.6696091068
173562500.0	-21.9241768482	96.4787203148	-11.0635803089	37.4326733304	-58.5505960612	113.666469897	-23.264687962	-15.5397166305
174250000.0	-21.9697965043	93.4420905335	-11.0785812239	36.0302769805	-58.4894219113	115.333929937	-23.3102464224	-15.3910369437
174937500.0	-21.9925827916	90.3939656235	-11.0908137638	34.6845914208	-58.3839448605	105.121418178	-23.3619378403	-15.3389977296
175625000.0	-22.0313464218	87.3032228971	-11.0999506054	33.3087000096	-58.4347807413	81.740114062	-23.4107151003	-15.2334869076
176312500.0	-22.0539163886	84.1699839153	-11.1102792574	31.9481417425	-58.3967692598	69.6462792924	-23.4679691205	-15.3066986867
177000000.0	-22.080979568	81.0602214769	-11.117733001	30.5951435405	-58.3536119846	59.8375425348	-23.5266972004	-15.3138775039
177687500.0	-22.0874556067	77.9369412745	-11.1251209758	29.23733214	-58.3913728331	59.1387431629	-23.5943027688	-15.3471682053
178375000.0	-22.1018128573	74.7414946229	-11.128087619	27.8888651399	-58.4618739521	55.306532533	-23.6595867977	-15.3396888459
179062500.0	-22.1045672312	71.5747265681	-11.1288634307	26.5716804897	-58.7162633374	55.8027296463	-23.727414362	-15.4855577625
179750000.0	-22.1027891638	68.3761086908	-11.1282085872	25.2409272132	-58.6775957447	45.3256560092	-23.7890618353	-15.5691595347
180437500.0	-22.1019452391	65.1124450132	-11.1279032903	23.9288544957	-58.7217074352	45.9033035397	-23.8473250806	-15.7883314947
181125000.0	-22.0882412938	61.8477664574	-11.1246024583	22.603788741	-59.1141645668	46.7544769506	-23.8964891621	-15.8921630165
181812500.0	-22.0750579988	58.6090680604	-11.1192147729	21.3103001513	-59.2207342758	45.361204592	-23.9568047238	-16.012659205
182500000.0	-22.0462378733	55.3526094449	-11.1139542322	20.002560617	-58.8826369166	31.7866578623	-24.0132940054	-16.0532304942
183187500.0	-22.0107015596	52.0925929013	-11.1042661359	18.7197657751	-59.1693552021	28.7789436079	-24.058632059	-16.1219897699
183875000.0	-21.9735997635	48.863723238	-11.094819806	17.4068857945	-59.3173840062	15.6724258207	-24.1146090578	-16.1816819862
184562500.0	-21.9368104608	45.6145592168	-11.0820907993	16.1186813308	-59.1349948069	10.691208032	-24.1607459807	-16.2841513723
185250000.0	-21.8736175523	42.3725311654	-11.0714212978	14.8139945645	-59.2965154744	10.0124219697	-24.2061194492	-16.3763751452
185937500.0	-21.8251184936	39.0357407294	-11.0603457306	13.5050821528	-59.5161719373	9.15111130694	-24.2365890613	-16.3632847172
186625000.0	-21.7748338469	35.7855427982	-11.0467697928	12.2097763933	-60.3405542927	-2.81249366933	-24.2737950845	-16.461588784
187312500.0	-21.7134388034	32.4693578003	-11.0281926845	10.903038418	-60.3627168742	-0.576246083764	-24.2998827321	-16.3300200475
188000000.0	-21.6450022112	29.2128568327	-11.012512387	9.60945285351	-60.4264939476	-0.564777715687	-24.3336041109	-16.3375964389
188687500.0	-21.5833882657	25.8704762062	-10.9974605185	8.28847166553	-60.6427093195	-13.0428038062	-24.3545701072	-16.2451046344
189375000.0	-21.5086594087	22.5968433893	-10.9794390275	6.98356133244	-60.31117909	-26.7130040702	-24.3931619779	-16.130006582
190062500.0	-21.4377661081	19.3119489957	-10.9609535636	5.67515531154	-60.3098520497	-40.2904456001	-24.4206339905	-15.925720952
190750000.0	-21.3707369089	16.0689239808	-10.9415194004	4.39292283116	-60.0060073639	-55.2619003971	-24.4437166322	-15.7503467143
191437500.0	-21.2931523385	12.820650554	-10.9220621618	3.09898264975	-60.2454232312	-70.8336153746	-24.4671123293	-15.6053634345
192125000.0	-21.2305675929	9.59775916044	-10.9043178491	1.78405355788	-60.1838978684	-88.702465989	-24.4931134924	-15.3811747957
192812500.0	-21.1515776644	6.35031456962	-10.8865038445	0.477814709425	-60.5174523128	-92.6449098798	-24.5132905033	-15.1993332477
193500000.0	-21.0827636038	3.13163713774	-10.86582656	-0.806790866117	-60.7389600911	-106.552034059	-24.5407419824	-14.9488655121
194187500.0	-21.0038105154	-0.124901305599	-10.8470180473	-2.1160978348	-60.887531011	-131.217828992	-24.5501247201	-14.6473838486
194875000.0	-20.9411199148	-3.35008051958	-10.8232794466	-3.39706280478	-61.0241136066	-159.784218392	-24.5679851665	-14.3309794987
195562500.0	-20.8564090518	-6.60848340107	-10.8042007677	-4.68387793287	-61.1286326063	170.492906835	-24.5797589472	-14.0058519993
196250000.0	-20.7768395329	-9.88868696895	-10.7863223126	-5.95903633145	-60.6221994852	140.601600511	-24.6016965141	-13.6823210129
196937500.0	-20.6822509224	-13.1337584965	-10.7668953724	-7.24918576908	-60.7164226698	112.638714931	-24.6101031923	-13.245624085
197625000.0	-20.6062522717	-16.3053967833	-10.7443077066	-8.53181883334	-61.1567731407	75.4440565516	-24.6127750368	-12.8942960644
198312500.0	-20.5106390802	-19.4753068037	-10.7235148765	-9.7840945604	-60.8325499655	38.5368867903	-24.6352368581	-12.6251722707
199000000.0	-20.4287093108	-22.6978825865	-10.6999015787	-11.0777692355	-60.3796953622	12.1870788199	-24.6518969458	-12.3730652315
199687500.0	-20.3231158124	-25.8270454438	-10.6769698372	-12.334727037	-60.4680371943	-5.26786351996	-24.6675889034	-12.1332446546
200375000.0	-20.2291443373	-28.9619297561	-10.656446924	-13.6082419208	-60.2838052441	-29.5474456361	-24.7023446378	-11.9014766231
201062500.0	-20.1173945213	-32.0883384389	-10.6325788704	-14.8653135781	-60.7029878387	-42.706598907	-24.7332591706	-11.6527488936
201750000.0	-20.0059606736	-35.1809740773	-10.6086878495	-16.1347560149	-60.6058499565	-63.6693033649	-24.743591578	-11.4039814658
202437500.0	-19.9044044714	-38.1727677317	-10.5838629631	-17.3792122564	-60.7387170703	-91.2440535803	-24.7705539302	-11.2624263511
203125000.0	-19.7854629724	-41.1187282296	-10.5563546504	-18.6331881741	-60.9466033772	-123.790399904	-24.7941770405	-11.098781623
203812500.0	-19.6633362066	-44.0134429154	-10.5320849036	-19.8761010151	-60.628573031	-151.902984364	-24.8263223873	-11.0154697376
204500000.0	-19.5447666685	-46.865926154	-10.5079630111	-21.1309824661	-60.5576531127	166.507222606	-24.8446702591	-10.9873744517
