#Frequency	|S11|	<S11	|S21|	<S21	|S12|	<S12	|S22|	<S22
100000000.0	-17.3472305369	132.494574547	-42.884614605	-130.881870131	-60.4327149654	2.87640981708	-21.5773442852	-34.6878381509
100687500.0	-17.2692925148	129.227645403	-42.7792280736	-126.434075248	-59.1178626958	-27.9374244483	-21.5853298618	-35.5478421644
101375000.0	-17.23202013	126.004996271	-42.0123291693	-128.793076438	-63.6426294207	-14.1457946076	-21.5792521506	-35.4333263774
102062500.0	-17.2230533415	122.963622925	-41.5283268213	-129.570467837	-63.1472641968	29.792377525	-21.5864815659	-35.2011440965
102750000.0	-17.2129588375	119.791417704	-41.0867799489	-130.468944338	-62.0111813092	33.9566556127	-21.5899279884	-35.0457646669
103437500.0	-17.201954477	116.56961063	-40.7071452943	-130.795408158	-61.5080970789	61.7121163259	-21.5960075631	-34.9279584536
104125000.0	-17.2064909602	113.25846334	-40.4149677137	-132.068948726	-61.0598565898	78.3573589609	-21.6019589748	-34.6051945312
104812500.0	-17.2195772158	109.884934449	-40.183282138	-133.496218172	-61.0905947508	54.6380704474	-21.6339965295	-34.6390508507
105500000.0	-17.2382946917	106.405203387	-39.9068134073	-135.145647516	-60.8370865911	-3.6375293896	-21.65459016	-34.6673444536
106187500.0	-17.2550945758	102.808123858	-39.6809844669	-136.415388795	-61.646119192	-83.8948534758	-21.6754955495	-34.6228843683
106875000.0	-17.2838309711	99.0490941881	-39.5377917246	-137.465003323	-61.9040254741	-133.928015323	-21.7088607869	-34.5821897087
107562500.0	-17.3253744622	95.1808985288	-39.4079047914	-138.792533822	-62.0696922917	172.376077935	-21.7424745319	-34.51025345
108250000.0	-17.3641340456	91.0829230768	-39.3068379059	-139.701911424	-62.1810888278	125.510333831	-21.7670464613	-34.5978106147
108937500.0	-17.3886537451	87.2168105768	-39.133295596	-140.42016855	-62.172406271	98.3515743741	-21.7868156989	-34.5436520039
109625000.0	-17.4191901677	83.3020743594	-38.9968228196	-141.613635278	-62.619818915	71.9533794996	-21.8015475477	-34.4704930125
110312500.0	-17.4400732093	79.2205749022	-38.8787672547	-142.491513606	-62.9691067099	35.1271464495	-21.8285275826	-34.4510467135
111000000.0	-17.4771472072	75.0531761907	-38.8198929111	-142.774949014	-62.6839874903	6.96717747585	-21.8484753102	-34.4306402558
111687500.0	-17.5071427067	70.7490775923	-38.7729742634	-142.926561069	-61.9733331061	-22.0854182459	-21.864339598	-34.4924309265
112375000.0	-17.5462778695	66.3259768916	-38.7363397401	-142.900293734	-61.9473423821	-60.6944544856	-21.883062509	-34.5510247514
113062500.0	-17.5781776816	61.7907155738	-38.736572295	-142.323407073	-61.8228154372	-87.7396524785	-21.9055882843	-34.5862069094
113750000.0	-17.6220910509	57.1127053905	-38.7157786164	-141.209293523	-62.5618448983	-117.357769795	-21.9290510697	-34.6429845095
114437500.0	-17.6640647747	52.3466301804	-38.6441127476	-139.966318796	-63.0022273926	-156.934756795	-21.9563121905	-34.6861756113
115125000.0	-17.7160476218	47.3724382078	-38.5073943802	-138.523166625	-63.1174148043	153.993598467	-21.9871109315	-34.7127262654
115812500.0	-17.766415154	42.2977801027	-38.3191498951	-136.863006124	-63.0652368007	106.203250635	-22.0143042338	-34.7599440494
116500000.0	-17.8186419826	37.0327311347	-38.07935966	-134.856586155	-63.491235876	50.4245623357	-22.0395491672	-34.8522787271
117187500.0	-17.8790566364	31.7056542278	-37.7204853059	-133.093751918	-63.3043482878	-5.5976197878	-22.0611570549	-34.9652815534
117875000.0	-17.950091108	26.1442201541	-37.3208332333	-131.041568902	-63.3963335861	-62.4159509517	-22.0853224452	-34.9014577412
118562500.0	-18.0352679413	20.5072686989	-36.9089289593	-129.361139572	-63.5869759101	-118.219815346	-22.0965605477	-34.9128484811
119250000.0	-18.1311249167	14.6535217659	-36.4635528309	-127.409078927	-63.5753081049	-173.55711605	-22.1137757904	-34.8584829988
119937500.0	-18.2530742236	8.72672072001	-35.9565955438	-125.68561156	-63.8652904954	142.976490098	-22.126950229	-34.7574125726
120625000.0	-18.3930716378	2.65321985475	-35.4032654738	-124.150495912	-63.3723528186	111.719118532	-22.1530215809	-34.7142122391
121312500.0	-18.5865593337	-3.5088305439	-34.8185838354	-122.875243689	-62.9108184782	83.2009570089	-22.1606119247	-34.6484159482
122000000.0	-18.796043108	-9.76095233459	-34.1362156997	-121.627585812	-62.4993873662	42.0207318044	-22.1873755606	-34.5539390662
122687500.0	-19.0788489099	-16.0889927601	-33.4896896752	-120.916559181	-62.5800238247	1.19783946205	-22.1963551949	-34.4774223828
123375000.0	-19.3998421408	-22.3273103272	-32.7675619141	-120.157920901	-62.0166226713	-26.7606555066	-22.208507768	-34.3652345946
124062500.0	-19.8035202838	-28.6471530384	-32.0584103295	-119.530991331	-62.4186659418	-41.7439184734	-22.220156808	-34.2577292608
124750000.0	-20.2869848126	-34.5959180839	-31.2973172731	-119.320442771	-62.0529072864	-68.1554582124	-22.2391291089	-33.9973565745
125437500.0	-20.8337781029	-40.2521654525	-30.5312548002	-119.363696493	-61.8554657479	-94.8796461505	-22.2535578612	-33.7003192959
126125000.0	-21.4312258729	-44.7141957221	-29.7268112526	-119.680147634	-61.6447897584	-121.28544653	-22.2794201384	-33.4749545043
126812500.0	-22.0230070799	-48.4177481166	-28.9135922143	-120.134357928	-61.5115480075	-136.48022403	-22.2964967419	-33.1502545387
127500000.0	-22.5200746936	-51.1277791502	-27.9962120044	-120.938581575	-61.1612676618	-150.917939156	-22.3148990253	-32.9156617667
128187500.0	-22.9610477579	-53.7997550962	-27.1504165892	-122.354814495	-61.3583371379	-168.791754163	-22.3340771418	-32.5440218107
128875000.0	-23.3310601482	-56.0515157873	-26.2264188189	-124.104471046	-61.3498552533	163.378704436	-22.3555379089	-32.1555957241
129562500.0	-23.654063659	-58.3486436485	-25.3291404552	-126.274008958	-61.4780636186	133.585400178	-22.3772618296	-31.7101693327
130250000.0	-23.9426103754	-60.5169166096	-24.4117033028	-129.180425677	-61.8206784906	89.8035397077	-22.4036794964	-31.341661992
130937500.0	-24.1815555694	-62.7255558418	-23.538606644	-132.752482054	-61.5166768541	59.2601919142	-22.4234506106	-30.8518832434
131625000.0	-24.3999925847	-64.7556177634	-22.7018442794	-136.635220189	-60.8173138449	30.5929749732	-22.4371696089	-30.439509552
132312500.0	-24.5836361125	-66.8061616321	-21.9703099796	-140.960464757	-60.5786168933	8.24860583363	-22.4531489825	-29.9309015045
133000000.0	-24.751050029	-68.7228186762	-21.2671573793	-145.685547473	-60.6925777787	-14.7281854059	-22.4705056481	-29.5376743919
133687500.0	-24.8856926903	-70.6703733063	-20.655936406	-150.485399982	-60.7295408766	-31.2203985266	-22.493481051	-29.048356247
134375000.0	-25.0180502054	-72.5096182409	-20.1206816717	-155.5035271	-60.8527205041	-43.3116585356	-22.5162232597	-28.610082539
135062500.0	-25.0996279007	-74.2902090649	-19.636706617	-160.506925352	-60.8623647803	-42.6584718266	-22.5352165131	-28.1893912895
135750000.0	-25.1786601201	-75.9790121429	-19.201901169	-165.577328038	-60.380629391	-42.4482566361	-22.5601533121	-27.8045777334
136437500.0	-25.2175118952	-77.5369528586	-18.8301025904	-170.62204993	-60.5965327717	-35.7150025076	-22.5929052159	-27.4491430582
137125000.0	-25.234104446	-79.0827839271	-18.5018985317	-175.779626887	-60.4662352341	-34.0328286967	-22.6225487438	-27.1422722167
137812500.0	-25.2085389885	-80.4343955287	-18.2260054395	179.297010177	-60.704595507	-31.7467906529	-22.6366527025	-26.7656682936
138500000.0	-25.1423575269	-81.7444247051	-17.9945894016	174.323598159	-60.849056855	-29.5227332	-22.6646063409	-26.4886656249
139187500.0	-25.0364043296	-82.9681469998	-17.8059668098	169.556436031	-61.0910686124	-14.9253943834	-22.6866873945	-26.1845954024
139875000.0	-24.8625135679	-84.1613896214	-17.6540277259	164.825289321	-61.2284788915	-0.757794962961	-22.7183384467	-25.8856350376
140562500.0	-24.6333899173	-85.4311607797	-17.5260055041	160.291389696	-61.1897537882	2.85712611704	-22.744013909	-25.6055096331
141250000.0	-24.3254029518	-86.5967973461	-17.434473882	155.855185625	-60.8309155082	5.34999831054	-22.7625826903	-25.3547137444
141937500.0	-23.9418031057	-88.0257251307	-17.3597325116	151.613539308	-60.9240010055	11.5346017809	-22.7841871201	-25.2044502719
142625000.0	-23.4877158308	-89.7770962819	-17.3116420452	147.501638568	-60.7302008458	25.1479981533	-22.7979217804	-25.0539379367
143312500.0	-22.9855336074	-92.6079999574	-17.2804214039	143.51233005	-60.7626373201	37.1418020022	-22.812043566	-24.8895571345
144000000.0	-22.4860555163	-96.2055219665	-17.2740036942	139.675462588	-60.3702131693	37.1179827431	-22.8404126308	-24.7630517195
144687500.0	-22.0946001235	-100.658867933	-17.2689565969	135.956633469	-60.1825245574	46.8315305516	-22.8531724095	-24.7014197681
145375000.0	-21.7466140857	-105.068241953	-17.2813226935	132.417177814	-59.907925778	61.2470628697	-22.8744998582	-24.6615880982
146062500.0	-21.4793297373	-109.804490099	-17.3002488482	128.977535619	-60.1364684086	81.7179570659	-22.8907806344	-24.5436755489
146750000.0	-21.2433675652	-114.41040477	-17.3280506466	125.668403654	-60.2215900187	101.72308933	-22.9122575435	-24.4932566047
147437500.0	-21.0648642428	-119.073523743	-17.3588462388	122.438446647	-60.0727775892	131.812251394	-22.9134555913	-24.4137622721
148125000.0	-20.9277264804	-123.540813688	-17.3952412544	119.347356986	-59.8275292037	149.769777022	-22.9274099851	-24.4182883096
148812500.0	-20.8115957489	-128.187885536	-17.4377690979	116.331461878	-59.7848095121	177.174814099	-22.9319885422	-24.4468919642
149500000.0	-20.7311441451	-132.548353332	-17.4761874738	113.471252122	-59.9487396592	-150.870031402	-22.9416545934	-24.4560171975
150187500.0	-20.668911232	-137.072732315	-17.52757251	110.68089911	-59.9052858147	-120.845517064	-22.9362527351	-24.3735172804
150875000.0	-20.6391623383	-141.295868125	-17.5739718538	107.994768019	-59.4909635441	-99.6383420763	-22.9377821189	-24.2946107034
151562500.0	-20.598660697	-145.6255322	-17.627810072	105.349766151	-59.3375489224	-73.0500825997	-22.931969527	-24.3117675898
152250000.0	-20.6097978248	-149.74591299	-17.6743472376	102.805148356	-59.1315293074	-59.1474460952	-22.9339591865	-24.189931643
152937500.0	-20.6073590285	-153.914642061	-17.7241521906	100.286563211	-59.5830264513	-40.9594082322	-22.918096118	-24.1398628486
153625000.0	-20.6437610138	-157.974460513	-17.7682712799	97.8526251913	-59.1723232463	-16.9874865408	-22.9123347072	-23.974027268
154312500.0	-20.6718379574	-161.950439341	-17.8230311763	95.5236105903	-59.0141370886	-0.727298027691	-22.8923265307	-23.8385065693
155000000.0	-20.7299959171	-165.968087208	-17.8704812992	93.208021828	-58.5174845839	14.1952338072	-22.8855579207	-23.6667363316
155687500.0	-20.7708088874	-169.918849944	-17.92930684	90.997999713	-58.4091135503	25.9869907542	-22.8761530645	-23.4135597707
156375000.0	-20.8419354191	-173.87072753	-17.9766892635	88.7947421798	-58.2382780864	37.6871977516	-22.8522771527	-23.214312555
157062500.0	-20.8945697479	-177.661954774	-18.0266325901	86.6690559819	-58.5867861492	40.5279531374	-22.8245196367	-22.9627632422
157750000.0	-20.9691277278	178.506694551	-18.0721294448	84.5477473505	-59.1997908624	51.5176681057	-22.802229919	-22.7420698471
158437500.0	-21.0386449997	174.77670613	-18.1261016324	82.5068121457	-59.0787139836	63.8732652645	-22.7842312221	-22.4984249726
159125000.0	-21.1058649201	171.015228796	-18.1693699264	80.4576984485	-59.2107491369	74.0807695941	-22.7677814377	-22.1730696055
159812500.0	-21.1766343984	167.384064552	-18.2117221496	78.5047482854	-59.2684355153	78.4533428526	-22.7496945011	-21.8184530532
160500000.0	-21.2454481137	163.678734864	-18.2517128629	76.5511239045	-60.1898082804	81.9855041278	-22.7312585325	-21.5245351551
161187500.0	-21.312468732	160.146687871	-18.291685478	74.6391044723	-60.0168180909	85.6089299011	-22.7038105586	-21.1855426584
161875000.0	-21.3845757147	156.593253624	-18.3292042223	72.7769273995	-60.2269397418	75.7203103431	-22.6938710082	-20.8302023078
162562500.0	-21.4655680289	153.040590188	-18.3696044143	70.9188085072	-60.3423416497	64.0911863607	-22.6821709796	-20.4726885361
163250000.0	-21.5238133757	149.546272005	-18.4088251174	69.0732352422	-60.142155793	55.6903024533	-22.6739666502	-20.1345633128
163937500.0	-21.6090322645	146.14367539	-18.4459992769	67.2860099945	-59.7610237777	53.0536428715	-22.6551546078	-19.7726877599
164625000.0	-21.663831787	142.776924267	-18.4884777676	65.5162179224	-59.8602758309	53.6138362734	-22.6498539305	-19.4644961834
165312500.0	-21.7401224524	139.366495332	-18.5238868266	63.8389608772	-59.6494870599	53.9980432266	-22.6433205529	-19.0841129136
166000000.0	-21.8108039895	136.081876573	-18.5615574897	62.1666608389	-59.6640901499	42.6133275857	-22.6427017866	-18.7418459235
166687500.0	-21.8935484564	132.730793621	-18.5952150924	60.4990308945	-59.6648112667	32.6768810089	-22.6449287078	-18.3309532273
167375000.0	-21.9709593426	129.616288806	-18.6291925554	58.8610305997	-59.5731125518	31.6844164305	-22.6612274343	-18.0674546701
168062500.0	-22.0519878984	126.313937287	-18.6598028395	57.2349797557	-59.5673065451	41.8277167714	-22.668637158	-17.8005248657
168750000.0	-22.1295787708	123.175929091	-18.6886465994	55.6829805338	-59.935583127	52.523894318	-22.6905866944	-17.5182287519
169437500.0	-22.2081450599	119.926897876	-18.7114289024	54.0910200424	-60.1682090813	68.9384602643	-22.7146990498	-17.2659472605
170125000.0	-22.29462191	116.87878205	-18.7420723157	52.5611833675	-59.682845088	91.00781714	-22.7457904899	-16.9685657165
170812500.0	-22.3700099319	113.667231549	-18.7666145064	51.0160367268	-59.7936965608	102.98936512	-22.7721717046	-16.7335175982
171500000.0	-22.4564420887	110.549624113	-18.7862947778	49.5266221011	-59.918940521	117.316646557	-22.8109849032	-16.5639051345
172187500.0	-22.5284373832	107.344294248	-18.8135377008	48.0263794685	-60.0385530511	132.687697529	-22.8488141347	-16.5166064565
172875000.0	-22.6224437573	104.214794406	-18.8318815765	46.5731524328	-60.2750053353	147.972083276	-22.8786449967	-16.4566865029
173562500.0	-22.6860484843	101.058837031	-18.854918842	45.1074875887	-60.0040077076	153.159667379	-22.9249366147	-16.4072944976
174250000.0	-22.7779084554	97.9260306545	-18.8697537873	43.6938677797	-59.9361962903	167.499767623	-22.9708763381	-16.339213992
174937500.0	-22.8341334312	94.7403280084	-18.8855566977	42.2843308958	-59.4960120094	170.616743269	-23.023531734	-16.3670390003
175625000.0	-22.9030139233	91.4824577654	-18.8931329253	40.9108739194	-59.4348868355	160.585787211	-23.0735967968	-16.3312404174
176312500.0	-22.9629546584	88.2110152548	-18.9097505834	39.5454766199	-59.4832993684	159.053172068	-23.1199744362	-16.4287988277
177000000.0	-23.0216878134	84.9718069066	-18.9195925704	38.1626245965	-59.7061017287	156.067578002	-23.1839648269	-16.5492846914
177687500.0	-23.053714573	81.7539787309	-18.9335476895	36.7984385331	-59.0255718664	154.171169626	-23.2428180849	-16.6563405541
178375000.0	-23.114044401	78.4130481866	-18.9386951003	35.471453277	-59.3837437831	154.536789108	-23.3132177609	-16.7080569871
179062500.0	-23.1503346265	75.1700390942	-18.9508183191	34.1042638202	-59.2361878925	167.696217254	-23.3671205403	-16.8298427097
179750000.0	-23.1775549442	71.7952381025	-18.9463369401	32.7926082455	-59.1671832195	171.192051681	-23.4247360189	-16.9707537093
180437500.0	-23.2104741316	68.4361970696	-18.9535814766	31.492748206	-59.6707045758	171.51333721	-23.4753206312	-17.1859862959
181125000.0	-23.2281338179	64.8987646949	-18.9509913792	30.198580222	-59.6043010315	171.236874377	-23.5342515656	-17.2680643219
181812500.0	-23.2553194752	61.5183157718	-18.9504660511	28.9152408941	-59.2574352958	168.877872168	-23.5848785708	-17.3773918739
182500000.0	-23.2540049721	58.0162987678	-18.9464865929	27.5417204444	-60.7653692543	172.025476026	-23.6523851604	-17.406286023
183187500.0	-23.2540326721	54.6475911114	-18.9449401765	26.2196685081	-60.837916917	-174.676526838	-23.6996502715	-17.4784061344
183875000.0	-23.2323649061	51.2124325369	-18.9432645732	24.8798098004	-61.1124339026	-170.9553522	-23.7481897269	-17.6217109572
184562500.0	-23.2133389631	47.7082857968	-18.9373821854	23.6230330483	-61.0032355131	-170.571051064	-23.7852245112	-17.7662672453
185250000.0	-23.1781977647	44.2559375831	-18.9250439972	22.3074603733	-61.1528148811	-178.132853169	-23.8336083757	-17.8224608071
185937500.0	-23.1609875057	40.806392211	-18.9226101191	21.0309189951	-61.6862473434	175.984481034	-23.8723322704	-17.8127368839
186625000.0	-23.1204841355	37.339996034	-18.9178718872	19.7288797645	-61.4938133077	163.548331154	-23.9102739072	-17.8483423787
187312500.0	-23.0811608663	33.7895018547	-18.9085231364	18.4730803396	-61.4941670573	149.602892206	-23.9392523278	-17.8048053265
188000000.0	-23.0299236304	30.3678577976	-18.8976918365	17.2024206494	-62.0439720316	143.767255071	-23.972557733	-17.8348843832
188687500.0	-22.9806788185	26.8577767733	-18.8866177867	15.905284664	-62.0878651937	143.720652254	-23.9937345502	-17.7496125485
189375000.0	-22.9178100075	23.4337791313	-18.8726747183	14.60273793	-62.2223788032	145.046288904	-24.0286855429	-17.567752199
190062500.0	-22.8564605013	19.8776222327	-18.855480013	13.3083784424	-62.0144654819	146.555977323	-24.0571448146	-17.3818025109
190750000.0	-22.7930790763	16.4175555414	-18.8389532617	12.0116696251	-62.4288372744	145.955299796	-24.086541778	-17.1621831456
191437500.0	-22.7262487099	12.8157726264	-18.8262368003	10.7567155114	-61.8685048516	145.489380143	-24.1123299073	-16.9436626698
192125000.0	-22.6665403209	9.4036563121	-18.8134630162	9.47092259667	-62.0012725507	157.095280742	-24.1269825868	-16.7422039506
192812500.0	-22.5901623348	5.87019676417	-18.7991192317	8.20361980214	-62.1775295408	170.986175641	-24.1547724233	-16.4369384568
193500000.0	-22.5257719487	2.52719238773	-18.7891689177	6.90544906747	-62.3600118421	175.31765327	-24.1789577684	-16.1296831689
194187500.0	-22.4454823783	-0.989287639609	-18.7696012388	5.6358815353	-62.3137368436	-179.87635068	-24.1924115449	-15.8166921409
194875000.0	-22.3916648104	-4.45645992208	-18.7561065468	4.378241398	-62.5204575097	-173.400658054	-24.2108795019	-15.5035265693
195562500.0	-22.2990071533	-7.93191573606	-18.7422805241	3.11056542818	-62.4942513014	-157.055321813	-24.2256219525	-15.1375771294
196250000.0	-22.2178531095	-11.4215104938	-18.7254937522	1.87648311297	-62.6106422426	-151.289340179	-24.2429387618	-14.860641057
196937500.0	-22.1214864856	-14.8347411181	-18.7144027589	0.628694196552	-62.5639407726	-137.563236127	-24.2519810755	-14.3909052463
197625000.0	-22.0377495068	-18.2222183958	-18.6966168436	-0.610750185627	-62.3782112215	-130.145806525	-24.2658229445	-14.0034693503
198312500.0	-21.9318584717	-21.4851917058	-18.680580787	-1.86191120307	-63.0488613698	-128.403550193	-24.2839553909	-13.7262932273
199000000.0	-21.832363544	-24.8980721014	-18.6614406108	-3.11126487886	-63.2483998992	-124.4933722	-24.2998089528	-13.4810837837
199687500.0	-21.7190418468	-28.1227340168	-18.6441708897	-4.3373772954	-61.7823562287	-125.216998098	-24.3147519996	-13.2737164279
200375000.0	-21.6174327183	-31.482073962	-18.6246947456	-5.54434777707	-62.2851359195	-136.543373383	-24.3313433226	-13.0443369831
201062500.0	-21.4949018699	-34.7175884509	-18.6041723539	-6.79469119448	-61.9142400876	-151.709333253	-24.3619352505	-12.8346907276
201750000.0	-21.3790819816	-37.9514146445	-18.5807657142	-8.04695873044	-61.9182017896	-174.060672667	-24.39080367	-12.5640714604
202437500.0	-21.2558388485	-41.0470564825	-18.5666635443	-9.26242651997	-61.7083667988	168.511610496	-24.4167290098	-12.4312407718
203125000.0	-21.1230944246	-44.1519728606	-18.5324815165	-10.5289835869	-60.8576320657	140.260028993	-24.4379610822	-12.2701094425
203812500.0	-20.9895812242	-47.0621424817	-18.5156886185	-11.739946434	-60.8227403596	114.430251592	-24.4640677057	-12.2600519885
204500000.0	-20.8508381969	-50.0951385644	-18.4902717364	-12.9919094169	-61.3727815354	88.3342219193	-24.495499336	-12.226119995
205187500.0	-20.7169474703	-52.9702827652	-18.4768060976	-14.2253080633	-61.0579816382	55.6229964847	-24.5166196148	-12.225211843
