#Frequency	|S11|	<S11	|S21|	<S21	|S12|	<S12	|S22|	<S22
100000000.0	-15.6774913146	154.500070948	-20.9120522819	-124.678182377	-60.8536077302	137.427786352	-20.6877033839	-58.7858209037
100687500.0	-15.5960546545	152.074211695	-20.4723055558	-125.828292877	-57.544466768	92.6154501647	-20.8368782091	-58.8641703587
101375000.0	-15.6134465786	149.496109347	-20.0549466163	-127.034552553	-58.2221956215	68.4157727002	-20.9491265589	-58.3519875075
102062500.0	-15.6159586633	146.994839992	-19.6586775447	-128.237985327	-59.0592467224	58.9340746001	-21.0552437517	-57.7714471238
102750000.0	-15.6179278608	144.400934305	-19.2887363979	-129.540847977	-59.6936699636	38.8209657258	-21.1694152882	-57.2085781749
103437500.0	-15.630459902	141.798763183	-18.9391898634	-130.933402586	-59.3391816962	12.2980321731	-21.2678859011	-56.7316936119
104125000.0	-15.6649652462	139.079764341	-18.6113943951	-132.346125378	-59.5498689317	-32.0958708988	-21.4159886469	-56.1488507315
104812500.0	-15.7031042632	136.31189824	-18.3118427038	-133.786128723	-60.6564803575	-44.8664149715	-21.5448267666	-55.7583667514
105500000.0	-15.7488426648	133.360789871	-18.0336905347	-135.254051717	-60.7458290442	-40.1391820375	-21.6650596183	-55.5460211536
106187500.0	-15.8059333153	130.308826592	-17.7859486721	-136.689759397	-61.0618281804	-20.8225082355	-21.8142008272	-55.2516875984
106875000.0	-15.8663183824	127.151545729	-17.5671910905	-138.137073152	-61.1090784207	-5.59666946554	-21.9602311685	-55.107989567
107562500.0	-15.939830432	123.908727371	-17.3833724136	-139.551898323	-61.3348574099	-2.11583895504	-22.1263140582	-54.9173616288
108250000.0	-16.0156183756	120.456392816	-17.2358205565	-140.923745252	-61.1264621152	-0.273331446273	-22.272087105	-54.8123982181
108937500.0	-16.0716330649	117.2152788	-17.0245229219	-142.236867461	-61.267770238	-2.52314756645	-22.4173673869	-54.5603764869
109625000.0	-16.1378959662	113.939568159	-16.8456999228	-143.515763463	-61.6214188743	-5.24975994352	-22.5605308181	-54.3226939448
110312500.0	-16.2024767916	110.495747193	-16.6893809554	-144.753782963	-61.8159281746	-4.46897153288	-22.7136751821	-54.1242788964
111000000.0	-16.2768817665	106.994358664	-16.5593914204	-145.903962257	-62.319114259	7.85975067572	-22.8665208457	-53.9420925183
111687500.0	-16.3504428355	103.35161174	-16.4639622149	-146.975471467	-62.2815023011	8.1955699755	-23.0195173148	-53.9215602629
112375000.0	-16.4352718489	99.6175546874	-16.4004616108	-147.87913322	-62.0578819666	14.622535997	-23.1777437162	-53.9099797894
113062500.0	-16.5094178227	95.7297483032	-16.3653517547	-148.565662095	-62.1912076888	9.18711109743	-23.3439532171	-53.9177439652
113750000.0	-16.5967345885	91.7590170961	-16.3542925334	-148.919276043	-62.4339629911	2.21712461832	-23.4987702925	-53.9304324125
114437500.0	-16.6865284492	87.673077596	-16.3639158604	-148.942016025	-62.6636049442	0.0803273658869	-23.67062931	-54.008286309
115125000.0	-16.7830045193	83.4147971984	-16.3728224288	-148.512826196	-62.9216730713	-7.51573880856	-23.8359501867	-54.1266389433
115812500.0	-16.87716911	79.0273452562	-16.3703960636	-147.632639478	-62.8608947701	-3.14840066816	-24.0154411356	-54.1869376874
116500000.0	-16.9753140263	74.4670067342	-16.3275196094	-146.393328122	-62.9071660722	9.64953695111	-24.1758451421	-54.2858207454
117187500.0	-17.0772638797	69.8340393966	-16.2369064703	-144.813602514	-62.7534972321	28.0976457203	-24.3368386944	-54.544405236
117875000.0	-17.1898862119	64.979108172	-16.089515068	-143.037675728	-62.4352198281	37.9768360828	-24.5111993264	-54.5881386375
118562500.0	-17.3133523575	60.067170509	-15.8894290418	-141.139440826	-62.1226305203	38.3657093236	-24.681184812	-54.7299752843
119250000.0	-17.4394735399	54.9187314061	-15.63188327	-139.175343949	-61.8674559395	38.7841780847	-24.8489510381	-54.7094614683
119937500.0	-17.5872247229	49.7320364534	-15.3227490312	-137.158109939	-61.8089159915	38.7329452625	-25.0078317422	-54.7751518111
120625000.0	-17.7428582802	44.30561486	-14.9626664942	-135.209765547	-61.4817306019	30.4880618274	-25.155211885	-54.8300410839
121312500.0	-17.9324624293	38.774615813	-14.5501213421	-133.309101307	-61.371375797	16.5465059185	-25.301722131	-54.984389661
122000000.0	-18.1370044906	33.0401380397	-14.0934158397	-131.520806955	-61.3949383867	7.72076799834	-25.4540950008	-55.0926382027
122687500.0	-18.37934811	27.1645425241	-13.5940297863	-129.816037445	-61.097224503	-2.20561658967	-25.5876609939	-55.2728924289
123375000.0	-18.6512081462	21.0338025512	-13.0503041152	-128.259639296	-61.0025054004	-10.2051397947	-25.714785292	-55.2544533265
124062500.0	-18.9942383469	14.6329723681	-12.4704810274	-126.853482574	-60.9423577354	-11.730710224	-25.8400268853	-55.372036269
124750000.0	-19.3991998223	8.12338372041	-11.8550628858	-125.632239839	-61.2064607063	-10.8181208458	-25.9642781915	-55.4179803234
125437500.0	-19.8683265701	1.12987709542	-11.2022549798	-124.552978025	-61.052802872	-11.4217541311	-26.0842263932	-55.3712022712
126125000.0	-20.4666120545	-6.09855973115	-10.5186462534	-123.709572419	-60.6631808348	-19.2560710936	-26.2003710483	-55.4570522372
126812500.0	-21.144174545	-14.1697360819	-9.79474655604	-123.059941217	-60.1460394749	-19.9066615768	-26.2972834509	-55.4117631342
127500000.0	-22.0968542292	-23.3770187853	-9.04607293419	-122.674857411	-60.0198846	-31.2029446975	-26.3782347272	-55.5063263423
128187500.0	-23.0091853594	-34.3413288002	-8.26580912468	-122.513648517	-59.2824250798	-42.4532794395	-26.4589673288	-55.5344882055
128875000.0	-23.7534288323	-47.2893835759	-7.45170785889	-122.654890874	-59.4752616232	-40.1743164048	-26.530648442	-55.4410354618
129562500.0	-24.4194456442	-60.5966831566	-6.60435932316	-123.114626938	-59.252912841	-34.3828851914	-26.5711416419	-55.4084824
130250000.0	-25.0144673037	-74.2958789941	-5.73199382393	-123.974835275	-59.3820277408	-25.0046398832	-26.6255418187	-55.4726609221
130937500.0	-25.523852901	-88.4155760854	-4.83601218014	-125.292362678	-59.1029800001	-7.48113263531	-26.6562566027	-55.4330728504
131625000.0	-25.9655953472	-102.575171566	-3.92780517512	-127.147233466	-58.8773164268	7.41959186396	-26.6714560133	-55.4872704601
132312500.0	-26.3654827456	-117.035814919	-3.02191671653	-129.562534202	-58.4137224689	22.8177171142	-26.6804183752	-55.441957765
133000000.0	-26.7508255787	-131.519357747	-2.13743505757	-132.574603998	-58.5410768837	34.6054923978	-26.6797811508	-55.5761655794
133687500.0	-27.1117140205	-146.255860362	-1.30098108114	-136.080969253	-58.3160050989	40.8298699245	-26.6738701711	-55.6422901495
134375000.0	-27.4477363057	-161.07144006	-0.51750927739	-140.048656121	-57.9325857236	44.2642758045	-26.6488456933	-55.7821483328
135062500.0	-27.756560588	-176.158223194	0.203853864128	-144.31875498	-57.8128000345	47.069392009	-26.6032774436	-55.9609140158
135750000.0	-28.0377314192	168.768807779	0.86336370484	-148.834666978	-57.6077550016	58.5845080128	-26.5552745068	-56.1785977497
136437500.0	-28.2903259727	153.499496754	1.45885402121	-153.52594364	-57.7507817116	60.737467871	-26.4998574205	-56.5067431386
137125000.0	-28.5305061036	138.197569003	1.9936107182	-158.356042405	-57.6963834604	74.605607444	-26.4399524177	-56.8874699764
137812500.0	-28.7090274029	122.811256119	2.47175534785	-163.233699417	-57.777797942	87.8397683279	-26.3799768956	-57.215086086
138500000.0	-28.8494384143	107.428070641	2.89565278177	-168.141507513	-57.4399362007	103.045199787	-26.2970372728	-57.5752668059
139187500.0	-28.9485880414	92.0511296209	3.26794568217	-173.037015363	-57.8902702304	116.961164744	-26.2152878603	-57.9454952409
139875000.0	-28.9975087048	76.5766438932	3.5933723705	-177.897925027	-57.7919381874	123.784209854	-26.1326987308	-58.217693439
140562500.0	-29.0014960028	61.3005400707	3.87387808531	177.285624062	-58.3962066787	133.829778086	-26.0448312099	-58.7787339057
141250000.0	-28.921894421	46.1132567945	4.1158995923	172.545107458	-57.7856495024	145.064061628	-25.9414356539	-59.1524250993
141937500.0	-28.7616623179	31.0493398081	4.32083853935	167.891270767	-57.8136271185	148.515118095	-25.845138138	-59.7125134953
142625000.0	-28.5140207731	16.3822276654	4.49332465891	163.332131753	-57.6984382848	153.855638713	-25.7304503975	-60.1734379264
143312500.0	-28.1194772596	1.9763179149	4.63186151338	158.887136275	-57.7670047552	165.840765131	-25.6228500637	-60.6553110026
144000000.0	-27.6261693989	-11.7154757817	4.74435963833	154.552082004	-57.914448138	171.932239655	-25.5119677129	-61.1242691168
144687500.0	-26.8610776268	-24.1841824904	4.83159907568	150.346423241	-57.9414973485	-174.805692085	-25.4104307104	-61.5808173714
145375000.0	-26.1020074164	-34.9368051304	4.89860973492	146.262994446	-57.9346914506	-172.281370543	-25.2947461923	-61.9757760789
146062500.0	-25.5083402429	-43.5699390395	4.94489029675	142.311687547	-57.8284441098	-169.896257407	-25.1909822158	-62.4555410927
146750000.0	-24.9672145508	-51.8581206728	4.9738820304	138.465938598	-57.8633855367	-175.889456837	-25.1001158578	-62.7663200958
147437500.0	-24.5082332666	-59.636885141	4.9873187438	134.772657807	-57.5147995273	-173.429469903	-24.9802703703	-63.0292931752
148125000.0	-24.1153817932	-66.9285048998	4.9908828414	131.185601294	-57.4393660231	179.719981118	-24.8767042005	-63.3731100408
148812500.0	-23.7879001741	-74.109875525	4.98039935902	127.719548047	-56.8762949863	-179.858201852	-24.7668825224	-63.6299559851
149500000.0	-23.4867360113	-80.8341747711	4.9625683127	124.370956164	-57.4826776865	177.675602578	-24.6679256073	-63.8403861686
150187500.0	-23.1979155486	-87.5018706544	4.9359245458	121.136266364	-57.2309315339	172.767144698	-24.5749824811	-63.9262301784
150875000.0	-22.9180511346	-93.6841608682	4.90644587441	118.006605534	-57.7170969233	170.120298125	-24.4833802463	-63.9232166681
151562500.0	-22.657391528	-99.7650969949	4.87079534389	114.979205221	-58.0580293917	165.870123344	-24.3953357913	-63.8318299134
152250000.0	-22.4136672837	-105.277701202	4.83054135721	112.036977374	-58.1778869944	163.934140273	-24.3247447381	-63.7153924409
152937500.0	-22.1789886606	-110.774724704	4.78398111566	109.190408681	-58.1657143976	153.857935995	-24.2495343753	-63.5299758218
153625000.0	-21.9697310268	-115.765745448	4.7376043636	106.436903061	-58.104727274	139.193897784	-24.1973666131	-63.2872320845
154312500.0	-21.7462526075	-120.711043562	4.68803031652	103.756561154	-58.2412231836	114.861422358	-24.1330809915	-62.9342564125
155000000.0	-21.5711198056	-125.263960728	4.63673486666	101.147518202	-58.1530287278	97.5435837509	-24.0910402768	-62.5819884539
155687500.0	-21.3925840194	-129.712521708	4.58526140992	98.6270185011	-58.2969747351	76.439855223	-24.0633204918	-62.0775928807
156375000.0	-21.2475701947	-133.895052889	4.53198295207	96.1627636865	-57.5368822684	61.0124235903	-24.0178976013	-61.5037341745
157062500.0	-21.1023284985	-137.829097583	4.47965690748	93.7686255202	-57.6720644925	44.7029097277	-23.9897454469	-60.9244211689
157750000.0	-20.9785264556	-141.616854523	4.42588351495	91.4324266592	-57.0483862043	32.2497988157	-23.9593939726	-60.2830507523
158437500.0	-20.8575422707	-145.14791414	4.3715809299	89.151993502	-57.3109038299	11.8747538369	-23.9405124501	-59.6282979541
159125000.0	-20.7598671277	-148.603734287	4.31842788263	86.9329393891	-56.9304494745	-6.93855745032	-23.9436329818	-58.8311560542
159812500.0	-20.6783607943	-151.876359703	4.26480305022	84.7663050014	-57.0358756774	-22.5307000607	-23.952306323	-58.0602758598
160500000.0	-20.6177775248	-155.045859249	4.21276552024	82.6539931829	-57.1316097577	-47.7708201276	-23.9579279261	-57.2879588052
161187500.0	-20.5747695032	-158.034924848	4.16091151918	80.5805034913	-57.071148779	-75.0998270405	-23.9764824982	-56.4588398781
161875000.0	-20.5404243062	-160.981807966	4.11039753278	78.548186547	-56.9498125399	-100.693051302	-24.019184231	-55.6182564503
162562500.0	-20.5386826344	-163.744054348	4.06008076858	76.5597544549	-57.3233421574	-114.124999562	-24.057053027	-54.8018317161
163250000.0	-20.5387834517	-166.632472359	4.01128986132	74.6064376946	-57.0877260447	-130.343292639	-24.110896511	-53.8963986928
163937500.0	-20.5660384899	-169.308773422	3.96212794554	72.7047219898	-57.4392525752	-144.939921692	-24.1581364965	-53.0144489465
164625000.0	-20.5923057411	-171.989232916	3.91668980196	70.8186398571	-57.6557016097	-159.416718901	-24.2453853136	-52.1650870826
165312500.0	-20.6501891766	-174.554793213	3.86828313114	68.9829423782	-58.1419907903	-160.443763124	-24.3318990041	-51.2524125894
166000000.0	-20.7058168096	-177.092232951	3.82503599702	67.181524048	-58.4193181987	-170.507061203	-24.4416691584	-50.4303102662
166687500.0	-20.7904047157	-179.596204802	3.78051407389	65.4028103475	-58.5244580104	-171.232232864	-24.563953417	-49.5483875537
167375000.0	-20.8732040485	178.033446625	3.73731267977	63.65422186	-58.6526038303	-171.209123718	-24.6827433261	-48.7955871595
168062500.0	-20.9887785055	175.510388046	3.69379523386	61.9379783766	-58.5354519552	-170.506297611	-24.808490655	-48.0407634958
168750000.0	-21.1078412485	173.062415786	3.6530920707	60.2573885957	-58.2840432647	-174.371204463	-24.9568066588	-47.4055259512
169437500.0	-21.2460264515	170.544895732	3.61239277134	58.6109786364	-58.1476863047	-171.924936695	-25.1124633321	-46.7530614579
170125000.0	-21.3885086656	168.069494156	3.57555258063	56.9668468031	-58.4654594871	-168.947884722	-25.2899852293	-46.1874286119
170812500.0	-21.5487933129	165.406020774	3.5379344924	55.3541529856	-58.1660370633	-156.895999044	-25.4642070691	-45.5419410359
171500000.0	-21.7172853053	162.815490963	3.50353564975	53.7707625475	-58.3865031377	-141.853267424	-25.6526177205	-45.1225799468
172187500.0	-21.9005171476	160.007509229	3.47070938189	52.2161812506	-58.7411529312	-128.796824536	-25.8431047756	-44.6632627431
172875000.0	-22.1030605431	157.236607834	3.4372566339	50.6622860097	-59.1313689821	-116.028595019	-26.0247616202	-44.3032800948
173562500.0	-22.2938921066	154.179004099	3.40636754153	49.1435401893	-59.3052799286	-102.334310708	-26.2487252916	-44.1584503957
174250000.0	-22.4997944272	151.185790898	3.37856213786	47.6383764158	-59.7485933264	-88.2895781574	-26.4561020409	-43.8866214772
174937500.0	-22.6845187554	147.902192604	3.35185370832	46.142604191	-59.5485585669	-78.9258492182	-26.6864978768	-43.8632711956
175625000.0	-22.8811212303	144.545563349	3.32692931472	44.6733568315	-59.4989979315	-63.6564383545	-26.9074874788	-43.7085887966
176312500.0	-23.0653189219	141.01398564	3.30150835728	43.2221284713	-59.3749295102	-49.9141391829	-27.1402555151	-43.8476905047
177000000.0	-23.230407406	137.407441008	3.27892886614	41.7829522974	-59.6462161758	-35.1076976911	-27.3733097602	-44.0811135803
177687500.0	-23.3710536705	133.614580754	3.2583472726	40.3540543822	-59.9350899379	-17.6593507354	-27.6339506494	-44.4399870813
178375000.0	-23.5210476125	129.71726279	3.23902253973	38.9365099407	-60.0945270007	8.36102810409	-27.8799387282	-44.7285582711
179062500.0	-23.6295267279	125.8402751	3.22024675596	37.5462216928	-60.0278200416	27.8064315686	-28.1143400984	-45.4479590591
179750000.0	-23.718612966	121.772926547	3.2030874889	36.152698952	-59.8828907935	43.1148542196	-28.3546983298	-45.9241859215
180437500.0	-23.7908712933	117.751985682	3.18720795035	34.7715530056	-59.9594481643	47.8158511172	-28.5854696521	-46.6360970064
181125000.0	-23.8453705522	113.530034333	3.17321205229	33.3982651968	-59.6152333426	62.1096357296	-28.8301944899	-47.1999940734
181812500.0	-23.8772362409	109.452704012	3.15845913215	32.0461323528	-59.4752967724	69.983618584	-29.0501805978	-48.0887099175
182500000.0	-23.8766883627	105.167978228	3.14765999618	30.6985234574	-58.7579126666	69.793698363	-29.2898893983	-48.9074408155
183187500.0	-23.8517754138	100.983629606	3.13528001809	29.3585871221	-58.9648185452	72.8459896748	-29.5166008852	-49.7660909624
183875000.0	-23.7970132448	96.7530352219	3.12559714282	28.0213232528	-58.6837882103	71.0232203976	-29.7304335546	-50.7704240085
184562500.0	-23.7422939569	92.5208248738	3.11672647123	26.7019392316	-58.9881793922	68.5507328522	-29.9127806825	-51.7469162343
185250000.0	-23.6436529799	88.3660355786	3.10969855332	25.3826979322	-58.8698779222	70.89614096	-30.1026602076	-52.8644002044
185937500.0	-23.5359873049	84.3413710234	3.09955442565	24.0651482534	-58.9537738161	82.7109433725	-30.2837187818	-53.9196881281
186625000.0	-23.3981366598	80.2883676656	3.09520525337	22.7548627851	-58.9911030269	96.7098496153	-30.4821230574	-55.1627514608
187312500.0	-23.2547033819	76.2730945991	3.090340087	21.4597935352	-58.8897141797	112.67314659	-30.6241112357	-56.1800958418
188000000.0	-23.0808638197	72.4134243126	3.08729186076	20.1645509513	-58.9432109707	126.396772154	-30.7471822048	-57.6512386873
188687500.0	-22.9053674012	68.5905922802	3.08181303714	18.8900866747	-60.0000207068	141.367591347	-30.8556551731	-58.7807948142
189375000.0	-22.7004845757	64.9170658955	3.07889741306	17.6152372135	-59.7613789911	151.204372097	-30.9796613762	-60.2379081375
190062500.0	-22.4826504902	61.3721023462	3.07737370762	16.352837804	-59.2731335764	165.679114819	-31.0749802471	-61.4984840003
190750000.0	-22.2620787464	58.0465825065	3.07844613279	15.0915733805	-59.3242882772	173.54551683	-31.1735298021	-62.9624832076
191437500.0	-22.0383919605	54.766655349	3.07609557101	13.8395372958	-59.0439903275	-173.493786554	-31.2254069109	-64.1697084531
192125000.0	-21.8125485072	51.7732016259	3.07548343495	12.5964879949	-59.1645357947	-159.268428506	-31.2715246351	-65.4256629486
192812500.0	-21.5790461633	48.8085646137	3.07646409381	11.3581263023	-59.2696587986	-145.375335027	-31.2976730532	-66.6312984636
193500000.0	-21.3515741538	46.1506544344	3.07887195685	10.1095419762	-59.3703579471	-135.277059494	-31.3059247282	-67.955202188
194187500.0	-21.1362256428	43.4875540857	3.08045270469	8.87737415057	-59.3834132216	-119.026772164	-31.2941422707	-69.0144902686
194875000.0	-20.947920157	41.1130152085	3.08380833799	7.64796129406	-59.0056213542	-106.152709845	-31.2538460843	-70.1418537666
195562500.0	-20.7407257378	38.7324307473	3.08692270384	6.43073051348	-59.1022358345	-91.5696091204	-31.223914182	-71.291084991
196250000.0	-20.5711475428	36.4643650658	3.09083799061	5.21326373689	-59.0954840104	-78.7231695842	-31.1696428767	-72.1663986906
196937500.0	-20.4051902543	34.2731361605	3.09481862594	4.00423845015	-59.215741819	-62.281374503	-31.1204832481	-73.0273242005
197625000.0	-20.2600930663	32.2030126581	3.10013175881	2.7989584528	-59.3611357304	-45.4247365409	-31.0290846947	-73.938048695
198312500.0	-20.1160872034	30.1799972792	3.10680892573	1.60798831732	-59.4754077204	-30.5073502115	-30.9159129778	-75.0872765565
199000000.0	-20.0074018682	28.1845311828	3.11492927747	0.401204280802	-59.6317875206	-18.6002395418	-30.7817406578	-75.8310625529
199687500.0	-19.8946492675	26.2284209902	3.12203220074	-0.790591178593	-60.1198611592	-4.60105175944	-30.654020698	-76.7538763808
200375000.0	-19.8180824449	24.2981646379	3.1314275936	-1.98591819745	-59.8952109811	6.4075730597	-30.4962171478	-77.489990248
201062500.0	-19.7432704305	22.3342138877	3.14062444508	-3.17020482453	-59.8721614832	11.2141383385	-30.3441792439	-78.3715456292
201750000.0	-19.6797418874	20.4097197761	3.15160672271	-4.35970227903	-60.1048497964	10.1964367813	-30.1912375134	-78.9873259251
202437500.0	-19.628261642	18.5131922665	3.16184272793	-5.53772913138	-60.0809006894	5.55509855272	-30.0348849902	-79.7262492904
203125000.0	-19.5861753237	16.5217887347	3.17653361818	-6.72121487773	-60.2226957996	-7.3597660962	-29.8412032707	-80.2123489051
203812500.0	-19.5473111932	14.5250999	3.18805120671	-7.89506330671	-59.9197228396	-26.518045317	-29.6173960503	-80.687349593
204500000.0	-19.5285002372	12.5291451499	3.20171562397	-9.07336351741	-59.99746108	-43.4603616058	-29.4215995006	-81.1343224196
205187500.0	-19.5185488771	10.5883821798	3.21485443522	-10.2387615681	-60.0543050681	-55.1873646903	-29.2546387705	-81.3487958832
