#Frequency	|S11|	<S11	|S21|	<S21	|S12|	<S12	|S22|	<S22
100000000.0	-16.0343000044	139.030333028	-14.0883686903	-127.550025949	-62.1123824888	113.257231971	-19.6577136357	-66.8184612007
100687500.0	-15.9771006765	136.008573071	-13.733381599	-128.755929276	-61.536047789	-37.938933282	-19.7238897859	-66.7254458761
101375000.0	-15.9464148638	133.004563253	-13.3517031902	-130.213165984	-60.3925551636	-53.252740527	-19.8000449631	-66.6446436655
102062500.0	-15.9002726724	130.031516541	-13.0090371022	-131.578452338	-59.9413971415	-61.6964128721	-19.9070987269	-66.5705317231
102750000.0	-15.8716298727	127.012398793	-12.6861426735	-133.049972778	-59.8840290738	-48.736014196	-20.00520838	-66.4834095698
103437500.0	-15.8465250215	123.954844622	-12.3781279331	-134.548902889	-58.8128995202	-54.7271006642	-20.1022669022	-66.3779495875
104125000.0	-15.8295794872	120.832466049	-12.0974732952	-136.077367313	-59.028203088	-78.5209063702	-20.2057655688	-66.2353100207
104812500.0	-15.8274502017	117.708538986	-11.8505214072	-137.615950653	-58.7794010247	-119.652504161	-20.3155425121	-66.2698938338
105500000.0	-15.8336492904	114.483398795	-11.6300625488	-139.164808904	-59.7330765063	-174.541805607	-20.4068028767	-66.350845316
106187500.0	-15.8494387947	111.112755952	-11.442808784	-140.694773104	-59.9198151702	145.503619883	-20.5185068101	-66.4881001372
106875000.0	-15.8745803695	107.627694099	-11.2959144101	-142.175569192	-59.8351160511	112.818400783	-20.6187136573	-66.6224729042
107562500.0	-15.913926318	103.99419411	-11.1930343545	-143.55990722	-60.3505437539	70.0864079268	-20.7339844759	-66.685997591
108250000.0	-15.9536063317	100.18105147	-11.1391997056	-144.760502457	-60.1809881383	27.7461798784	-20.838723013	-66.8112737772
108937500.0	-15.9768595584	96.5845382737	-11.0183873753	-145.96325182	-60.2024288439	-2.39470490652	-20.942450347	-66.7855343256
109625000.0	-16.0039783928	92.9215226902	-10.9137902364	-147.041671538	-59.75277346	-20.6319691054	-21.0384726299	-66.8101170865
110312500.0	-16.0321846252	89.1048010058	-10.8494318645	-147.930361399	-60.1369462782	-37.8401668157	-21.1504463353	-66.8986190089
111000000.0	-16.0745966022	85.2690345606	-10.8124888176	-148.550238757	-59.9686570072	-64.8014985373	-21.2581199742	-66.8995999581
111687500.0	-16.1246289326	81.2879161233	-10.803100636	-148.848018955	-60.2109299728	-79.9925989502	-21.3662229506	-66.9659233273
112375000.0	-16.18858157	77.186957931	-10.8017637148	-148.754109084	-60.1048909616	-94.5648786462	-21.4648124423	-66.9940043355
113062500.0	-16.2526035759	72.9584210966	-10.7979244558	-148.208037573	-60.1487645521	-109.018794278	-21.5734626539	-67.0065429572
113750000.0	-16.32585448	68.6228218625	-10.7593667844	-147.220103729	-60.2920854114	-132.396595839	-21.6784582824	-66.9770714282
114437500.0	-16.4150297094	64.1607103253	-10.6839262115	-145.8747468	-60.9141284145	-168.667362097	-21.7956158073	-66.9938665682
115125000.0	-16.5141739425	59.5293243813	-10.5534880547	-144.268935665	-61.1563301145	152.001920915	-21.9051173686	-66.9282374329
115812500.0	-16.6190146368	54.7769923234	-10.370320538	-142.491592566	-61.2009347931	111.937628057	-22.0194916758	-66.791333428
116500000.0	-16.7450615387	49.8623624181	-10.1255304589	-140.60981006	-61.142690706	78.7370989985	-22.1266078468	-66.6159415538
117187500.0	-16.876478261	44.8322482725	-9.83112397496	-138.699587481	-61.0227166787	32.171858728	-22.2361863309	-66.4503250416
117875000.0	-17.0391357651	39.6019989219	-9.48079850623	-136.814278556	-61.4681461381	-8.46075286367	-22.3427186788	-66.0432339287
118562500.0	-17.2168301429	34.2704462278	-9.08367292997	-134.964077257	-61.5907182364	-35.1604011852	-22.4552443892	-65.6092175344
119250000.0	-17.4264650549	28.6939352486	-8.63912615436	-133.191782261	-61.5887369866	-51.5967465519	-22.5579194838	-65.0445772351
119937500.0	-17.6699367455	23.0960709317	-8.15445455316	-131.52530868	-60.875241982	-78.0190758847	-22.6531420326	-64.4427449162
120625000.0	-17.9526850601	17.2875809024	-7.62423390823	-129.981502133	-60.7024115805	-99.0465510411	-22.7485138086	-63.7070885694
121312500.0	-18.2852561364	11.3777964898	-7.05834079303	-128.578954696	-60.512343571	-125.227376045	-22.8249643967	-62.899995978
122000000.0	-18.6825658788	5.25755474085	-6.45081322465	-127.330899637	-60.8593947001	-148.678731332	-22.9031269479	-62.0349999321
122687500.0	-19.1811653187	-0.801942325629	-5.81254895652	-126.267943406	-61.0061542895	-172.396337214	-22.9681514498	-61.0774928406
123375000.0	-19.7817391651	-7.06003214394	-5.13599440436	-125.378485946	-60.2990588359	166.49921364	-23.0103361559	-60.0685425736
124062500.0	-20.5757759042	-13.1398024829	-4.42980138628	-124.723274603	-60.2256906059	152.058594497	-23.0474050562	-59.0196419806
124750000.0	-21.830351922	-18.3777830372	-3.6894198756	-124.278984962	-60.2112627314	138.763547344	-23.0699307319	-57.8839144118
125437500.0	-22.9833121545	-20.6040152963	-2.92050481176	-124.097248311	-60.1799473929	121.947387518	-23.0854609536	-56.6776190321
126125000.0	-23.742033571	-21.2704069147	-2.11468170879	-124.171994988	-59.9994945523	96.2945255911	-23.087046765	-55.5681797046
126812500.0	-24.3560714522	-21.7705975616	-1.2913094761	-124.562541942	-60.3441278405	71.9823675071	-23.0804996837	-54.3185418862
127500000.0	-24.8482821071	-22.2071833909	-0.433322661595	-125.305760312	-59.9518115625	48.5090267302	-23.0495898594	-53.0810931815
128187500.0	-25.2826125194	-22.8010458705	0.447080112331	-126.491121215	-59.9509877053	29.2455341985	-23.0135221683	-51.8793165931
128875000.0	-25.6446482843	-23.4533832213	1.35082910116	-128.149892214	-59.7539268128	1.34024427636	-22.9628994592	-50.6417956739
129562500.0	-25.9563347462	-24.0626818483	2.25758845501	-130.375000132	-59.6667792917	-32.8125710457	-22.9138237837	-49.4792336434
130250000.0	-26.2549990966	-24.7743693606	3.15459688405	-133.174351254	-59.5654591582	-60.547183077	-22.8497518324	-48.3211965892
130937500.0	-26.5126940849	-25.5562696906	4.00904457975	-136.573051895	-59.0799866464	-83.3136831761	-22.7765838877	-47.1806860049
131625000.0	-26.7463435601	-26.3297508954	4.8169273521	-140.428819193	-58.355444687	-98.9675368799	-22.681527354	-46.1054895219
132312500.0	-26.9637042572	-27.1250787632	5.56119310817	-144.686735378	-58.0821227035	-109.061758924	-22.5951376883	-45.0694621886
133000000.0	-27.1618217148	-27.9367133615	6.24321748746	-149.22194565	-58.1443719386	-111.797066554	-22.4909137199	-44.1459407072
133687500.0	-27.3309891914	-28.7863025566	6.85457121322	-153.966394069	-57.7792856518	-116.287737918	-22.3942862273	-43.255294472
134375000.0	-27.4835874994	-29.6255056455	7.40890522081	-158.842457917	-57.7520157405	-114.6444508	-22.2895969722	-42.4722497302
135062500.0	-27.5989225732	-30.5382099102	7.90154951722	-163.794822228	-57.1418730515	-113.994582435	-22.1847426388	-41.877973437
135750000.0	-27.6978586024	-31.3664081135	8.34015867313	-168.778145143	-57.0011450515	-118.569702555	-22.066582706	-41.3552738336
136437500.0	-27.7630495518	-32.2004030468	8.72381545754	-173.776835021	-57.0257477921	-129.059532595	-21.9629725878	-40.9694143411
137125000.0	-27.7973968023	-33.059560309	9.06104383548	-178.750562179	-56.8437206389	-130.347207965	-21.8692811304	-40.6632714815
137812500.0	-27.7714573544	-33.8535739179	9.34763864157	176.333361311	-56.7946735799	-136.197886434	-21.761642248	-40.4629050481
138500000.0	-27.7097602317	-34.5689742042	9.59584825713	171.476107041	-56.8345231514	-140.446344535	-21.669646147	-40.4046930262
139187500.0	-27.5671410441	-35.2346332992	9.801439607	166.703050677	-56.1798545319	-145.748988973	-21.5858948924	-40.3855492991
139875000.0	-27.3229579186	-36.0498113536	9.97510612533	162.031787644	-55.9898002867	-151.121481487	-21.5097804623	-40.4447836931
140562500.0	-26.974220938	-36.6911538149	10.1131787437	157.465198114	-55.9639669899	-154.70895183	-21.4525055955	-40.6272325835
141250000.0	-26.433066173	-37.6067894793	10.2258267316	153.037588452	-55.7910512366	-162.249029109	-21.3856258908	-40.8720585699
141937500.0	-25.4276702975	-39.3701570255	10.3087265438	148.734576344	-56.1621690589	-164.755218217	-21.3403031862	-41.2044406823
142625000.0	-24.5157379501	-44.1749720593	10.3715030708	144.558728911	-55.918198196	-168.862352358	-21.2965529602	-41.5325515013
143312500.0	-23.9886648974	-50.4859488976	10.4114767801	140.514829338	-56.110843785	-168.443979295	-21.2706449007	-41.9429990529
144000000.0	-23.6075135464	-57.0594798406	10.4360031574	136.598842041	-55.5955243455	-177.028699968	-21.2531756462	-42.4190708838
144687500.0	-23.3451288445	-63.6137149955	10.4435007584	132.830044102	-55.9242880494	178.527264561	-21.2562419849	-42.9126226343
145375000.0	-23.1273379294	-70.1108324078	10.4404073227	129.192364542	-56.1552826726	171.371266216	-21.26042722	-43.4217856975
146062500.0	-22.9693950699	-76.4011788962	10.4240181473	125.683671704	-56.1395031484	169.163628575	-21.2889684844	-43.9384607158
146750000.0	-22.8535460656	-82.734053501	10.3997240915	122.285557814	-56.1042386805	165.288996599	-21.3148323033	-44.3781975287
147437500.0	-22.7463005007	-88.9126947868	10.3651082303	119.012633824	-56.659472015	161.304571565	-21.3465915806	-44.8996804554
148125000.0	-22.6748521467	-94.9825622585	10.3282968947	115.84912712	-56.6277712189	156.980480035	-21.3877788177	-45.3932077245
148812500.0	-22.6137420254	-100.998768052	10.2827133779	112.785184529	-56.6459587719	153.344974122	-21.4437934035	-45.8486074785
149500000.0	-22.5567445474	-106.844406124	10.2365045288	109.836195011	-56.696576456	150.386418027	-21.4998839265	-46.3233878304
150187500.0	-22.511849281	-112.619044667	10.1836929108	106.974341593	-56.9129080819	148.792183464	-21.5664620274	-46.7614866894
150875000.0	-22.4786735219	-118.196195955	10.132724092	104.201828723	-57.0498465033	145.772759402	-21.6224164972	-47.1695184685
151562500.0	-22.4506667582	-123.719049398	10.0780226765	101.516656473	-57.0114009162	145.443415266	-21.6868833058	-47.5086345043
152250000.0	-22.429838772	-128.955821887	10.0234754265	98.9183325284	-57.0516761103	143.980834443	-21.7691164268	-47.8180413823
152937500.0	-22.4058872492	-134.217026921	9.96462421862	96.3861972248	-56.8590599564	140.754482195	-21.8475259153	-48.0653504626
153625000.0	-22.3824985786	-139.243321826	9.9109429372	93.9319278967	-56.8490869024	138.631254547	-21.926922077	-48.3689749356
154312500.0	-22.3474781887	-144.217662691	9.85227607397	91.5327038888	-56.7544198173	137.288553594	-21.9966411642	-48.5535110273
155000000.0	-22.3340818991	-149.023077296	9.79855864541	89.1951876215	-56.8013859668	134.799870509	-22.0813247249	-48.7002314091
155687500.0	-22.3026527962	-153.790676099	9.74223317305	86.9259898882	-56.6137131407	129.043232881	-22.1697193757	-48.8262620078
156375000.0	-22.2905454176	-158.376296087	9.68854183488	84.7121193808	-56.7416691071	127.646815299	-22.2570401015	-48.9416704818
157062500.0	-22.2621001381	-162.790691152	9.63425370726	82.5471540575	-56.5005745659	123.247181673	-22.3479346796	-48.9798654567
157750000.0	-22.2434969918	-167.163237805	9.58270768836	80.4347356435	-56.8912017158	120.629363523	-22.4352934435	-49.063994621
158437500.0	-22.2096090473	-171.328535847	9.52810322355	78.3563472215	-57.0008222379	119.515337522	-22.5337302212	-49.1207897001
159125000.0	-22.1856664383	-175.435087642	9.47855405749	76.3428340522	-56.7207904163	118.088008884	-22.6420022547	-49.185738527
159812500.0	-22.1527946132	-179.398409599	9.42732448103	74.3580270131	-56.5720464747	113.927974467	-22.7447385424	-49.1597214398
160500000.0	-22.1346141829	176.658030277	9.37917301107	72.4171407886	-56.1013845319	111.941769888	-22.8454405422	-49.2133715027
161187500.0	-22.111807063	172.922737155	9.32945064317	70.5121515739	-56.1245789051	110.725611766	-22.945438481	-49.147946808
161875000.0	-22.0997287259	169.255453915	9.28459537856	68.6394081801	-55.8195995807	110.996128137	-23.0618450351	-49.2028007263
162562500.0	-22.0868647309	165.717307199	9.2374555819	66.8001892326	-55.6713797549	110.210444977	-23.1685425883	-49.1696762094
163250000.0	-22.0713911984	162.170661403	9.19388432567	64.9878522789	-55.5361381968	107.683307332	-23.2854349371	-49.1843799675
163937500.0	-22.0684914376	158.832502758	9.14869531749	63.2107042444	-55.6443156159	106.274360241	-23.394484489	-49.2184199347
164625000.0	-22.0673525589	155.488274653	9.10877419908	61.4565734309	-55.0453468767	97.269915692	-23.5168135064	-49.2908354461
165312500.0	-22.068329678	152.307744842	9.06511290267	59.7468897743	-55.0418761648	82.8927179491	-23.6337961296	-49.3702632612
166000000.0	-22.0766781012	149.183323949	9.02716340664	58.0552502433	-54.9501876708	69.9973217278	-23.7522749945	-49.5279310668
166687500.0	-22.0948899057	146.105278738	8.98630659988	56.3927291982	-55.3231994628	55.832250511	-23.8710240129	-49.6281706314
167375000.0	-22.1191070846	143.144354241	8.95118428454	54.757665374	-54.9293353567	35.6026986018	-24.0025112055	-49.8244937564
168062500.0	-22.1319279021	140.138228071	8.91341563368	53.1496939183	-55.197628626	20.3854521943	-24.1317225877	-50.0940458994
168750000.0	-22.1617195516	137.217750991	8.8793390985	51.5651839751	-55.072840142	0.923277786877	-24.2646391518	-50.4282949183
169437500.0	-22.1782705537	134.227368764	8.84373411897	49.9964229561	-55.4595745582	-13.0662968383	-24.3902527367	-50.7591119226
170125000.0	-22.2143985913	131.378224618	8.81438610045	48.4477815232	-55.4335438935	-29.1528205435	-24.5156986541	-51.187615159
170812500.0	-22.2572143884	128.461198966	8.7816436604	46.9274162918	-55.4676510001	-40.3092052907	-24.6366367128	-51.6097775384
171500000.0	-22.301497667	125.631365848	8.75433412184	45.433598015	-55.4341460918	-61.0244589132	-24.7544895721	-52.0868817005
172187500.0	-22.3464466377	122.717291652	8.72720764007	43.9564786231	-55.320542055	-72.7163401757	-24.8801994806	-52.7832279858
172875000.0	-22.3957479237	119.819736771	8.70312496532	42.4916286824	-55.5019948928	-86.0284212286	-24.9835851798	-53.2989479007
173562500.0	-22.4350477941	116.815338846	8.67839317954	41.0516650542	-55.385661983	-100.46638317	-25.1087664702	-53.9858207842
174250000.0	-22.4903815227	113.916844619	8.65824863515	39.6292700989	-55.5722110576	-115.21765589	-25.2048629977	-54.6041885655
174937500.0	-22.5253316021	110.905324708	8.63827356684	38.2146663955	-55.649499197	-131.976028523	-25.3019436138	-55.3596692908
175625000.0	-22.5641498618	107.836804478	8.62291529517	36.8182782198	-55.5024730871	-146.622454693	-25.4000355201	-55.9062206502
176312500.0	-22.605649817	104.734382803	8.60565576312	35.4327063258	-55.4963850032	-162.885108981	-25.4883799412	-56.6507699798
177000000.0	-22.6400345104	101.661868224	8.59322652945	34.0638896685	-55.5574063814	-177.384951447	-25.5638327817	-57.4597956788
177687500.0	-22.6499164029	98.5029065377	8.5794871632	32.6969227191	-55.9468814156	166.700727005	-25.6532982993	-58.249466278
178375000.0	-22.6639798317	95.3985135467	8.57079521117	31.3442403372	-55.8844367013	151.067900564	-25.7359765857	-58.9861508949
179062500.0	-22.6679784149	92.2465818349	8.55985300617	29.9945727605	-55.792872753	131.700899698	-25.7906131944	-59.74949461
179750000.0	-22.6657313178	89.0573648333	8.55457460848	28.662870123	-56.0871618423	115.784209769	-25.8511593299	-60.4640366126
180437500.0	-22.6620434063	85.8200121376	8.54671500229	27.3220708467	-56.1043637301	99.1399882501	-25.898005201	-61.1003007314
181125000.0	-22.637683986	82.490762132	8.54420057474	25.9961789697	-56.1573500751	83.5234628721	-25.9501926434	-61.6972793423
181812500.0	-22.6056170524	79.3510200823	8.53798928188	24.6732478318	-56.0994180234	75.7270181773	-25.994671652	-62.2751099652
182500000.0	-22.5639652579	76.0663957917	8.53957408842	23.3533555138	-56.4884365506	76.8768773488	-26.0382683246	-62.8959473651
183187500.0	-22.5078167385	72.8721822744	8.53695177123	22.0425252584	-56.5448504774	71.8574428793	-26.0759013085	-63.2970660678
183875000.0	-22.4416143068	69.6676716941	8.5396196936	20.7329927504	-57.1024267414	70.3402044542	-26.1047936985	-63.7796311064
184562500.0	-22.369270531	66.4749797982	8.53804558366	19.4341297318	-57.1057116605	68.6515254728	-26.1068060111	-64.1163036424
185250000.0	-22.3023334355	63.3035694234	8.54221897422	18.1393588801	-56.8271183075	68.0381852538	-26.1364101914	-64.4304882598
185937500.0	-22.2132924985	60.2097658266	8.54156902481	16.8455765275	-56.8632910102	67.1370182035	-26.1359807053	-64.5839622164
186625000.0	-22.1461908705	57.1158627299	8.54858130204	15.5584471964	-56.9408261108	65.9814979163	-26.1420525608	-64.8420676836
187312500.0	-22.0506638865	54.0267214963	8.55182694319	14.2731774871	-57.0931210405	64.140842634	-26.1376829755	-64.7929787457
188000000.0	-21.9548147298	50.988924439	8.55969379272	12.9892361023	-57.4406647436	57.246421903	-26.1350308129	-64.7158212483
188687500.0	-21.8557123191	48.0066010447	8.56489676587	11.707146645	-57.5526862721	58.1446275125	-26.1348657696	-64.6075755698
189375000.0	-21.7583501948	45.0729898159	8.5721597205	10.4354524074	-57.657193528	57.6969646779	-26.1297160776	-64.3279506522
190062500.0	-21.6588922112	42.2109744949	8.57826505837	9.16749189596	-57.5604877919	56.3217999294	-26.1303731339	-64.0593294509
190750000.0	-21.5692431384	39.4179501165	8.58922507897	7.89955732296	-57.7338203101	59.5203236263	-26.1370227802	-63.684548669
191437500.0	-21.4753125241	36.5875821786	8.59549649013	6.63873545563	-57.8408042491	60.1379870978	-26.1372753591	-63.3218494063
192125000.0	-21.3916275949	33.88491162	8.60603323796	5.38951828719	-57.40452295	58.4246741837	-26.1475202899	-62.7741411042
192812500.0	-21.3144672217	31.1837474236	8.61442623955	4.14046537991	-58.1208458899	57.9119106643	-26.1429598353	-62.3765206507
193500000.0	-21.2414911766	28.6047669601	8.6251109949	2.88409362337	-58.1332924454	52.901423723	-26.1531652728	-61.8248383286
194187500.0	-21.176545001	25.9115181834	8.63354433606	1.63882564415	-58.5718913042	53.5762269011	-26.1556556458	-61.2165265805
194875000.0	-21.1372087117	23.3373241814	8.6468224132	0.397047547385	-58.1513030982	47.6023385851	-26.1662112048	-60.466816255
195562500.0	-21.0911502501	20.6012979774	8.65826919983	-0.841416137127	-58.6655641238	48.4290152974	-26.1855198302	-59.8265906328
196250000.0	-21.0561924469	17.924658286	8.67191799638	-2.07029347683	-58.6389885619	48.5204590951	-26.2221692131	-59.0506588412
196937500.0	-21.0232758787	15.2588389807	8.68205728552	-3.31274654651	-58.301886119	47.0249869063	-26.2549459923	-58.3051808837
197625000.0	-20.9986238969	12.6664396667	8.69776089086	-4.52811575117	-58.2902681468	45.3361363738	-26.283996984	-57.5343625481
198312500.0	-20.982918301	9.98662633988	8.71201035417	-5.74672362201	-58.8386062478	43.858936763	-26.3018038854	-56.8792929992
199000000.0	-20.9831270459	7.23449139419	8.73078089022	-6.9653311424	-58.7555128349	39.6538058693	-26.3320634734	-56.1633179677
199687500.0	-20.9729201056	4.51423865437	8.74426444458	-8.18021478755	-58.7350049068	39.0468121961	-26.3641080655	-55.3675437806
200375000.0	-20.9739642202	1.78477232951	8.76234457696	-9.39090301855	-58.5148887829	38.2106998663	-26.3908446049	-54.6314959088
201062500.0	-20.9735551647	-1.01687876336	8.77792584321	-10.5956445656	-57.5833531558	37.9576834007	-26.4404816255	-53.9895035293
201750000.0	-20.9749818566	-3.88586241485	8.79854889563	-11.8066452525	-58.1809012271	37.3539449811	-26.4804193581	-53.2703224703
202437500.0	-20.9779034888	-6.71713667475	8.81589953534	-13.0123149811	-58.0306538102	32.3927067678	-26.5091024671	-52.6107684927
203125000.0	-20.988616301	-9.67052992879	8.83895081347	-14.2195757966	-58.1613000072	32.343787866	-26.5519607387	-51.9620014508
203812500.0	-20.9773752661	-12.5123917548	8.85683666716	-15.4210289107	-57.6753098523	26.6729921234	-26.6038399094	-51.316915354
204500000.0	-20.9805550599	-15.4624942477	8.88005207175	-16.6201705143	-57.5647782824	26.6266808948	-26.6482016947	-50.6800132246
205187500.0	-20.977778653	-18.3374356823	8.90061136201	-17.8096175944	-57.0767093672	28.2657941448	-26.7181515956	-50.0685493492
205875000.0	-20.9732081241	-21.3108141058	8.92613322021	-19.0153887745	-57.8021093593	27.4391509738	-26.7761307429	-49.4244846371
