#Frequency	|S11|	<S11	|S21|	<S21	|S12|	<S12	|S22|	<S22
100000000.0	-16.0715156121	138.598346764	-16.6265269423	-126.870406223	-56.3568684859	31.8152715689	-20.8813852827	-62.6710448419
100687500.0	-15.9892406238	135.916869216	-16.231209536	-128.562994338	-54.6966118234	159.934649024	-21.0404836502	-63.1247643033
101375000.0	-15.943608241	132.950152629	-15.8548624842	-130.114825649	-57.1393243559	-110.085648528	-21.0984432603	-62.8308470253
102062500.0	-15.9056808209	129.998255391	-15.5186853785	-131.571876086	-58.2643030042	-117.017828844	-21.2513677861	-62.5917984036
102750000.0	-15.8651016052	127.112441742	-15.1951820829	-133.047855828	-58.3398499242	-115.387100321	-21.3422337083	-62.4081909975
103437500.0	-15.8223021154	124.18013199	-14.8976121231	-134.567442157	-58.6149125822	-109.837534256	-21.4374249614	-62.3239318753
104125000.0	-15.8081712201	121.086820783	-14.6202979363	-136.087517405	-58.3101151917	-107.403360736	-21.5642432912	-62.2028702464
104812500.0	-15.8029121804	117.941240913	-14.3683568605	-137.604846717	-59.1407073864	-122.119398744	-21.6698329136	-62.1787489182
105500000.0	-15.8093106713	114.673981129	-14.1489155045	-139.137846325	-58.7125961794	-146.198923112	-21.7625590031	-62.2505080704
106187500.0	-15.8203366151	111.333563397	-13.9587874231	-140.638122538	-58.9167379514	-152.231361696	-21.872576494	-62.3117795524
106875000.0	-15.846122999	107.83228588	-13.8101084791	-142.107732936	-58.6218135882	172.530711547	-21.9669352779	-62.4304716373
107562500.0	-15.8867646304	104.206135859	-13.7082099387	-143.496210848	-59.7252035403	120.08293316	-22.0720130848	-62.4815437908
108250000.0	-15.9308560693	100.456161915	-13.6454824629	-144.714201508	-60.1494840891	68.6215085739	-22.1625034911	-62.6471209052
108937500.0	-15.951696264	96.9289169149	-13.514983305	-145.967377188	-60.6872965098	37.852867583	-22.2571918952	-62.6883546971
109625000.0	-15.9845213662	93.3139084592	-13.4137572043	-147.04587445	-60.924296237	8.86215435884	-22.3490178506	-62.7091277026
110312500.0	-16.0160180716	89.5585695385	-13.3507510094	-147.971522133	-61.2402938591	-21.1745021615	-22.4402623272	-62.7588526713
111000000.0	-16.0637145998	85.7052438259	-13.3126854418	-148.609778292	-61.0998406641	-62.0893382997	-22.5313271524	-62.8007554271
111687500.0	-16.1070766273	81.7575580996	-13.3016750902	-148.911796411	-61.1855885278	-99.1470087327	-22.6278639434	-62.9176298471
112375000.0	-16.170594218	77.6849403533	-13.3008484508	-148.798945914	-61.579942959	-126.386371678	-22.7063919157	-62.9863206918
113062500.0	-16.2307856478	73.4698030477	-13.2960059538	-148.272235557	-61.2766898579	-152.027525016	-22.7917947704	-63.0438228776
113750000.0	-16.3067435916	69.103603832	-13.2598848143	-147.295018428	-61.2661110312	-166.518840991	-22.879480279	-63.1594152162
114437500.0	-16.3935042532	64.640855784	-13.1821679258	-145.993380586	-61.2730590715	167.564074893	-22.9721536695	-63.2176438673
115125000.0	-16.5006894399	59.9817684959	-13.0498890833	-144.409195723	-61.5083753958	149.499737849	-23.0647638728	-63.2357645531
115812500.0	-16.6046550973	55.1992733992	-12.8640351256	-142.656623591	-61.4162854884	123.503489171	-23.1552580567	-63.2033762208
116500000.0	-16.7293990407	50.264135605	-12.6196854301	-140.808900422	-61.3779376226	97.6404184369	-23.2244274409	-63.1083217326
117187500.0	-16.864971934	45.2141224391	-12.3247249878	-138.927596815	-61.5086953172	58.1762063759	-23.3025488952	-63.0942555509
117875000.0	-17.0209953199	39.9849042503	-11.9754971583	-137.075824946	-61.2108367427	23.1082796418	-23.3868245174	-62.9346190421
118562500.0	-17.2025005664	34.5841312005	-11.5808881619	-135.259922292	-61.1831172659	-4.51026240068	-23.4611854532	-62.6926655398
119250000.0	-17.4143252176	29.0664186638	-11.1369845573	-133.514030018	-61.6179147897	-21.4440666342	-23.5372242658	-62.2656188026
119937500.0	-17.662738289	23.3768183263	-10.6503378491	-131.878724414	-61.6597797877	-39.4697699044	-23.6097980807	-61.8886343643
120625000.0	-17.940199052	17.5639822942	-10.1221061614	-130.361874361	-61.8182125588	-65.8827094325	-23.6684236863	-61.4137281305
121312500.0	-18.2873109825	11.537279305	-9.55692209721	-128.984526096	-61.6903145413	-90.4150631806	-23.7120907202	-60.8884028349
122000000.0	-18.6706748616	5.46935850735	-8.95034067424	-127.754700245	-62.2601846641	-104.518425711	-23.7652106177	-60.3070383428
122687500.0	-19.1705737714	-0.753097941998	-8.30871187651	-126.720973427	-62.0724075892	-114.948511476	-23.8074461581	-59.6913702625
123375000.0	-19.7481209297	-6.95886284747	-7.62934437658	-125.862750397	-61.7396066959	-114.88259822	-23.8376788511	-58.988898274
124062500.0	-20.5470589511	-13.4293216112	-6.92107326542	-125.198422928	-61.2943474855	-116.318426167	-23.8672246004	-58.2489264863
124750000.0	-21.6595892493	-19.3519374747	-6.18021785237	-124.74337196	-61.0594695692	-115.389790115	-23.8904396114	-57.4332454892
125437500.0	-22.7692737744	-20.4445636887	-5.41712939626	-124.55007878	-60.8819781459	-110.536631918	-23.9019689287	-56.5195142875
126125000.0	-23.5272355542	-20.5510633196	-4.61752470252	-124.594356603	-60.3516323935	-97.8627001965	-23.9169921924	-55.6259729451
126812500.0	-24.1517733288	-20.9143233547	-3.79437272006	-124.957440956	-60.2541210618	-94.0641810944	-23.9161783127	-54.6614613739
127500000.0	-24.636481859	-21.1854861283	-2.93410690018	-125.675032024	-59.7871226521	-95.639119549	-23.9040419235	-53.7436074072
128187500.0	-25.0785321001	-21.5398442127	-2.05552487846	-126.830429885	-59.8059923106	-92.378629453	-23.8942294365	-52.787117463
128875000.0	-25.4461426664	-21.9479370759	-1.15302431558	-128.475609656	-59.6108443175	-88.0611224694	-23.8711882823	-51.7502557586
129562500.0	-25.7762914226	-22.5010297336	-0.247018383654	-130.692354836	-59.4034480875	-86.8502788304	-23.8481669311	-50.7937167356
130250000.0	-26.0715695539	-23.0483856184	0.650481986195	-133.469360285	-59.0927769074	-93.4437647958	-23.8244304113	-49.8232764386
130937500.0	-26.3440975325	-23.7612201322	1.50678430846	-136.83668579	-58.9372538621	-105.580184358	-23.7911561869	-48.8095704823
131625000.0	-26.5902644356	-24.3952013567	2.31329396876	-140.645240381	-58.7633704333	-114.587641847	-23.7444760926	-47.8848243489
132312500.0	-26.8089695195	-25.1252949014	3.05616566523	-144.8674986	-58.8987033446	-126.024262651	-23.6938439706	-46.932167305
133000000.0	-27.018842763	-25.8384845338	3.73992449336	-149.362431204	-58.7448986952	-136.155939968	-23.6467439644	-46.081447678
133687500.0	-27.1926525151	-26.6245985357	4.35259943892	-154.078544917	-58.7457829293	-138.954013793	-23.6020973184	-45.2671569158
134375000.0	-27.3572428266	-27.3976352454	4.90765197847	-158.906710579	-58.6721018943	-136.250182179	-23.5540254862	-44.5206000794
135062500.0	-27.491825122	-28.2299346195	5.39935857264	-163.826471634	-58.7917588859	-131.031437456	-23.4952410805	-43.8515468138
135750000.0	-27.6085679987	-28.9943118	5.83987149383	-168.770195839	-58.6261755787	-128.327294976	-23.4376103858	-43.3242136705
136437500.0	-27.6735519938	-29.7932596886	6.22268736483	-173.752437917	-58.039719096	-131.117236258	-23.3876617248	-42.9037071614
137125000.0	-27.7164351846	-30.5528475513	6.5602937363	-178.687232265	-57.9442324769	-141.046000234	-23.3385403573	-42.5336987653
137812500.0	-27.705692178	-31.230144671	6.84865856011	176.410329734	-57.8586999949	-144.18756174	-23.2985786248	-42.126331514
138500000.0	-27.6536981539	-31.9247424278	7.09683747409	171.576118759	-57.8285708713	-144.62526208	-23.2589636738	-41.9389337448
139187500.0	-27.5377127974	-32.6212989195	7.30119709041	166.820561966	-57.264354965	-155.289765327	-23.2209854825	-41.6921426369
139875000.0	-27.3123378103	-33.2915282453	7.4724688939	162.178667248	-57.6576843191	-157.375818307	-23.1998011736	-41.5167417962
140562500.0	-26.9992714594	-34.0422891557	7.60904615131	157.627495475	-57.6549289292	-164.900707711	-23.1806407204	-41.4767205107
141250000.0	-26.4712542115	-34.6055586587	7.71953750577	153.211786221	-57.7368680304	-167.684880179	-23.1559443267	-41.4822918805
141937500.0	-25.6186759282	-35.6799711704	7.80141488018	148.903988734	-57.4336399783	-177.590860592	-23.1458469104	-41.4980929689
142625000.0	-24.7633793544	-41.7400382677	7.86232406139	144.736862238	-57.4975724013	178.922952838	-23.1383643923	-41.5831003542
143312500.0	-24.2534160431	-48.7521603513	7.8986204853	140.69551912	-57.496838007	168.458674988	-23.1405840953	-41.6782802256
144000000.0	-23.8614387935	-55.5358822904	7.92334925816	136.785140331	-57.527170519	166.661543954	-23.157293296	-41.8640520532
144687500.0	-23.6261675753	-62.4191316434	7.93038059024	133.010478874	-57.7069529118	160.829815587	-23.1881211266	-42.0653386034
145375000.0	-23.4094195176	-69.1785143623	7.92757313908	129.375062915	-57.7061370144	158.517187991	-23.2126345184	-42.3224836533
146062500.0	-23.2784705715	-75.8574578795	7.91088614748	125.864138211	-57.9322862227	153.042655384	-23.2596849492	-42.5674055729
146750000.0	-23.1473074925	-82.272150065	7.88705316188	122.46445937	-57.7903321933	149.332451785	-23.3035850767	-42.7747516432
147437500.0	-23.0591356104	-88.7141214121	7.85131628499	119.187316898	-58.251690212	145.429688668	-23.3450336892	-43.1052538562
148125000.0	-22.9695247303	-94.7862087433	7.81434899565	116.013251854	-58.1201895785	138.057777598	-23.3895704832	-43.3612877114
148812500.0	-22.9038102589	-100.970026122	7.76858103843	112.94256092	-58.6221398442	134.162650827	-23.4415893926	-43.5708507765
149500000.0	-22.8388807631	-106.83077446	7.72329336525	109.989313243	-57.9645179246	128.620118003	-23.5010365703	-43.8327084305
150187500.0	-22.7897463918	-112.709582595	7.66917313885	107.125443965	-58.3628154931	127.617375397	-23.5690253304	-44.0278998352
150875000.0	-22.7476514502	-118.310770546	7.61852197717	104.365487259	-58.3611095019	130.0607304	-23.6338361623	-44.2125622018
151562500.0	-22.7033289003	-123.90361192	7.56343613679	101.667345532	-58.8096208119	128.168266511	-23.7039980672	-44.3365713106
152250000.0	-22.6673674585	-129.252919246	7.50970393418	99.0678177706	-58.1058536278	119.037220345	-23.7849515604	-44.3957044314
152937500.0	-22.6225602574	-134.517862006	7.4494360622	96.5322740218	-58.8663321799	116.615697738	-23.8629593716	-44.4554017287
153625000.0	-22.5990467886	-139.6497141	7.39516490813	94.0921329982	-59.105879019	112.532026446	-23.9585384084	-44.4719565125
154312500.0	-22.5509231834	-144.652842035	7.33637142138	91.6876606657	-59.127988558	111.774194674	-24.0223390299	-44.507865617
155000000.0	-22.5285882602	-149.572464117	7.28071283323	89.3567057573	-58.9583232245	104.612858505	-24.0982743323	-44.4971845295
155687500.0	-22.4770262739	-154.222155088	7.22482516741	87.0840041293	-59.0946133327	101.513395048	-24.1989697401	-44.385758147
156375000.0	-22.4481646765	-158.844449583	7.17091800104	84.8768564688	-59.1588488758	101.827280104	-24.284410333	-44.2721862732
157062500.0	-22.4006553113	-163.283592619	7.11637944994	82.7111573808	-59.0309402028	99.5992407273	-24.3702154863	-44.1468544621
157750000.0	-22.3711259493	-167.598202896	7.06422394985	80.6068383525	-58.7567571453	97.28413296	-24.4533458892	-43.9657832332
158437500.0	-22.3201450371	-171.750386564	7.00955250252	78.5312050899	-58.3535687164	95.7621587114	-24.5592529206	-43.8355552262
159125000.0	-22.2822800305	-175.866937597	6.9606539144	76.5217315679	-59.2060567155	95.3187764973	-24.6552546122	-43.6838842372
159812500.0	-22.2426013718	-179.761083869	6.90888023615	74.5335154558	-59.1384808083	92.8594072516	-24.7697694062	-43.4862113316
160500000.0	-22.2067251639	176.364788185	6.86219260637	72.5993208671	-59.3637414437	93.8954969306	-24.8701017903	-43.4221437397
161187500.0	-22.173368437	172.675800258	6.81231193791	70.6885306441	-59.2408121542	89.8321923618	-24.9725072092	-43.2448598833
161875000.0	-22.1298349278	169.130303898	6.76771167123	68.8203689529	-59.4993156883	89.2167944823	-25.0985641142	-43.0186798456
162562500.0	-22.1090272907	165.61930973	6.71981345008	66.9717557857	-59.1514171557	92.0297913833	-25.2148122631	-42.8698531924
163250000.0	-22.0640940176	162.222872815	6.67667141077	65.1633069742	-59.0685885802	91.5723858719	-25.3437589663	-42.7167457957
163937500.0	-22.0532164743	158.867282066	6.6323611714	63.391574275	-58.8688776674	84.8230867427	-25.4558405708	-42.6426275433
164625000.0	-22.0246143549	155.698545679	6.59272697442	61.6492898659	-58.690509298	84.1824614353	-25.5817034985	-42.554686136
165312500.0	-22.0353789779	152.412677478	6.54892588058	59.9331889149	-58.7537047634	82.1713084256	-25.7157987309	-42.4909771115
166000000.0	-22.0264334885	149.351504439	6.51125516356	58.2545385779	-58.4145507571	83.8233671646	-25.8529390025	-42.4675906795
166687500.0	-22.056306529	146.180881087	6.46962177823	56.5838570666	-58.6023588366	83.3304346687	-25.9868741241	-42.4890864965
167375000.0	-22.065118787	143.267850932	6.43429545522	54.9509390313	-58.3384699538	81.9255686337	-26.1319442873	-42.6505437252
168062500.0	-22.0997587142	140.212194726	6.39611439144	53.3329629144	-58.1715859775	74.0717466805	-26.2681976261	-42.71870962
168750000.0	-22.1238473903	137.364370589	6.36254714864	51.7537293894	-57.7782568908	73.3031471588	-26.4151583916	-43.0605715715
169437500.0	-22.1506463948	134.40030855	6.32714812001	50.187770147	-57.9329698798	76.0736465005	-26.5691863891	-43.3473293013
170125000.0	-22.1879671408	131.564709026	6.2989782459	48.642607324	-57.2405794545	75.4412538263	-26.7070220699	-43.6934127534
170812500.0	-22.2289829968	128.641377699	6.26635547487	47.1117865291	-57.3670165687	74.7284158269	-26.8381861033	-44.104145309
171500000.0	-22.276423428	125.833803393	6.2387685564	45.624404978	-57.2560379006	76.6752499568	-26.9913003619	-44.6134903375
172187500.0	-22.3234398564	122.927645604	6.21238365575	44.141096499	-57.2684645291	76.3512347478	-27.1357069898	-45.2421264891
172875000.0	-22.374024072	119.992076927	6.18750756219	42.6795590961	-57.021649784	79.3635484759	-27.2339286583	-45.852775411
173562500.0	-22.4098102594	117.040706129	6.163605857	41.2325443563	-56.8574250842	81.215188299	-27.3779058762	-46.6198657812
174250000.0	-22.4707179596	114.133984244	6.1433413064	39.805472666	-56.8134684903	81.9939926009	-27.4884220441	-47.3831196569
174937500.0	-22.4988499318	111.107603873	6.12306585507	38.3838910557	-56.9095076939	80.1770276925	-27.6081916258	-48.2001299631
175625000.0	-22.5420093606	108.017549711	6.10790512743	36.9889712966	-57.047651873	83.2224644675	-27.7112923861	-48.8398130674
176312500.0	-22.5678775295	104.961516259	6.0889415044	35.6041397493	-56.4665447556	83.3235601723	-27.8192587194	-49.6914926106
177000000.0	-22.5999233024	101.837793692	6.0764038429	34.2378623504	-56.3653593676	83.7643538149	-27.8980347353	-50.5971071087
177687500.0	-22.6097079946	98.7338648996	6.06073013225	32.8588921087	-56.2006173178	83.7650701281	-28.0010057061	-51.4110530859
178375000.0	-22.6390573945	95.5507061455	6.05164051834	31.5102508743	-56.1289364237	85.1955071781	-28.0814775854	-52.1837689963
179062500.0	-22.6467202637	92.4285995009	6.03984115615	30.1662403008	-56.0041076166	86.1695775506	-28.1403155368	-53.2796145743
179750000.0	-22.6466082897	89.1874084915	6.03389844061	28.8405071112	-55.9859783028	77.8892234019	-28.1908248605	-53.9865265206
180437500.0	-22.6367639852	85.974483609	6.02521879381	27.5051119691	-56.432966874	76.6831555149	-28.2168558744	-54.9034115251
181125000.0	-22.6203097527	82.6394264476	6.02103121315	26.1829697258	-56.4835594295	78.1776499879	-28.2667925802	-55.4620401566
181812500.0	-22.6095594867	79.4043312109	6.01466736603	24.8557236318	-56.3294917388	75.5061421549	-28.3014389461	-56.1050358518
182500000.0	-22.5643955886	76.1015385375	6.01468752482	23.5539570556	-56.5005306734	74.7585216031	-28.3406584213	-56.7332922403
183187500.0	-22.5235695376	72.8480082762	6.01140053371	22.2428605223	-56.9250072109	62.0030646238	-28.362167146	-57.3947757273
183875000.0	-22.4519697075	69.6505222109	6.01427856711	20.949074178	-57.4053689812	47.8399833369	-28.3761175051	-57.9365205651
184562500.0	-22.3914366607	66.3540960514	6.01363263063	19.643796943	-57.2469024565	36.9357863884	-28.3436668635	-58.4575824783
185250000.0	-22.2996859945	63.1715691766	6.01692658574	18.3585742351	-57.8259802846	20.8293544436	-28.3365072617	-58.8655193607
185937500.0	-22.2236732514	60.0103320971	6.01648829382	17.062387219	-57.665011904	-3.65663418028	-28.3061913734	-59.0491611709
186625000.0	-22.1386732486	56.9655332925	6.02333851404	15.7796203035	-57.8839422403	-31.5899747224	-28.2827002269	-59.2517765052
187312500.0	-22.0549258438	53.7984702993	6.02609338421	14.4914647923	-57.9510594531	-59.4138002132	-28.2644299975	-59.2617032913
188000000.0	-21.9489182291	50.8426190177	6.03395056365	13.2150518123	-57.8395437242	-88.0899021227	-28.2319497918	-59.2480531849
188687500.0	-21.8588281764	47.7701055069	6.03953666186	11.930142082	-57.884840247	-119.576109424	-28.1892826343	-59.1407988027
189375000.0	-21.7552832183	44.8748873316	6.04687749304	10.6656875242	-57.93794708	-147.631452973	-28.176018717	-58.9041518484
190062500.0	-21.6641363461	41.9677174245	6.05237825957	9.39243150358	-57.865827433	178.812853634	-28.1558783497	-58.5456747064
190750000.0	-21.5719668772	39.1919414227	6.06334697354	8.12890812722	-58.1277765913	150.079713128	-28.1292302448	-58.0629073723
191437500.0	-21.479068253	36.3521575303	6.06978061611	6.86538021076	-57.8777604761	122.929287635	-28.0973826247	-57.6451772255
192125000.0	-21.3978591356	33.7537194751	6.08073358695	5.62130352498	-58.3449373256	94.8134425542	-28.0692823374	-56.991371043
192812500.0	-21.3156038108	31.039061318	6.08947328158	4.37195975223	-58.2499931525	56.3345210546	-28.0357189303	-56.6016283029
193500000.0	-21.2484808248	28.4239285077	6.10183181518	3.11905228773	-58.0798098426	29.4590187446	-28.0210404913	-55.9604488564
194187500.0	-21.1824523402	25.7430525542	6.11025970998	1.86787208656	-58.14981543	7.58892222996	-27.9923558258	-55.2136869263
194875000.0	-21.1448320346	23.1276188105	6.12464147564	0.636214971596	-58.1041312727	-17.7235581711	-27.9703403689	-54.4654246667
195562500.0	-21.0901770496	20.449794763	6.13612309886	-0.60107162606	-58.3714642088	-50.1525190448	-27.9581617022	-53.8443434539
196250000.0	-21.0538740515	17.752166433	6.15049619133	-1.83659649498	-58.2342862762	-80.4714694887	-27.9586753351	-52.9463943206
196937500.0	-21.012248216	15.1496607316	6.16232708961	-3.0754412842	-58.5053349722	-112.109968782	-27.9716890347	-52.0961678774
197625000.0	-21.0008319044	12.4898751061	6.1781290933	-4.29530617388	-57.9753898484	-141.607069102	-27.9709978025	-51.124844857
198312500.0	-20.9760502621	9.89809956119	6.19328547419	-5.51673414392	-58.4377867514	-169.36131915	-27.9636789768	-50.4431762705
199000000.0	-20.9676073145	7.15186151106	6.21273019383	-6.73332232608	-58.4627366668	162.768953441	-27.9610772544	-49.7255024091
199687500.0	-20.9508954745	4.51118303214	6.22758727054	-7.95762317279	-58.5056668873	134.893286327	-27.9601242572	-48.9073648721
200375000.0	-20.9554265103	1.76079537272	6.24555518908	-9.17512101211	-58.0492335745	116.172086559	-27.9833808683	-48.1863433126
201062500.0	-20.9502801509	-0.973761046441	6.26029069765	-10.3858054235	-57.5255075054	100.517940624	-27.9984247129	-47.3004680575
201750000.0	-20.9528687371	-3.76225328123	6.28074664969	-11.5852689997	-57.5566535444	82.9431924606	-28.0382789607	-46.4695116697
202437500.0	-20.9560784133	-6.48857191559	6.29879880727	-12.797757791	-57.2563496797	69.7789279193	-28.0778501322	-45.8419298405
203125000.0	-20.9560308013	-9.36354216489	6.32201854611	-13.9966610745	-57.0804542614	59.6770742569	-28.1222305634	-45.1331998214
203812500.0	-20.9472723302	-12.2059134152	6.33928229106	-15.2000426746	-57.0091275258	58.0591730012	-28.1606752666	-44.4244753507
204500000.0	-20.941352128	-15.0866106746	6.36303401791	-16.3937695811	-57.1320828416	48.5616393045	-28.1828539079	-43.8913048242
205187500.0	-20.9422780612	-17.9803928879	6.38331639546	-17.5937973487	-57.4872638151	46.7795587205	-28.2355282232	-43.2500104716
