#Frequency	|S11|	<S11	|S21|	<S21	|S12|	<S12	|S22|	<S22
100000000.0	-15.1163211214	157.231837381	-20.6360235208	-123.952488329	-63.1699489458	-146.501546702	-20.7416900945	-59.9390869913
100687500.0	-15.0930426722	155.181211863	-20.1804032815	-125.213142011	-60.0535082589	156.265453721	-20.836112343	-59.1790230192
101375000.0	-15.1056127525	152.643539432	-19.7722871643	-126.519315544	-61.3420129925	-158.84695558	-20.9306771944	-58.7090311362
102062500.0	-15.1170335345	150.183342789	-19.380475598	-127.951178351	-59.2683477186	-165.593160359	-21.0627711162	-58.2437620531
102750000.0	-15.1237985791	147.637112448	-19.00901276	-129.386539278	-61.3896781555	-135.630404843	-21.1509342542	-57.652644656
103437500.0	-15.1453516758	145.045606534	-18.672359169	-130.806923607	-60.5880770703	-126.736381164	-21.2677142159	-57.0879800188
104125000.0	-15.1840367173	142.322625441	-18.3443815897	-132.26547562	-60.7881646535	-121.982841251	-21.4049850749	-56.4938689135
104812500.0	-15.229360067	139.526578202	-18.0492681715	-133.733486428	-60.4982486135	-99.0521267427	-21.5334013485	-56.1310860719
105500000.0	-15.2842912651	136.634863979	-17.7704821192	-135.219948354	-60.6665237547	-83.8811312975	-21.6642811341	-55.8245495127
106187500.0	-15.3433234502	133.630831774	-17.5200535628	-136.687002781	-61.2001956994	-94.6006355497	-21.8060669722	-55.5300680956
106875000.0	-15.413349756	130.487445754	-17.3008123494	-138.158755218	-61.8077168596	-91.8973828574	-21.9579215398	-55.4291709367
107562500.0	-15.4950790103	127.224220698	-17.1177577382	-139.607529457	-61.3214115444	-76.4010696646	-22.1232281982	-55.2179159417
108250000.0	-15.5828890644	123.795214109	-16.9711048128	-141.005924551	-61.0701290179	-88.4970431358	-22.2801443409	-55.1390441758
108937500.0	-15.6548609508	120.584893029	-16.7645756887	-142.394088254	-61.3246896022	-88.4764820566	-22.4259108159	-54.8803106895
109625000.0	-15.7278172503	117.288996931	-16.5868304104	-143.724356853	-61.1734782262	-88.7848325917	-22.5620287002	-54.6698686694
110312500.0	-15.8049161578	113.865174632	-16.4339523635	-145.011542586	-61.187498993	-99.1218155631	-22.720443443	-54.5030662544
111000000.0	-15.8923977989	110.344207797	-16.3092385116	-146.204367523	-61.2589367118	-110.995033063	-22.868912186	-54.3562411371
111687500.0	-15.9835211284	106.704379534	-16.2162808144	-147.290424219	-61.6665878342	-122.995189241	-23.0336504678	-54.2742840719
112375000.0	-16.0837223324	102.941141069	-16.157017802	-148.200146849	-61.7003723954	-138.071259578	-23.1947391558	-54.2267567546
113062500.0	-16.1832298092	99.084222881	-16.1308236536	-148.903669693	-61.8740766477	-161.139077132	-23.3513262334	-54.1959742714
113750000.0	-16.2916299019	95.0509978971	-16.1268215479	-149.281637403	-62.2168224266	175.632267757	-23.5094047044	-54.223311962
114437500.0	-16.4037023825	90.9218227936	-16.1443991956	-149.286091978	-62.3627641999	146.106221849	-23.6741708246	-54.2873849518
115125000.0	-16.5255616236	86.6014744945	-16.1598710938	-148.859632343	-62.5736317027	124.623266882	-23.8475255312	-54.4193332199
115812500.0	-16.642122916	82.1579578704	-16.1586812607	-147.971593726	-62.5829507932	98.8698920349	-24.0192625163	-54.5436208413
116500000.0	-16.7745374373	77.5773744593	-16.115270712	-146.713052682	-62.3796241095	80.3671258445	-24.1859681214	-54.6553889066
117187500.0	-16.8978821478	72.8430678135	-16.0298672818	-145.117410561	-62.2568937966	51.2851283943	-24.3533279483	-54.8557633273
117875000.0	-17.0446349038	67.9468922474	-15.8796501577	-143.316244339	-62.5108664253	22.8497440153	-24.5302747139	-54.9362414565
118562500.0	-17.1929175633	62.9085012889	-15.6798660176	-141.41425365	-62.5885834853	-4.02827028598	-24.7032967633	-55.0258156874
119250000.0	-17.3651612573	57.6757283939	-15.4231148417	-139.437597473	-62.3245132117	-41.7983177956	-24.866822309	-55.0738546673
119937500.0	-17.543561335	52.2571009244	-15.1143527128	-137.450262052	-62.3696052537	-69.0676288258	-25.0186310144	-55.1387389126
120625000.0	-17.7419695759	46.6630096172	-14.7504961697	-135.504527367	-62.1074951445	-97.4998365063	-25.1847402217	-55.2351202266
121312500.0	-17.9674456187	40.8768860098	-14.3464104868	-133.610407579	-61.5205728354	-116.478420228	-25.3306264487	-55.3461480392
122000000.0	-18.2180989925	34.8939649587	-13.8892057267	-131.794904752	-60.9789342023	-139.743545738	-25.4788688246	-55.3908642149
122687500.0	-18.5073232878	28.6458937033	-13.3924723023	-130.115505042	-61.0149218555	-171.463985955	-25.6176519628	-55.4616021386
123375000.0	-18.8320021877	22.2034522006	-12.8516310713	-128.554569405	-61.8728182897	150.482143863	-25.748402035	-55.517559131
124062500.0	-19.216725246	15.3932085332	-12.27331475	-127.154916484	-62.115831885	124.058149239	-25.8660954926	-55.6286794984
124750000.0	-19.6651772124	8.32997280575	-11.6566769415	-125.906051998	-62.3562448754	98.0821746562	-25.9944608073	-55.6147437119
125437500.0	-20.1796280166	0.68751783405	-11.0098335556	-124.852404045	-62.4578720141	83.9530065616	-26.1001951879	-55.6543823762
126125000.0	-20.7898711035	-7.56774059146	-10.3244101999	-123.96613113	-61.9487283619	56.9497133474	-26.2165883942	-55.6696817083
126812500.0	-21.4739230325	-16.5925185227	-9.60888633886	-123.326806868	-62.3943787299	41.0291202569	-26.3317378751	-55.6747521068
127500000.0	-22.2632364589	-27.1423959569	-8.85590619404	-122.896758526	-62.4365638447	25.9851563381	-26.408780207	-55.6599009225
128187500.0	-22.9620091908	-38.4614542925	-8.07636013558	-122.7461516	-62.172233793	2.52626604754	-26.4969797002	-55.6394509875
128875000.0	-23.5942384436	-50.8089248548	-7.25732102412	-122.877225299	-62.1005681456	-13.2847584171	-26.5524006582	-55.5796358005
129562500.0	-24.1414430022	-63.6200468609	-6.40876406929	-123.34999312	-62.1327617577	-16.2129259778	-26.6015543746	-55.5021699041
130250000.0	-24.6706899011	-76.7976440385	-5.5283369902	-124.185884228	-62.1375021943	-20.7417083988	-26.6515497754	-55.4828142614
130937500.0	-25.1465803431	-90.4208889633	-4.63031454935	-125.52284835	-61.1526916192	-31.2656799573	-26.703056808	-55.4259016034
131625000.0	-25.5646800264	-104.20893703	-3.71488306017	-127.363373891	-60.993593399	-36.2041708683	-26.7231808106	-55.4175575674
132312500.0	-25.9722360974	-118.295647546	-2.80401607801	-129.813683925	-61.0456408189	-49.0029071257	-26.728161955	-55.3219341234
133000000.0	-26.3511246072	-132.50487251	-1.91664580506	-132.833663723	-61.0391285369	-53.0074093954	-26.7176215643	-55.4469269588
133687500.0	-26.7100763445	-146.989428342	-1.08176289514	-136.40604794	-61.4797964538	-62.8443414317	-26.7049571112	-55.5034835626
134375000.0	-27.0439573527	-161.59080682	-0.295530485638	-140.380451348	-61.2235807277	-75.1761244723	-26.6727795099	-55.650269658
135062500.0	-27.373961762	-176.476762332	0.423309229505	-144.713695255	-60.7315721458	-88.0940582637	-26.6389413083	-55.7792969046
135750000.0	-27.6566107515	168.553734065	1.08025811711	-149.245400066	-60.5735795652	-93.4194468635	-26.5683080329	-56.1571827437
136437500.0	-27.912299633	153.415631293	1.67203475383	-153.971277391	-60.5417749038	-95.7725361033	-26.5125682209	-56.4582594038
137125000.0	-28.1503636264	138.155687325	2.20603655724	-158.795718088	-60.2887228262	-102.708839245	-26.4609703444	-56.8362124702
137812500.0	-28.3275842017	122.894086897	2.68142345152	-163.705609328	-60.5113240257	-104.666298527	-26.3970506106	-57.1397418123
138500000.0	-28.4795910947	107.55289366	3.10415148851	-168.62389501	-60.6415121062	-106.793645097	-26.3023054036	-57.5647518328
139187500.0	-28.5645732255	92.2368165018	3.4739373849	-173.553617849	-60.5703644766	-113.002225825	-26.2156901394	-57.9306300691
139875000.0	-28.6060212544	76.9338162636	3.79665260717	-178.439578937	-60.2606103036	-119.684278009	-26.114717212	-58.3470476259
140562500.0	-28.584400349	61.7735843657	4.07560626751	176.718229285	-59.7055361294	-121.574386545	-26.0255943292	-58.851004252
141250000.0	-28.4912718367	46.8433863925	4.31546722288	171.970716976	-59.469471447	-134.379126922	-25.9233150668	-59.250317406
141937500.0	-28.3079737498	32.1045503688	4.51899293967	167.2892919	-59.4099743044	-138.693151038	-25.8205409019	-59.7385802598
142625000.0	-28.0501541978	17.842695555	4.68910905197	162.72444394	-59.1953841187	-149.378657665	-25.7156092691	-60.1547717256
143312500.0	-27.6547802695	4.15962789848	4.82540894933	158.250188948	-59.3964435449	-151.881435273	-25.6026154263	-60.6180694798
144000000.0	-27.1882178922	-8.79511439955	4.93575458239	153.894886652	-59.1566371237	-161.780366799	-25.4824559812	-61.0878617529
144687500.0	-26.5969060573	-20.2171717892	5.01978688839	149.665026418	-58.9098190569	-170.019029158	-25.3837158399	-61.5644514824
145375000.0	-26.0703368552	-30.8316824786	5.08310099913	145.566951294	-59.3879394504	-170.94408778	-25.2704385096	-62.0577809518
146062500.0	-25.6004689479	-40.3493985462	5.12366915478	141.590903228	-58.5995648563	-174.010189054	-25.1769280887	-62.4881034387
146750000.0	-25.1885866674	-49.3278020451	5.14900449979	137.741677215	-58.6916547985	174.314488457	-25.0800427768	-62.8558468254
147437500.0	-24.7924290401	-57.8906244836	5.15656459211	134.022376559	-58.4573348634	165.341532412	-24.9726198965	-63.1974344453
148125000.0	-24.4318055136	-65.8802124309	5.15541160978	130.426439584	-58.4636398954	162.93376375	-24.8647220506	-63.5222382875
148812500.0	-24.1275651419	-73.6584933634	5.14021813669	126.943776206	-58.2996288642	159.595794912	-24.764111265	-63.815404232
149500000.0	-23.8087823089	-80.9422146263	5.1203859559	123.587719391	-58.3240794527	159.82631255	-24.6800888578	-64.0242677931
150187500.0	-23.5195992561	-88.0704696692	5.08740164627	120.33438019	-58.0358533425	153.002255471	-24.593252432	-64.0442703546
150875000.0	-23.2286924164	-94.7182480109	5.05297675982	117.211307099	-58.0463137691	150.195447504	-24.5133579397	-64.0618530134
151562500.0	-22.9666015761	-101.167760532	5.01022888488	114.177431777	-57.9678035687	152.563131852	-24.4298824724	-64.0062180107
152250000.0	-22.6772359337	-107.105136127	4.9652723543	111.246314802	-58.32506389	150.039079909	-24.3558652638	-63.8711024913
152937500.0	-22.4295139654	-112.823719367	4.91354169795	108.393691163	-58.267391844	143.221095527	-24.2977739844	-63.5820494889
153625000.0	-22.1836805302	-118.141777303	4.86426844715	105.649570451	-58.3391085246	137.795499028	-24.2618024705	-63.3226353408
154312500.0	-21.9413985005	-123.175523848	4.80861059496	102.9619865	-58.2316019176	133.233870364	-24.1919610865	-62.975915757
155000000.0	-21.7329925119	-127.976978922	4.75452876972	100.378117178	-58.7598370703	122.746916843	-24.1419441748	-62.5692786887
155687500.0	-21.5286369108	-132.482909225	4.69690486984	97.8609448177	-58.7699124336	113.807775851	-24.1217506748	-62.0501851197
156375000.0	-21.3641449312	-136.757469557	4.64011405768	95.4221717027	-58.5286305661	103.940076745	-24.0931315111	-61.5054952646
157062500.0	-21.1925519028	-140.747502692	4.5813381792	93.0312102282	-58.4434434954	90.7417672956	-24.0741525716	-60.9043224252
157750000.0	-21.0500272303	-144.613096435	4.52502106443	90.7166318421	-58.4281346849	70.2614727679	-24.0542927779	-60.2007733336
158437500.0	-20.9072761229	-148.247283319	4.46605114281	88.436618058	-58.5775714048	56.3955426473	-24.0439530333	-59.534997294
159125000.0	-20.7961492919	-151.730202075	4.40928221365	86.2405812775	-58.3302946159	37.1335522499	-24.0521448172	-58.7955758594
159812500.0	-20.680250156	-155.030092468	4.35143296516	84.077599094	-58.5292778073	21.3177331171	-24.0572454569	-58.0491266612
160500000.0	-20.6058032232	-158.195038253	4.29749323017	81.9814663123	-58.2361083607	0.210001171827	-24.0717023552	-57.2921957362
161187500.0	-20.5312047129	-161.221195997	4.24171902228	79.9280033752	-58.4177704549	-14.6986872936	-24.0857206645	-56.4522435328
161875000.0	-20.4825004603	-164.117917924	4.190111121	77.9202999733	-58.3155029495	-31.5814454231	-24.131101537	-55.6805168618
162562500.0	-20.454149834	-166.942199846	4.13525911292	75.9467093431	-58.6751344554	-48.9720677162	-24.1761803097	-54.8187760785
163250000.0	-20.4358787291	-169.715878807	4.08554799277	74.0137898676	-58.9146530569	-69.4188331412	-24.2430825868	-53.9487856208
163937500.0	-20.4415758533	-172.403476007	4.03368304448	72.1199524622	-58.8046638287	-84.2065311648	-24.3041500089	-53.1257472989
164625000.0	-20.4556121177	-175.097421253	3.98659152049	70.2650471391	-58.9053899517	-98.4197918127	-24.3808903412	-52.2846748102
165312500.0	-20.4903435023	-177.684318842	3.93697939068	68.4464971513	-58.8809837094	-114.44903934	-24.4732042584	-51.4254644851
166000000.0	-20.5307308157	179.808627374	3.89108167354	66.6695260073	-58.9118195672	-133.424711042	-24.5713745249	-50.6023502411
166687500.0	-20.6043241195	177.218204268	3.84327495322	64.911225635	-58.9931958266	-148.58988567	-24.6826434135	-49.7417059467
167375000.0	-20.6802751638	174.803087794	3.79920664751	63.1893075038	-59.0798500322	-162.964413546	-24.8050382303	-49.0581521942
168062500.0	-20.7668701987	172.264375687	3.75486534982	61.4824128871	-58.6847892491	-179.847829851	-24.9341003286	-48.2396415331
168750000.0	-20.8585389058	169.837286182	3.71336273375	59.8223472587	-58.8042909318	165.062549769	-25.0890744639	-47.5244438328
169437500.0	-20.9781590963	167.276997965	3.67096492181	58.1856015754	-58.8268701696	142.546434918	-25.2476246164	-46.9473800057
170125000.0	-21.1006631193	164.78989085	3.63395711605	56.5732940528	-59.3878463217	114.963011803	-25.4096690284	-46.3890291706
170812500.0	-21.2396705769	162.122673245	3.59361413672	54.9780378314	-59.2515345803	89.1730544725	-25.585338294	-45.7730020223
171500000.0	-21.3844589988	159.576311366	3.55839600217	53.4211291868	-59.3522649172	61.5719511633	-25.765681813	-45.3674951382
172187500.0	-21.5542127228	156.826004894	3.52314622169	51.8801475973	-58.5547506866	33.6162024528	-25.9709727506	-44.9689649393
172875000.0	-21.7072135215	154.080879113	3.49179152231	50.3546502066	-59.068463783	3.05397781996	-26.1572561114	-44.657471501
173562500.0	-21.8698642705	151.119318833	3.45914548258	48.8493703135	-59.1234570372	-23.4070954722	-26.3963235642	-44.4036032154
174250000.0	-22.03712669	148.17601663	3.43197766701	47.3761226475	-59.5243828752	-41.7932378573	-26.6106723342	-44.2344828286
174937500.0	-22.1955732763	144.964490703	3.40387562959	45.9056419363	-59.2953317864	-55.3059419979	-26.8468811558	-44.2015925687
175625000.0	-22.3586411857	141.660564347	3.37951239265	44.4670078507	-59.2619824562	-69.6336107047	-27.0809193203	-44.0788389361
176312500.0	-22.5026585684	138.283233635	3.35363620032	43.0240276142	-59.0425796162	-85.2531763242	-27.3060068525	-44.1370534111
177000000.0	-22.6445204606	134.72611063	3.33283933151	41.6058542624	-59.6267434264	-97.497372891	-27.5578865211	-44.3765167332
177687500.0	-22.7648924611	131.158210752	3.30871861846	40.187001368	-59.5560378563	-112.867633405	-27.8269761188	-44.7416224988
178375000.0	-22.8820325064	127.479524504	3.29060116832	38.7915301159	-59.3447271433	-129.046222178	-28.1071491884	-45.1062854286
179062500.0	-22.9646073978	123.735128011	3.2694013966	37.4074132212	-59.3796869024	-141.487552822	-28.3449545586	-45.7195192328
179750000.0	-23.0406539478	119.837469213	3.25494445748	36.040017871	-58.7198300576	-151.642464761	-28.5987658245	-46.3160027847
180437500.0	-23.0875090082	115.983751327	3.23754480121	34.6769581782	-58.5282326825	-164.717265345	-28.8158850931	-47.1653746668
181125000.0	-23.1292380028	111.924174734	3.22439080894	33.3274316892	-58.8367805839	177.078407879	-29.0687783955	-47.8656014099
181812500.0	-23.1378364189	108.051790939	3.20902442943	31.9791102968	-58.7808452968	162.25507188	-29.3056957328	-48.8041271324
182500000.0	-23.128802755	103.987826311	3.1984627116	30.6511169376	-59.2144455222	138.142142902	-29.5767048312	-49.6056123309
183187500.0	-23.0910704863	100.009894216	3.18719274749	29.3178005637	-58.9451810384	112.086281206	-29.7959634387	-50.5435380978
183875000.0	-23.0297285865	96.1063875787	3.17916630369	28.0035813098	-58.5108623786	76.1954698433	-30.0264095842	-51.5990586167
184562500.0	-22.9525871665	92.1688941451	3.16883833154	26.6934396037	-58.6997883484	48.6935636437	-30.2074360116	-52.7622802001
185250000.0	-22.8634464003	88.2404942104	3.16199336629	25.4059450292	-58.8332384143	24.2146811982	-30.4181894941	-53.8121301078
185937500.0	-22.7577723823	84.3218146913	3.15245946673	24.099119741	-58.9815819648	-2.58488451063	-30.5786533958	-55.0656545687
186625000.0	-22.6341133956	80.5604579921	3.14919358468	22.8141300432	-58.641124608	-27.5361700247	-30.7566092707	-56.4042095396
187312500.0	-22.4870940945	76.7305352915	3.14373868494	21.5222604463	-58.7376015544	-43.0675322175	-30.8972768119	-57.5203291467
188000000.0	-22.3232663333	73.1490055259	3.14159348936	20.2474589155	-58.8979227422	-63.4922856186	-31.0297103502	-58.8361810283
188687500.0	-22.1483546553	69.4668108145	3.13709442804	18.9764398207	-59.5254455906	-78.5481281116	-31.1489582118	-60.1133726967
189375000.0	-21.9458779363	66.0196609581	3.13490494294	17.717354813	-59.624371944	-93.8833764852	-31.2740911056	-61.4366650673
190062500.0	-21.7512741902	62.6121311729	3.1326291339	16.4551932164	-59.0851259149	-106.235889314	-31.3687805368	-62.6833932854
190750000.0	-21.5426860817	59.4677191365	3.13462372492	15.2061425875	-59.0237348582	-121.348172848	-31.427167702	-64.1296574624
191437500.0	-21.3378362445	56.3163588674	3.13391861525	13.962652448	-58.9445955583	-135.711678773	-31.5096379525	-65.5021835455
192125000.0	-21.1227738506	53.5282109064	3.13556343674	12.7257606685	-59.0643966784	-154.602860258	-31.5424007184	-66.8148807283
192812500.0	-20.9168893951	50.72412296	3.13619227117	11.4945029189	-59.0645789318	-171.617365803	-31.5979558765	-68.3226262657
193500000.0	-20.7144728652	48.111753607	3.13971000897	10.2698001815	-59.4308838475	173.287284582	-31.6131215193	-69.6952591784
194187500.0	-20.5265879521	45.612710074	3.14082181107	9.04772102227	-58.6438349272	147.706046476	-31.6044392455	-70.7818346477
194875000.0	-20.3469862242	43.2132566837	3.14660036403	7.83619314943	-59.0052311188	135.052195698	-31.5493964638	-71.949964865
195562500.0	-20.1699639323	40.8485906616	3.1513827207	6.62247681781	-58.8247029545	117.433803712	-31.4929956752	-73.1812660489
196250000.0	-20.0099360534	38.6296037999	3.15714030064	5.41517047057	-59.2186785447	101.610180597	-31.4191872527	-74.2460615439
196937500.0	-19.8591405416	36.5331081165	3.16123076449	4.20773485876	-59.0283473509	79.2364381364	-31.3561465071	-75.1412162042
197625000.0	-19.7329510543	34.4405869568	3.16943767049	3.02044629381	-59.2884014072	64.4179954377	-31.2633251162	-75.9897738567
198312500.0	-19.6038410407	32.4831435218	3.17614368556	1.83081554199	-58.8569937794	46.9068388529	-31.1561545141	-76.8800535478
199000000.0	-19.5053547389	30.4704089428	3.1872685782	0.640851277598	-59.3439142173	30.7110165551	-31.0162574442	-77.6657393689
199687500.0	-19.4104053503	28.5534032189	3.19440144281	-0.551155285734	-59.2091679446	18.6829599245	-30.8562073051	-78.4620253631
200375000.0	-19.337994519	26.5923999519	3.20507565622	-1.73565999124	-59.5884722687	17.7260861628	-30.7048320319	-79.2744125778
201062500.0	-19.271440583	24.6291241927	3.21356486382	-2.91354959337	-59.7880031493	13.2997597691	-30.544178368	-80.0190235453
201750000.0	-19.2220760782	22.6250897903	3.22700774688	-4.09547013778	-59.899250039	-0.355228253231	-30.3958606785	-80.5284146819
202437500.0	-19.1733667036	20.7664587188	3.23732565287	-5.27989875814	-59.7068003248	-22.0219675823	-30.2144780599	-81.2850070633
203125000.0	-19.1387284905	18.8424249855	3.25348167548	-6.44820504599	-59.7532379735	-38.6014398049	-30.0378091827	-81.6438965702
203812500.0	-19.0969542472	16.8896508436	3.26465824065	-7.62149420341	-60.3022700569	-55.1866538736	-29.8489908946	-81.9047996113
204500000.0	-19.087603289	14.9383454612	3.28097529476	-8.79239863523	-59.9183890678	-67.2538589272	-29.6675701944	-82.2756675101
205187500.0	-19.07172334	12.9728665904	3.29452621836	-9.9624769103	-59.9151862219	-81.0506483147	-29.4815860579	-82.5337701636
