#Frequency	|S11|	<S11	|S21|	<S21	|S12|	<S12	|S22|	<S22
100000000.0	-16.398241798	136.413989168	-19.2505668738	-130.605992571	-74.6990974563	99.3395311425	-21.9845969262	-60.9925910366
100687500.0	-16.348186516	133.573017274	-18.8303094988	-131.149150887	-61.9518787821	8.67524477582	-22.0434179494	-61.0872378073
101375000.0	-16.330703521	130.547026288	-18.4354561284	-132.429447845	-63.074584974	5.76601845288	-22.0634065737	-60.9657276527
102062500.0	-16.3256253455	127.396584776	-18.0698700696	-133.982190998	-61.4914916708	60.4070487646	-22.1209665167	-60.8901901661
102750000.0	-16.3105422428	124.180775532	-17.732247875	-135.423743868	-60.8380646299	124.59652594	-22.1499142556	-60.6592834301
103437500.0	-16.3110743059	121.023684798	-17.4166547766	-136.911918927	-61.6039372592	133.273477514	-22.1975588093	-60.4846812891
104125000.0	-16.3266083784	117.728515172	-17.122522473	-138.436259777	-62.4199698618	114.173074589	-22.2663080224	-60.3326674863
104812500.0	-16.3585251882	114.405113691	-16.855129142	-139.926875982	-62.5948399881	104.309840471	-22.3263117839	-60.3999343995
105500000.0	-16.3926375861	110.955667067	-16.619551354	-141.484955693	-62.2817826954	117.993913482	-22.3791631889	-60.3914619707
106187500.0	-16.4289579095	107.324821911	-16.4186272114	-142.972364519	-61.9017052843	115.62823537	-22.4379518056	-60.4645946832
106875000.0	-16.4753834481	103.54549792	-16.2527732655	-144.412219878	-61.3616216064	114.525377588	-22.5005383254	-60.5918874361
107562500.0	-16.5428347283	99.651059415	-16.1292042406	-145.788399796	-61.0327094703	97.5546403419	-22.5659596698	-60.6564436983
108250000.0	-16.6103354834	95.5310447289	-16.0578554803	-146.997661679	-61.3317259067	84.7334125173	-22.622327199	-60.7836667726
108937500.0	-16.6598103583	91.660948127	-15.9161677948	-148.18278144	-60.7900487549	76.6269990676	-22.685965065	-60.7915149593
109625000.0	-16.7143543709	87.7047266432	-15.8068135861	-149.297261191	-60.7252205847	67.1368443261	-22.7442414305	-60.8165746506
110312500.0	-16.7632263786	83.5978150734	-15.7256744637	-150.225471873	-60.8118102947	68.1736141528	-22.8016663676	-60.9285952113
111000000.0	-16.82866573	79.3714763687	-15.676220061	-150.933709356	-61.0594204145	69.7904272543	-22.8629867683	-60.9626514014
111687500.0	-16.8871091237	75.014983106	-15.6544343351	-151.316858859	-60.9939915721	80.0115063617	-22.929165846	-61.0407605309
112375000.0	-16.961046374	70.5219589694	-15.6427249862	-151.297280815	-61.1103490077	77.8527213682	-22.9867437365	-61.1289520904
113062500.0	-17.0300147151	65.9345996736	-15.6298802985	-150.830886596	-61.2081164301	75.9153347669	-23.0521113986	-61.1347235159
113750000.0	-17.1187485098	61.1682541063	-15.5916735485	-149.943379668	-61.2335448397	66.4022612205	-23.1175511586	-61.203928612
114437500.0	-17.2015832498	56.2840745922	-15.5116823322	-148.699382299	-61.1496875628	69.3862041301	-23.1929320283	-61.2934269362
115125000.0	-17.293991864	51.1930968826	-15.3796382549	-147.181958322	-60.7772040906	82.9766831965	-23.2573366514	-61.328938296
115812500.0	-17.3815025094	45.9710934105	-15.1914435378	-145.484335859	-60.3593397914	83.8893993641	-23.3280299991	-61.3234602634
116500000.0	-17.4850104796	40.5614586712	-14.9459466738	-143.665683615	-60.4136888994	86.9850988578	-23.3897563442	-61.3294259898
117187500.0	-17.5927898657	35.060780393	-14.6468796287	-141.808943494	-60.0407728775	102.677957794	-23.4384938391	-61.3397032915
117875000.0	-17.7156785263	29.3560602385	-14.2944099561	-139.997706749	-60.307468544	105.321041976	-23.5053298987	-61.2083286062
118562500.0	-17.8484332916	23.5000449274	-13.8933284693	-138.231791145	-60.2246421901	106.438991058	-23.5630000678	-61.0087011845
119250000.0	-18.0010153316	17.4475936374	-13.4402851233	-136.525259366	-60.3945540911	94.3732176738	-23.6239843175	-60.7677798442
119937500.0	-18.1837744065	11.2317921096	-12.9477869475	-134.92102422	-60.2976069528	79.7839671274	-23.6817225705	-60.4733479108
120625000.0	-18.3815978179	4.91149054433	-12.4086975763	-133.467907476	-60.5495861694	68.0095044473	-23.7462511191	-60.2284789429
121312500.0	-18.632612207	-1.62700088619	-11.831839077	-132.184427394	-60.675581214	66.1119730941	-23.7961003878	-59.8590912915
122000000.0	-18.9063166739	-8.1798064829	-11.2135174326	-131.067498677	-61.3011815559	56.2842631094	-23.8548922265	-59.472069347
122687500.0	-19.2536215966	-14.9173215857	-10.5657208535	-130.154644211	-61.123960709	52.1435077737	-23.8975358003	-59.0822744597
123375000.0	-19.6469092946	-21.6390035344	-9.88045438956	-129.41296475	-61.4716879215	53.0517341523	-23.9323854006	-58.5866177327
124062500.0	-20.1457580706	-28.4930997456	-9.16678367122	-128.915193997	-61.4724499777	49.0140010024	-23.9682524953	-58.0385221792
124750000.0	-20.7648035601	-34.9371507727	-8.41742146778	-128.641410501	-61.4145735928	48.4573052601	-24.0051360608	-57.4998833784
125437500.0	-21.4943847498	-40.8672440444	-7.64392985688	-128.637809277	-61.1071700853	45.069748174	-24.0380467339	-56.8198557136
126125000.0	-22.3205149049	-44.7992329022	-6.83544154384	-128.894425145	-61.3135300938	44.4149867417	-24.0752842698	-56.2162074754
126812500.0	-23.0580807345	-47.8377355427	-6.00312491105	-129.458086439	-61.37253925	44.7475653195	-24.0953779156	-55.5450918805
127500000.0	-23.6296385881	-49.9703181456	-5.13931228902	-130.385828378	-61.4634033772	42.0194805372	-24.1117897427	-54.8765268316
128187500.0	-24.1474842613	-52.1798866495	-4.25661466557	-131.732213205	-61.4178023184	34.385878117	-24.1325521929	-54.1882555803
128875000.0	-24.5521709719	-54.1309277228	-3.3494491868	-133.520054164	-60.8441561733	18.9489664682	-24.1390314342	-53.4340227818
129562500.0	-24.9045571565	-56.1931645397	-2.44341621826	-135.875763847	-60.9494379188	9.65819795326	-24.1428620251	-52.7219926397
130250000.0	-25.2123834729	-58.2470829234	-1.54435719541	-138.806113348	-60.7143125154	-3.89544254722	-24.1486849547	-52.0678903892
130937500.0	-25.4670243555	-60.2788048696	-0.683958393364	-142.331894259	-60.708449614	-19.3962745882	-24.1458301708	-51.4005654015
131625000.0	-25.7113249221	-62.1259360609	0.128677947062	-146.33129774	-60.6480046778	-36.4758957285	-24.1339585759	-50.7583561054
132312500.0	-25.9052859107	-64.0423571182	0.874284853374	-150.733274946	-60.7566068914	-60.2859654091	-24.1311066979	-50.0728741821
133000000.0	-26.0945908054	-65.9163736415	1.55784388921	-155.418785924	-60.6251471888	-82.2053979459	-24.1156832863	-49.5340125102
133687500.0	-26.2406254236	-67.7153478722	2.16863951802	-160.333411086	-60.5611631712	-96.651773714	-24.1103458904	-48.9774854418
134375000.0	-26.3747966083	-69.5283291891	2.71861751871	-165.37668501	-60.1997648071	-117.29366376	-24.1070111438	-48.4055862243
135062500.0	-26.4546168629	-71.2687115266	3.20441780756	-170.487737332	-60.0406819045	-131.218938934	-24.0988286463	-47.9719087678
135750000.0	-26.5293703762	-72.9331675292	3.63528957041	-175.62200785	-59.7882863801	-144.089557109	-24.0752292203	-47.5686494321
136437500.0	-26.56252247	-74.469805804	4.00799107826	179.218413929	-59.9665395349	-145.921072226	-24.0739259254	-47.3999735802
137125000.0	-26.5674258541	-75.9172552333	4.33021035727	174.107220933	-59.9851919004	-150.072433763	-24.0693901946	-47.2236649837
137812500.0	-26.5345082255	-77.2224265796	4.60346013805	169.055153986	-59.6702356031	-148.850653532	-24.0552055781	-46.9579281335
138500000.0	-26.4559416341	-78.3592799541	4.83408359736	164.088132944	-59.3107864588	-158.523063021	-24.0426514646	-46.8730526466
139187500.0	-26.3318887727	-79.4503915776	5.02198150359	159.224156938	-58.5950871616	-163.289025517	-24.0289790694	-46.7895252915
139875000.0	-26.1346072525	-80.4574249208	5.17445925413	154.480833078	-58.7282964982	-170.064698038	-24.0270820254	-46.7363862958
140562500.0	-25.8795884779	-81.4360972481	5.29379192022	149.861062276	-58.3990834062	-171.621549886	-24.0368568681	-46.8526649364
141250000.0	-25.5102721336	-82.3070997326	5.38478985891	145.375646145	-58.2170221766	-178.376343316	-24.0338439423	-46.9302245405
141937500.0	-25.0246561879	-83.5218324097	5.44832801553	141.048634876	-57.8951804367	-178.254409956	-24.0315646811	-47.118239125
142625000.0	-24.4209546599	-85.1971994785	5.49200659368	136.856967754	-57.7585828093	176.618026765	-24.0300908762	-47.3530901652
143312500.0	-23.7138029141	-88.7909281304	5.51332826766	132.819157626	-57.3841082309	175.048706859	-24.0261310101	-47.5941703811
144000000.0	-23.0958717397	-93.2619582026	5.51975692229	128.914379234	-57.5314224154	174.412982284	-24.0338803891	-47.8727151295
144687500.0	-22.6471396963	-98.5694644671	5.51175835488	125.164002583	-57.5888843899	172.11593495	-24.0480375286	-48.1265254119
145375000.0	-22.2389205821	-103.700691023	5.49364946099	121.554251933	-57.8631059564	167.061080096	-24.0425856263	-48.5183435818
146062500.0	-21.9492955345	-108.981020469	5.46464448085	118.072741006	-57.8940064743	164.744215978	-24.0633524832	-48.8639421529
146750000.0	-21.6973351621	-114.006840861	5.42898669421	114.716770354	-57.9725523527	162.86031854	-24.0926320323	-49.2697834575
147437500.0	-21.5022587444	-119.005609834	5.38368592605	111.4919084	-58.4697040953	158.528576508	-24.0961642498	-49.5290326709
148125000.0	-21.3408458072	-123.863998523	5.338213227	108.376849839	-58.6147152615	159.081589192	-24.11509906	-49.8014326115
148812500.0	-21.2050786292	-128.878448631	5.28565930846	105.36459674	-58.6928702811	154.018894503	-24.1292203565	-50.0804282569
149500000.0	-21.1057960568	-133.598040453	5.23470531193	102.460236255	-58.850745373	152.781125833	-24.1528611094	-50.4224573525
150187500.0	-21.0104093061	-138.282929532	5.17809707163	99.6524629396	-58.8261204394	151.832153367	-24.1697440356	-50.5650080112
150875000.0	-20.9498102914	-142.822854536	5.12610188358	96.9369571062	-59.1871274791	151.434963498	-24.1986076822	-50.7158215038
151562500.0	-20.8932687554	-147.315497839	5.06977594648	94.289628499	-59.0904403779	146.899989859	-24.2093757951	-50.9067610298
152250000.0	-20.8827692061	-151.661225836	5.01524325541	91.7297827059	-59.1579632279	146.531966383	-24.2312992357	-51.0772367145
152937500.0	-20.8621335875	-155.900592373	4.95657034014	89.2334257883	-59.4982961897	157.677574346	-24.2518002085	-51.1573134008
153625000.0	-20.867998306	-160.078056807	4.9029578005	86.8235230547	-58.9651921265	170.679721413	-24.2904136037	-51.1434309373
154312500.0	-20.8667095978	-164.188643394	4.84736308315	84.4550638183	-58.9032321248	-177.728942737	-24.2859946437	-51.1273074322
155000000.0	-20.8984299353	-168.311940243	4.79386940953	82.1500723754	-58.8369568143	-169.599058706	-24.3108187153	-51.0828205665
155687500.0	-20.9116250455	-172.355383717	4.73988749408	79.9030732631	-59.1872888136	-156.046376691	-24.3387874632	-50.9657212004
156375000.0	-20.9491588175	-176.399491858	4.68798422324	77.7143521732	-59.2940005734	-146.502837965	-24.3657832972	-50.8217070129
157062500.0	-20.9791894528	179.735737368	4.63628245425	75.5724503271	-59.2399690901	-132.580993789	-24.38418585	-50.5916045502
157750000.0	-21.0271985126	175.853794649	4.58677620849	73.4769883367	-59.1885687549	-126.931580941	-24.3988806441	-50.316348768
158437500.0	-21.0672939633	172.118960092	4.53618838577	71.42411897	-59.4301472197	-111.468162512	-24.4223060439	-50.0678237723
159125000.0	-21.111012722	168.411882347	4.4911449894	69.4182783464	-59.644295566	-106.230970732	-24.4640651112	-49.734073239
159812500.0	-21.1529373886	164.738308171	4.44517931517	67.4533314458	-59.7804250931	-90.9032171011	-24.4944437265	-49.3720403803
160500000.0	-21.2007570909	161.045145632	4.40209656616	65.5175955046	-59.9150285803	-71.0109608137	-24.5291535268	-49.0227482218
161187500.0	-21.2409563623	157.473983593	4.35847074928	63.6217985667	-60.3105191388	-44.284787019	-24.5637553356	-48.609871328
161875000.0	-21.2860109208	154.008032105	4.31690958037	61.751170221	-59.9642942233	-20.3612377808	-24.6180359707	-48.2151442411
162562500.0	-21.3464289617	150.522279584	4.27488087677	59.9153204587	-59.6815675784	9.25330499996	-24.6594981967	-47.7906086364
163250000.0	-21.38215513	147.08813927	4.23576771588	58.1078339916	-60.0358864175	33.1395203487	-24.7226470548	-47.3881763216
163937500.0	-21.4451323265	143.684522922	4.19687342041	56.3308028326	-59.6583296228	54.80226067	-24.7582803855	-46.9331324985
164625000.0	-21.4801324952	140.374449029	4.16222643823	54.5748409769	-59.1996922946	79.291033658	-24.821165633	-46.6035224486
165312500.0	-21.5411264429	137.016258595	4.12415176339	52.8473643401	-58.939429973	106.733194839	-24.8866785306	-46.2504773763
166000000.0	-21.5894707349	133.853344533	4.09173685503	51.1536859117	-59.3159770663	132.588897322	-24.9665566923	-45.9117985156
166687500.0	-21.6534127008	130.567747469	4.05777256565	49.4776163825	-58.9462508773	159.32151493	-25.0478433374	-45.5291669398
167375000.0	-21.7207380533	127.473425855	4.0268457446	47.8290500225	-59.1578018973	-173.98021783	-25.122405969	-45.2878007971
168062500.0	-21.7898580606	124.277552361	3.9943071398	46.2035355	-58.6857712827	-146.003265222	-25.1877335828	-45.0689200285
168750000.0	-21.857609051	121.211907252	3.96585755825	44.6078245937	-59.3188108335	-117.207905604	-25.289499397	-44.9133039806
169437500.0	-21.9171666648	118.0696866	3.93632223121	43.0286055273	-58.7961136154	-90.9174535373	-25.3857272256	-44.6736016478
170125000.0	-21.9893285661	114.978495165	3.91291558223	41.4613685801	-58.7262032271	-73.8051552877	-25.4775270608	-44.5958417193
170812500.0	-22.052704527	111.825254752	3.88652871222	39.9143868353	-58.6709586896	-59.9502963483	-25.5670715089	-44.4744660545
171500000.0	-22.1306114908	108.774574634	3.86413758131	38.3982116053	-58.7075252146	-47.169198658	-25.6643537365	-44.3892254506
172187500.0	-22.186160567	105.636986483	3.84298828395	36.9084654149	-58.7933413676	-36.8002263651	-25.7647288928	-44.3865389515
172875000.0	-22.2665243339	102.540091711	3.8242786142	35.4257026263	-59.067144908	-23.6411271022	-25.8528273937	-44.4415723045
173562500.0	-22.3157168407	99.470889768	3.80694713365	33.9604672675	-59.0975853376	-12.003739299	-25.9615816771	-44.6022959105
174250000.0	-22.3950927232	96.3273433925	3.79349365459	32.5144004856	-59.5014418238	1.8728356458	-26.0599775777	-44.7503787232
174937500.0	-22.4374528826	93.1745767468	3.78014051099	31.0773825968	-59.5342063845	17.6722324111	-26.1743237214	-45.0040626176
175625000.0	-22.4993799425	89.9085154806	3.77111847251	29.654946029	-59.5245738871	32.2448361216	-26.2771043944	-45.1495601733
176312500.0	-22.5375258349	86.6693199193	3.75896485505	28.2411530124	-59.5428477214	46.9967428981	-26.3838117702	-45.4070464256
177000000.0	-22.5838475924	83.4480533599	3.75175688754	26.8408416638	-59.5184738243	52.0940007671	-26.4914759929	-45.7713465422
177687500.0	-22.6085661544	80.2493670582	3.74446770408	25.4438870342	-59.9853001331	51.9523592231	-26.6083038915	-46.171137871
178375000.0	-22.6588402237	76.9087963608	3.74213571139	24.0575077495	-59.4700175212	51.5536359535	-26.7210032119	-46.4805121478
179062500.0	-22.6893698582	73.6682097005	3.73853662563	22.6801595365	-59.5766984564	52.3687883109	-26.8109773707	-46.833172754
179750000.0	-22.7028468873	70.3151662281	3.73976714636	21.3091426854	-59.2399530283	47.6988961264	-26.9289241451	-47.1510289979
180437500.0	-22.7273515172	66.9452748634	3.74023407984	19.9268248717	-59.4251400529	47.2258904314	-26.9961009261	-47.5352453457
181125000.0	-22.7294543307	63.4639486858	3.7441643749	18.5590421486	-59.6054131724	43.9053407274	-27.1032757702	-47.8106285757
181812500.0	-22.7410149963	60.0768451074	3.74542353287	17.1952177542	-59.8035078011	33.2372970298	-27.1863546883	-48.1108021629
182500000.0	-22.724900048	56.6849013397	3.75269731828	15.8470827388	-60.1702010512	16.2795700352	-27.2883849699	-48.3991703454
183187500.0	-22.7054416269	53.2827849331	3.75660876092	14.4995865146	-59.9082071149	0.582964240764	-27.360403341	-48.681813726
183875000.0	-22.681367282	49.9415869157	3.76437567724	13.1536203484	-60.1247019706	-21.3466694328	-27.4274068053	-49.0161478446
184562500.0	-22.6521837138	46.4613194988	3.77082731314	11.8151777556	-60.7297630208	-33.191670077	-27.4933266272	-49.378196249
185250000.0	-22.6019475219	43.1103865116	3.78064399311	10.4728840872	-60.8608389446	-48.8344414902	-27.5671885071	-49.5959991301
185937500.0	-22.5678179377	39.6840358566	3.7885105877	9.13245797541	-60.5433176833	-61.5368901181	-27.6104110403	-49.6916302467
186625000.0	-22.5189887297	36.3031916051	3.80134679624	7.79491221158	-60.5682502958	-80.5868429456	-27.6802544673	-49.8195293908
187312500.0	-22.4662553026	32.8156121647	3.81131033768	6.46964763032	-60.5537948347	-95.5410211574	-27.7291514181	-49.7362609366
188000000.0	-22.4083502937	29.5136217187	3.82469412955	5.13604662546	-60.5703038633	-115.574380352	-27.7653702629	-49.7265590987
188687500.0	-22.3481192878	26.0210011498	3.83673809775	3.80981177055	-60.8519645221	-130.781222917	-27.8299612993	-49.716873864
189375000.0	-22.2775173813	22.6963191845	3.85048569789	2.48078806082	-60.7364521111	-145.682735772	-27.8841952119	-49.5721834575
190062500.0	-22.2068540885	19.2838239592	3.86471153374	1.15606986317	-60.0511676208	-160.463384172	-27.9349026635	-49.4196583304
190750000.0	-22.1486796109	15.9267405084	3.88086800814	-0.172058239164	-60.1812740176	-175.602191402	-27.9958735449	-49.1512601381
191437500.0	-22.0698413525	12.4962834391	3.89404959318	-1.48955261541	-59.7261827527	167.868718663	-28.0532510342	-48.9426822865
192125000.0	-22.0012196479	9.2105727341	3.91009005594	-2.80605557728	-60.0805061133	150.899854018	-28.1093266791	-48.6367819359
192812500.0	-21.9247917252	5.87549089075	3.92500818567	-4.11283664859	-59.7618317101	125.230745109	-28.1680449344	-48.512373145
193500000.0	-21.8596359224	2.58399005684	3.94260032153	-5.43488490965	-60.6824875635	98.1209443271	-28.2293093133	-48.2432817283
194187500.0	-21.7803122566	-0.807504727354	3.95667678632	-6.74329401789	-60.3770444629	76.1054349939	-28.2712649363	-47.8281097477
194875000.0	-21.7197259049	-4.18402112985	3.97442047596	-8.05343727492	-60.0818607643	48.706364793	-28.3156432198	-47.3837761021
195562500.0	-21.622635553	-7.46584465314	3.99108593028	-9.35426947625	-59.9204058614	10.0802139945	-28.3698772743	-47.0884642751
196250000.0	-21.5417036961	-10.9041913484	4.00946752815	-10.6488100043	-60.1875845296	-33.7605763076	-28.4217423469	-46.7933266493
196937500.0	-21.4466760878	-14.165732617	4.02613424018	-11.9460517288	-60.1796582707	-81.4822657698	-28.487865017	-46.3564139777
197625000.0	-21.3660738096	-17.4599600428	4.04552730893	-13.2133597855	-59.6779432547	-123.421023201	-28.5524128997	-45.9769022208
198312500.0	-21.2629587788	-20.6396149345	4.06295226103	-14.4850164714	-59.6776890984	-165.591588814	-28.6059167692	-45.8571009776
199000000.0	-21.1747005972	-23.9327542458	4.08553458033	-15.7601954623	-59.7322904622	162.117683267	-28.6601371807	-45.7490927707
199687500.0	-21.072952951	-27.0848419169	4.10482288854	-17.0376921926	-59.3137340884	126.534597562	-28.71343183	-45.6321617655
200375000.0	-20.9794501949	-30.3145962516	4.12745863304	-18.3113473917	-59.1904958047	98.9795769629	-28.7772530036	-45.5300878901
201062500.0	-20.8696325785	-33.4622995573	4.14760437396	-19.576350745	-59.6531242374	70.0538402685	-28.8638444591	-45.3737733844
201750000.0	-20.7582871114	-36.5899618641	4.17259767242	-20.8453229064	-59.2105743338	39.9627561021	-28.9354803617	-45.2355405345
202437500.0	-20.6493975681	-39.6785471178	4.19441157175	-22.1089055627	-59.0535641639	4.15988295516	-29.0204950709	-45.2001149566
203125000.0	-20.5234287095	-42.7322926899	4.22045967309	-23.3689022108	-58.6138612834	-28.846260183	-29.0813813705	-45.1944495944
203812500.0	-20.4000176227	-45.6638860653	4.24265094462	-24.62651907	-59.3054844298	-58.8539068499	-29.1346185856	-45.381601458
204500000.0	-20.2733050231	-48.5668861926	4.26875133048	-25.8854562981	-58.9298570997	-88.5213487307	-29.1864401337	-45.6498753883
205187500.0	-20.1468247683	-51.4522066126	4.29383482854	-27.135513348	-59.247144656	-118.653714942	-29.2620680752	-45.8969750514
