#Frequency	|S11|	<S11	|S21|	<S21	|S12|	<S12	|S22|	<S22
100000000.0	-16.3280634583	150.827777861	-35.8605886772	-126.309371534	-57.5980909313	134.718317849	-20.5374460174	-36.2521593934
100687500.0	-16.3043859904	148.339187964	-35.7504783271	-124.606170346	-60.3048100116	-176.262630875	-20.5557047819	-36.3763647485
101375000.0	-16.2840795803	145.844080461	-35.4442894706	-125.029276642	-63.7137324698	62.9563975837	-20.5948973823	-35.8232489565
102062500.0	-16.2852641681	143.307316535	-35.1139575029	-126.410411821	-63.2602303319	-12.0249203586	-20.6315669793	-35.1428677999
102750000.0	-16.2835574675	140.718459205	-34.7085361196	-127.567467014	-62.223225406	-23.0416720618	-20.7039917151	-34.5172577024
103437500.0	-16.2939609135	138.162607406	-34.3542308159	-128.977791107	-62.1979954403	-40.7924890175	-20.7508445519	-33.801371432
104125000.0	-16.3251875029	135.39230996	-34.0090248421	-130.29866341	-62.9495232008	-53.5412273138	-20.8222026496	-32.9705134346
104812500.0	-16.3508866944	132.599345721	-33.7059153917	-131.62081257	-62.6487029172	-75.1758724916	-20.8956150144	-32.4197273811
105500000.0	-16.3859314498	129.690742557	-33.4308488661	-132.910642641	-62.9149271835	-88.2113931252	-20.9625645169	-31.9604801441
106187500.0	-16.4286640657	126.697404711	-33.1867401508	-134.355508408	-62.6200337064	-97.7347893871	-21.0410518848	-31.4325117921
106875000.0	-16.477720859	123.545547763	-32.9564885197	-135.640719539	-62.5692297969	-118.438734699	-21.1262203153	-31.0100177549
107562500.0	-16.5359084934	120.315166014	-32.7615444002	-136.912892667	-62.7636128553	-145.756475323	-21.2152833058	-30.5571770745
108250000.0	-16.5986112562	116.881350829	-32.5948989217	-138.28579773	-63.1786658106	170.100979282	-21.3071159123	-30.274525514
108937500.0	-16.6412158031	113.652015494	-32.420278022	-139.455648916	-63.1497856936	127.626108441	-21.391323787	-29.8470398772
109625000.0	-16.6914482792	110.364531332	-32.2458217342	-140.642687792	-62.939198814	78.3033551053	-21.4840250761	-29.3791991859
110312500.0	-16.7363590796	106.958221941	-32.0490390622	-141.812783917	-63.0223570656	36.5729361099	-21.5714892933	-28.9427607642
111000000.0	-16.7969490192	103.453542277	-31.9186617387	-143.062343354	-62.0288397773	6.9098069695	-21.6581524905	-28.586848679
111687500.0	-16.8504517409	99.8240057868	-31.7965985359	-144.063125814	-61.9457083415	-19.5559641455	-21.7549627519	-28.2899095099
112375000.0	-16.9148596135	96.0802038778	-31.7206874695	-144.746719679	-62.2875665297	-37.7245969009	-21.8547848076	-28.0464471275
113062500.0	-16.9701223289	92.262878084	-31.6555564142	-145.348048291	-61.9505082501	-63.3571017052	-21.9573782018	-27.7650627491
113750000.0	-17.032786224	88.3098184025	-31.623108209	-145.71605001	-62.0490539771	-88.6354014243	-22.0621930312	-27.5159715779
114437500.0	-17.0974779347	84.2714390483	-31.607907291	-145.613908382	-62.3252341791	-107.619699511	-22.1703926241	-27.3505919174
115125000.0	-17.1624615264	80.0220554359	-31.6064111481	-145.015788136	-62.9470883701	-129.941770338	-22.2791932338	-27.16022437
115812500.0	-17.2278807505	75.6835077936	-31.6113316746	-144.027869552	-62.7314447157	-142.770991208	-22.3930274499	-27.0194920821
116500000.0	-17.2931532813	71.214684421	-31.5637156406	-142.823506743	-62.0425062467	-165.634848609	-22.4984387373	-26.9418548892
117187500.0	-17.3614495821	66.6556618259	-31.4599869645	-141.125542948	-61.8711506306	-177.918650622	-22.6008363435	-26.9334172429
117875000.0	-17.4364343246	61.9242147562	-31.296301785	-139.269474568	-61.7759956687	165.102057485	-22.7170053386	-26.7901668421
118562500.0	-17.5232205978	57.0956924722	-31.0807638749	-137.314010517	-62.0860194991	150.740864486	-22.8200916529	-26.7146793071
119250000.0	-17.6148507989	52.1179393687	-30.8137000898	-135.230010795	-61.6076999853	135.726360543	-22.9224855981	-26.5576705836
119937500.0	-17.7219699244	46.9832281003	-30.489147425	-133.268924898	-61.8408546353	123.020230617	-23.0287822936	-26.5477879601
120625000.0	-17.831869389	41.6952170504	-30.1007680829	-131.276346653	-62.0717409719	107.680292366	-23.1436518022	-26.556851106
121312500.0	-17.9760416626	36.2823085625	-29.6889740051	-129.287090269	-62.7509868434	94.5395767451	-23.2447874876	-26.5869992559
122000000.0	-18.1310936657	30.7432357713	-29.2233140942	-127.431264022	-62.6025375096	91.9120472616	-23.3666644835	-26.6165969814
122687500.0	-18.3289895445	25.0328173783	-28.7210492918	-125.771934335	-62.4544942681	89.3325267577	-23.4777358407	-26.6783185544
123375000.0	-18.552032514	19.2380794982	-28.1652033369	-124.166306916	-62.4743158742	80.8875094694	-23.5815113351	-26.7051503929
124062500.0	-18.8268283267	13.1845210781	-27.5889529303	-122.828791486	-62.3637640564	70.89052887	-23.6860621859	-26.8095952306
124750000.0	-19.1602385453	7.09892217633	-26.9724543859	-121.417384103	-61.6959739869	71.1926357817	-23.792883093	-26.7966521181
125437500.0	-19.5678211144	0.682985347537	-26.3186694115	-120.417169318	-61.7925904107	70.7811941017	-23.8892830987	-26.7952881772
126125000.0	-20.088104464	-5.71653625609	-25.6052449956	-119.497609022	-61.7137595363	72.7761738658	-24.001570137	-26.8367108753
126812500.0	-20.7083299491	-12.4881752783	-24.8896943088	-118.949149185	-61.6186216601	79.8414061637	-24.0915856543	-26.8792105243
127500000.0	-21.6309084571	-18.7665971524	-24.1407831734	-118.508899746	-61.5491305166	83.9140842746	-24.1778664377	-26.9909151173
128187500.0	-22.9868164857	-26.8387762007	-23.3571171694	-118.36479001	-61.7706291871	87.3177524494	-24.2736025979	-27.0179239889
128875000.0	-23.9791022633	-40.9143370358	-22.5368152658	-118.388766811	-62.3149443417	100.846654054	-24.3477998406	-27.0442943623
129562500.0	-24.7428267189	-55.3193183291	-21.7044385729	-118.971127213	-61.6018944005	100.756817558	-24.4298794323	-27.0332527755
130250000.0	-25.3754047897	-69.7783582374	-20.8208991682	-119.807078474	-62.1362092812	112.962284357	-24.512640734	-27.1343283014
130937500.0	-25.9079328225	-84.4732848587	-19.9404563905	-121.15659491	-62.0806566925	124.159285084	-24.5881003508	-27.1793967255
131625000.0	-26.3757590598	-99.1392500584	-19.0497819106	-122.969738416	-62.7501643731	128.407942257	-24.6497023882	-27.2939638401
132312500.0	-26.7846620588	-113.983865459	-18.1385523073	-125.496648238	-61.9619144125	130.302310516	-24.7045423318	-27.3462175163
133000000.0	-27.1787791127	-128.817312015	-17.2414127929	-128.481348599	-61.9757127349	129.16690599	-24.7638334701	-27.499244294
133687500.0	-27.5296271162	-143.811631109	-16.4084300131	-131.958870681	-62.5276713195	135.972578294	-24.8315407413	-27.5858764502
134375000.0	-27.8554420407	-158.86497057	-15.6247581077	-135.903239645	-63.4229666892	133.465693227	-24.8806536097	-27.7379763745
135062500.0	-28.1462660607	-174.170675296	-14.916556344	-140.237661971	-63.4770783407	133.990086025	-24.9226461254	-27.9522476901
135750000.0	-28.4265730424	170.525630393	-14.2548259221	-144.704382115	-63.0307222868	138.504178411	-24.9591858902	-28.2075540138
136437500.0	-28.6581972552	155.132561972	-13.6607878604	-149.414535321	-63.0699296174	151.19315871	-24.9999979048	-28.5271650424
137125000.0	-28.8808768977	139.739591588	-13.1260080477	-154.222233145	-63.3824722001	154.989339265	-25.0377084871	-28.7538057017
137812500.0	-29.0557256487	124.327111603	-12.6481108812	-159.043432336	-63.2335615363	167.766188914	-25.0666696222	-28.9519431101
138500000.0	-29.1992129359	108.871527613	-12.2235401832	-163.95016494	-62.2897371092	169.584163637	-25.0850121796	-29.3088898516
139187500.0	-29.3056629721	93.44416221	-11.8487089092	-168.835893379	-62.3573779146	170.989600188	-25.0842592235	-29.572349967
139875000.0	-29.3592500658	77.9787066326	-11.5234357671	-173.691971764	-62.3896328751	-175.093464283	-25.0771845487	-29.8470226418
140562500.0	-29.368518304	62.5429541597	-11.2372177703	-178.452077813	-62.2437462842	-160.401391211	-25.0859052024	-30.2350610809
141250000.0	-29.3103249221	47.214876224	-10.9931092853	176.810091039	-62.5788760082	-143.83134538	-25.0674052776	-30.5735247994
141937500.0	-29.1795734052	31.9985882667	-10.7844889595	172.182922131	-62.6551601436	-125.636060989	-25.0472362997	-30.9807717837
142625000.0	-28.9529987455	16.9847378043	-10.6123857436	167.646483333	-62.5132816615	-101.683537443	-25.0212658372	-31.2644141258
143312500.0	-28.6101000742	1.98265710516	-10.4704032872	163.241994552	-62.7251479376	-72.8167827872	-24.9728376336	-31.6688086563
144000000.0	-28.1497472483	-12.7371957877	-10.3583975816	158.920664228	-62.8302748615	-54.2846690055	-24.9364545483	-32.067337639
144687500.0	-27.3892706548	-27.910930891	-10.2685430945	154.761810043	-63.033648912	-29.3321370639	-24.8993205191	-32.4635056052
145375000.0	-26.1646209458	-41.2582415525	-10.2005906589	150.700988815	-63.283823291	-3.56374246033	-24.8537205159	-32.7981335654
146062500.0	-25.3076273167	-48.5267487753	-10.1505598374	146.785290636	-63.0358601	10.7479867954	-24.8069749793	-33.1052186577
146750000.0	-24.6557645678	-55.3982728021	-10.1156846346	142.968872175	-63.5093043825	24.4412072885	-24.7485570836	-33.3506436446
147437500.0	-24.1424440211	-62.2046304522	-10.0980747573	139.303022863	-63.1304932847	36.110266683	-24.6704034898	-33.6030818094
148125000.0	-23.7137496446	-68.6775368211	-10.0887673857	135.746762618	-63.2530855326	40.5850525596	-24.5892429545	-33.7751988663
148812500.0	-23.3602845917	-75.175404092	-10.0952067603	132.303857582	-62.5520371908	54.8357094552	-24.498627967	-33.9963535149
149500000.0	-23.0431117985	-81.2680457101	-10.10447752	128.982651672	-62.5439948706	79.1215551811	-24.4389275061	-34.1560396623
150187500.0	-22.7454344491	-87.3534538723	-10.12767435	125.752345747	-62.5625728193	98.8044892166	-24.3503249425	-34.2764859289
150875000.0	-22.474768554	-93.0499814803	-10.1502447895	122.655969404	-62.1801777609	121.584365182	-24.2651183701	-34.2897499528
151562500.0	-22.231420298	-98.7020495391	-10.1835537938	119.625912404	-61.4120287547	145.662487553	-24.168706579	-34.3152752644
152250000.0	-22.0143811276	-103.867625274	-10.2159154465	116.705093157	-61.1444720404	174.660250201	-24.0901306521	-34.1872260269
152937500.0	-21.7889021765	-108.908615279	-10.2577612078	113.848272651	-61.5015111427	-166.231912954	-23.992455377	-34.0653760432
153625000.0	-21.6090596457	-113.666273252	-10.2943396823	111.11461919	-61.6586694017	-150.068506618	-23.907357654	-33.7710230755
154312500.0	-21.4187875162	-118.300852924	-10.3399970133	108.43471908	-61.6771239658	-136.031736965	-23.801677114	-33.5783137272
155000000.0	-21.2709836385	-122.712755049	-10.3864283485	105.830550353	-61.9020846642	-131.809152324	-23.7002893553	-33.2390706471
155687500.0	-21.1195843078	-126.952319531	-10.4373949852	103.289927737	-61.7689035451	-115.34605563	-23.6082172194	-32.8312188789
156375000.0	-20.9987275226	-130.971511903	-10.481221295	100.83134304	-61.7356504217	-111.917323907	-23.5160789758	-32.4050058259
157062500.0	-20.8791957002	-134.766591615	-10.5296367691	98.4252335872	-61.7705538765	-119.840228985	-23.4321151841	-31.8605092285
157750000.0	-20.7879428901	-138.485586277	-10.5789987166	96.0857694232	-61.7341675481	-119.053828163	-23.3352458438	-31.2823601285
158437500.0	-20.7022728998	-141.968211605	-10.6296435391	93.7976494365	-61.4564638767	-117.99360285	-23.2578303531	-30.6460651075
159125000.0	-20.634163663	-145.413445979	-10.6776307507	91.5783292797	-61.5003688469	-116.106698129	-23.1897732769	-29.9625804945
159812500.0	-20.5844361381	-148.660695864	-10.7275373206	89.4065418934	-61.6237949669	-107.39833192	-23.1119898889	-29.2887347522
160500000.0	-20.5485058841	-151.839549844	-10.7741832826	87.3004236995	-61.4388588185	-99.4805702676	-23.0515397463	-28.5214498125
161187500.0	-20.5271999484	-154.795042763	-10.8225879841	85.2302507447	-61.5152126517	-85.5041920355	-22.9928941118	-27.710294138
161875000.0	-20.5130068005	-157.690276401	-10.8691896571	83.1842224906	-61.2592199841	-71.9341878626	-22.9444838022	-26.8490137636
162562500.0	-20.5301818968	-160.48520232	-10.9157474422	81.1807647723	-61.1076879068	-67.2965546068	-22.8920958406	-26.0277262041
163250000.0	-20.546712787	-163.263106648	-10.9622724155	79.2047390444	-60.9756836293	-65.3043235806	-22.8528119688	-25.1540101171
163937500.0	-20.585498458	-165.930565408	-11.008724073	77.2982086112	-60.7174069486	-63.1953892346	-22.8114003779	-24.3631617902
164625000.0	-20.6357480731	-168.583165697	-11.0517048429	75.4031368054	-60.4895701357	-70.6030527526	-22.7853440619	-23.5027906836
165312500.0	-20.7097824342	-171.129532271	-11.0982826496	73.5676973285	-60.6200775262	-72.7375072656	-22.7746002152	-22.6858439676
166000000.0	-20.7818846387	-173.578323213	-11.1419245534	71.7374671272	-60.4632343666	-86.2418592313	-22.7726394003	-21.7764268134
166687500.0	-20.8960864074	-176.103690503	-11.1884845649	69.9579805415	-60.3529348126	-107.318671124	-22.7614806045	-20.8775983431
167375000.0	-21.0001871116	-178.467851463	-11.2299492915	68.1995584561	-60.5575760954	-124.866989538	-22.7760001388	-20.0216058386
168062500.0	-21.138506509	178.979158031	-11.2721218455	66.4694941145	-60.3206692454	-152.579352371	-22.7873727163	-19.1958432352
168750000.0	-21.2763698847	176.593759737	-11.3116183754	64.7755506217	-60.6218076595	-172.439664891	-22.8232091067	-18.328908803
169437500.0	-21.4437546563	174.034213173	-11.3513849257	63.1183260804	-60.4386206434	160.967733607	-22.8545750563	-17.546478598
170125000.0	-21.617412034	171.553815846	-11.3896104782	61.4660824106	-60.2184713883	142.677637003	-22.9051270228	-16.7430947784
170812500.0	-21.8095632987	168.908524918	-11.428010608	59.8414082492	-60.1333275865	118.200696128	-22.9621614098	-15.9950318877
171500000.0	-22.0074371511	166.340971756	-11.4651883878	58.2432852906	-59.6832324582	93.0797934202	-23.0282984925	-15.2160665206
172187500.0	-22.2217199784	163.587538894	-11.4979954788	56.6732880919	-59.473899868	80.0026464204	-23.1023335628	-14.581639296
172875000.0	-22.4471547943	160.77335691	-11.5289141417	55.139124885	-59.803577745	64.567319315	-23.1752166532	-13.9139475379
173562500.0	-22.6664999288	157.633066026	-11.5616082903	53.6136001028	-59.6039153716	50.0554372961	-23.2683085981	-13.3202777826
174250000.0	-22.9042087863	154.558929066	-11.5917840843	52.1213889328	-59.3992208313	48.3918670662	-23.3569659092	-12.7122102188
174937500.0	-23.1153189674	151.283196949	-11.6206411765	50.6316473402	-59.386685397	39.4869812995	-23.4632598441	-12.1976190302
175625000.0	-23.3426705403	147.768065449	-11.6451925244	49.1715078528	-59.2638309388	37.2470483427	-23.5701193771	-11.6564269261
176312500.0	-23.5572979464	144.086980353	-11.672479822	47.7164051057	-59.0673961399	33.5496777893	-23.6900170411	-11.2317136415
177000000.0	-23.7591562027	140.333133059	-11.6924603836	46.2865430833	-59.2781895427	24.0101479232	-23.8282838587	-10.8914675861
177687500.0	-23.9247942631	136.441449493	-11.71933154	44.8317731934	-59.639935238	20.786855408	-23.9679237581	-10.4838413603
178375000.0	-24.0974027951	132.363092551	-11.7375533306	43.4263053747	-59.5115709412	23.9230206949	-24.1027444824	-10.1197098783
179062500.0	-24.2372759954	128.318595739	-11.7575833444	42.025670675	-59.6377567846	17.5881192845	-24.2390642733	-9.89622284945
179750000.0	-24.3545935664	124.044584446	-11.771664887	40.6492362244	-59.5796594546	16.5618595031	-24.3882659095	-9.61252597634
180437500.0	-24.451401194	119.746298128	-11.7905962321	39.2717589259	-59.5166992393	16.8641374043	-24.5317471206	-9.56029400746
181125000.0	-24.5279823149	115.312950679	-11.8037889103	37.9141387599	-59.6404676528	20.4269807602	-24.7021219956	-9.39069550209
181812500.0	-24.5703745387	111.059983977	-11.8214997836	36.559251766	-59.8889173783	32.5780174297	-24.8591637856	-9.33778799917
182500000.0	-24.5883645196	106.586953735	-11.8315493049	35.2170234739	-59.4596461164	35.5808497706	-25.036617888	-9.2036673007
183187500.0	-24.5774005178	102.162525993	-11.8433077415	33.8856878689	-59.4756976167	38.0646842712	-25.1950167317	-9.19791423073
183875000.0	-24.5320383688	97.7982262089	-11.850175399	32.5644273008	-59.5678383873	46.0901879102	-25.3664181369	-9.27131364298
184562500.0	-24.4830406098	93.3410409717	-11.861724046	31.2501191238	-59.5442801552	49.6811569554	-25.5169767833	-9.43669519449
185250000.0	-24.3882906464	89.0434221289	-11.8681980733	29.9405613299	-59.4949899075	63.7552660624	-25.6868808246	-9.50548399838
185937500.0	-24.2882466042	84.67243589	-11.8776687999	28.6449260615	-59.119502786	67.4362557746	-25.8287187777	-9.66049541417
186625000.0	-24.1520295486	80.47375493	-11.8842801917	27.3476427774	-59.3346705221	82.532482095	-25.9958207619	-9.83280023532
187312500.0	-24.0111608153	76.2262691697	-11.8884960598	26.062291783	-59.2456464722	88.8603846523	-26.1378911212	-9.9608984342
188000000.0	-23.8291814347	72.1717331679	-11.8925558577	24.7757876423	-59.505102436	101.908283674	-26.2893411091	-10.2232574606
188687500.0	-23.6433845865	68.0657474452	-11.8949359104	23.5054364154	-59.3822063	115.213924117	-26.4355127107	-10.5561544696
189375000.0	-23.4244935317	64.225613819	-11.8984666461	22.2411618588	-59.302263374	117.630932779	-26.5897748612	-10.8744645612
190062500.0	-23.2056615726	60.4333466548	-11.9017326533	20.9771607746	-60.008657909	120.986283937	-26.7160640975	-11.1156213617
190750000.0	-22.973086613	56.9582082362	-11.9022337133	19.7148382155	-60.1099126837	127.404346895	-26.8522904168	-11.4558401275
191437500.0	-22.7277929511	53.4810312881	-11.9018506647	18.4662479753	-60.5121439384	130.574643291	-26.9862441659	-11.9003275786
192125000.0	-22.4903377923	50.3409217068	-11.9037805584	17.2089272532	-60.3785633151	141.269064933	-27.0897360697	-12.3511156217
192812500.0	-22.2371718705	47.3170746584	-11.9027272093	15.9754375193	-60.2315352447	144.098071947	-27.2062075952	-12.810701048
193500000.0	-21.9982251282	44.5979394362	-11.8999038301	14.7283114687	-60.2864071836	137.841842171	-27.2949926716	-13.3772774611
194187500.0	-21.7593321248	41.8876557237	-11.9010469593	13.5009100164	-60.1278753499	134.978259352	-27.3800096399	-13.7738247612
194875000.0	-21.5599348454	39.421761875	-11.8971082467	12.2690396413	-59.8123477505	119.927509297	-27.4636566959	-14.4274825159
195562500.0	-21.3401730512	36.9937379964	-11.8934409297	11.0352455962	-59.8065917121	104.919181759	-27.5396184266	-15.0569891185
196250000.0	-21.1530666503	34.6761789153	-11.891127252	9.8242373928	-59.5123230441	101.589818815	-27.6027214718	-15.7684695479
196937500.0	-20.9692141539	32.4502125291	-11.8894482071	8.61978923015	-59.6792172782	91.6367633985	-27.6566050757	-16.346028189
197625000.0	-20.8111465024	30.3448692881	-11.8838851662	7.42519953257	-59.9585711958	93.6108818485	-27.6914902826	-16.9960087543
198312500.0	-20.6582993125	28.3042769984	-11.87953854	6.22506506382	-59.6258863322	105.212152513	-27.7173103888	-17.7555263022
199000000.0	-20.5423902767	26.2153736823	-11.8712401938	5.03248233063	-59.8127064466	107.875583287	-27.723463234	-18.5967946119
199687500.0	-20.4226131205	24.2026592837	-11.8660286827	3.83801636138	-59.7688967472	112.436351354	-27.7163675179	-19.4311085433
200375000.0	-20.3362571675	22.2593087357	-11.8584497668	2.65483947763	-59.8270837026	126.843557867	-27.7127901575	-20.3496541614
201062500.0	-20.2533904767	20.2835498103	-11.8522070158	1.46306080655	-59.9638677748	144.45367549	-27.7056613314	-21.2312392886
201750000.0	-20.1855998415	18.304865047	-11.8401294467	0.288465871649	-59.6884322316	169.79128717	-27.6858748804	-21.945185744
202437500.0	-20.1296649185	16.3280365829	-11.8329406785	-0.902652575957	-60.3245520364	-173.439752833	-27.6452627614	-22.8966780753
203125000.0	-20.0846241524	14.3962069345	-11.8193753015	-2.07535858537	-60.5597397219	-146.036322748	-27.6053351866	-23.8120196113
203812500.0	-20.0346448798	12.4100207462	-11.8105698868	-3.25535725761	-60.5903218619	-132.249396222	-27.5367131006	-24.7790788264
204500000.0	-20.0069176788	10.3639310466	-11.797240984	-4.41170441419	-61.062456205	-120.783168753	-27.4764840549	-25.6656455063
205187500.0	-19.990119216	8.3878188786	-11.7871016324	-5.58707201569	-60.694478571	-109.516400636	-27.3900912353	-26.618330859
