#Frequency	|S11|	<S11	|S21|	<S21	|S12|	<S12	|S22|	<S22
100000000.0	-17.3803897414	131.110898102	-19.8545047008	-127.196201986	-59.8369137583	-93.8055110095	-21.9723542052	-58.7313072855
100687500.0	-17.2759002613	128.224915628	-19.4454388165	-128.328929093	-60.570231288	151.261802958	-22.0978772163	-59.3011068669
101375000.0	-17.2122427758	125.220941162	-19.0609679816	-129.534960791	-59.7542982148	153.153784247	-22.126498593	-59.0618780519
102062500.0	-17.13968193	122.289916495	-18.7034012695	-130.94080801	-59.7088939655	136.727779804	-22.1991974289	-58.7182771122
102750000.0	-17.0818942575	119.293414013	-18.3894880664	-132.39175505	-58.812710247	121.823063691	-22.2712225272	-58.5801880568
103437500.0	-17.0327014407	116.329660557	-18.0835336732	-133.785265506	-59.809412686	137.74983987	-22.3619351984	-58.4963348046
104125000.0	-16.9954485381	113.174764924	-17.7956361798	-135.232505239	-60.4978240791	161.439310355	-22.4753968124	-58.4055285999
104812500.0	-16.9564194144	110.051243765	-17.5410016631	-136.653684337	-60.762922239	161.528308715	-22.5596068608	-58.4510555562
105500000.0	-16.9307804815	106.744882281	-17.3126866428	-138.081731044	-60.4757959791	160.102612909	-22.6345427943	-58.4800495849
106187500.0	-16.9090628443	103.369409038	-17.126369055	-139.519251907	-60.9547269962	159.829949947	-22.7246437831	-58.56590782
106875000.0	-16.8980861689	99.8941466227	-16.9703307988	-140.888656151	-60.3684939507	130.78303361	-22.8142559229	-58.6664717955
107562500.0	-16.9042746357	96.3026925221	-16.8561692595	-142.153735553	-60.401580591	106.492959035	-22.9056427198	-58.7483762697
108250000.0	-16.9108389728	92.532747522	-16.7932281728	-143.23688996	-60.1943453572	88.0038653123	-22.9851816148	-58.9092906996
108937500.0	-16.8961251686	88.9834302311	-16.6625801388	-144.349538806	-60.1296889459	64.2724134936	-23.065884744	-58.9255953298
109625000.0	-16.8891246399	85.3261835313	-16.5591033576	-145.311948814	-59.7150155943	50.8391122094	-23.1373038635	-58.9205881345
110312500.0	-16.8776931434	81.6164416112	-16.4905491287	-146.132744696	-60.235955234	44.6243421743	-23.2163476696	-58.9902669965
111000000.0	-16.8778471242	77.764982809	-16.4487482647	-146.706764402	-60.2925562246	30.6202769143	-23.2933493512	-59.0428834468
111687500.0	-16.8744658338	73.8523114408	-16.4347460394	-146.974416025	-60.7538202775	12.4291016933	-23.3742312145	-59.2106144753
112375000.0	-16.8838351589	69.8189029505	-16.4283653847	-146.818939352	-61.1075697159	0.779162288904	-23.4495549125	-59.3651243032
113062500.0	-16.8929355918	65.6896238048	-16.4163607759	-146.243698811	-61.030204471	-0.556641172695	-23.5272629588	-59.477778548
113750000.0	-16.9098100691	61.4814000845	-16.3727477965	-145.255132584	-61.2047554328	-1.40787955753	-23.6027901223	-59.5457142847
114437500.0	-16.9296217586	57.147473651	-16.2923650467	-143.899115521	-61.6653217458	-2.15515730006	-23.6807637939	-59.6908075619
115125000.0	-16.9592526846	52.6772836459	-16.1617170058	-142.317913022	-62.0355323243	-12.3293906999	-23.7457803482	-59.7627974113
115812500.0	-16.9841340573	48.0614446096	-15.9788089912	-140.536465638	-61.7409144687	-30.7660494002	-23.8100353004	-59.8014567755
116500000.0	-17.028903283	43.4062697337	-15.736301276	-138.654507557	-62.1739492348	-42.6620592758	-23.8640113612	-59.8163155727
117187500.0	-17.0754211691	38.6128308591	-15.4451055982	-136.745372798	-61.7951230546	-54.7612033165	-23.9130936211	-59.8310181092
117875000.0	-17.1509041039	33.7038639124	-15.0952506998	-134.848232269	-61.6368478548	-67.4896841876	-23.9804140715	-59.730856356
118562500.0	-17.2371607543	28.6252976867	-14.7023656958	-133.009144375	-62.0234781297	-70.6579245101	-24.0376309515	-59.5547465405
119250000.0	-17.3484477172	23.5048885979	-14.2582041127	-131.237581234	-62.2500741688	-84.1950940597	-24.0922671507	-59.2941420972
119937500.0	-17.4834849391	18.2629875672	-13.7731985308	-129.58334676	-62.053402876	-92.8293199516	-24.1365931916	-59.0686467245
120625000.0	-17.6481237266	12.9289122825	-13.2398819545	-128.049450086	-61.6231360067	-104.730048751	-24.1945244148	-58.7748027308
121312500.0	-17.8664736599	7.52685207469	-12.669922134	-126.658207825	-61.5303698959	-111.656163547	-24.2218647459	-58.4295656439
122000000.0	-18.1277205969	2.05880317891	-12.0605188768	-125.425764147	-61.5233240948	-112.885805778	-24.268694445	-58.10724887
122687500.0	-18.4577335873	-3.37075037155	-11.4215336587	-124.41602651	-62.0469814182	-109.901844743	-24.2968726725	-57.7101386772
123375000.0	-18.8359889331	-8.71358289918	-10.7465203949	-123.564997273	-61.8448174056	-107.61301424	-24.3152345959	-57.2313469667
124062500.0	-19.3235509837	-13.826860914	-10.04139696	-122.968815116	-62.1734478845	-106.651968505	-24.3382086604	-56.6812994247
124750000.0	-19.8988524981	-18.3989725324	-9.30108873232	-122.572850165	-62.1680482224	-109.407627445	-24.3515819921	-56.1099562911
125437500.0	-20.5413629964	-22.2351901495	-8.53603169631	-122.459003964	-62.1787723137	-106.494226673	-24.361684921	-55.4016216795
126125000.0	-21.1861158327	-24.8708182848	-7.734295902	-122.578438418	-62.1132613027	-95.5073991754	-24.3833790402	-54.7687495106
126812500.0	-21.7466192651	-26.898628221	-6.91067329319	-123.032753502	-62.5774807382	-94.4374273872	-24.3976779189	-54.077167433
127500000.0	-22.2193401342	-28.4158544928	-6.05092796499	-123.800172928	-62.0591322936	-87.6149030146	-24.4012922557	-53.3770673543
128187500.0	-22.6494505989	-29.7482028555	-5.17460046898	-125.009774388	-62.5539482972	-71.2140070799	-24.4045985899	-52.6456816524
128875000.0	-23.0153237116	-30.9417565989	-4.27112174945	-126.647851897	-61.6241513747	-48.2421900823	-24.4020216832	-51.7746365684
129562500.0	-23.341106608	-32.0606175485	-3.37103726343	-128.863470024	-61.3148272664	-32.8105836282	-24.3937182864	-50.9232728481
130250000.0	-23.6323224214	-33.2104593069	-2.47907622622	-131.630501495	-61.2244080616	-24.7909023767	-24.3949618931	-50.1488812393
130937500.0	-23.8890105944	-34.3336246071	-1.62516222637	-134.972680865	-61.0326835468	-20.0852742562	-24.387555767	-49.3470940268
131625000.0	-24.120639001	-35.3875350411	-0.816882597304	-138.756883605	-60.8500665463	-4.10907038809	-24.3633707458	-48.5249512223
132312500.0	-24.3423841138	-36.4243068569	-0.0702538474606	-142.94225282	-60.4236296479	9.28160058531	-24.3648723086	-47.6776440168
133000000.0	-24.5418235586	-37.4897363374	0.617823724447	-147.407019558	-60.5459504217	20.0763444918	-24.3500919609	-46.9077466101
133687500.0	-24.7250914026	-38.5786950945	1.23594133875	-152.093233618	-59.8119359904	31.13235535	-24.3487226098	-46.1256716979
134375000.0	-24.8822122457	-39.579400848	1.79795402689	-156.909864272	-60.3718451497	34.6805602744	-24.342067233	-45.4537034
135062500.0	-25.0116545473	-40.6548881037	2.29789057302	-161.813118228	-60.3346959635	46.0700382501	-24.3270405141	-44.7948299726
135750000.0	-25.1277689349	-41.6470329891	2.74315301569	-166.74585245	-59.7804786125	52.8666103653	-24.3073669953	-44.2811835933
136437500.0	-25.2154164819	-42.6309251466	3.13257073844	-171.702146683	-59.4292559176	65.4145944665	-24.3048277562	-43.8358659365
137125000.0	-25.2828008008	-43.637683193	3.47458489124	-176.629300602	-59.6440839721	76.8264755722	-24.3122284757	-43.3682773901
137812500.0	-25.3027473061	-44.5755306643	3.76833370638	178.502041346	-59.6974026352	90.3226283006	-24.298283625	-42.9245023796
138500000.0	-25.2796227653	-45.5428923329	4.02221465749	173.690639118	-59.6758262151	99.0210103367	-24.2973978146	-42.600070042
139187500.0	-25.1952690329	-46.4754233988	4.23550384459	168.982067404	-59.8130859847	101.811814811	-24.3008744171	-42.1658274609
139875000.0	-25.0596206418	-47.499927874	4.41321453077	164.369174888	-59.2024756814	101.014097665	-24.3087858106	-41.8688737784
140562500.0	-24.8571193687	-48.6693545366	4.56063121531	159.872614937	-59.6274953027	101.441040275	-24.3318573531	-41.6476722051
141250000.0	-24.5607395387	-50.0773460172	4.68050262296	155.507209918	-59.0193104848	99.161477005	-24.3335799824	-41.4652213067
141937500.0	-24.1655398236	-52.0483043615	4.77383697437	151.26836826	-59.0895206105	92.0714229912	-24.3577723571	-41.3455556361
142625000.0	-23.7057733843	-54.7251666635	4.84703670729	147.149815683	-58.9868629035	90.7106248279	-24.3735602346	-41.2702049158
143312500.0	-23.2364291211	-58.6744377762	4.89758405251	143.159709203	-59.6084543482	82.7539650881	-24.3995677434	-41.2003267738
144000000.0	-22.8636055592	-63.1811298814	4.93317596174	139.288501644	-59.3117006853	81.7079952933	-24.4241253302	-41.1718726485
144687500.0	-22.5828475842	-68.1996453361	4.95374923604	135.559074656	-59.5720545677	68.537818601	-24.4586983771	-41.1653180557
145375000.0	-22.3312918944	-73.3477372201	4.96197899632	131.948552282	-59.2020229655	53.6784192479	-24.4973200974	-41.2165532164
146062500.0	-22.1513179892	-78.5910793015	4.95933608835	128.457126446	-59.3724722485	31.4589872525	-24.5458526605	-41.2706553878
146750000.0	-22.0019661614	-83.8543396269	4.94885497615	125.070988153	-59.3109308171	12.9393127272	-24.6073530483	-41.3296807274
147437500.0	-21.8994698716	-89.067663217	4.92627946236	121.801019458	-59.8962827164	-2.59076138462	-24.6383573777	-41.3758559236
148125000.0	-21.8248909086	-94.2719167797	4.90239918587	118.639433304	-59.6980031384	-17.9399774133	-24.6894586592	-41.4279894806
148812500.0	-21.7781506216	-99.5053261381	4.86994839187	115.568222184	-59.8059631292	-41.4475740025	-24.7413283254	-41.5139640396
149500000.0	-21.7338184244	-104.583043493	4.83810743455	112.603091256	-59.6326436239	-54.7046479729	-24.8049551947	-41.6161523584
150187500.0	-21.7178268924	-109.602958414	4.79862445645	109.722423761	-59.6511040296	-68.6677367428	-24.8599650454	-41.579212365
150875000.0	-21.7030764956	-114.481883674	4.75962600116	106.935223244	-59.6530729737	-80.5557072962	-24.9113979733	-41.5701177188
151562500.0	-21.7086240462	-119.440680084	4.71565461282	104.220760785	-59.1603780584	-96.855871945	-24.9685709851	-41.5360076611
152250000.0	-21.7224856447	-124.153856695	4.67297045986	101.584967694	-59.2973549699	-118.045574465	-25.0389590468	-41.3712554184
152937500.0	-21.7407420809	-128.841815648	4.62419215512	99.0130732934	-59.3749588924	-134.081608278	-25.0961575451	-41.2614909346
153625000.0	-21.7645976345	-133.422882926	4.5799810915	96.5253446218	-59.6365555529	-154.550191893	-25.168491954	-41.1216856445
154312500.0	-21.7832194289	-137.889483072	4.53132264819	94.0820347328	-59.7623006733	-168.70115402	-25.2218646432	-41.0510953839
155000000.0	-21.8214399103	-142.320665038	4.48432767047	91.7054856634	-59.7440044445	168.732264419	-25.2960389721	-40.8274252989
155687500.0	-21.8511703783	-146.691232695	4.43626582512	89.3887930037	-59.4084133791	154.145398429	-25.3660792783	-40.6466853483
156375000.0	-21.9042079439	-150.955367559	4.38788039234	87.1221669275	-60.1321697681	142.070797965	-25.4197615462	-40.4752530379
157062500.0	-21.925640326	-155.139025461	4.34138055087	84.9043806598	-60.171891063	139.516592607	-25.4846604755	-40.2018614541
157750000.0	-21.9842114669	-159.247114936	4.2937889825	82.733252764	-60.4216100774	129.032800168	-25.546619583	-39.9396646131
158437500.0	-22.0085870481	-163.269835756	4.24502701481	80.6102488633	-60.4952199929	122.068374771	-25.6262518659	-39.6697078744
159125000.0	-22.0494168166	-167.182458246	4.20003458247	78.5407319852	-60.4432840263	120.616950735	-25.7130083888	-39.3584740136
159812500.0	-22.0827419104	-171.074085723	4.15275495868	76.5095294114	-60.3232839893	115.430648327	-25.8038312375	-39.0268393406
160500000.0	-22.13694453	-174.801954451	4.11028962339	74.5184821789	-59.852600605	114.253305447	-25.8954302157	-38.7340673066
161187500.0	-22.1677367544	-178.470085619	4.06515454031	72.5622611864	-59.7941907008	110.807469003	-25.9838550932	-38.3599620508
161875000.0	-22.2133949885	177.952997429	4.02182012502	70.6355329278	-59.5731661773	111.315769718	-26.0969648468	-38.0867714256
162562500.0	-22.2671189876	174.402747939	3.97985299708	68.7523552931	-59.5399825814	113.205522277	-26.1975110705	-37.7410658401
163250000.0	-22.3162859636	170.945393902	3.93846954531	66.8924684871	-59.3752291652	113.936465108	-26.3202749039	-37.318642968
163937500.0	-22.3762862813	167.525745477	3.89661545712	65.0713310514	-59.4781607186	114.498943578	-26.4079575593	-37.0050446163
164625000.0	-22.424084248	164.219297149	3.86020264569	63.2717497166	-58.7571600337	111.665032278	-26.5437596239	-36.7258616896
165312500.0	-22.4789246408	160.961460179	3.81849714419	61.5040911701	-59.5341289638	101.593460989	-26.6571510342	-36.5364727167
166000000.0	-22.5391154269	157.803848441	3.78307225505	59.7629819639	-59.192652157	99.5579218831	-26.7862952647	-36.4135476017
166687500.0	-22.6102786734	154.611983928	3.74406465702	58.0485517767	-59.6408039794	91.9368956429	-26.9137011552	-36.2281124406
167375000.0	-22.6824368671	151.581504145	3.70898586003	56.3589385856	-59.2072176727	91.2826835387	-27.0460627481	-36.3983643986
168062500.0	-22.763187286	148.495471468	3.67295485086	54.7009667381	-59.5119261261	82.0341268014	-27.1824785029	-36.4333548088
168750000.0	-22.836096623	145.523344125	3.6399537266	53.07141001	-59.4738249639	85.1625793452	-27.3227776596	-36.5844271636
169437500.0	-22.9239020492	142.477094097	3.60473528638	51.4663478413	-59.7836111911	96.5097520141	-27.4693951439	-36.8134188577
170125000.0	-23.0044766207	139.515809366	3.57593353928	49.871024224	-59.5064055655	108.527966484	-27.6251948916	-37.0364863575
170812500.0	-23.0966647685	136.466923856	3.54271567436	48.2955683212	-59.8818073554	122.136969446	-27.7841785802	-37.3235401378
171500000.0	-23.1851628362	133.45289081	3.51511795828	46.7665788788	-59.4375800676	133.066327979	-27.9156402582	-37.6708795745
172187500.0	-23.2928050099	130.392813125	3.48900188545	45.2439714144	-59.3890387454	147.52062357	-28.0552657384	-38.1826945573
172875000.0	-23.3981118735	127.318756177	3.46370841872	43.7445824764	-59.4855790085	163.084899884	-28.1724318502	-38.6803828086
173562500.0	-23.4872398396	124.167544744	3.4383423974	42.2636248348	-58.7941043417	178.232997217	-28.3278137459	-39.2117103358
174250000.0	-23.5931067511	121.015732172	3.41653490514	40.8080029181	-58.9000831733	-164.726168495	-28.462283434	-39.885568448
174937500.0	-23.6716040716	117.74701363	3.3957525195	39.350605019	-58.1832283452	-151.984105707	-28.5750464692	-40.7207948285
175625000.0	-23.7695039532	114.452738072	3.37927189177	37.9088424962	-58.4765811012	-140.427010484	-28.6903234341	-41.4277233749
176312500.0	-23.8575459153	111.106650273	3.35932182586	36.4825271918	-58.2915280675	-125.358383569	-28.7894739432	-42.2328855653
177000000.0	-23.9407890517	107.805447104	3.34502411454	35.0748036796	-58.4968380883	-115.49606114	-28.8862915791	-43.0843606948
177687500.0	-23.9986494441	104.40464486	3.32771322067	33.6684153411	-58.2491769077	-102.916686721	-28.9763897545	-44.0217460374
178375000.0	-24.0713469521	100.959552481	3.31623037143	32.2778922315	-58.2909816146	-92.1913783412	-29.0651346663	-44.914109778
179062500.0	-24.1203519229	97.4614370548	3.30417865933	30.8998038356	-58.4738679029	-77.5599905159	-29.1179946086	-45.9185619911
179750000.0	-24.1627019193	93.9940448683	3.29464785472	29.5298078903	-58.6911201471	-76.7131030111	-29.1846254092	-46.8033810419
180437500.0	-24.1863370093	90.3689937477	3.28520988437	28.1635314313	-58.8047321076	-63.852227213	-29.2070618439	-47.8907602966
181125000.0	-24.2003324497	86.7717410285	3.27885036766	26.8097568753	-59.110439092	-58.4813339424	-29.2648836434	-48.702281368
181812500.0	-24.1989325396	83.2200415784	3.27026896543	25.4631698008	-59.1314304661	-45.0134776888	-29.2679536251	-49.5810930938
182500000.0	-24.2037734288	79.6165474843	3.26786978281	24.1302684751	-58.9830373928	-29.7924413073	-29.3224273727	-50.2860212741
183187500.0	-24.177678873	76.0704934096	3.26201418387	22.7959125227	-59.0634543598	-16.9406606124	-29.3277060357	-50.915633084
183875000.0	-24.1450469048	72.5294210134	3.26115704488	21.4671870695	-58.6408704648	-4.24209276152	-29.3113948728	-51.5633010289
184562500.0	-24.0964866788	68.9042877744	3.25810580087	20.1449223576	-59.1330864934	11.5648302018	-29.2824205877	-52.1413076481
185250000.0	-24.037145082	65.3305358695	3.25784922235	18.8305531807	-59.4574965902	24.8863876964	-29.2707551608	-52.5606102767
185937500.0	-23.9836932129	61.8014306671	3.25441863442	17.5091319891	-59.3877894012	37.5325468354	-29.2252168398	-52.9109460876
186625000.0	-23.9191035717	58.3665464386	3.25756042233	16.1963587677	-59.0779894058	40.6545651525	-29.2024404013	-53.2071732883
187312500.0	-23.8484143692	54.8629308057	3.25768571336	14.8972676459	-59.4964159113	35.0153617828	-29.1449020806	-53.4245813204
188000000.0	-23.7667204048	51.475981671	3.26251536592	13.5986060083	-58.9351107754	36.7011359449	-29.0839720026	-53.5374778981
188687500.0	-23.6932036274	48.0770314482	3.26431488618	12.2921757709	-59.2265901329	39.5230190468	-29.0382818246	-53.5056365425
189375000.0	-23.593748604	44.7910277011	3.26711034241	11.0030878256	-59.5687314254	38.4387292565	-28.9910014067	-53.3785477141
190062500.0	-23.5004401362	41.5323609404	3.26994428364	9.71879193535	-59.6556143472	31.7674726685	-28.9463611098	-53.1218869965
190750000.0	-23.4114566385	38.349966504	3.27821261111	8.42958944715	-59.7826554749	32.5039990583	-28.9078395653	-52.8452323909
191437500.0	-23.3301622194	35.2203665882	3.28326134218	7.15223397111	-59.8963675709	21.2436010307	-28.844472249	-52.397036808
192125000.0	-23.2405238106	32.2007099269	3.28909630763	5.8823067518	-60.0217535138	21.7510066431	-28.7992299489	-51.7938623269
192812500.0	-23.1691434697	29.1701812648	3.29430082651	4.61741998946	-59.7186612163	26.7332301049	-28.744543155	-51.2861999774
193500000.0	-23.0927219422	26.2517383653	3.30350714687	3.34757143566	-60.1123963348	26.9179209551	-28.7172050167	-50.7398151388
194187500.0	-23.0232998968	23.2768847372	3.30970484345	2.08601902402	-60.0299452163	29.1156062575	-28.6749100366	-50.1455696195
194875000.0	-22.9707705286	20.3041377084	3.32103507229	0.834091212122	-60.2010255104	31.8274083899	-28.6203622434	-49.3601746399
195562500.0	-22.9047053481	17.3883362644	3.32891651827	-0.41810656786	-60.4251955248	29.9577256522	-28.5864097342	-48.6587879963
196250000.0	-22.8531031245	14.4746750355	3.33802764669	-1.66587238727	-60.5035201407	28.3309173909	-28.5732077446	-47.7498000598
196937500.0	-22.8126651641	11.5372525556	3.34759987433	-2.91360065357	-60.4175007165	31.5208635985	-28.5415328706	-46.7335555906
197625000.0	-22.7838516471	8.68885947138	3.35927089223	-4.1419819392	-60.3683377866	29.5223854803	-28.5250387131	-45.8450639734
198312500.0	-22.7521713386	5.80244597605	3.36940487805	-5.37699404853	-60.0087702046	30.4851433298	-28.5100872104	-45.0836286164
199000000.0	-22.7492825512	2.79083517872	3.38323665825	-6.60921590194	-60.0563647807	32.1483181788	-28.4910612508	-44.3232648125
199687500.0	-22.7134530713	-0.188309847458	3.39458848725	-7.84149108361	-59.9506135059	35.8381038968	-28.4620273511	-43.4089522189
200375000.0	-22.7061324204	-3.23068755438	3.4090303083	-9.06867533178	-59.7911519299	39.7210105876	-28.4586712669	-42.6715983082
201062500.0	-22.6840420029	-6.28035481351	3.42086985095	-10.2867497486	-59.7396233886	39.9162582186	-28.4788094199	-41.9597132127
201750000.0	-22.6768722075	-9.3172741855	3.43686456812	-11.4990802336	-59.4400905893	37.3030164402	-28.5008370743	-41.1283304115
202437500.0	-22.6634064644	-12.369880535	3.4502393646	-12.7176129804	-59.0689597054	36.9624426069	-28.5278615363	-40.4081507728
203125000.0	-22.6544355149	-15.4435643349	3.46931899949	-13.9298779289	-59.3577028129	29.7243374623	-28.5600958747	-39.718477998
203812500.0	-22.6175044492	-18.5859028608	3.48432477559	-15.1351085629	-59.1611369895	28.6399322843	-28.5771618434	-39.0891124012
204500000.0	-22.5952412395	-21.738503806	3.5039634632	-16.3509685052	-59.054553243	24.3730974571	-28.5978391232	-38.443078013
205187500.0	-22.5597233849	-24.8976105647	3.51978967388	-17.5465159928	-58.9694535432	8.86769543169	-28.6437374406	-37.6485068062
