#Frequency	|S11|	<S11	|S21|	<S21	|S12|	<S12	|S22|	<S22
100000000.0	-18.3770909781	125.532319082	-17.7555019788	-126.308108261	-57.4191870233	4.84485726877	-21.2295131936	-63.3002980896
100687500.0	-18.2710400569	122.744685816	-17.3496309362	-127.352259771	-62.0540550903	-156.181042155	-21.3340244949	-63.2646584417
101375000.0	-18.1557509224	119.77612566	-16.9791568752	-128.600350366	-61.585609779	-171.7061037	-21.3934102178	-63.1699471759
102062500.0	-18.0434199579	116.857912806	-16.6260253654	-129.983272976	-60.6561107297	-133.922869364	-21.497297341	-62.9983319632
102750000.0	-17.9604267184	113.987926077	-16.2850250143	-131.333690861	-60.9364648884	-100.987044373	-21.5911952644	-62.9830457813
103437500.0	-17.8892300392	111.128600242	-15.9790477096	-132.719609884	-62.0389673905	-89.1958921369	-21.6957662146	-62.8593274168
104125000.0	-17.824949888	107.99065389	-15.695496534	-134.099339413	-62.0101775695	-67.5893802963	-21.8006506018	-62.7789452512
104812500.0	-17.7668161094	104.897399912	-15.4391272904	-135.503597095	-61.9588805297	-47.8211307044	-21.8946438083	-62.8233618423
105500000.0	-17.7197136158	101.711453084	-15.2152371269	-136.896027882	-61.4892528711	-47.9621905153	-21.97943266	-62.8816713482
106187500.0	-17.672078855	98.3900049203	-15.0248073014	-138.238852727	-61.46933071	-50.1458681548	-22.0796678635	-62.9558824987
106875000.0	-17.6333702301	94.990257275	-14.8652603758	-139.540130267	-61.1584943462	-56.0269461014	-22.169731495	-63.114807282
107562500.0	-17.608449585	91.4694255197	-14.7492218183	-140.759528771	-61.3079808999	-77.5134650976	-22.2703101552	-63.2452640117
108250000.0	-17.5743226799	87.8178572313	-14.678803805	-141.786223854	-61.5431850671	-89.1073948355	-22.3471049993	-63.398912142
108937500.0	-17.5287879752	84.3538449607	-14.5392360081	-142.826424587	-61.5998887305	-100.787178892	-22.4399991529	-63.4282535771
109625000.0	-17.4906676615	80.8043962321	-14.4337359394	-143.744883585	-61.8686673085	-99.9301124922	-22.5231315774	-63.4758068438
110312500.0	-17.4438670247	77.1700224208	-14.3527859105	-144.506254918	-61.5515212243	-95.8990053403	-22.6148153481	-63.5716011976
111000000.0	-17.413181737	73.4354477195	-14.3039594758	-145.032077111	-61.6903572523	-93.7675977257	-22.7053500971	-63.6364301244
111687500.0	-17.3756681633	69.6182803729	-14.2745434928	-145.228966422	-61.8138960997	-82.3076923516	-22.7946745001	-63.7245601765
112375000.0	-17.3539298088	65.711180028	-14.2571579346	-145.044285149	-61.9705193484	-79.5724784104	-22.8828956071	-63.8793478043
113062500.0	-17.3244767499	61.7097045819	-14.2350119607	-144.457849996	-62.0226109548	-78.5677062431	-22.9676586135	-63.9605994873
113750000.0	-17.3012555923	57.6200371079	-14.1911320164	-143.452507653	-61.9028036656	-82.0710007198	-23.0524509773	-64.018780662
114437500.0	-17.2879062149	53.4024286407	-14.1034560305	-142.10793963	-62.3220666273	-82.9318311097	-23.1475231289	-64.0579834402
115125000.0	-17.2750172011	49.0681679669	-13.9650941658	-140.512617298	-62.3170061183	-84.0212703806	-23.2323255402	-64.1103415334
115812500.0	-17.2661879555	44.6004012748	-13.7737287064	-138.721891577	-61.5561364455	-78.8447682931	-23.3116008623	-64.0528363458
116500000.0	-17.2611123227	40.0894236932	-13.5220606124	-136.841624829	-61.4731136288	-79.6673431242	-23.3864636624	-63.9694367967
117187500.0	-17.2715587657	35.4640865864	-13.2208428633	-134.917549237	-61.5514693417	-80.6609926492	-23.4635137796	-63.8996177235
117875000.0	-17.2989157355	30.699406	-12.8648704435	-133.025331546	-61.8873997856	-83.880527588	-23.5507481843	-63.7334163039
118562500.0	-17.3438369134	25.8240211438	-12.4616431843	-131.161289931	-61.8874332483	-94.8093458976	-23.6285998223	-63.4471075776
119250000.0	-17.4036407003	20.8428866524	-12.0076139658	-129.391465739	-61.9975985009	-106.645918945	-23.7006649797	-63.0634876651
119937500.0	-17.4938145273	15.8277725531	-11.5129339261	-127.730699071	-62.0960226884	-123.089234096	-23.7671481319	-62.6652673094
120625000.0	-17.6036176682	10.7111862039	-10.9715952118	-126.225400602	-61.9422545608	-140.047547613	-23.8221721821	-62.2654471823
121312500.0	-17.7616377701	5.55623584058	-10.3975077634	-124.868861388	-61.8080102102	-153.632707741	-23.868454628	-61.7702097975
122000000.0	-17.9551305034	0.380286335777	-9.78242222537	-123.68892481	-61.7828871257	-167.18143117	-23.9234479251	-61.1687941267
122687500.0	-18.211212671	-4.76455553202	-9.13681152425	-122.693791901	-61.66365288	-179.383452127	-23.9673600507	-60.5690064204
123375000.0	-18.511661365	-9.85653473733	-8.45542941021	-121.910135728	-61.6604279098	168.980990407	-23.9923976044	-59.8576670465
124062500.0	-18.8932191939	-14.7272043948	-7.74394999673	-121.315455427	-61.3414429146	160.09258226	-24.0135095648	-59.1048017182
124750000.0	-19.334105325	-19.1221619776	-7.00369234052	-120.980162073	-61.3273678211	154.377774386	-24.0412085102	-58.2821633903
125437500.0	-19.8197138851	-23.0428084404	-6.23328223683	-120.886508881	-60.9523826504	141.419492605	-24.0584600269	-57.3919431881
126125000.0	-20.3390012742	-26.0831346465	-5.4356253341	-121.071458818	-61.0695891775	130.157887115	-24.0729934611	-56.5675455823
126812500.0	-20.8276191157	-28.5557647867	-4.60873211071	-121.54393768	-60.6465571437	118.206912244	-24.0773192193	-55.646540402
127500000.0	-21.2690847557	-30.4721818459	-3.75582574881	-122.386347586	-60.1893124689	111.53629721	-24.0739398707	-54.7485740072
128187500.0	-21.6475766716	-32.1309210906	-2.87802393487	-123.606149734	-59.5134411556	95.7641197798	-24.066496375	-53.8242252344
128875000.0	-21.9873765343	-33.6778942089	-1.98554942876	-125.318634383	-59.2444503102	74.1458717814	-24.0467365538	-52.8858113004
129562500.0	-22.2819674778	-35.0395471539	-1.08859309399	-127.528129742	-58.993192052	56.2326965975	-24.01284097	-51.8562492446
130250000.0	-22.5623988135	-36.4110435545	-0.20383864511	-130.305709476	-59.0397540857	36.0283609877	-23.9899478089	-50.9357925973
130937500.0	-22.7982841156	-37.6973708925	0.649499428585	-133.621380567	-59.0359408068	19.6298326018	-23.962201577	-50.0003981276
131625000.0	-23.0229309876	-38.962976399	1.45295637017	-137.426626314	-58.174320124	-1.27584362277	-23.9163766819	-49.076826114
132312500.0	-23.2231692225	-40.1516886177	2.20032933223	-141.582989346	-58.0831236962	-19.1590340644	-23.8764246181	-48.1196696179
133000000.0	-23.4140877615	-41.3049316212	2.88374347957	-146.05212183	-58.1183048762	-42.001543628	-23.8370960927	-47.3068708855
133687500.0	-23.5892141571	-42.4508593752	3.5011329909	-150.720345494	-58.6056543254	-60.2122557664	-23.7975855656	-46.5211451658
134375000.0	-23.748531865	-43.5667798406	4.05807383875	-155.542152442	-57.9783256911	-85.5927976176	-23.757873764	-45.7711559794
135062500.0	-23.8739168447	-44.679185324	4.55817852568	-160.424743444	-57.9190771516	-105.930065805	-23.6987961574	-45.0830593184
135750000.0	-23.9897048338	-45.7183209904	5.00070892333	-165.351726346	-57.5771924946	-121.658623056	-23.6495134878	-44.5604720739
136437500.0	-24.0763647361	-46.7418533703	5.39027600221	-170.285377443	-57.6195772919	-135.065362708	-23.6013009785	-44.1341896611
137125000.0	-24.1415093937	-47.7805242532	5.73183922086	-175.19664527	-57.1795768583	-137.172204063	-23.5646341913	-43.7469871998
137812500.0	-24.1754989737	-48.7370114125	6.02812847062	179.956041879	-57.4524268079	-142.631424761	-23.526089604	-43.2959121466
138500000.0	-24.1677689616	-49.7303329005	6.28311675264	175.178910128	-57.3469518777	-147.485133153	-23.4964624326	-43.0099173466
139187500.0	-24.1132103892	-50.7618973944	6.4980101233	170.49799392	-57.2817984564	-155.430995231	-23.4590576702	-42.7563475887
139875000.0	-23.9997325883	-51.8856390994	6.67846277208	165.922658852	-57.3003399589	-157.321657595	-23.43042095	-42.5804508545
140562500.0	-23.8474881004	-53.1118406794	6.82917738308	161.462064255	-56.8327531128	-156.410690742	-23.4199125802	-42.4908631715
141250000.0	-23.6124975705	-54.5202925629	6.95080160975	157.120677209	-56.9649376708	-159.729850376	-23.4095167101	-42.4370613374
141937500.0	-23.3366348892	-56.4581538349	7.04888087942	152.907860559	-56.5648817489	-165.666693978	-23.4020989298	-42.4864595305
142625000.0	-23.0060035138	-58.8260304482	7.12465829936	148.814046312	-57.3418386379	-169.007980103	-23.395802725	-42.5718125285
143312500.0	-22.6430473444	-62.0632071207	7.1835204074	144.857899654	-57.2408029618	-168.109976141	-23.3901588557	-42.6676902298
144000000.0	-22.3151550217	-65.9403722015	7.22511469068	141.007121904	-57.5916662653	-170.71376949	-23.399479409	-42.8009650984
144687500.0	-22.0428503399	-70.2881113574	7.25339621942	137.303634745	-57.7034806461	179.709971382	-23.4112111208	-42.9325885638
145375000.0	-21.8269447663	-74.8430794761	7.26885478996	133.705974647	-57.9694205054	174.931857336	-23.4273356467	-43.1326744035
146062500.0	-21.6641581247	-79.5049405262	7.27461209255	130.231901375	-58.0789302156	171.483300803	-23.4609509545	-43.2725121904
146750000.0	-21.5306179749	-84.2911364166	7.27126793895	126.845520877	-58.3219320286	168.900998568	-23.5110738203	-43.5002023157
147437500.0	-21.4282566733	-89.0251071977	7.25860704276	123.581562292	-58.2493333777	164.086625626	-23.5472285874	-43.7243250106
148125000.0	-21.367468526	-93.8286343113	7.24226054428	120.408706471	-58.2188096439	157.755831715	-23.5871469447	-43.9921445744
148812500.0	-21.3212716739	-98.6144706387	7.21830759707	117.342603468	-58.5299777378	156.50420983	-23.6250609747	-44.2588655556
149500000.0	-21.3014629705	-103.360039802	7.19154909157	114.35991963	-58.3361856632	153.041958437	-23.6748650639	-44.5097187574
150187500.0	-21.2907394982	-108.087994997	7.16004746647	111.472738307	-58.4250561022	149.782499715	-23.7258620516	-44.6921917531
150875000.0	-21.2977654224	-112.723724885	7.1272723343	108.660299846	-57.810026746	144.76153942	-23.779269216	-44.8854087312
151562500.0	-21.3090360566	-117.350321521	7.0907008136	105.932274483	-58.3204501831	145.964055991	-23.825468203	-45.0099364787
152250000.0	-21.3426297373	-121.810929217	7.05218927122	103.26592532	-57.9031424007	142.472667293	-23.8987834777	-45.1264160992
152937500.0	-21.3723065413	-126.25746158	7.00968412552	100.672489862	-58.2235059032	138.942356708	-23.9564967548	-45.1451118606
153625000.0	-21.4258847568	-130.618410628	6.97038332703	98.1423327	-57.9508295182	139.577304184	-24.0418189479	-45.1476110398
154312500.0	-21.4662633043	-134.916107659	6.92758941132	95.6713866343	-58.5045865161	136.135558327	-24.0946013785	-45.131133995
155000000.0	-21.5277504542	-139.193943916	6.88387348836	93.254290268	-58.0385617554	134.202683599	-24.1594843313	-45.1717326379
155687500.0	-21.5845186967	-143.378859816	6.84057345185	90.9049074306	-59.0116312582	135.810287371	-24.2394188739	-45.1041601137
156375000.0	-21.6651218491	-147.479467889	6.79591618202	88.5999595592	-58.8636470703	132.981111564	-24.3156675892	-45.0885349489
157062500.0	-21.722759374	-151.506990793	6.75267353585	86.3388346377	-59.1361837339	128.405720862	-24.3982762983	-44.9457739413
157750000.0	-21.7940270951	-155.438627433	6.70757710608	84.132676738	-59.2092982487	126.759922783	-24.4643597605	-44.817685135
158437500.0	-21.8557066402	-159.393465921	6.66362233602	81.9777005473	-59.488891261	121.437056997	-24.5462175252	-44.7657752075
159125000.0	-21.916296205	-163.151966234	6.62044394355	79.8699212893	-59.6410440927	120.370780169	-24.6323656474	-44.6498344982
159812500.0	-21.9862808243	-166.901993871	6.57786786859	77.8067705263	-59.5518324884	118.549229138	-24.7268111105	-44.4907869928
160500000.0	-22.0524921901	-170.617956655	6.53364457041	75.7711486037	-59.7017459261	115.54725574	-24.8226144671	-44.3322691458
161187500.0	-22.1182714225	-174.165001246	6.49126733729	73.7868264693	-59.4693521335	107.64279507	-24.9200999882	-44.2173219295
161875000.0	-22.187967277	-177.689601002	6.44800728488	71.8187932777	-59.5518060771	108.281058524	-25.0296177259	-44.156221802
162562500.0	-22.2737885399	178.793526825	6.40691424833	69.893277231	-59.8666676473	104.187410623	-25.1374735653	-44.0134022442
163250000.0	-22.3361758019	175.394689313	6.3654633437	67.9947349663	-60.0313533021	101.809137569	-25.2600196969	-43.9784599583
163937500.0	-22.4322926742	172.012903659	6.32573153555	66.1423328048	-59.7172372414	97.9592981112	-25.3609130304	-43.9086548519
164625000.0	-22.5178082319	168.719685483	6.28770404438	64.3038851444	-59.9940301002	98.4938097324	-25.4749375924	-43.7976537198
165312500.0	-22.6213198429	165.496888482	6.2472742338	62.5108535581	-60.0060363895	97.6562394232	-25.5864516331	-43.7382097033
166000000.0	-22.7181994238	162.401164959	6.20946533373	60.7391022267	-60.0622459465	95.8156230636	-25.7131303472	-43.6800270683
166687500.0	-22.8287769111	159.258740378	6.17141371308	58.9917415956	-60.0068021433	91.6156235888	-25.8398977506	-43.7018627105
167375000.0	-22.9303974805	156.280492891	6.13535463824	57.272387554	-60.046132074	93.197813916	-25.9683942109	-43.8813005729
168062500.0	-23.0432165191	153.203709804	6.10001811419	55.5804821633	-60.17982966	91.5246819236	-26.0917005336	-43.9994443366
168750000.0	-23.161546971	150.237671386	6.06621628105	53.9218323666	-59.8436218926	86.5038018295	-26.2355179766	-44.3239929186
169437500.0	-23.2844437908	147.175133879	6.03162558397	52.2954062528	-59.7326500343	86.1175842388	-26.3627741092	-44.7126294575
170125000.0	-23.4085073677	144.162639241	6.00134606634	50.6699416304	-59.6139482339	86.4570215479	-26.503638108	-45.0940369749
170812500.0	-23.5368388977	141.068852997	5.96929687969	49.0757928507	-59.8643758345	86.1044874997	-26.6211545211	-45.536614341
171500000.0	-23.6746695761	138.021374639	5.93880569293	47.5120582686	-59.6012203854	82.3978543786	-26.7572080337	-46.0707820669
172187500.0	-23.8133898884	134.87700789	5.911626235	45.9804073028	-59.6257109547	82.275551259	-26.8823697584	-46.6175654762
172875000.0	-23.9590790974	131.649387663	5.88458076936	44.448836148	-58.9435025799	77.6591960969	-26.9963301918	-47.209508317
173562500.0	-24.0823290027	128.369094563	5.85878277316	42.944969421	-58.8078069907	78.0525986056	-27.1244016671	-47.8450851892
174250000.0	-24.2414871856	125.193241551	5.83510716918	41.4594155241	-58.6763299833	76.3094929599	-27.2375138771	-48.5753606387
174937500.0	-24.3597784591	121.802025123	5.81365150005	39.982445211	-58.5739308275	77.1402326072	-27.3447663424	-49.3916992339
175625000.0	-24.4954933415	118.408353339	5.79421691311	38.5125704466	-58.1817631677	75.4020367951	-27.4477935291	-49.9853904188
176312500.0	-24.6162205058	114.898992574	5.77348053465	37.0703315199	-58.3061386757	72.6274713841	-27.5389454198	-50.8479592518
177000000.0	-24.7323344634	111.334103173	5.75624970469	35.6313937851	-57.7043194428	69.4584981136	-27.61956407	-51.757065609
177687500.0	-24.8274489112	107.735638399	5.74018386479	34.2124534717	-57.4055860053	68.4859026299	-27.6947164267	-52.6115880961
178375000.0	-24.9183258209	104.102627101	5.72628560786	32.7927501283	-57.3098439416	67.7198671432	-27.7658496795	-53.5186132839
179062500.0	-24.9918931163	100.374577987	5.71322882964	31.3928986428	-57.1993553824	66.5511594147	-27.8096497334	-54.3394722638
179750000.0	-25.0460221616	96.5959276629	5.70207773865	30.0036120924	-56.6596509171	66.9818645089	-27.8631201865	-55.154102067
180437500.0	-25.115525732	92.7738448668	5.69129987167	28.617613578	-56.5191253807	68.9338087933	-27.8740291768	-55.8879274327
181125000.0	-25.1415995714	88.9531780355	5.68219092926	27.2346310636	-56.6144343619	68.4811932342	-27.9103759982	-56.5504057223
181812500.0	-25.1716250329	85.1458651903	5.67335525217	25.8744356583	-56.4908677348	63.7039176365	-27.9304086787	-57.2893427904
182500000.0	-25.1683345881	81.2518043564	5.66704579828	24.5120604614	-56.5428449419	62.5639215836	-27.9589137359	-57.9454229244
183187500.0	-25.1530471332	77.3651108827	5.66144140468	23.1624351078	-56.3821514048	54.7120198751	-27.966341639	-58.4792091859
183875000.0	-25.1194259762	73.5797595429	5.65661814817	21.8124255983	-56.3781574603	55.3644037441	-27.960150032	-59.0611442993
184562500.0	-25.0948039946	69.7089801093	5.65229379935	20.4730329691	-56.5550901723	51.8990857437	-27.9446170287	-59.4992854857
185250000.0	-25.0358712441	65.9293259846	5.64990935578	19.1409001768	-56.6579390249	52.5424619177	-27.9374325006	-59.8965191933
185937500.0	-24.9836254612	62.1634440869	5.64508859597	17.8106871784	-56.9959290489	57.6866350904	-27.9130807369	-60.0031763358
186625000.0	-24.9171189798	58.4675769806	5.64572655856	16.4804804769	-57.3188367119	70.5130096236	-27.8895089286	-60.1381532928
187312500.0	-24.8401976145	54.7372574727	5.6448978643	15.1663041615	-57.22274361	77.256404299	-27.860303253	-60.1793892357
188000000.0	-24.7484626537	51.1215102632	5.64576371142	13.8527947656	-57.0753560617	90.7660850376	-27.8193680701	-60.1386122821
188687500.0	-24.6624809865	47.5196531353	5.64634173056	12.5481020844	-57.1722865184	103.044601341	-27.7822735267	-59.9931406051
189375000.0	-24.5642341347	44.0829414206	5.6469768484	11.2367994432	-57.1217207784	117.725365692	-27.7502234397	-59.7963977645
190062500.0	-24.4604297116	40.7027777946	5.64900491989	9.94082483688	-56.8981153268	130.824964468	-27.725225276	-59.500993383
190750000.0	-24.3618735214	37.4093872407	5.65278624136	8.64812952844	-57.1715410372	144.615534798	-27.6917918656	-59.1146342786
191437500.0	-24.2528583783	34.0326578019	5.65585205531	7.36702356271	-57.1423420531	155.959123784	-27.6530391725	-58.6994315499
192125000.0	-24.1640453184	30.9251720734	5.65842221936	6.08522037909	-57.4111781054	163.517952862	-27.6217052106	-58.0758639563
192812500.0	-24.0627795855	27.7434228599	5.66258177241	4.8215967523	-57.331740025	179.207346118	-27.5908300428	-57.7066466125
193500000.0	-23.9781304025	24.6663353324	5.667647987	3.54328811307	-58.0282714412	-164.072814044	-27.5627050393	-57.0119530939
194187500.0	-23.8901632834	21.6545547527	5.67239373166	2.28100307551	-57.8375063361	-149.882327628	-27.5328188762	-56.2597765114
194875000.0	-23.8427058376	18.6051634128	5.67871715891	1.0132835652	-58.0651390343	-141.36841523	-27.5109842997	-55.5529735603
195562500.0	-23.7768060186	15.5452838121	5.68563045035	-0.238659964979	-58.2103483649	-127.055186661	-27.4992879478	-54.7022050071
196250000.0	-23.7343827335	12.5439469102	5.69225996613	-1.48439838115	-58.2838615987	-120.539490768	-27.5012938552	-53.8645247293
196937500.0	-23.681907766	9.59015740834	5.6983574957	-2.73092990665	-58.3450378771	-104.799630877	-27.4845117643	-52.9484089969
197625000.0	-23.6339892267	6.57997328924	5.70736007289	-3.96484421716	-58.899109671	-96.5315034115	-27.4962444651	-52.1186229938
198312500.0	-23.597269637	3.60759015407	5.71603307408	-5.19186205212	-58.7661706231	-81.4045351796	-27.4856082553	-51.3619336808
199000000.0	-23.5610684436	0.533802342753	5.72776815198	-6.42856502691	-58.7857965636	-71.4011267526	-27.4829183521	-50.4718892029
199687500.0	-23.52221726	-2.48534025323	5.73915048195	-7.65710043663	-58.6073120844	-57.000128301	-27.4806463502	-49.658583065
200375000.0	-23.5065785169	-5.54204318819	5.74990151953	-8.89226563805	-58.3229423269	-37.4461114579	-27.5133667029	-48.9319645858
201062500.0	-23.4793999467	-8.70653739749	5.76076671771	-10.1084149986	-58.7573838532	-24.3080812508	-27.5359068406	-48.2073645062
201750000.0	-23.4483094002	-11.8383638602	5.77352734532	-11.3293946499	-58.4034253449	-13.7421306354	-27.5731534313	-47.3303923678
202437500.0	-23.4234550132	-14.9348666332	5.78526365521	-12.5411025853	-58.0918157571	-0.980889822355	-27.5900951116	-46.6667387301
203125000.0	-23.3916539732	-18.0365873478	5.80124043843	-13.7618402477	-57.8197960602	5.42545647595	-27.6123973176	-46.0622694754
203812500.0	-23.3466534878	-21.1939369586	5.81425595022	-14.9736146018	-58.0822991597	6.55726915438	-27.6408020243	-45.3698364633
204500000.0	-23.3120527847	-24.3926328134	5.8294509695	-16.188018733	-58.0121799524	10.1299790639	-27.6720189367	-44.776604435
205187500.0	-23.2796770965	-27.5467058177	5.84493052633	-17.3883325159	-58.2202315116	8.23444127128	-27.7392383761	-44.2433847446
