#Frequency	|S11|	<S11	|S21|	<S21	|S12|	<S12	|S22|	<S22
100000000.0	-18.5961631246	145.312651503	-17.029910594	-120.877309653	-59.418570189	-138.252352371	-19.061381777	-69.530243036
100687500.0	-18.5732520812	142.581039273	-16.5395506409	-122.202861854	-57.7447651936	-145.525717979	-19.1505559541	-69.2248488882
101375000.0	-18.5446704282	139.934966199	-16.1278051109	-123.432331876	-60.3709070184	149.088177784	-19.2828051963	-68.6768470955
102062500.0	-18.5112489675	137.515437886	-15.7439655877	-124.622680792	-60.5423359003	136.187293836	-19.4140882754	-68.3430003967
102750000.0	-18.4777114174	134.919828214	-15.3744773858	-125.858146606	-60.6086450844	86.8214481772	-19.5455217674	-67.9641327915
103437500.0	-18.4470483685	132.340603692	-15.0279148687	-127.153672368	-60.185139285	16.8494586389	-19.6830257748	-67.6718736713
104125000.0	-18.4403278486	129.6602822	-14.7015071796	-128.411997681	-60.7341313581	-81.815082838	-19.8309369419	-67.4187699896
104812500.0	-18.4373984794	126.869005693	-14.3997942279	-129.69043586	-60.4598106356	-172.7263952	-19.9763358117	-67.267448518
105500000.0	-18.4306616244	123.919519681	-14.1120752931	-131.009111443	-60.7432984824	121.989466037	-20.116074822	-67.1953376671
106187500.0	-18.4341190836	120.854109187	-13.8572257506	-132.334188627	-60.8054393537	55.174975957	-20.2729342934	-67.1269726548
106875000.0	-18.4399618924	117.683344234	-13.6303333861	-133.647748107	-60.6180098848	-5.46740102681	-20.4371816521	-67.1323576011
107562500.0	-18.4539100273	114.372363105	-13.432029741	-134.933458125	-60.3364231887	-81.0588678415	-20.6177716505	-67.1120624637
108250000.0	-18.4605726133	110.900354965	-13.2661411386	-136.169216354	-60.6605959684	-144.316951837	-20.7834537597	-67.2064319873
108937500.0	-18.4611617417	107.637175783	-13.0434734466	-137.384040047	-61.2331807621	148.162215064	-20.942464311	-67.1162585044
109625000.0	-18.4589717787	104.302501361	-12.849928433	-138.570761312	-61.3881980104	91.2252776905	-21.1022480991	-67.0879376443
110312500.0	-18.4536784521	100.888488609	-12.6818067717	-139.672221597	-61.6077522479	34.0789094837	-21.2728443895	-67.0487891095
111000000.0	-18.4550066571	97.3824959524	-12.5387116357	-140.703346214	-61.4155194854	-22.2977102981	-21.4400912684	-67.0515921426
111687500.0	-18.4527687119	93.7390886118	-12.4221882769	-141.639057447	-61.4832840746	-80.0772739426	-21.6073569065	-67.0937705304
112375000.0	-18.454733775	90.0085410788	-12.333664936	-142.414529462	-61.5530072479	-137.789904	-21.7733923499	-67.1536827449
113062500.0	-18.4475904835	86.1210884986	-12.2729373397	-142.98049878	-61.9602805552	161.543691438	-21.9497530048	-67.1719688026
113750000.0	-18.4425340608	82.1942392499	-12.237529588	-143.263561411	-62.0199882884	110.326319328	-22.1224437238	-67.2499179133
114437500.0	-18.4349574012	78.1975164596	-12.2174666271	-143.20082688	-62.0191816572	57.1847007967	-22.3088558672	-67.3705331622
115125000.0	-18.4340222912	74.0300529231	-12.1979713821	-142.746860317	-62.1926071436	3.88131956065	-22.4847867175	-67.464990682
115812500.0	-18.4166849772	69.7123146769	-12.1650165992	-141.862725467	-62.5289061205	-38.8101670122	-22.6774501815	-67.5383340772
116500000.0	-18.4053116211	65.290264098	-12.0947773585	-140.635247959	-62.0512854653	-79.7950216184	-22.8477555786	-67.5938481069
117187500.0	-18.3826230758	60.7919995333	-11.9791142313	-139.099550698	-61.7420795089	-109.194074371	-23.0338806967	-67.6694819041
117875000.0	-18.378329066	56.152979744	-11.8101362145	-137.381183446	-61.7990032584	-137.345244045	-23.2188530033	-67.6208959451
118562500.0	-18.3653788336	51.4533960874	-11.5857996791	-135.524097854	-61.5985587996	-165.160220413	-23.414979405	-67.5559942403
119250000.0	-18.3646536647	46.6032593447	-11.3088107437	-133.60402906	-61.4038265953	166.053663173	-23.6009556211	-67.4253341685
119937500.0	-18.3658242099	41.7050521803	-10.9793479043	-131.65193792	-61.5567556818	139.047178965	-23.7751721354	-67.2228908387
120625000.0	-18.3790897352	36.5998304476	-10.596243052	-129.74473226	-61.4190607712	113.26279649	-23.951153862	-67.0385935875
121312500.0	-18.4139774774	31.4623764722	-10.1654943145	-127.898369383	-61.2972486492	95.1558181215	-24.1212255204	-66.8581042962
122000000.0	-18.4612304428	26.1241559583	-9.68836666987	-126.163860488	-61.4535391229	82.5375986893	-24.2894589351	-66.585546958
122687500.0	-18.5412430968	20.7591596685	-9.16727802063	-124.547492647	-61.6927503705	73.2400097645	-24.4381190321	-66.2589791073
123375000.0	-18.6454723016	15.2113461277	-8.60927284396	-123.090188539	-61.5308780209	75.5990817022	-24.5658119931	-65.8272339417
124062500.0	-18.7928910318	9.65403261891	-8.01221345113	-121.779419044	-61.4649674227	83.4233008359	-24.690804765	-65.3384890127
124750000.0	-18.9919602064	3.96149262631	-7.38193018446	-120.670275313	-61.428968518	85.9758507597	-24.8066097626	-64.8019428426
125437500.0	-19.2388093927	-1.71602440063	-6.71729112083	-119.738113299	-60.7757782053	90.4689966549	-24.9075724037	-64.151388352
126125000.0	-19.5659195059	-7.43906574475	-6.02218605482	-119.025467173	-59.911849324	103.894610207	-24.9954871302	-63.5338974482
126812500.0	-19.9955988653	-12.9779088155	-5.29489451945	-118.513496888	-59.9551232919	106.759709499	-25.0749656357	-62.86696812
127500000.0	-20.5331219042	-18.100348401	-4.5408096086	-118.278797484	-60.0451108782	105.259642019	-25.1129286558	-62.2314587241
128187500.0	-21.1864596672	-22.8404049815	-3.75687021983	-118.27686595	-60.092142219	108.121445128	-25.1469684954	-61.5786990733
128875000.0	-21.8850417255	-26.3744320055	-2.94652106865	-118.57175133	-59.704981164	123.022134128	-25.1593572857	-60.9156097717
129562500.0	-22.58187763	-28.7644332794	-2.10814534461	-119.190287764	-59.2512300659	126.805015078	-25.1575172953	-60.290494137
130250000.0	-23.1677431754	-30.8524255914	-1.24601387395	-120.185735954	-58.644581847	134.554265967	-25.156266014	-59.7716503104
130937500.0	-23.692787191	-32.324053279	-0.360484021827	-121.614667198	-58.3039737986	140.48189733	-25.1345316998	-59.1431686576
131625000.0	-24.1481729439	-33.6461053501	0.53170924964	-123.548230037	-58.347648545	144.981966254	-25.0850986019	-58.5804634323
132312500.0	-24.5512810552	-34.8122765414	1.42223981739	-126.007221133	-57.8999181068	157.776953707	-25.0279907141	-58.0221160588
133000000.0	-24.9240862039	-35.9531131852	2.29191447567	-129.036718531	-57.4260587984	166.294709089	-24.9390210212	-57.6182025531
133687500.0	-25.2723018834	-37.1692612365	3.11825382821	-132.547406438	-57.3527208035	179.786216847	-24.8578816443	-57.2124682426
134375000.0	-25.5804990398	-38.3174528648	3.89079187787	-136.492114084	-57.3562860122	-175.3855595	-24.7478780086	-56.9113191234
135062500.0	-25.8649636274	-39.5829495792	4.6059536191	-140.73637248	-57.1178287497	-162.363347636	-24.634216781	-56.6790805879
135750000.0	-26.1254832692	-40.7447328555	5.2578004913	-145.226528072	-57.290867127	-160.037949116	-24.4912015341	-56.5441872869
136437500.0	-26.3509511196	-42.0275428312	5.847653692	-149.89664553	-57.23412961	-150.611119536	-24.3518741556	-56.4867506951
137125000.0	-26.5717055286	-43.2723995137	6.37781820601	-154.679815635	-57.059088183	-147.458954301	-24.2197104291	-56.5490536177
137812500.0	-26.751160315	-44.5074513835	6.85195524046	-159.526879643	-56.8881081867	-140.154512369	-24.0695117813	-56.6477740055
138500000.0	-26.9054155496	-45.7280275094	7.27303064229	-164.398824801	-56.832887539	-136.444386478	-23.8987534552	-56.7790197361
139187500.0	-27.0100087199	-46.8872720063	7.64331222829	-169.254772902	-56.6873110929	-138.541478948	-23.7312174829	-56.9700646044
139875000.0	-27.0898328818	-48.0933977821	7.96746668415	-174.080223734	-56.1151321825	-139.840277411	-23.5642410323	-57.2671116619
140562500.0	-27.1187328515	-49.212441911	8.25001864697	-178.848133986	-56.2726923698	-145.472622251	-23.4151698751	-57.7194287238
141250000.0	-27.1017505606	-50.3322447164	8.49371328296	176.46883655	-56.1777294181	-152.922811242	-23.2421980484	-58.193399159
141937500.0	-27.0171400711	-51.318218073	8.69967409074	171.890386182	-56.1487973381	-164.470629855	-23.0850807685	-58.7208550486
142625000.0	-26.8814978938	-52.3459449395	8.87618555666	167.399701434	-55.9542401478	-168.387185831	-22.9271505712	-59.3055624936
143312500.0	-26.6461699214	-53.2976538634	9.02218733655	163.030453703	-56.1048404319	-175.601461233	-22.7745820356	-59.9712011286
144000000.0	-26.3126734319	-54.4926159717	9.14455222725	158.770678754	-55.7100745474	-176.534920792	-22.6167558901	-60.6318377802
144687500.0	-25.8709271416	-56.0299937716	9.24432850948	154.637402338	-55.5144640841	176.049560051	-22.4921202308	-61.3123203951
145375000.0	-25.2983513762	-57.9572525859	9.32420023155	150.618305085	-55.142081698	174.343057322	-22.355150082	-61.9643495644
146062500.0	-24.6744215671	-60.9694218404	9.38461757701	146.730873174	-55.1513516131	165.998815614	-22.2435722278	-62.6315109519
146750000.0	-24.0443577028	-65.1572288679	9.43168838112	142.949306222	-55.2020825456	163.303571476	-22.1361294985	-63.2256179144
147437500.0	-23.5338061391	-69.4757315067	9.46328252743	139.290574378	-55.1981716859	161.425676329	-22.0088836429	-63.7991407667
148125000.0	-23.0760247689	-74.4355020708	9.48462789924	135.729175837	-55.0678004856	158.562546636	-21.8945243195	-64.3604596319
148812500.0	-22.6973310021	-79.4809333182	9.49522912784	132.287637286	-54.8730456083	156.882592566	-21.7912227052	-64.9037165981
149500000.0	-22.3617221483	-84.5352925026	9.49909292508	128.946750145	-54.9223728871	152.367786058	-21.7049048579	-65.3912167559
150187500.0	-22.0699713178	-89.4928815193	9.49244036539	125.708294799	-55.1601132932	150.193121321	-21.6273887851	-65.7962410941
150875000.0	-21.7848153267	-94.2800090314	9.48187238172	122.554092163	-55.0955608259	146.130284358	-21.5521052456	-66.0901986663
151562500.0	-21.5557075638	-99.0601196853	9.46532505696	119.491358376	-55.182437507	144.500132899	-21.4907814381	-66.3743891827
152250000.0	-21.3289975561	-103.552093582	9.44418910996	116.517625949	-55.3395437972	137.731307584	-21.4357874604	-66.597721195
152937500.0	-21.1365665677	-108.029669933	9.41691456123	113.618274739	-55.1668573711	137.330648977	-21.3871664266	-66.7798641189
153625000.0	-20.9691119319	-112.202185261	9.38953952281	110.801246875	-55.2280977298	132.005726282	-21.3495078406	-66.8964151244
154312500.0	-20.8090072837	-116.343055618	9.3573644825	108.054198471	-54.7729240236	129.730003807	-21.30278679	-66.9540193929
155000000.0	-20.6700169266	-120.260469193	9.32281898821	105.378265951	-54.8186271722	126.152656752	-21.27095678	-66.9097899468
155687500.0	-20.5415186061	-124.101646204	9.28468407154	102.772622774	-54.8293829016	123.792615797	-21.2510858917	-66.8418393784
156375000.0	-20.4545344114	-127.767461733	9.2458880984	100.221157131	-54.8840915644	118.689062448	-21.2318681144	-66.7132116448
157062500.0	-20.350557768	-131.306673365	9.20534459177	97.7450996478	-54.7694513352	116.922256511	-21.2201362735	-66.5500888308
157750000.0	-20.2903457337	-134.658004207	9.16284317483	95.3188850496	-55.354738312	112.366794104	-21.2070247954	-66.3289724509
158437500.0	-20.2251666423	-137.926340378	9.11916956257	92.9532423891	-55.2455671132	111.297653625	-21.209429049	-66.0998517187
159125000.0	-20.1826826286	-141.090148105	9.07608104141	90.6384158174	-55.7308241124	111.980374445	-21.2265613806	-65.8158826432
159812500.0	-20.1479263179	-144.143703921	9.03189489445	88.3810417401	-55.8943514784	111.575918995	-21.2456290581	-65.5247729157
160500000.0	-20.1451822387	-147.103480945	8.98717149262	86.1645886314	-55.7907125327	108.761810807	-21.2721951499	-65.1816752387
161187500.0	-20.1368544697	-149.905363084	8.94143535591	84.0018999844	-55.6828614857	106.002943287	-21.3090502635	-64.8051111071
161875000.0	-20.1524697653	-152.637496648	8.89594132164	81.8742215777	-55.9163698845	106.277222014	-21.3528504852	-64.4905499564
162562500.0	-20.1856976778	-155.258086795	8.85073995524	79.7931529688	-56.2058384043	99.1062434526	-21.4117469487	-64.1479361056
163250000.0	-20.2339511225	-157.918689722	8.80709449045	77.7439733143	-56.3942513756	97.4192589016	-21.4759366103	-63.807190948
163937500.0	-20.2986946929	-160.398977889	8.76185476593	75.7467471373	-56.3546207012	94.7286886539	-21.5421287345	-63.4554620068
164625000.0	-20.3728262165	-162.894264528	8.7198427127	73.773446368	-56.4353814947	92.6383945824	-21.6337404853	-63.0936013913
165312500.0	-20.4655989169	-165.215236909	8.67532060907	71.8485707093	-56.6699357713	88.7591898863	-21.7288558522	-62.7647576962
166000000.0	-20.5711196616	-167.518230655	8.63304570173	69.9490092974	-56.5226164786	87.1602140153	-21.825578813	-62.4747225623
166687500.0	-20.7003256134	-169.793910097	8.58928983716	68.0910872198	-56.7168126749	81.4145122937	-21.9228526554	-62.1173896576
167375000.0	-20.8378272159	-172.023216509	8.54826599023	66.2559084824	-56.4045210815	77.6814127344	-22.0470659358	-61.912360697
168062500.0	-20.9979105958	-174.20544326	8.50773252512	64.4614915659	-56.5907947521	76.3981694866	-22.1698546743	-61.7148055225
168750000.0	-21.175201773	-176.392650429	8.46786143461	62.7019641888	-56.3823411817	76.3917954915	-22.3015021347	-61.62325903
169437500.0	-21.3749104828	-178.652361726	8.4269891309	60.9619745781	-56.4099624235	74.03292946	-22.4441732899	-61.5298902865
170125000.0	-21.5851223507	179.086760901	8.39028068258	59.2432387034	-56.4609846983	72.7618514037	-22.5851270451	-61.5357443126
170812500.0	-21.8239750037	176.789243997	8.35147938292	57.558784767	-56.5448972288	71.4104604848	-22.7409909803	-61.4969352204
171500000.0	-22.0711436162	174.469791214	8.31555836302	55.8986708711	-56.5076473611	73.3434188707	-22.8934429704	-61.5524011393
172187500.0	-22.3629335978	172.031801605	8.28151928945	54.2620761335	-56.7814397968	73.4594880458	-23.0600953154	-61.6553507174
172875000.0	-22.65143773	169.478295633	8.2489009947	52.643748577	-56.8494093582	71.0680204071	-23.2240189976	-61.7669697851
173562500.0	-22.9476403605	166.771049536	8.21569172032	51.0600304681	-57.1337157423	69.6269984913	-23.4084092969	-61.9854560084
174250000.0	-23.2683960555	163.947582487	8.18564422857	49.4834459835	-57.1426752637	66.1449315328	-23.5737245172	-62.294325451
174937500.0	-23.6055667002	160.667710339	8.1577352879	47.9310437139	-56.4866763546	66.400114684	-23.7626985358	-62.6613596363
175625000.0	-23.9305996411	157.389463669	8.13072044474	46.3862793794	-56.6010832462	60.6378833882	-23.9439696275	-63.0971701698
176312500.0	-24.2622064889	153.734488861	8.10320093005	44.870228063	-56.1086913005	58.5849404018	-24.1132446526	-63.6526189461
177000000.0	-24.5590456275	149.991018203	8.07803444672	43.366388102	-56.194525855	56.9135503149	-24.2854745293	-64.2605455856
177687500.0	-24.841847854	145.90724085	8.05359002114	41.8766609154	-56.0711261677	57.9692638119	-24.4799419198	-65.0036440245
178375000.0	-25.1141654076	141.731049162	8.03140155187	40.3980952042	-56.144133149	53.5275677163	-24.6661148023	-65.661437924
179062500.0	-25.3485167056	137.327364332	8.00915814019	38.9409406965	-55.9913925232	53.0244423527	-24.8365140768	-66.4272863861
179750000.0	-25.5666148287	132.825372986	7.98837276622	37.4920176067	-55.8020398326	52.4326675658	-25.0027007842	-67.1512161563
180437500.0	-25.7431773818	128.256287524	7.96837658573	36.0494068441	-55.6513325267	51.201241317	-25.1599535193	-67.95532012
181125000.0	-25.8961410453	123.518860055	7.94906770709	34.6131364484	-55.822877174	49.866548492	-25.3252688451	-68.7847585072
181812500.0	-26.0098663192	118.852028396	7.93046216499	33.1937899095	-55.6634695536	48.0169731446	-25.4710137566	-69.6367520398
182500000.0	-26.108577017	113.963436906	7.91532882513	31.7881595763	-55.634599533	47.0157727812	-25.6394999094	-70.6116507202
183187500.0	-26.1540360002	109.122140543	7.89961955824	30.3950481166	-55.6106599929	46.8311734593	-25.789971109	-71.4855822243
183875000.0	-26.1780402966	104.236035476	7.88611350306	28.99538062	-55.8411467198	47.9917526643	-25.9209246456	-72.4184273578
184562500.0	-26.1748692039	99.3653965039	7.87152254012	27.6233023228	-55.8203565025	42.7661254292	-26.0283990914	-73.276891179
185250000.0	-26.149494333	94.4092938756	7.85783938621	26.2517404302	-56.023866843	38.9934911935	-26.1516997366	-74.1606114071
185937500.0	-26.0855556529	89.5780958295	7.84378332069	24.8842700039	-56.0868207919	39.570197223	-26.2475308419	-75.0347379029
186625000.0	-25.9969674933	84.7561670506	7.83414118729	23.5285223183	-56.3421100667	39.3744913277	-26.3414086796	-75.9433189157
187312500.0	-25.8798842801	79.9977778572	7.82285373299	22.1821695788	-56.1985565075	39.9563775842	-26.4228709419	-76.78093317
188000000.0	-25.7302861212	75.2665189471	7.81453115881	20.8419606918	-56.1231896066	41.3595367473	-26.4997946289	-77.6855777481
188687500.0	-25.5656848239	70.6399873541	7.80472240518	19.5130842428	-56.3015212431	38.5526304156	-26.5667379917	-78.531409978
189375000.0	-25.3438550449	66.1167842263	7.79652517017	18.1965258832	-56.3606661655	37.3938564267	-26.6252618049	-79.4499226006
190062500.0	-25.1215964685	61.7931463567	7.78871005395	16.8862227512	-56.3843683716	34.4269598643	-26.6750455546	-80.2978555043
190750000.0	-24.8816323671	57.5846161541	7.78404231985	15.5807749713	-56.2474219557	34.5855059726	-26.7146922739	-81.2022390383
191437500.0	-24.6209866918	53.5878813349	7.77585206388	14.2949026794	-56.4605722879	34.6084625112	-26.7499514252	-81.9084815746
192125000.0	-24.3182976465	50.0294129229	7.76963577932	13.0075125669	-56.4671141381	32.9156775573	-26.7610562678	-82.6211681626
192812500.0	-24.0323687523	46.5015014352	7.76486627994	11.7354493459	-56.7473272892	34.0803365523	-26.7749941548	-83.2727091779
193500000.0	-23.7383568603	43.3293148338	7.76134726528	10.4560616192	-56.8045020182	34.4132636219	-26.7823473012	-83.9486246479
194187500.0	-23.4675011793	40.3000102137	7.75734818367	9.19130837895	-57.0017143884	32.0328562618	-26.7782651306	-84.445913376
194875000.0	-23.199835573	37.6068125755	7.75525493862	7.93387293339	-57.014228428	30.8890710829	-26.7446594272	-84.9601390116
195562500.0	-22.9475161178	34.962758025	7.75309478944	6.6845645845	-57.315123346	29.1924857452	-26.7089727386	-85.4724035745
196250000.0	-22.7155680137	32.5685880826	7.75232633328	5.44409182428	-57.0558104524	28.6716174469	-26.6697806717	-86.0125573859
196937500.0	-22.4900908413	30.2196218368	7.7514744984	4.20410097658	-57.2846642622	29.6573369374	-26.6469200293	-86.4412857922
197625000.0	-22.2948726592	28.0281038971	7.75255198929	2.98078085494	-57.1049783855	28.1699588127	-26.5951146646	-86.9189246067
198312500.0	-22.1185503948	25.8887240202	7.7549404582	1.76863635301	-57.4960172362	26.0619893391	-26.5331573992	-87.2871496944
199000000.0	-21.9861808073	23.7300264709	7.75778582327	0.548533509927	-57.3270859695	26.6270477719	-26.4517123467	-87.646475275
199687500.0	-21.8402259801	21.6450542705	7.75971122524	-0.66569690959	-57.5749143428	25.0054087639	-26.3628838784	-87.9251258814
200375000.0	-21.7364111741	19.6128476621	7.76353260779	-1.88182097687	-57.6593514129	26.6141425117	-26.2645515007	-88.2761118198
201062500.0	-21.6345874316	17.5695616807	7.76695967466	-3.0749619324	-57.8492573787	28.0770609647	-26.1958211198	-88.5835242758
201750000.0	-21.554084927	15.5610022084	7.7728780698	-4.27792181713	-58.0014611126	33.8641488302	-26.1029672653	-88.8768884872
202437500.0	-21.4795204734	13.6039965932	7.77914325639	-5.47778288916	-57.9558302697	34.9157255803	-26.0012666005	-89.1513367414
203125000.0	-21.4250262082	11.6465255256	7.78842722131	-6.67868954213	-57.968606123	25.8400637322	-25.8921084468	-89.2441134715
203812500.0	-21.3632087821	9.63277168488	7.79504116761	-7.86646374885	-57.528061843	27.776856606	-25.7864347401	-89.3791962777
204500000.0	-21.3355389554	7.57869815655	7.80496797114	-9.0597374552	-57.5059908637	25.5525636509	-25.6715553697	-89.437852339
205187500.0	-21.3034401014	5.54209946916	7.81349721631	-10.2415453298	-57.4150671587	24.9352754694	-25.5624001219	-89.4601517188
205875000.0	-21.2771020694	3.50505018044	7.82630996189	-11.4336163342	-57.6764561784	21.4681629744	-25.4440737167	-89.3924022306
