#Frequency	|S11|	<S11	|S21|	<S21	|S12|	<S12	|S22|	<S22
100000000.0	-16.3765228815	136.713344819	-26.5699117571	-128.374417265	-57.1245386864	-7.60833500922	-21.6134661939	-41.6188966333
100687500.0	-16.3471285061	133.769568888	-26.1563486878	-130.066185356	-59.9052427224	-136.781063416	-21.7756841852	-41.5751350553
101375000.0	-16.3504264052	130.595758254	-25.8308458322	-131.645105047	-62.6439423545	-178.134995659	-21.7738798246	-41.3019419748
102062500.0	-16.3450268257	127.485006661	-25.4609774079	-133.105723342	-62.9675133172	113.853491851	-21.8117417974	-40.9934411809
102750000.0	-16.3409443307	124.283739645	-25.1273321663	-134.50574302	-61.8064544903	45.3373834727	-21.8363658023	-40.6498176427
103437500.0	-16.3377387403	121.126180634	-24.8247606301	-135.967243686	-62.0548641652	37.8681742049	-21.8644118414	-40.4471915491
104125000.0	-16.3481094136	117.762197609	-24.5303216754	-137.45877159	-62.3275603274	28.0832311524	-21.9076567508	-40.199268151
104812500.0	-16.3724713911	114.420692663	-24.2885168519	-139.015499867	-62.3128852201	4.01861693068	-21.9512575305	-40.1160601536
105500000.0	-16.3995813843	110.930349656	-24.0552781279	-140.585067214	-62.3817663398	-44.3924407692	-21.9743432033	-40.0366650607
106187500.0	-16.437471897	107.285281782	-23.8692902665	-142.105855094	-63.0624094413	-69.841112671	-22.0112874553	-39.9670265852
106875000.0	-16.4829861407	103.537799386	-23.7000259999	-143.607285792	-63.0179586964	-100.970160693	-22.0466944392	-39.9518878973
107562500.0	-16.5480830939	99.6170601754	-23.587370767	-144.989694059	-62.6359989355	-136.078338239	-22.097797965	-39.8543725577
108250000.0	-16.6122733668	95.4952899801	-23.519334164	-146.234626277	-62.5741281782	-157.302651348	-22.1269340548	-39.9000860585
108937500.0	-16.6610833431	91.5974866497	-23.3740355836	-147.487626275	-62.8773982343	174.074984027	-22.1630904387	-39.7950883694
109625000.0	-16.7125305388	87.6498710691	-23.2647125362	-148.541206631	-62.4563919081	145.417017761	-22.1844495384	-39.7719705922
110312500.0	-16.7635373253	83.5502113926	-23.192997189	-149.483722361	-62.6573977602	128.933320008	-22.2163865239	-39.6941538729
111000000.0	-16.829712334	79.3223011045	-23.1426022668	-150.099571133	-62.1830541456	104.119494844	-22.24966917	-39.6681009366
111687500.0	-16.8880551837	74.9971649799	-23.1208995843	-150.510775568	-61.8996644511	77.9435649759	-22.2792349909	-39.6818832552
112375000.0	-16.9633767039	70.4919392671	-23.1156226412	-150.484721468	-61.4543897312	61.9107564557	-22.3102164983	-39.7334992173
113062500.0	-17.0274740723	65.8836051653	-23.1110411011	-150.053266129	-61.6514421492	39.1032382181	-22.3431427555	-39.7506640967
113750000.0	-17.1083293594	61.1113915439	-23.0763171852	-149.164876456	-61.6336337276	14.1989946971	-22.3749222338	-39.8067169799
114437500.0	-17.1908052895	56.2701392515	-23.0050655477	-147.931045056	-62.0178157875	-0.873906068349	-22.4111888076	-39.8568117941
115125000.0	-17.2837840219	51.1642988468	-22.8781695116	-146.43042632	-62.1539745627	-27.9354336217	-22.4472485971	-39.8333991886
115812500.0	-17.3676060409	45.9649058272	-22.6884753601	-144.72386599	-62.1251479956	-55.5035260114	-22.4775839575	-39.8557323689
116500000.0	-17.4713933676	40.55181928	-22.44286588	-142.896190808	-62.2612050588	-83.5409689499	-22.5038229171	-39.8704643774
117187500.0	-17.5728091455	35.0746074813	-22.1515577159	-141.051733276	-61.6167217184	-103.355299563	-22.5320988851	-39.9283517411
117875000.0	-17.7056676403	29.3299291234	-21.7944973559	-139.243653363	-61.3661327129	-125.851702724	-22.5607579944	-39.8539252337
118562500.0	-17.8394737405	23.4812862309	-21.3908641293	-137.420643189	-61.3505881133	-139.250902619	-22.5873811904	-39.7443212429
119250000.0	-17.999524239	17.4311750669	-20.9413495343	-135.697029436	-60.9567912424	-141.610382968	-22.6127132146	-39.7011084576
119937500.0	-18.1763464052	11.2879284506	-20.4467595292	-134.100613516	-60.7792216443	-144.559693385	-22.6365929131	-39.5716813555
120625000.0	-18.3797200669	4.95428303	-19.9066930302	-132.651999308	-60.6446001616	-145.371886478	-22.6731959099	-39.4639327433
121312500.0	-18.6240690379	-1.48643415869	-19.321879419	-131.339824951	-60.2700445217	-155.641497802	-22.6850679778	-39.3703053771
122000000.0	-18.8983007024	-8.08631710303	-18.7091958492	-130.181665869	-60.3300807559	-155.574752943	-22.711672521	-39.2147351958
122687500.0	-19.2491340787	-14.8693929216	-18.0597120466	-129.248395268	-60.1996342103	-157.230829771	-22.7301450757	-39.0740604254
123375000.0	-19.6487798478	-21.6300718423	-17.3732375348	-128.490954989	-60.1588140622	-161.683720257	-22.7406226556	-38.924754212
124062500.0	-20.1647024089	-28.5561231182	-16.652817127	-127.991927728	-59.9575695475	-162.168246602	-22.7543026979	-38.6774067065
124750000.0	-20.774293075	-35.0770905353	-15.9083027604	-127.696411957	-59.4819656341	-171.64498006	-22.775830567	-38.4300939757
125437500.0	-21.5035832206	-41.1796594073	-15.1286461849	-127.665874411	-59.398182538	-169.863546854	-22.7922420225	-38.0607964678
126125000.0	-22.351288814	-45.2890072365	-14.3293415395	-127.90209801	-58.9900330918	-167.821105172	-22.8174848295	-37.8015531019
126812500.0	-23.1397036593	-48.4102267727	-13.4955107955	-128.495316211	-59.2788183366	-165.185467986	-22.8436741879	-37.3701817297
127500000.0	-23.7202377291	-50.5272831501	-12.6356898973	-129.408131293	-59.104509812	-171.437283731	-22.8621145863	-37.0764505905
128187500.0	-24.2244205235	-52.7722885956	-11.7480482644	-130.779935164	-59.3498433276	-170.235845915	-22.8835745818	-36.6664878724
128875000.0	-24.6307537318	-54.7291921253	-10.8438136267	-132.56004276	-59.129918644	-170.208867497	-22.899016959	-36.196087199
129562500.0	-24.9886106568	-56.7366781454	-9.93124279053	-134.931939483	-59.0292136801	-170.407630844	-22.9130708802	-35.7113763284
130250000.0	-25.295533253	-58.6912055958	-9.03143787809	-137.841621499	-58.8592981809	-162.264700513	-22.9435407961	-35.2479894429
130937500.0	-25.5588355237	-60.7236519373	-8.16494800139	-141.394338579	-59.4578473803	-147.887535088	-22.9611291026	-34.7354808071
131625000.0	-25.7882767649	-62.6705143251	-7.35232015364	-145.366874401	-59.2607091306	-132.772083667	-22.9732650251	-34.285580883
132312500.0	-25.9924583875	-64.5791075419	-6.59908059389	-149.76087355	-59.0747945227	-119.032590544	-22.9905955708	-33.8115290856
133000000.0	-26.1765108449	-66.4942542717	-5.91898879053	-154.446287623	-58.8539116238	-115.685894708	-23.0105745167	-33.3622106103
133687500.0	-26.3232663997	-68.3243471506	-5.30586116218	-159.379650147	-58.5348108833	-115.25135443	-23.0299945536	-32.9004523664
134375000.0	-26.4600424301	-70.0604731183	-4.75447799935	-164.414426758	-58.7301076371	-127.758049048	-23.048733086	-32.4412239742
135062500.0	-26.535363847	-71.7751581554	-4.26368751389	-169.543336048	-58.670742905	-132.305618251	-23.06462943	-32.0365325691
135750000.0	-26.6069780558	-73.4262842754	-3.83285829786	-174.668735666	-59.0760183383	-146.338469499	-23.081385823	-31.7475790377
136437500.0	-26.6365667892	-74.9307649398	-3.46063679024	-179.841142573	-58.9011413996	-170.024018247	-23.1123037702	-31.3589368654
137125000.0	-26.6439978538	-76.441510182	-3.13739011463	175.06178914	-59.1384265849	176.101371254	-23.1409945801	-31.0554032394
137812500.0	-26.602845461	-77.727827935	-2.86344876136	170.007286627	-59.6089153611	160.950894114	-23.1571686626	-30.7165620353
138500000.0	-26.5236450297	-78.9664198896	-2.63258090613	165.043456589	-59.336926328	147.092569796	-23.1743628137	-30.4431293858
139187500.0	-26.3944006752	-80.0350464823	-2.44442870278	160.178445507	-59.180922948	134.393088602	-23.1961921687	-30.1575059848
139875000.0	-26.1900339377	-81.0097004339	-2.292485763	155.43535171	-58.920737439	133.51676569	-23.2277001106	-29.8595320261
140562500.0	-25.9215944712	-81.9162393371	-2.17316031927	150.809124818	-59.1328851834	133.646479888	-23.2594073202	-29.6593646414
141250000.0	-25.5428635868	-82.7274914554	-2.08135338666	146.336752967	-59.5094185791	134.917208673	-23.269277582	-29.5303924898
141937500.0	-25.0649060407	-83.8181092209	-2.01758070602	142.0064752	-59.6407530594	134.265661958	-23.299622882	-29.3971190083
142625000.0	-24.464135124	-85.344732067	-1.97331169657	137.829262286	-59.8350946415	132.887339898	-23.3208914254	-29.2986484661
143312500.0	-23.7362911853	-88.715944655	-1.95297855677	133.788305421	-59.7121376174	120.556721658	-23.3466285148	-29.1783763356
144000000.0	-23.0711365397	-93.1462623243	-1.94633967213	129.89474307	-59.4074813789	117.250670873	-23.3641215005	-29.1617740592
144687500.0	-22.6022537143	-98.4435475277	-1.95382433125	126.155485038	-59.5391516674	113.003047642	-23.3888439153	-29.0574114797
145375000.0	-22.20276472	-103.547054779	-1.97265904558	122.550596501	-59.31671265	110.470012632	-23.4057793691	-29.0761706313
146062500.0	-21.9062521362	-108.828359093	-2.00200678942	119.07884639	-59.7278970695	111.19716693	-23.4377147809	-29.0299746802
146750000.0	-21.6488218436	-113.944527809	-2.03933982149	115.738729619	-59.6088875313	111.599666559	-23.460965092	-29.0310147126
147437500.0	-21.458548485	-119.022486709	-2.08356012146	112.515086347	-60.0611529878	106.887947929	-23.4647292688	-29.028819707
148125000.0	-21.292876402	-123.887939891	-2.12937430496	109.40795718	-59.4205769398	97.2169790387	-23.474854141	-29.0760454342
148812500.0	-21.1679437552	-128.839856342	-2.18085870451	106.41332409	-59.5178299233	85.3989751132	-23.4884137533	-29.0671566991
149500000.0	-21.0642918788	-133.552010353	-2.23369573383	103.514929084	-59.3832894237	84.683141877	-23.5040598058	-29.1217177348
150187500.0	-20.9825305559	-138.220891251	-2.28885691154	100.712305599	-59.451097724	81.7574747355	-23.5090545743	-29.0501915879
150875000.0	-20.9249082056	-142.696513446	-2.34349002485	98.0000351835	-60.2762867758	93.0272333005	-23.5144813004	-29.0330297388
151562500.0	-20.8742726029	-147.281146992	-2.40028635089	95.3626154062	-60.7926076359	104.093488328	-23.5113496267	-28.9473031321
152250000.0	-20.8515499581	-151.568423703	-2.45678918542	92.8157756982	-60.7702656503	106.724213067	-23.5161696477	-28.9046671723
152937500.0	-20.8367456582	-155.841048874	-2.51511033695	90.3254045826	-60.4583168925	115.040846437	-23.5039013921	-28.7640848151
153625000.0	-20.8444388245	-160.063192487	-2.56930492067	87.9249887584	-60.5442802717	130.207474213	-23.5084071683	-28.699764062
154312500.0	-20.8457783628	-164.175295087	-2.62553510843	85.5643354348	-60.286271064	134.543966246	-23.4850600671	-28.5522519535
155000000.0	-20.8718417007	-168.27760736	-2.68125162872	83.2823686439	-59.7497487554	139.703385492	-23.4827725424	-28.3738417479
155687500.0	-20.8910557665	-172.276324688	-2.73434053963	81.0442035744	-59.7757448453	153.173714993	-23.4805745378	-28.1260800101
156375000.0	-20.945103873	-176.277570527	-2.78723667537	78.8605463338	-59.7072727686	153.641096746	-23.4674449997	-27.9609417299
157062500.0	-20.9758446826	179.858748735	-2.83739459127	76.7286939976	-59.6606176851	142.39288724	-23.4505958664	-27.6894128578
157750000.0	-21.0243920469	175.882509154	-2.88804067537	74.6453837928	-59.4924705112	138.135855703	-23.4347558913	-27.3860912492
158437500.0	-21.0565647176	172.145435482	-2.93751612282	72.5834979391	-59.1932561863	125.824950306	-23.4369256803	-27.0558077053
159125000.0	-21.0984373068	168.351983852	-2.98373056151	70.5911195663	-59.2952093543	123.540282965	-23.4270349673	-26.6709620661
159812500.0	-21.1413849184	164.675028655	-3.02991050801	68.6111053618	-59.0303022708	115.235500521	-23.4080703008	-26.3041630586
160500000.0	-21.1931367653	160.968520802	-3.07347584096	66.6866102197	-59.7029465074	116.23289621	-23.3908635499	-25.9983252952
161187500.0	-21.2347602141	157.466597847	-3.1171548093	64.7834681488	-59.9668213298	107.876717271	-23.3749846728	-25.5613024933
161875000.0	-21.2922129836	153.868502591	-3.1599951022	62.916916127	-59.7986559565	107.807529741	-23.3799659023	-25.2316200274
162562500.0	-21.3428095931	150.380913848	-3.20023480787	61.0788462373	-59.9726694347	98.5888070332	-23.3725184475	-24.8314322394
163250000.0	-21.391786476	146.91531735	-3.2392942792	59.2720432345	-59.6046623253	96.0099587009	-23.3732285494	-24.4615162645
163937500.0	-21.4449383963	143.541725199	-3.27727653417	57.486504646	-60.0391637137	83.8242029352	-23.3624668722	-24.0708715828
164625000.0	-21.4898574568	140.228166772	-3.31282544272	55.7389104979	-59.4650245685	72.0113969883	-23.3720114769	-23.655967986
165312500.0	-21.5514038495	136.87915115	-3.351290121	54.0174543832	-59.839102045	58.1239475184	-23.3830089952	-23.2321119564
166000000.0	-21.607393319	133.708899856	-3.38463269912	52.3214508269	-59.400792122	34.2701632598	-23.4024071047	-22.8198828833
166687500.0	-21.6648828171	130.431685033	-3.41923056615	50.636200063	-59.4146817824	9.15391119227	-23.4101390142	-22.3837577406
167375000.0	-21.7338061618	127.280083623	-3.45111570544	48.984302735	-59.0769656773	-5.75818391793	-23.4332833433	-22.0655985991
168062500.0	-21.7987957559	124.013518453	-3.48401246348	47.3583081628	-58.7964169096	-31.5532338243	-23.4597230799	-21.7477968104
168750000.0	-21.8561964688	120.964135291	-3.51271235439	45.7699136179	-58.3839108004	-51.8018752739	-23.4972764358	-21.46904559
169437500.0	-21.9177965829	117.762223	-3.542991774	44.1859810092	-58.3577300289	-64.7544929805	-23.5341370637	-21.1479027544
170125000.0	-21.9780229502	114.725460334	-3.56884050503	42.6265521711	-58.2120534776	-84.467019895	-23.5826807564	-20.889443867
170812500.0	-22.0468161863	111.564603252	-3.59552145199	41.0917405627	-58.5403246071	-111.203921882	-23.6275401033	-20.5813184596
171500000.0	-22.1146779441	108.533596334	-3.61901278405	39.5878084639	-58.6278578	-137.971090112	-23.6871445387	-20.3798104811
172187500.0	-22.1814050025	105.347506045	-3.64078007302	38.0884410187	-58.6439937002	-176.805200029	-23.7377762211	-20.2533194638
172875000.0	-22.2514971127	102.257313176	-3.66143912074	36.6137879104	-58.5527959784	142.044118174	-23.7842048962	-20.1873522812
173562500.0	-22.2980154496	99.0842973486	-3.68003901033	35.1602250382	-58.7089446452	100.159499815	-23.8483388369	-20.0398296811
174250000.0	-22.3713368171	96.030354744	-3.69695410229	33.7159830059	-58.8252106454	59.0220423268	-23.9018235138	-19.9944306709
174937500.0	-22.4212837449	92.9567883337	-3.71124068275	32.2787964729	-58.8457018459	19.9221228357	-23.9646229885	-19.9288517804
175625000.0	-22.4799763577	89.7768761596	-3.72179086145	30.8732054702	-59.1304454412	-22.0355393919	-24.017233945	-19.9237086477
176312500.0	-22.521051388	86.5904434234	-3.73265391242	29.4697545565	-59.2898637619	-63.1598694725	-24.0879447927	-20.0075528989
177000000.0	-22.5655666135	83.3948049823	-3.74043115518	28.0849861159	-59.200614469	-109.431774409	-24.1532378395	-20.1066095306
177687500.0	-22.5817118906	80.1674930559	-3.74734948304	26.6954152585	-58.8960398402	-152.504249615	-24.2384979336	-20.1086015809
178375000.0	-22.6306544999	76.8549368895	-3.75073124456	25.3285112358	-58.5518675437	165.347435465	-24.3076993662	-20.1438790545
179062500.0	-22.654080296	73.6881541666	-3.75190701779	23.962461014	-58.4935007879	122.873135004	-24.3712366849	-20.2975413666
179750000.0	-22.6851619532	70.3418038881	-3.75270635374	22.6074526651	-58.2876895908	78.8646316578	-24.4449286752	-20.4263050218
180437500.0	-22.6939299107	67.0327531776	-3.7515912726	21.24485257	-58.7195841374	37.1629447458	-24.4963429207	-20.5892643577
181125000.0	-22.7016160435	63.5544799221	-3.750507741	19.9022695016	-58.626897317	-5.50504143283	-24.5713866389	-20.6832726016
181812500.0	-22.6938874756	60.2096795055	-3.7466118932	18.5584191554	-58.7899916723	-48.3177221033	-24.6288117029	-20.8136655431
182500000.0	-22.6826402051	56.7893390076	-3.74048220658	17.2255842708	-58.4403812155	-83.4538730179	-24.7028342872	-20.9304861282
183187500.0	-22.6500556228	53.3918226952	-3.73444615292	15.8805156568	-58.5146133563	-115.108764321	-24.7510897377	-21.0105834488
183875000.0	-22.6276864681	50.0284821078	-3.72624931989	14.5600709897	-58.5182958223	-156.655444026	-24.812842473	-21.1303139366
184562500.0	-22.5884325921	46.667497922	-3.7189076136	13.2332219411	-58.7965693483	154.283949834	-24.8577285788	-21.2429455852
185250000.0	-22.5418873993	43.3263648384	-3.70792477421	11.9147333433	-58.58109178	115.187020646	-24.9121362161	-21.2697148459
185937500.0	-22.5100030881	39.9690085491	-3.69912360293	10.5711796174	-59.7271965233	70.6202859244	-24.9478031134	-21.3133690442
186625000.0	-22.4684302308	36.5998763888	-3.68550159838	9.25492198977	-60.0165083279	30.2169155118	-25.0028616269	-21.3159651001
187312500.0	-22.415837058	33.1057909531	-3.6725810328	7.92107607823	-60.1978712314	-10.3684674615	-25.0334169829	-21.2645044103
188000000.0	-22.3548807154	29.7956270058	-3.65821676925	6.59630212451	-60.0303628373	-41.8463536055	-25.0593105739	-21.2552270426
188687500.0	-22.2983880773	26.3291064198	-3.64611414227	5.26122359169	-60.1816586478	-69.7956960925	-25.0887260608	-21.1927381312
189375000.0	-22.2311426679	23.048474481	-3.63159190319	3.9514870086	-60.2255770894	-90.7697059464	-25.1233609263	-21.0289226575
190062500.0	-22.1697158358	19.6459796041	-3.61738458674	2.62353271877	-60.1318364066	-116.61406331	-25.1541317718	-20.8030041468
190750000.0	-22.1017540015	16.3581885967	-3.59832628756	1.30462773929	-59.886025191	-130.194471581	-25.1904608462	-20.5844242874
191437500.0	-22.0297395704	12.856434892	-3.58323743706	-0.0130371286212	-60.0261673401	-144.252113733	-25.2142840506	-20.3862616089
192125000.0	-21.9616848101	9.54037116472	-3.56604639375	-1.31348915441	-60.0808372693	-170.058888154	-25.2327660203	-20.1740882416
192812500.0	-21.8872693924	6.11019769008	-3.55095507014	-2.62344804556	-60.0050943272	163.131182261	-25.2675966928	-19.953905222
193500000.0	-21.8188209535	2.82516841093	-3.53422001178	-3.93218656179	-59.7698435872	136.463000142	-25.294343074	-19.670217798
194187500.0	-21.7424361351	-0.581021737042	-3.51974449098	-5.23105878619	-60.0794890985	120.528109239	-25.3145878164	-19.3406498435
194875000.0	-21.6828281009	-3.91010588074	-3.50183566945	-6.52677731434	-59.8920192454	95.7379829643	-25.3217529461	-19.0214906244
195562500.0	-21.5825537205	-7.29076953747	-3.48559140236	-7.83288227863	-60.3060098829	69.6984754416	-25.3433554345	-18.7646141697
196250000.0	-21.5070936601	-10.682730784	-3.46906049035	-9.12773179824	-60.9574387973	37.4602886183	-25.3662009694	-18.3516591279
196937500.0	-21.4122710462	-13.9571111056	-3.45297467811	-10.4255952616	-61.3485663354	11.1200247668	-25.3745915808	-17.8650741072
197625000.0	-21.3305969214	-17.2707844323	-3.43429747174	-11.6947230121	-60.9989061292	-14.8416008421	-25.4038439554	-17.4623489163
198312500.0	-21.2334284164	-20.463821643	-3.41533829204	-12.9751753202	-60.9118108014	-40.81593402	-25.4196083899	-17.1884609368
199000000.0	-21.1538679582	-23.7832672095	-3.39601548063	-14.2564431661	-60.8616150921	-68.0818592148	-25.4325824034	-16.8798413967
199687500.0	-21.0493435522	-26.907049688	-3.37523094357	-15.5446181439	-60.6982554239	-104.007597877	-25.4561634141	-16.5720799728
200375000.0	-20.9683140217	-30.1450201129	-3.35514429167	-16.8188490394	-61.1135681604	-142.961112421	-25.4916446266	-16.2828785248
201062500.0	-20.8539208711	-33.2924114289	-3.33436297547	-18.0865527532	-61.2711329212	-172.404438844	-25.5323655709	-16.1120761312
201750000.0	-20.747337555	-36.5032436119	-3.31182775891	-19.348043318	-61.2196714076	159.191133762	-25.550437833	-15.8081636558
202437500.0	-20.6377370514	-39.5566131949	-3.28932062447	-20.6230689435	-60.9941435171	125.243020707	-25.5829595719	-15.6831521908
203125000.0	-20.5207388138	-42.6663917279	-3.26460633754	-21.8715931429	-60.0425756156	96.9077344573	-25.6181944809	-15.5157434652
203812500.0	-20.3936788922	-45.6088097243	-3.2416690104	-23.1358107147	-59.8644803855	69.1769085731	-25.6459448022	-15.5288265671
204500000.0	-20.2775401468	-48.5430815639	-3.21756530062	-24.3793838445	-59.7169642762	41.2454545189	-25.6787462381	-15.5110334971
205187500.0	-20.1499059431	-51.3788493222	-3.19201715127	-25.6341296609	-59.6549609347	3.85637076982	-25.7202942226	-15.4337358664
