#Frequency	|S11|	<S11	|S21|	<S21	|S12|	<S12	|S22|	<S22
100000000.0	-16.0421228361	138.999739981	-19.0725127655	-127.135056007	-56.1196657446	16.9302420448	-21.8869588852	-59.7744253266
100687500.0	-15.9933278662	136.073928468	-18.7976704227	-128.492680072	-59.4083954433	-141.025851652	-21.9620770176	-59.3145773928
101375000.0	-15.9677954615	133.143919002	-18.4165615631	-129.878699511	-59.6613250763	86.1431633305	-22.0214575239	-59.2482907628
102062500.0	-15.9149380228	130.270748864	-18.0596075623	-131.299282445	-58.8308291652	-24.5953660859	-22.1205793067	-58.9837794544
102750000.0	-15.8745515704	127.27550849	-17.7400361273	-132.761576231	-58.7220957321	-139.528863686	-22.1970868335	-58.7506804514
103437500.0	-15.8434731609	124.285494758	-17.4358948469	-134.309438886	-60.6334147649	156.494183126	-22.2668362916	-58.5582126322
104125000.0	-15.832991914	121.0934889	-17.1502674198	-135.820600789	-62.1917364199	137.806317865	-22.3697265964	-58.4101016872
104812500.0	-15.8293086552	117.947131819	-16.9019087065	-137.326112648	-61.2824464979	143.851472533	-22.4680423338	-58.4374787888
105500000.0	-15.8375598194	114.632815933	-16.678769202	-138.873517203	-60.6578553793	112.051080495	-22.5437117907	-58.5070053105
106187500.0	-15.850275937	111.253312381	-16.4906555051	-140.388115958	-60.0095905866	78.1328694281	-22.6318783537	-58.5560155648
106875000.0	-15.8771481383	107.750891409	-16.344227506	-141.870990892	-60.3351263469	56.8470101744	-22.7183481565	-58.6909534709
107562500.0	-15.9147490212	104.110695318	-16.2404349098	-143.252954582	-60.0713445399	17.5769608013	-22.8116013294	-58.7769448479
108250000.0	-15.9612259428	100.332683311	-16.1883306278	-144.463748273	-60.2641933431	-2.94193277134	-22.8901674999	-58.9594198054
108937500.0	-15.9849150587	96.7218217377	-16.0676543124	-145.678676345	-60.3034595012	-33.1718913991	-22.9695677736	-58.9046717175
109625000.0	-16.015151892	93.0487452342	-15.9710264559	-146.736220074	-60.5301284554	-59.1173442111	-23.0453215359	-58.9098209747
110312500.0	-16.0462328826	89.2487636387	-15.9070686341	-147.671457907	-60.8201650441	-73.6069344765	-23.126025162	-58.9387370169
111000000.0	-16.0884377053	85.3680258102	-15.8802964405	-148.307944299	-60.7709431072	-90.8097018165	-23.205470975	-58.9478178389
111687500.0	-16.1369297264	81.3496828538	-15.8757234177	-148.649571079	-60.522285104	-94.9636415069	-23.2849006546	-59.1253128199
112375000.0	-16.2008238504	77.2393004925	-15.8848838988	-148.558895111	-60.6134430664	-103.095301593	-23.356402842	-59.2352896879
113062500.0	-16.2651329487	72.9693513279	-15.8864140497	-148.042758016	-60.7137968712	-110.663751033	-23.4340429909	-59.2783043192
113750000.0	-16.3431587649	68.5869583488	-15.8562898277	-147.073682391	-60.8453349667	-108.006383181	-23.5046344263	-59.356782276
114437500.0	-16.429405243	64.1022481379	-15.7830327257	-145.768229025	-60.9121460942	-94.4933514729	-23.582304545	-59.5026166755
115125000.0	-16.5282396749	59.4304796926	-15.6548916929	-144.192185846	-60.4009790442	-80.8349399171	-23.6620457053	-59.5892764675
115812500.0	-16.6320649116	54.6449954121	-15.474402648	-142.430213604	-60.1887417892	-67.9083134671	-23.742984244	-59.615105832
116500000.0	-16.7562552683	49.6874838132	-15.2369715403	-140.594977002	-59.658483107	-66.2643105144	-23.8018774734	-59.623374638
117187500.0	-16.8881980061	44.6784907478	-14.9433660685	-138.714308706	-59.597656283	-65.8639148225	-23.8633197327	-59.6553322413
117875000.0	-17.0509085752	39.4150134327	-14.594411827	-136.867265776	-59.7816179803	-76.3471329356	-23.9315206496	-59.5221211833
118562500.0	-17.2300990904	34.0982173447	-14.1995860385	-135.056894203	-59.9526490825	-77.5196768996	-23.9861545534	-59.3926320508
119250000.0	-17.4354069362	28.585953307	-13.7574971536	-133.311046935	-60.0961663426	-76.6913392011	-24.0506990401	-59.1199874366
119937500.0	-17.678132825	22.9999046539	-13.2722575035	-131.664616944	-60.1849523202	-75.9251239673	-24.1061780963	-58.9080781904
120625000.0	-17.963658899	17.2004879799	-12.7467609467	-130.148686032	-60.7745854338	-67.6437649883	-24.1638340334	-58.6204575776
121312500.0	-18.2992073567	11.3073632511	-12.178984346	-128.777979803	-60.9085942231	-65.4465893887	-24.19540783	-58.2839440268
122000000.0	-18.6963064794	5.31784651588	-11.5737129259	-127.557023441	-60.7749277122	-61.588180805	-24.247152424	-57.8181091001
122687500.0	-19.1899971912	-0.772662254456	-10.9301658262	-126.503743284	-60.3049032829	-47.6757172946	-24.2715828215	-57.422523741
123375000.0	-19.7853462839	-6.89789137038	-10.2551562451	-125.637967123	-60.2289906988	-24.0757953045	-24.2984923043	-56.9059106
124062500.0	-20.572472173	-12.9487480852	-9.54494365597	-124.990980807	-60.9571415501	6.36475757831	-24.316206163	-56.3801800866
124750000.0	-21.7725628705	-17.7025794564	-8.80484834105	-124.542770249	-61.1981397526	36.1220227406	-24.3365328916	-55.7356725883
125437500.0	-23.19216805	-19.4943266465	-8.03365361274	-124.34515287	-60.8376704468	53.4003866363	-24.3576150525	-54.9882626226
126125000.0	-24.0154089944	-20.1740310327	-7.23126725032	-124.411297936	-60.8394674765	61.1562767971	-24.3834519021	-54.36092238
126812500.0	-24.6438854978	-20.6467782061	-6.39737873502	-124.781426512	-60.8333227297	74.8264674133	-24.4073375445	-53.6560122792
127500000.0	-25.1293267679	-21.1194439621	-5.53796260609	-125.504806557	-60.1608120749	77.828443904	-24.4078698446	-52.969624093
128187500.0	-25.5687801734	-21.6509960621	-4.64604341741	-126.661583199	-60.2607004513	92.4776079203	-24.4141534564	-52.2056555827
128875000.0	-25.9391428369	-22.2049011136	-3.73833124755	-128.2877653	-60.1340486494	98.9211785886	-24.4209524143	-51.3101637944
129562500.0	-26.2626043586	-22.8788528916	-2.82168002172	-130.496041817	-59.9660430803	112.509499288	-24.414138093	-50.4748110646
130250000.0	-26.567593286	-23.5403271339	-1.92323844918	-133.265331032	-59.782245978	128.692544427	-24.4073749838	-49.6818667791
130937500.0	-26.8231099067	-24.3356987028	-1.05904863054	-136.634119818	-59.5761087418	141.50610612	-24.407801869	-48.8623005523
131625000.0	-27.0647213669	-25.039899283	-0.249388266312	-140.451448015	-59.6394184584	144.335165948	-24.3921501974	-48.0573244278
132312500.0	-27.2810598774	-25.8390424118	0.499438499673	-144.671183553	-59.2135421239	145.001548775	-24.3755843148	-47.1864415601
133000000.0	-27.477491217	-26.6212112877	1.18389881246	-149.160729884	-59.3754864692	144.971124707	-24.3517637717	-46.4735212516
133687500.0	-27.6511926559	-27.4462141549	1.8018616706	-153.871208311	-58.7846420067	151.264121717	-24.344739476	-45.7159930794
134375000.0	-27.8027459745	-28.2416241056	2.35594165892	-158.6952337	-58.9591504418	154.820037769	-24.3345816817	-44.9841733676
135062500.0	-27.9222802335	-29.1298150102	2.85075402485	-163.616255412	-58.8606987087	164.683325162	-24.3197694528	-44.3406145429
135750000.0	-28.0204950854	-29.9685316676	3.28983712297	-168.552429411	-58.7143422358	168.920789922	-24.2997959801	-43.7447632974
136437500.0	-28.0932881099	-30.7921773017	3.67430102585	-173.52939222	-58.8365673496	175.890077224	-24.292836358	-43.2253463228
137125000.0	-28.122335538	-31.640584003	4.01010401863	-178.463792421	-59.1307916329	-171.04929488	-24.2925354332	-42.7624011405
137812500.0	-28.1037081674	-32.3980200236	4.30001980683	176.637270661	-58.4863435325	-168.917380974	-24.2848440871	-42.2760893744
138500000.0	-28.0325254519	-33.2182756711	4.54804242082	171.811520206	-58.5615015784	-169.146378799	-24.2766036027	-41.9184210611
139187500.0	-27.8870965634	-33.9519909427	4.75474466183	167.059038759	-58.4922012709	-179.005943357	-24.273566826	-41.559193152
139875000.0	-27.6534112143	-34.7427942055	4.92539849965	162.418751204	-58.7946541825	168.932144941	-24.2919265982	-41.2182797411
140562500.0	-27.3143702591	-35.487811334	5.06270828845	157.872085858	-59.292642753	147.532718286	-24.3148834976	-40.9683252063
141250000.0	-26.7761049151	-36.3895194953	5.17202604684	153.46554605	-58.3750946332	130.646652044	-24.3270873254	-40.7486282418
141937500.0	-25.8241688794	-38.5933669397	5.25550424025	149.157861576	-58.2672169289	102.874144877	-24.3518443884	-40.6318509519
142625000.0	-24.6399795994	-43.8687129707	5.31687745187	144.996675188	-58.3354130222	86.1817857186	-24.3733333997	-40.5334963404
143312500.0	-24.0488144815	-50.1607121262	5.35767482511	140.959881713	-58.5456335527	70.1185757319	-24.4020307854	-40.46315921
144000000.0	-23.6504958139	-56.7596095064	5.38181254318	137.058315546	-57.9389725613	56.8465170789	-24.419222169	-40.4410135418
144687500.0	-23.3920529504	-63.3012222626	5.39075576226	133.282285698	-58.230925544	42.4453108708	-24.4706663902	-40.4768593752
145375000.0	-23.1740400972	-69.8361471651	5.38623570154	129.648648797	-58.0979823413	20.7397436165	-24.4991107336	-40.533375426
146062500.0	-23.017639923	-76.2420649073	5.37075781439	126.12610605	-58.3048472973	3.87370707203	-24.5493827105	-40.5709317003
146750000.0	-22.8909507651	-82.5212870969	5.34681552484	122.729653836	-58.1964881722	-15.6082735995	-24.6104559437	-40.6259777862
147437500.0	-22.780514015	-88.7237294704	5.31299287951	119.452861738	-58.323663802	-32.8063986497	-24.6652083438	-40.6972947244
148125000.0	-22.713508993	-94.7398726952	5.27504786555	116.288838998	-58.6875914536	-53.9333170766	-24.7142348001	-40.7173716201
148812500.0	-22.6520410681	-100.887719244	5.23060325338	113.223295178	-58.4413624549	-69.3258485026	-24.7707342676	-40.7511263887
149500000.0	-22.6046347421	-106.685117143	5.18346578166	110.270936034	-58.4185682858	-91.926718682	-24.839632181	-40.8415077158
150187500.0	-22.5596544057	-112.492142308	5.13159268474	107.401244733	-58.3033108994	-107.839157748	-24.903909768	-40.8279833827
150875000.0	-22.5199260828	-118.024626647	5.0804795594	104.635138861	-58.7418446819	-125.341450338	-24.96792208	-40.8035020017
151562500.0	-22.4845879367	-123.657992739	5.02523865601	101.933404509	-58.3752746559	-142.4876606	-25.0266884117	-40.8524850715
152250000.0	-22.4611223653	-128.903240796	4.97059326439	99.3303589574	-58.4688300243	-160.231691081	-25.1041724829	-40.8170991089
152937500.0	-22.4323958065	-134.157761056	4.91248076154	96.7915544509	-58.8404434717	-178.197697329	-25.1777596396	-40.7366238367
153625000.0	-22.4038838845	-139.194020779	4.85806451358	94.3439664516	-58.6429257922	166.123632071	-25.2576593894	-40.6085029124
154312500.0	-22.3812911365	-144.211543336	4.80111251256	91.9435440589	-58.268523065	146.355890011	-25.3125311022	-40.461864052
155000000.0	-22.3552768049	-149.048562502	4.74451799059	89.6206292061	-58.5930966295	133.975832389	-25.3998219184	-40.2665503751
155687500.0	-22.3282086693	-153.708362691	4.68849574133	87.3473706786	-58.2655949375	128.607630889	-25.4960734356	-40.0181139912
156375000.0	-22.3237696496	-158.349032986	4.63236155949	85.1368246989	-58.5994335208	127.512382679	-25.5668002127	-39.7373457957
157062500.0	-22.2936045751	-162.778282656	4.57811736221	82.9617427048	-58.1317489888	119.706474448	-25.6348952427	-39.4980851576
157750000.0	-22.26542076	-167.1793652	4.52511933418	80.8585420535	-58.2832141523	118.806359358	-25.71642842	-39.2050283012
158437500.0	-22.2333386168	-171.382421527	4.47191392905	78.7735615041	-58.591064722	108.457455416	-25.8012248808	-38.9230138046
159125000.0	-22.2016427278	-175.495081225	4.42040123776	76.7660592011	-58.7483167381	108.309370231	-25.8969171288	-38.5642380069
159812500.0	-22.1804978671	-179.446349817	4.37079934069	74.7742027959	-59.181430252	101.369562719	-25.9794004335	-38.2682640156
160500000.0	-22.15987233	176.573491105	4.32204225363	72.8353481014	-58.9932281902	100.028936984	-26.0822669021	-37.9818935958
161187500.0	-22.1343272856	172.879865132	4.27340000088	70.9217087858	-59.2212856685	88.3073952516	-26.1842864255	-37.5833252355
161875000.0	-22.1193829426	169.165639315	4.2277232324	69.0547342137	-59.3365142183	86.8678920072	-26.2877396824	-37.1762517819
162562500.0	-22.1009857737	165.684934767	4.18215401161	67.2058170872	-59.8691155139	84.6959414369	-26.3953533746	-36.8698909791
163250000.0	-22.0817972105	162.17112422	4.13752642686	65.4072017495	-59.8527511814	82.1005795341	-26.5214699097	-36.484735131
163937500.0	-22.0729300673	158.810075316	4.09333251181	63.6323824659	-59.9120133997	77.7961184882	-26.6264801533	-36.1996334837
164625000.0	-22.0585833918	155.479562993	4.05314507938	61.8905834441	-59.9478095649	74.4534019997	-26.7434269816	-35.95055891
165312500.0	-22.0526878486	152.257719542	4.01081432074	60.1760022995	-60.0345809112	72.4377142746	-26.8756628861	-35.7184804934
166000000.0	-22.0543324835	149.205082056	3.9721533722	58.4962169532	-59.8218013766	68.8557415911	-27.0025296026	-35.6026118876
166687500.0	-22.0542309013	146.055540495	3.93240812935	56.8299970706	-60.250476916	68.3317203624	-27.1374457704	-35.3847361974
167375000.0	-22.0770463331	143.121874699	3.8959005291	55.2033084279	-60.1663480312	68.7062444838	-27.2863594155	-35.3699331
168062500.0	-22.0981017516	140.066955889	3.85847763994	53.5956933853	-60.1693360965	68.9090237363	-27.4414863479	-35.3031526642
168750000.0	-22.1286506139	137.227034986	3.82470171052	52.0243178199	-60.1932160315	67.000614042	-27.5866349301	-35.4497860574
169437500.0	-22.1484700104	134.213387406	3.78871323142	50.4578270312	-60.1835256057	63.4680153367	-27.7299894876	-35.6374277711
170125000.0	-22.1840452652	131.372300155	3.75880773802	48.912752996	-59.9017767709	61.2119582134	-27.8849546336	-35.8456170281
170812500.0	-22.2198490529	128.373756898	3.72655223432	47.3842352411	-59.730857036	60.9398678518	-28.0350278065	-36.1269233468
171500000.0	-22.2636092726	125.566833416	3.6979282974	45.8966581295	-60.040986516	59.6796237256	-28.1736936866	-36.5924053944
172187500.0	-22.3176316022	122.591398154	3.67128038872	44.4181533537	-59.7970628286	60.6634110874	-28.3223501837	-37.0836925402
172875000.0	-22.3776973391	119.707170445	3.64511928125	42.9557043007	-59.9630540904	57.6821967784	-28.4447316177	-37.7114226302
173562500.0	-22.4075748059	116.739279558	3.62139732169	41.5118649684	-59.649866066	56.2564787873	-28.618456764	-38.3595539591
174250000.0	-22.4606857511	113.836313606	3.60079475883	40.0955192721	-59.8815124559	57.3025981401	-28.7631002375	-38.9623508922
174937500.0	-22.4971370465	110.799930149	3.58079644517	38.6741068957	-59.4445932347	58.5362128894	-28.8984319085	-39.7174627146
175625000.0	-22.5347329504	107.778677069	3.56353417385	37.281905619	-59.1293972777	59.3679447984	-29.01073298	-40.3247406945
176312500.0	-22.5766877287	104.678366972	3.54616940817	35.891087557	-58.6013641582	57.8544057116	-29.1217250403	-41.2129019937
177000000.0	-22.5969139739	101.601871037	3.53152151503	34.5267133531	-58.1398749056	57.4462507903	-29.2398084902	-42.1367776959
177687500.0	-22.6124590885	98.517633058	3.5178313679	33.1547379966	-58.1919181683	59.8280983063	-29.3506116737	-43.1130297484
178375000.0	-22.6337923379	95.3183039593	3.50696718869	31.8026104763	-58.5504638456	60.3657208099	-29.4514716004	-44.0573924098
179062500.0	-22.6328726049	92.1928419157	3.49644973416	30.4522459015	-58.5211390662	61.186501958	-29.5275353914	-45.1875199442
179750000.0	-22.6314323979	88.9320201519	3.48844388692	29.1244690054	-58.573216606	62.2507733929	-29.6054662019	-46.0228172323
180437500.0	-22.6254615564	85.7811439119	3.48194112311	27.7860994385	-58.4424364565	63.1518518103	-29.6295231916	-47.0275172958
181125000.0	-22.6107908908	82.457512884	3.47617915919	26.4660339674	-58.8007441326	62.5814659113	-29.6894026881	-47.8276004765
181812500.0	-22.5905620899	79.3540328148	3.47081064178	25.1393015076	-58.6783416575	68.5087656311	-29.7217406479	-48.6875532612
182500000.0	-22.5534224755	76.0748078105	3.46973370117	23.8367457397	-58.3666792027	68.6348991915	-29.7706538174	-49.3902748361
183187500.0	-22.5010139628	72.9353136929	3.46758145612	22.5248803117	-58.5359990308	69.5262157331	-29.7939104924	-50.0579206528
183875000.0	-22.4542379062	69.7477166455	3.46830748256	21.2333186343	-58.4026079801	70.3636463669	-29.7979327667	-50.7528448946
184562500.0	-22.3850192717	66.5761644639	3.46803842188	19.9361915583	-58.3239867287	61.9036621783	-29.7678014238	-51.4469677867
185250000.0	-22.3086107913	63.420171999	3.47075681327	18.6493019342	-58.3813873253	62.1332744863	-29.7568511648	-51.976826699
185937500.0	-22.2276899978	60.2734614243	3.47016566626	17.3526532896	-58.5758041612	70.019406043	-29.7279103644	-52.2433434541
186625000.0	-22.1547132285	57.2205896733	3.47659263543	16.0758824064	-58.9382283819	71.4982655216	-29.7225062568	-52.4367180365
187312500.0	-22.0669587314	54.0941120577	3.47995829302	14.7872754732	-58.8665459081	69.9537388598	-29.6724812375	-52.6248840297
188000000.0	-21.9815064125	51.1611229583	3.48688199792	13.5109942779	-59.4649982683	69.7467884828	-29.6276130485	-52.7842451007
188687500.0	-21.8854762482	48.155504794	3.49245221467	12.2261938238	-59.2411940905	68.7810497349	-29.6033164604	-52.7791841405
189375000.0	-21.7860734816	45.2786458423	3.50008355278	10.9589741922	-59.6540128771	68.3765894846	-29.5555613083	-52.7559641309
190062500.0	-21.6826009858	42.3217644772	3.50782564207	9.69604685336	-60.2573714909	66.7982232392	-29.5030917986	-52.4096915082
190750000.0	-21.5961699565	39.5559181054	3.51814383641	8.43982468268	-60.3839105688	68.2645916678	-29.4594091957	-52.1943912115
191437500.0	-21.5072170043	36.6894645417	3.52556776308	7.1789622945	-60.327098448	68.5127121237	-29.397891193	-51.8487157723
192125000.0	-21.4309045436	34.0186706249	3.53632588316	5.93154615005	-60.8354684123	71.5861835089	-29.3342429674	-51.4452883053
192812500.0	-21.3550993279	31.214189661	3.54615366637	4.68672543978	-61.386941149	85.2783863877	-29.3018508313	-51.1505400203
193500000.0	-21.2824787493	28.5798171241	3.55872246357	3.43770570411	-61.2917292136	101.363810097	-29.2588845352	-50.6099962862
194187500.0	-21.226024509	25.8298938249	3.56942086074	2.1852618717	-61.4524024788	116.642211126	-29.2016923261	-49.8633958961
194875000.0	-21.186013239	23.2263807686	3.5828819496	0.947404161509	-61.1942871537	131.593212793	-29.1382549025	-49.0321506646
195562500.0	-21.1318396487	20.5264075843	3.59493722394	-0.291166624881	-61.0457543486	145.774828327	-29.100664813	-48.253289979
196250000.0	-21.0996105664	17.9522851656	3.60735563173	-1.51176747793	-60.6969298975	155.358874944	-29.0791359007	-47.2985656592
196937500.0	-21.0624916578	15.251283269	3.62195840215	-2.74229081769	-60.2914390936	169.016610171	-29.0451726165	-46.3352483382
197625000.0	-21.0381605463	12.577771799	3.6363807656	-3.95546123526	-60.2249938519	178.286610292	-29.0350604188	-45.401933083
198312500.0	-21.0192558724	9.93202164295	3.6516713838	-5.1754141822	-60.0519660127	-167.066946547	-29.008811747	-44.6131129001
199000000.0	-21.0096935207	7.13270851293	3.66918542687	-6.38356457526	-60.1041063723	-160.026032862	-28.9926426101	-43.729195947
199687500.0	-20.9960236608	4.44853482617	3.68414407213	-7.61195458266	-60.2409065868	-145.7507797	-28.9776649196	-42.8001798169
200375000.0	-20.9961478439	1.65855186057	3.70174141664	-8.82415356163	-60.1332033026	-135.57189325	-28.9813872476	-42.0333897311
201062500.0	-20.9935138301	-1.10653101729	3.7184759203	-10.0356198926	-60.0488389896	-121.516144449	-29.0099360937	-41.2243728657
201750000.0	-20.996167802	-3.99694336877	3.73734436956	-11.245340424	-60.067991335	-108.852488978	-29.0234340484	-40.293122321
202437500.0	-20.9993921586	-6.7437039933	3.75617715399	-12.4603034303	-59.5201205838	-110.144778687	-29.0442443846	-39.5937026312
203125000.0	-21.0021620821	-9.6392045252	3.77863527284	-13.6635671091	-59.5088415522	-123.651681257	-29.0650569569	-38.9702949551
203812500.0	-20.9885528789	-12.4880793068	3.79792993629	-14.8709450184	-59.4730457793	-125.363067406	-29.0902244221	-38.4664152764
204500000.0	-20.9900159341	-15.4118078334	3.82038921758	-16.0655390977	-59.423004431	-126.771689257	-29.1289946369	-37.8316831178
205187500.0	-20.9814984292	-18.3213545802	3.84078904485	-17.2664677773	-58.9329463145	-127.655140355	-29.1800890574	-37.0096561764
205875000.0	-20.9610665694	-21.2577086557	3.86525368288	-18.4628746786	-59.3867671726	-126.864153424	-29.214765755	-36.3017887659
