#Frequency	|S11|	<S11	|S21|	<S21	|S12|	<S12	|S22|	<S22
100000000.0	-19.7566161428	126.042261641	-15.3879136315	-126.678660893	-60.8810691889	-118.413596687	-20.1500318824	-72.5174447002
100687500.0	-19.6441658935	122.848210243	-15.0100275093	-127.870452482	-58.8846485601	-70.2525983527	-20.1772147606	-72.6616656572
101375000.0	-19.5686468258	119.579926221	-14.6329712266	-128.954154406	-60.9306891396	-94.3779481184	-20.2527820988	-72.6742760669
102062500.0	-19.4912832486	116.435916641	-14.2762185127	-130.224604703	-59.8712092496	-163.99530775	-20.3498988689	-72.673425097
102750000.0	-19.4165699618	113.270271368	-13.9309436274	-131.607745545	-60.887369148	132.51206132	-20.427059088	-72.6732586824
103437500.0	-19.3467639667	110.079387749	-13.6183211732	-133.005788438	-61.0061415935	83.7505792353	-20.5085547355	-72.6922139732
104125000.0	-19.2895991743	106.718639908	-13.3266339378	-134.377217791	-60.9080445714	74.8121202863	-20.5995041957	-72.7741622023
104812500.0	-19.2441844478	103.367171922	-13.0594682174	-135.730373166	-61.0622830753	67.3458613994	-20.6724033328	-72.941760494
105500000.0	-19.2053007042	99.8794138301	-12.8139251408	-137.106322991	-60.8961278894	63.5351094474	-20.7449992915	-73.0851639145
106187500.0	-19.1631567343	96.2564214743	-12.6027567305	-138.467927119	-60.8182422341	27.3441992042	-20.8342659969	-73.1933794746
106875000.0	-19.1299969935	92.5262668757	-12.4251616806	-139.763341365	-61.3718980312	-15.0389167551	-20.9253829879	-73.4437633788
107562500.0	-19.1106784575	88.6215454294	-12.2864125277	-140.98215978	-61.2443514134	-43.699986724	-21.0267735129	-73.6167197897
108250000.0	-19.0840979715	84.5384809453	-12.1902825261	-142.028218978	-60.9652978332	-69.4945837925	-21.1215943943	-73.7715369987
108937500.0	-19.0399677611	80.665483374	-12.0320609582	-143.085760374	-61.1846592764	-84.9592252659	-21.2096695411	-73.8294010106
109625000.0	-19.003411812	76.7339519831	-11.9011985152	-144.031085168	-61.0167068266	-111.582207071	-21.2984938499	-73.9090085337
110312500.0	-18.9560058948	72.7386821887	-11.7996070536	-144.801463841	-60.9993096475	-128.837051324	-21.3993408128	-74.0159042444
111000000.0	-18.9207039375	68.5799816155	-11.7243068389	-145.38941226	-60.7632788547	-144.080098096	-21.5009932042	-74.0858161851
111687500.0	-18.8734219453	64.3896452873	-11.6715730355	-145.65796228	-60.5229254863	-155.878359515	-21.5896999404	-74.1829309532
112375000.0	-18.8393633582	60.0028624469	-11.6308727362	-145.577876539	-60.3752579762	-164.891239444	-21.6920770502	-74.2553817484
113062500.0	-18.7910023784	55.5903532046	-11.5844560642	-145.074840999	-60.3678235174	-166.146557061	-21.7884932742	-74.3594460974
113750000.0	-18.754976012	50.9890184828	-11.5162470598	-144.163543207	-60.1091802671	-172.542149142	-21.8879228711	-74.3802708478
114437500.0	-18.7160499217	46.3639965384	-11.409701156	-142.885345481	-60.3727520895	-169.809994902	-21.9977076235	-74.4218540121
115125000.0	-18.6799018423	41.5416467443	-11.2518533414	-141.356119434	-60.1393353643	-170.559710491	-22.1113480022	-74.4123489204
115812500.0	-18.6370841409	36.6152304471	-11.0400439213	-139.629874549	-60.2915639176	-168.316676079	-22.2285145989	-74.2704437454
116500000.0	-18.5997662882	31.5704648403	-10.7709224175	-137.818769705	-60.495163185	-170.605294934	-22.3401878152	-74.0969603491
117187500.0	-18.5683308447	26.455825199	-10.4465901165	-135.967597604	-60.6523903077	-174.775979936	-22.4503819647	-73.8563340607
117875000.0	-18.5431605629	21.1571244568	-10.0682092828	-134.153740952	-60.7336256502	172.213594499	-22.581846579	-73.4844579043
118562500.0	-18.5336938047	15.7355480416	-9.6402269354	-132.385240307	-60.469541212	159.213610544	-22.7055825208	-73.0360270269
119250000.0	-18.532672209	10.2099147187	-9.16644139396	-130.709100534	-60.2545791665	132.590309395	-22.8237691219	-72.4720952751
119937500.0	-18.5595470701	4.57248216161	-8.64748374748	-129.16180783	-60.0643862491	114.576144192	-22.9329860959	-71.8427200573
120625000.0	-18.5993490576	-1.12013854408	-8.08445723919	-127.76008058	-59.9443992352	105.162938188	-23.0453140627	-71.1191106924
121312500.0	-18.6817562636	-6.93499447767	-7.48647624358	-126.538842984	-60.0274816658	103.549995456	-23.1438885292	-70.2715761645
122000000.0	-18.7806945951	-12.7351406427	-6.8482410125	-125.499385928	-60.2902924926	102.47553884	-23.2458266006	-69.3801229337
122687500.0	-18.9475711367	-18.6385140316	-6.17999418802	-124.677026407	-59.591502329	90.9528505229	-23.3210425904	-68.3446949629
123375000.0	-19.1349922581	-24.3473348553	-5.47961266058	-124.063903139	-60.358776275	84.9521986494	-23.3781048898	-67.2535940629
124062500.0	-19.3958268151	-30.0639077242	-4.75141949674	-123.654122827	-60.0330054243	79.8410134899	-23.427695771	-66.1388390114
124750000.0	-19.7033614905	-35.3479744901	-3.99864348057	-123.518046413	-59.9535630902	77.4550411719	-23.4638337151	-65.0257943361
125437500.0	-20.0621594453	-40.3437713749	-3.21819353327	-123.617071271	-60.054467246	68.4977013239	-23.4924082233	-63.8008206319
126125000.0	-20.4581017943	-44.6858809718	-2.41226725776	-124.000457917	-59.8740658438	54.696886124	-23.5108490455	-62.6667128053
126812500.0	-20.85497966	-48.6834419049	-1.58054197995	-124.67595777	-60.0395338671	46.6366791957	-23.5245102795	-61.4764168861
127500000.0	-21.2238053576	-51.9623649284	-0.726871725298	-125.715218329	-60.0425095741	35.3358959681	-23.5066332913	-60.2768767383
128187500.0	-21.5557927092	-55.0090725521	0.148829590032	-127.128531637	-59.9778049482	19.3068840077	-23.4924242555	-59.0973735513
128875000.0	-21.8475405027	-57.7248784068	1.03886912847	-129.001787403	-59.9019477172	0.973356993081	-23.4700507837	-57.9037959688
129562500.0	-22.1121368456	-60.2856108675	1.93505041413	-131.383269106	-59.9221124365	-15.4755050696	-23.4252590806	-56.7272320796
130250000.0	-22.3561857869	-62.7253293313	2.8161151646	-134.31835334	-59.8861168491	-33.2837123094	-23.3831907821	-55.5661357178
130937500.0	-22.5602196594	-64.9864001037	3.66534237366	-137.796897064	-59.718048845	-47.7096132675	-23.3358508342	-54.5095926379
131625000.0	-22.7560981925	-67.2081268604	4.46662878681	-141.764279279	-59.0127443686	-64.3155897663	-23.2708518213	-53.4363903912
132312500.0	-22.9263539269	-69.3114700782	5.21032248948	-146.102814429	-58.7430374391	-77.2239531482	-23.1954527973	-52.4051637139
133000000.0	-23.0861492357	-71.3386214369	5.88984322736	-150.752289736	-58.443002249	-96.3901336959	-23.1099547088	-51.5838227063
133687500.0	-23.2206958355	-73.2954675749	6.50276680754	-155.601685897	-58.2448959208	-119.490690716	-23.0261574198	-50.7850172642
134375000.0	-23.3509159471	-75.2028599935	7.05304962357	-160.602969648	-57.7207770924	-129.246172957	-22.9371535215	-50.0903525012
135062500.0	-23.4469020643	-77.005638958	7.54172392076	-165.666357455	-57.4292591784	-128.473894284	-22.8319467014	-49.5185025528
135750000.0	-23.5329731998	-78.7277761991	7.97222670856	-170.766689295	-57.3033448258	-123.234253642	-22.7205890902	-49.1393332234
136437500.0	-23.5868396161	-80.3629094387	8.34790034269	-175.860723123	-57.5856577363	-108.252619141	-22.6187162566	-48.8287776754
137125000.0	-23.6215351262	-81.9579482646	8.67230773301	179.079335883	-57.4548837898	-99.3860416464	-22.5201414722	-48.6334116838
137812500.0	-23.6256206844	-83.3769540845	8.9502748673	174.10244689	-57.3375446587	-88.9853371126	-22.4080816686	-48.5489223314
138500000.0	-23.6002734145	-84.7986469044	9.18728100684	169.198308803	-57.0068881788	-81.9179437022	-22.304068957	-48.6275189037
139187500.0	-23.5346527298	-86.1768288167	9.38206631555	164.41286776	-56.5789792618	-67.0939787513	-22.2049294477	-48.7241993056
139875000.0	-23.4149201961	-87.4944865426	9.54421983629	159.742606305	-56.5119576591	-50.3146308211	-22.1209249817	-48.9667085653
140562500.0	-23.2626861921	-88.9059465372	9.67641622806	155.200791095	-55.5382834376	-38.7234183928	-22.0439068739	-49.3485367885
141250000.0	-23.040776331	-90.364333736	9.78195811166	150.77837772	-55.5532054012	-29.5585434837	-21.9692114546	-49.7409868726
141937500.0	-22.7856692434	-92.1322822551	9.86371334608	146.514888358	-55.4002247821	-18.4636094178	-21.911710981	-50.1921174019
142625000.0	-22.469303415	-94.1822042413	9.92599563103	142.378289657	-55.7724864046	-6.81401234104	-21.8576575652	-50.7165083055
143312500.0	-22.1334091893	-96.790084539	9.96913540991	138.384086057	-55.3974479634	5.63020043346	-21.8050133985	-51.2704029307
144000000.0	-21.7915618589	-99.7161972148	9.99861766142	134.50306771	-55.3477929088	15.779141457	-21.7635733318	-51.8431078661
144687500.0	-21.493309869	-103.32200503	10.0151766257	130.77370671	-55.224796634	25.4808564217	-21.7364294575	-52.4379791303
145375000.0	-21.22588253	-107.012162366	10.0212430204	127.155889387	-55.4184950965	38.9031893288	-21.7008404162	-53.0754158203
146062500.0	-21.0194692063	-110.972368738	10.0168580668	123.661329436	-55.3729338486	51.2042277767	-21.6784322894	-53.7285378024
146750000.0	-20.8232603069	-114.93446944	10.004051067	120.257255285	-55.4011354598	64.1270280787	-21.6682894668	-54.3882189456
147437500.0	-20.6750911217	-119.03685147	9.98451829176	116.981997738	-55.143403894	73.6024324623	-21.6566635305	-55.0412990115
148125000.0	-20.5571537393	-123.182150439	9.9616849356	113.794021482	-55.2446219814	86.9079945399	-21.6401947675	-55.6109466682
148812500.0	-20.4686299962	-127.393350667	9.93132063563	110.713217317	-55.3160036328	98.4787198331	-21.6321555938	-56.2312710864
149500000.0	-20.406870473	-131.48513475	9.90032027364	107.71459712	-55.3411757709	110.14363183	-21.638083275	-56.8038986513
150187500.0	-20.3682225191	-135.600996535	9.86373389839	104.808473135	-55.4631743474	118.438319237	-21.639090322	-57.2824550724
150875000.0	-20.3548640355	-139.631937616	9.82647196597	101.979110023	-55.1145325735	130.413543252	-21.6447204664	-57.7029374935
151562500.0	-20.3432940381	-143.716018983	9.78637160375	99.2270008666	-55.276652596	133.74433532	-21.6479322908	-58.1714998816
152250000.0	-20.3621361246	-147.731738861	9.74447808204	96.5397632078	-55.1485703491	133.262746506	-21.66543155	-58.5374988889
152937500.0	-20.3855753972	-151.653579142	9.69895088753	93.9195079172	-55.3888354173	131.175635149	-21.680185332	-58.8404385729
153625000.0	-20.4398864809	-155.514086527	9.65525318319	91.372310426	-55.2148516136	128.950727079	-21.6974675005	-59.1658224999
154312500.0	-20.4875799168	-159.382099447	9.61057730627	88.8920773451	-55.4454215695	127.452529163	-21.7072086733	-59.4955895729
155000000.0	-20.5649845186	-163.301679702	9.56368824116	86.4528618399	-55.3133050246	126.928523724	-21.728838978	-59.7573196387
155687500.0	-20.6284700055	-167.09717432	9.5182613722	84.0874413358	-55.4741005815	124.333411285	-21.761855414	-59.9828859535
156375000.0	-20.728839705	-170.875149901	9.47203573938	81.7574821677	-55.2922980799	121.393595064	-21.7866508916	-60.1524366595
157062500.0	-20.8091962781	-174.625981313	9.42600467399	79.4887956367	-55.6548428911	117.818443303	-21.8092404825	-60.2965984624
157750000.0	-20.9116949147	-178.384292704	9.37842872833	77.258155754	-55.6132645264	108.740957357	-21.835889472	-60.3799775783
158437500.0	-21.0085993684	177.947775788	9.33020600138	75.0842552317	-55.5424948245	109.46116068	-21.8771933688	-60.4386481892
159125000.0	-21.1015939588	174.235469306	9.2848445909	72.9430975539	-55.4563034249	106.790428491	-21.9119964998	-60.4644474736
159812500.0	-21.2006357717	170.636909657	9.23923200217	70.8576151572	-55.2072137631	105.458697803	-21.9568497314	-60.4450490776
160500000.0	-21.3011741013	167.024122722	9.19540450299	68.8019781773	-55.1247838312	99.6218254922	-22.0083854215	-60.4509757706
161187500.0	-21.4034389627	163.49445775	9.15066329797	66.7918149435	-55.1846080194	98.5088548285	-22.0543524357	-60.4228020352
161875000.0	-21.5081552046	160.019569093	9.106862916	64.8084481206	-55.2805118752	94.2294042492	-22.1080843664	-60.467239358
162562500.0	-21.6256162492	156.489606242	9.06263426942	62.8665418424	-55.1624833304	93.1554636562	-22.1622706742	-60.4296170244
163250000.0	-21.716958556	153.033579158	9.01984163649	60.9439430019	-55.1340468456	88.5375820868	-22.2305060469	-60.3812345424
163937500.0	-21.8400834778	149.537290276	8.97818517186	59.0848828034	-55.0925097703	87.3577255647	-22.2926416701	-60.2829472085
164625000.0	-21.9429484407	146.158239642	8.93785278502	57.2300358064	-55.1552928051	87.1254371863	-22.3667479665	-60.2689121015
165312500.0	-22.0690467331	142.815708674	8.89719174428	55.4213008788	-54.9182886493	84.8458174465	-22.4391532043	-60.2297732994
166000000.0	-22.1717723944	139.599390109	8.85900714828	53.6321074855	-55.4775962214	80.1433675272	-22.5137558603	-60.2400136855
166687500.0	-22.2942282502	136.172021988	8.81963113087	51.8813718469	-55.4867439848	77.9257441655	-22.5872357473	-60.2211451296
167375000.0	-22.4133459907	132.929528135	8.78290092427	50.1454190306	-55.8836826889	77.8575835902	-22.6735645278	-60.3905456438
168062500.0	-22.5354143278	129.627302066	8.74603242764	48.4499695041	-55.9765211727	76.7607785667	-22.747888502	-60.4341380834
168750000.0	-22.6445956415	126.496129156	8.71155751293	46.7759683466	-55.9533068958	76.0878783685	-22.8400458639	-60.5933354709
169437500.0	-22.7662119377	123.238893408	8.67666194751	45.138565956	-55.9163839917	71.8938634308	-22.920348663	-60.7423750918
170125000.0	-22.8836884028	120.054586558	8.64725376591	43.5087304718	-55.7107217933	72.5363083847	-23.0154434372	-60.969651857
170812500.0	-22.9992821332	116.722937342	8.61634289093	41.9032267688	-55.5250880715	70.2670955673	-23.1173706637	-61.1635931669
171500000.0	-23.1164908865	113.55856732	8.58813105338	40.3165469162	-55.8841949165	72.1563471729	-23.2147980729	-61.3820039883
172187500.0	-23.2288312256	110.259993272	8.56250250952	38.771869845	-55.9170419227	64.0866939145	-23.3028496194	-61.6572174193
172875000.0	-23.3628016193	106.961492434	8.53620723073	37.220520259	-55.8674083966	50.9858896522	-23.3922913783	-61.9269742422
173562500.0	-23.4531507871	103.651098295	8.51266930507	35.7035807843	-55.7582219297	29.8046852448	-23.495874951	-62.2884641947
174250000.0	-23.5753630536	100.401168772	8.49240831191	34.1933734293	-55.4896081889	15.8640297538	-23.605897411	-62.5761348741
174937500.0	-23.6583781785	97.0184028064	8.47400736652	32.70370668	-55.6004271158	7.16539970309	-23.7032903252	-62.9575288183
175625000.0	-23.756528608	93.6263043148	8.45862378886	31.221937265	-55.7958908674	-11.4658064102	-23.8030908227	-63.327011303
176312500.0	-23.8350373603	90.3050776774	8.44255559032	29.7690823903	-55.7900041124	-27.2947417916	-23.8964615785	-63.7875156002
177000000.0	-23.925419985	86.8580457889	8.42972249832	28.3099081303	-55.7742706076	-42.8919069238	-23.9929129756	-64.2475930007
177687500.0	-23.9842621161	83.4409857974	8.41743149341	26.8729238212	-56.0246741807	-59.3345504324	-24.0864788974	-64.7003188086
178375000.0	-24.0619708957	79.8903935455	8.40906232945	25.4407250256	-55.6744264626	-78.8569549787	-24.1872285082	-65.1226576133
179062500.0	-24.1215889895	76.4386578664	8.40028263951	24.0207152699	-55.8363625263	-93.9466390391	-24.2655716814	-65.6211859127
179750000.0	-24.1666895518	72.8963207414	8.39449406013	22.6055624031	-55.6022464758	-110.481429447	-24.3623224553	-65.9839623336
180437500.0	-24.2124095912	69.2933779059	8.3894989548	21.2010282607	-55.7493083249	-124.372765672	-24.4331487558	-66.4375979288
181125000.0	-24.2446587332	65.6150005505	8.38637060284	19.783259321	-55.7484514819	-145.552439215	-24.5165295273	-66.8248547177
181812500.0	-24.2738455175	62.0747707153	8.382074331	18.3956965696	-56.6618768466	-160.936567938	-24.5907221333	-67.1632601907
182500000.0	-24.2760560921	58.3552232546	8.38155808433	17.0035012379	-56.5742139647	-179.386250641	-24.6853908103	-67.5257780328
183187500.0	-24.2851601437	54.7333279105	8.38024669726	15.6268594516	-56.6782124291	165.135336665	-24.775434195	-67.8139871296
183875000.0	-24.2632472248	51.2193825362	8.38168956625	14.2358736818	-56.5256302587	146.962678853	-24.847125206	-68.0917237778
184562500.0	-24.2517593546	47.5755033357	8.38259392293	12.8729901016	-56.5565186392	130.770208136	-24.9180930602	-68.3155591595
185250000.0	-24.2116927612	43.9723975982	8.38570689658	11.4996931476	-56.5185982379	117.569661653	-24.9929523495	-68.5058841306
185937500.0	-24.2050703961	40.282721504	8.38650486739	10.1386714167	-56.6024739177	104.786177341	-25.067836121	-68.5984756115
186625000.0	-24.1685957781	36.7111162567	8.39277008835	8.766853969	-56.7942826863	87.3893984898	-25.1504797403	-68.7593640277
187312500.0	-24.1299113112	32.9922471364	8.39637801244	7.41139044701	-56.9900300018	73.0551506009	-25.2295480001	-68.7408710465
188000000.0	-24.0720666203	29.5118889696	8.40287386083	6.04889069305	-57.0562873871	55.0838297784	-25.2882130569	-68.7399667392
188687500.0	-24.0285693369	25.7881626817	8.40754530628	4.70110635788	-56.6672044867	39.2425631345	-25.3667486532	-68.7473718115
189375000.0	-23.9610212092	22.2814013626	8.4148583099	3.34851535837	-56.9859899985	26.6144757611	-25.4572617615	-68.6744640418
190062500.0	-23.8883183812	18.6962396784	8.4215526394	2.01798709411	-56.9855639936	25.2427291117	-25.5318389542	-68.5707645011
190750000.0	-23.8297661136	15.1465009556	8.43137367144	0.680648738067	-57.293218912	26.8884363954	-25.6089899074	-68.429610309
191437500.0	-23.7506548686	11.4898737268	8.43858892701	-0.637570207102	-57.2549598931	25.4555935315	-25.6745353703	-68.3134143599
192125000.0	-23.6899316457	8.03363803082	8.44745910343	-1.96041084375	-57.6191400262	21.0921105533	-25.7521981944	-68.1573580599
192812500.0	-23.6149942957	4.48387622635	8.45611446339	-3.26022118589	-57.5074089278	21.775398937	-25.8249901028	-67.9653629246
193500000.0	-23.5456136244	0.95916983764	8.46660342249	-4.5830880669	-57.9801077312	20.0788895111	-25.9228152872	-67.7918421362
194187500.0	-23.4613339941	-2.53590346033	8.47491134484	-5.88325842643	-57.6865218578	14.1712125831	-25.9862521531	-67.5226646749
194875000.0	-23.3942697939	-6.0836704179	8.485664234	-7.19482374331	-57.7567591539	15.5065704757	-26.0567115062	-67.2621982448
195562500.0	-23.2895823993	-9.57552881026	8.4963451261	-8.48650444746	-57.6573152259	15.3686383029	-26.1356431571	-67.0498306354
196250000.0	-23.2098453838	-13.0906855294	8.50851327961	-9.78126798198	-57.8570450111	15.4667401979	-26.2317550978	-66.7633040756
196937500.0	-23.1078740557	-16.5487869171	8.52081875939	-11.0662374286	-57.9862993043	15.0632438631	-26.3113768387	-66.468105819
197625000.0	-23.0160111019	-19.9731850221	8.53447301505	-12.344218456	-57.9295651989	15.247923058	-26.3967588836	-66.2382698155
198312500.0	-22.9000574381	-23.2533005894	8.54827014961	-13.6069625383	-57.8474269321	18.4525062604	-26.4660308337	-66.0717879308
199000000.0	-22.7996917006	-26.6962282661	8.56495299088	-14.8901081537	-56.9809522311	16.755708679	-26.5415385323	-65.9251672187
199687500.0	-22.6856308577	-29.8885081885	8.57950714719	-16.157548542	-57.017781038	16.4541504761	-26.5958908223	-65.7681026584
200375000.0	-22.5768187922	-33.2112230034	8.59571053669	-17.4315188034	-56.5796071544	15.318691587	-26.6766470268	-65.7501277691
201062500.0	-22.4601436259	-36.424128573	8.6118330668	-18.6750803975	-56.7085649789	14.1810259675	-26.7484350491	-65.7330690104
201750000.0	-22.3328022402	-39.6246615033	8.62931382143	-19.9440712804	-56.01636282	14.1892600732	-26.8399037879	-65.6935251315
202437500.0	-22.2165180474	-42.7209844042	8.64787692677	-21.1969876897	-56.285903429	7.80362935868	-26.9134991246	-65.8396048161
203125000.0	-22.0779370447	-45.7866934753	8.66925159382	-22.4554555152	-56.0380773744	3.37841578235	-26.9905244688	-65.8967449662
203812500.0	-21.9340288618	-48.7411436162	8.68779138819	-23.691032891	-56.1413704574	3.06008106217	-27.0483073698	-65.9820814957
204500000.0	-21.7909886209	-51.6715539787	8.70953058083	-24.941045944	-55.6969088408	-2.14097228408	-27.0944113705	-66.1720633927
205187500.0	-21.6594925601	-54.5688857555	8.73037888264	-26.1770103523	-56.2485327314	-3.96930419948	-27.1573810144	-66.298554027
