#Frequency	|S11|	<S11	|S21|	<S21	|S12|	<S12	|S22|	<S22
100000000.0	-19.6732744115	120.03286133	-18.1658436554	-124.110975255	-60.4605102319	-139.215270967	-21.2725448624	-63.3059916294
100687500.0	-19.4766673358	118.083502583	-17.7524339508	-125.167309448	-58.499924785	168.507191974	-21.3709293806	-63.7665736697
101375000.0	-19.329706894	115.298574694	-17.3545156867	-126.372734357	-60.8745087849	176.25740316	-21.4998956266	-63.7049149439
102062500.0	-19.2193836713	112.438445322	-16.9955275012	-127.616389564	-61.5232254382	-159.781274519	-21.6032365038	-63.5150511537
102750000.0	-19.104041216	109.547852582	-16.6720853519	-128.984396317	-60.9472680187	-119.633037283	-21.6832369186	-63.4075040225
103437500.0	-18.9954455065	106.723443572	-16.3612153198	-130.329161723	-60.6710922364	-64.0763582213	-21.7699326471	-63.2055819313
104125000.0	-18.9025723881	103.726751333	-16.0741128273	-131.69749761	-61.7704707283	-24.7571726527	-21.8909532613	-63.0911322761
104812500.0	-18.82157791	100.722916003	-15.8097138313	-133.065288519	-61.558443964	-8.60707455602	-21.9787507836	-63.2294641726
105500000.0	-18.7443998172	97.5602025037	-15.5800895092	-134.432803633	-61.6059518191	-2.96585415908	-22.0645509945	-63.3044674063
106187500.0	-18.672260499	94.3433531409	-15.3808370345	-135.771001399	-61.5325362213	-12.8205478323	-22.1605241921	-63.4237481745
106875000.0	-18.6055086295	90.9905266384	-15.2160924979	-137.03505783	-61.049405487	-39.6519676164	-22.2554601654	-63.6527529601
107562500.0	-18.5504822001	87.4913662786	-15.0914313981	-138.214247096	-60.920174249	-81.829978068	-22.3636327466	-63.7789464381
108250000.0	-18.4853084893	83.8670674196	-15.0133008337	-139.223204937	-61.1759295149	-125.911183795	-22.461231825	-63.9446007973
108937500.0	-18.4055105132	80.46634584	-14.8690789509	-140.244105832	-61.0142112523	-148.30182206	-22.5622233822	-63.9835214467
109625000.0	-18.335525584	76.9556628113	-14.7501049637	-141.139708109	-61.3780990976	-162.107429994	-22.648892471	-64.0143117239
110312500.0	-18.2621027164	73.3391332736	-14.6616327854	-141.864859794	-61.6101013272	-178.173178934	-22.7425925852	-64.1136383758
111000000.0	-18.1971769159	69.6363240903	-14.6013246141	-142.365209854	-61.6153951735	168.095536517	-22.827115514	-64.1860797761
111687500.0	-18.1249592615	65.8746657899	-14.5623563636	-142.521029461	-61.489690113	153.026919222	-22.912367632	-64.2861862338
112375000.0	-18.0594167325	61.9709601182	-14.5344132845	-142.354599716	-61.2172647656	133.821596067	-23.0024410825	-64.3743387708
113062500.0	-17.9877706175	58.0430511695	-14.502466785	-141.767163447	-61.3084839606	105.661321515	-23.0867604595	-64.4626950304
113750000.0	-17.9297806731	53.9802404796	-14.4410344256	-140.773334858	-61.1816547191	79.5605597423	-23.1714868078	-64.5269107821
114437500.0	-17.8700121711	49.8597123588	-14.3399680043	-139.410099851	-61.4014966189	50.6639779331	-23.2642151038	-64.6507193221
115125000.0	-17.8220748627	45.5711881544	-14.1902907568	-137.817702662	-61.4865322144	20.4018093738	-23.3461245666	-64.7180127261
115812500.0	-17.7670771848	41.1928448937	-13.9893114756	-136.047580246	-61.7461968061	-21.6529177181	-23.4411532667	-64.6943035343
116500000.0	-17.7233901429	36.7159730071	-13.7293417404	-134.178940094	-61.5198158243	-64.2929809122	-23.5114824029	-64.6765548446
117187500.0	-17.6856131459	32.1792909595	-13.4179059748	-132.273750478	-61.6451328591	-120.705078459	-23.5863346926	-64.6473520905
117875000.0	-17.6597103795	27.5103282092	-13.0526010727	-130.400334349	-62.09995523	-174.903421894	-23.6772710356	-64.4245179679
118562500.0	-17.6541147457	22.7234727852	-12.6439887309	-128.564916504	-62.0000328983	137.091138675	-23.7480251755	-64.2016592656
119250000.0	-17.6615765882	17.865331146	-12.1811602122	-126.824938749	-61.6650572235	89.7124769642	-23.817814126	-63.8429959603
119937500.0	-17.6986028221	12.9572735536	-11.678487331	-125.200698704	-61.6427319587	48.2471295558	-23.8771194659	-63.4719927162
120625000.0	-17.7456605281	7.96344026857	-11.1301028649	-123.716569455	-61.4022275538	2.7071474759	-23.9493084923	-63.0323818814
121312500.0	-17.8488598256	2.90237776764	-10.5477636315	-122.397873477	-61.5390922082	-38.297700576	-23.9933452402	-62.5072617272
122000000.0	-17.9681983305	-2.16972449143	-9.92512592797	-121.262384388	-61.5520892196	-77.1175300363	-24.0427164133	-61.8812209882
122687500.0	-18.154194571	-7.21650899854	-9.27540700928	-120.32799775	-61.6206911871	-108.733704226	-24.0798370788	-61.2621025028
123375000.0	-18.3670100577	-12.0970416382	-8.58987499345	-119.584946715	-61.6634839595	-136.357821929	-24.1041455129	-60.5719008577
124062500.0	-18.6623923937	-16.9375128655	-7.87625517373	-119.053797178	-61.8679948186	-159.303128594	-24.1219107646	-59.7954217849
124750000.0	-19.0152679207	-21.303109907	-7.13114535423	-118.777223491	-61.5104888826	174.849591736	-24.1362270722	-59.0385789452
125437500.0	-19.4052892093	-25.3658792636	-6.36358831944	-118.722744339	-61.2882326373	158.046946995	-24.1428987325	-58.1478702654
126125000.0	-19.8227519363	-28.6814357697	-5.56240263727	-118.948201528	-61.3015198086	137.122710967	-24.1501818249	-57.3791953165
126812500.0	-20.2370795029	-31.654061125	-4.742977401	-119.481877166	-60.9395836257	114.463012727	-24.1650174364	-56.5501327304
127500000.0	-20.6065723401	-33.8887178754	-3.89211204764	-120.363498924	-60.8199076938	88.827612282	-24.1567365977	-55.7031831005
128187500.0	-20.9584793709	-35.952687515	-3.02444999107	-121.643715701	-60.1319243355	61.7440900049	-24.1451159392	-54.7658620157
128875000.0	-21.2657157101	-37.7104969126	-2.13569952785	-123.397355261	-60.0475894729	32.9300555736	-24.1228610686	-53.8241902576
129562500.0	-21.5518243601	-39.3883319122	-1.24654809132	-125.62944099	-59.8575612075	7.41742432441	-24.1013592996	-52.9592002114
130250000.0	-21.8190079263	-40.9326040555	-0.364517100356	-128.425487632	-59.8562418902	-7.83598979024	-24.0843711744	-52.0552102868
130937500.0	-22.0504781039	-42.4222861793	0.477868736275	-131.754936201	-59.8545259829	-35.5613872721	-24.0574133596	-51.0953539553
131625000.0	-22.272614773	-43.8010039689	1.2784088897	-135.568441548	-59.7188055462	-56.4807871877	-24.0162630145	-50.1911423339
132312500.0	-22.4639937964	-45.136747092	2.01848247403	-139.726409406	-59.4220529593	-80.9894925462	-23.9814376592	-49.2730194347
133000000.0	-22.6493021806	-46.4046759454	2.70116870232	-144.197751953	-59.208721749	-105.091098276	-23.9342181208	-48.4849702507
133687500.0	-22.8136302263	-47.6442762782	3.31339645018	-148.853913053	-58.9369613725	-118.497895516	-23.9007654208	-47.6738214363
134375000.0	-22.9770904511	-48.8472644575	3.87001825422	-153.671518956	-58.2445215374	-122.263221005	-23.8455800583	-46.9251739353
135062500.0	-23.1035259347	-50.0530663504	4.36588746067	-158.542134731	-57.7592613418	-124.710688305	-23.789416871	-46.2763710683
135750000.0	-23.2261530283	-51.1763903359	4.80925987212	-163.465536713	-57.7071269809	-135.524789194	-23.7382506509	-45.6590799415
136437500.0	-23.3198790348	-52.2750723777	5.1963803765	-168.377737439	-57.7421095755	-144.57842738	-23.7082854133	-45.194468749
137125000.0	-23.3959356647	-53.3892331862	5.53663698191	-173.278345882	-57.6537609148	-155.747530524	-23.6735692193	-44.7349309612
137812500.0	-23.4385439565	-54.4191535986	5.82976348275	-178.100135933	-57.8868877093	-157.207421323	-23.6262555251	-44.3219613676
138500000.0	-23.4454140341	-55.4916958777	6.08338459984	177.130732147	-57.3255807799	-165.552649148	-23.5863602731	-44.0268638561
139187500.0	-23.420677756	-56.5110944644	6.29907996921	172.475043129	-57.4414988745	-167.359965604	-23.5599034971	-43.7703202645
139875000.0	-23.3418329449	-57.6788371576	6.48244134381	167.913965088	-57.2183122662	-175.134089712	-23.5343206325	-43.539166942
140562500.0	-23.2310412376	-58.9288682716	6.63461507918	163.470795972	-57.4965130427	-178.683310593	-23.5184948672	-43.4659775466
141250000.0	-23.044734154	-60.2695257689	6.76059714286	159.142909857	-57.3234938646	172.469121488	-23.498483871	-43.387117925
141937500.0	-22.8075309963	-62.074302529	6.86133486916	154.960102435	-57.1322563244	172.837613406	-23.4959290951	-43.3930690386
142625000.0	-22.5325930959	-64.1828134931	6.94410783975	150.87902579	-57.2944213557	165.984027082	-23.4887858411	-43.3775818529
143312500.0	-22.2360283368	-67.0032151398	7.00541201965	146.938003943	-57.474740459	168.012138681	-23.4862237562	-43.4578934166
144000000.0	-21.9393407071	-70.2099241436	7.05480499823	143.095970319	-57.4729217221	164.741126865	-23.4886591548	-43.5195912746
144687500.0	-21.7071439136	-74.0906725743	7.08872568658	139.398695225	-57.7831703568	153.412617167	-23.5004215347	-43.5748494341
145375000.0	-21.484494637	-78.1110095631	7.11335758628	135.800563997	-58.3526265926	151.600556629	-23.5232094953	-43.7412883767
146062500.0	-21.3270544416	-82.3807405784	7.12450286625	132.323697855	-58.2265343641	146.399261231	-23.5599754247	-43.9266333806
146750000.0	-21.1752549126	-86.6521865074	7.1280004584	128.927406131	-58.6085326303	142.479478051	-23.5929645633	-44.0705489936
147437500.0	-21.070272259	-91.0709238374	7.12185839293	125.653208773	-59.066313624	129.845608905	-23.6069681705	-44.2182911053
148125000.0	-20.9878076074	-95.4295203447	7.11314921979	122.462416093	-59.0505560657	128.376114345	-23.6445004529	-44.4079406199
148812500.0	-20.9351733452	-99.9198901102	7.09483048022	119.369011224	-58.7636957137	126.586493009	-23.6794635911	-44.5950212832
149500000.0	-20.8954774038	-104.281857791	7.07574313507	116.359580347	-58.7645939499	124.838021201	-23.7268602171	-44.8029069591
150187500.0	-20.8811958043	-108.713258779	7.04727490117	113.439946865	-58.5371854812	125.850509725	-23.7738005252	-44.8953641977
150875000.0	-20.8699040605	-113.029643218	7.02094395078	110.594338653	-59.1937058911	126.45065396	-23.819009522	-45.0314456643
151562500.0	-20.878470133	-117.412226039	6.99029651377	107.825732612	-59.0994642101	120.424277288	-23.8758995706	-45.1291524517
152250000.0	-20.9045139222	-121.578553116	6.95842647905	105.117142684	-59.2645346145	119.167849985	-23.9387479288	-45.2485847825
152937500.0	-20.9279765625	-125.77045942	6.92024386645	102.491365041	-59.2100592242	121.414931018	-23.9968415044	-45.2968702754
153625000.0	-20.9757936794	-129.83373921	6.88615645303	99.9256886037	-59.3216400787	118.731244382	-24.0617338801	-45.3505186749
154312500.0	-21.0140717912	-133.891795845	6.84605108992	97.4325379903	-59.1917744084	117.970906041	-24.114019975	-45.3882332554
155000000.0	-21.0760062166	-137.904365602	6.80718523887	94.9766829496	-59.0439852288	116.187402238	-24.1850215266	-45.3594862946
155687500.0	-21.1243282342	-141.795126318	6.76583564521	92.5975567979	-59.3125105453	114.995155428	-24.254629136	-45.3773488246
156375000.0	-21.2039020381	-145.714696411	6.72391251384	90.2487544928	-59.4468517795	114.245480805	-24.3248274568	-45.4235858621
157062500.0	-21.2602508688	-149.48171399	6.68185214574	87.971210571	-59.4218896648	113.9328324	-24.3916496489	-45.3150667788
157750000.0	-21.3375757596	-153.286843247	6.63979908801	85.7229942941	-58.7326530571	111.867737452	-24.4662036052	-45.2377171377
158437500.0	-21.4080249937	-156.955587077	6.5950690384	83.5264812568	-58.8740541326	111.573149269	-24.5416344912	-45.1100527486
159125000.0	-21.4856176826	-160.599256915	6.55421412805	81.3772823833	-58.8891091326	102.281559162	-24.6277835673	-45.0096087942
159812500.0	-21.555910783	-164.112025789	6.5104629938	79.2749431119	-59.1349826559	99.7797951901	-24.7043171376	-44.8476629456
160500000.0	-21.6444650648	-167.61779196	6.46996232914	77.1964332164	-58.9837785077	92.3777537119	-24.8056077746	-44.7717686916
161187500.0	-21.7271571695	-170.988419287	6.42565501537	75.1741838292	-58.9870688788	88.6143748095	-24.8951299987	-44.626798195
161875000.0	-21.814607928	-174.328176311	6.38374803794	73.1656544592	-58.3521425802	90.2781146292	-25.0023260674	-44.5737409452
162562500.0	-21.9174299645	-177.554703303	6.33962765395	71.2169679076	-58.5346563712	89.4548926423	-25.0907606712	-44.4499140296
163250000.0	-22.0017664572	179.154895654	6.29952981633	69.273997816	-58.5988983563	87.3686853295	-25.1933704494	-44.4248058697
163937500.0	-22.1142258025	176.020305296	6.25871462373	67.3868537548	-58.7804355452	88.958883587	-25.2862903405	-44.3082922441
164625000.0	-22.2087061487	172.925436364	6.21972173823	65.5125214944	-57.99128457	90.5641975594	-25.4195906904	-44.275225955
165312500.0	-22.3296305103	169.854881297	6.17954808095	63.692318137	-57.9063323943	91.2607705107	-25.5370598048	-44.2656679199
166000000.0	-22.440473711	166.878662615	6.14228179686	61.8895132764	-57.9937754219	89.0376099303	-25.6476316865	-44.3332517598
166687500.0	-22.5819429048	163.83391562	6.10107656007	60.1198342229	-58.0089818544	87.3277541856	-25.778209165	-44.408309177
167375000.0	-22.7051703615	161.010708887	6.06487428747	58.3701749371	-57.9748809967	86.4056605781	-25.9033106553	-44.6791504276
168062500.0	-22.8633924385	158.087129636	6.02714142119	56.6581333598	-57.5388466487	82.9013219754	-26.0249280731	-44.8361578096
168750000.0	-23.0027419153	155.356153759	5.99050662277	54.9750422476	-57.6821711698	81.9248491502	-26.1460649279	-45.2070006355
169437500.0	-23.1722364547	152.390507835	5.95318003578	53.3196338787	-57.8902304869	82.4743876133	-26.2872077453	-45.4957433239
170125000.0	-23.3339035646	149.651776954	5.92093465555	51.6695317814	-57.7798260944	81.0236477078	-26.4122549713	-45.8583736
170812500.0	-23.5099923632	146.733174835	5.88656122377	50.0547264722	-57.6277985437	83.7185789692	-26.5399758369	-46.2991760019
171500000.0	-23.6910971812	143.926135706	5.85625642227	48.4534862829	-57.5666334601	83.3716479089	-26.6647493859	-46.7591956038
172187500.0	-23.8890060852	140.858325068	5.82560496944	46.8847233791	-57.487527374	80.1790943417	-26.7934272294	-47.4798438817
172875000.0	-24.0847449013	137.776365795	5.79696360359	45.3240724242	-57.5771996152	79.9486753246	-26.9032976466	-47.9915804187
173562500.0	-24.2668828414	134.672772759	5.76841330401	43.7988955191	-57.3918039551	71.869833272	-27.0313158247	-48.7173386611
174250000.0	-24.5020143543	131.586775933	5.74378158191	42.2813123352	-57.4518965383	71.4832750018	-27.1360303577	-49.3718161105
174937500.0	-24.6972397021	128.22942821	5.71943797066	40.7887770065	-57.4869166325	67.4780274746	-27.237556183	-50.1534936277
175625000.0	-24.8951972197	124.761982364	5.69952414599	39.3055877739	-57.7966443221	68.7790722376	-27.3326687975	-50.7877680308
176312500.0	-25.0788740925	121.313309862	5.67658125619	37.8405074908	-57.6820391217	71.6991662373	-27.4232915744	-51.6332501406
177000000.0	-25.2721307187	117.707085051	5.65887316956	36.3850105747	-57.7855487865	71.3689708163	-27.5113718032	-52.4723261959
177687500.0	-25.4106347735	113.995218271	5.63932381062	34.9484074563	-57.6043116586	69.7054294813	-27.5892347821	-53.3143568553
178375000.0	-25.5829298351	110.164522706	5.62429702658	33.5152125233	-57.7801726974	71.9997913493	-27.6599777274	-54.0624893235
179062500.0	-25.7134903064	106.46463724	5.60834823744	32.11021827	-58.0523911693	71.8261378083	-27.6962331605	-54.9847875205
179750000.0	-25.8416186109	102.490327342	5.59592759245	30.6921473726	-57.9369003405	69.7156289871	-27.7606358082	-55.8480205068
180437500.0	-25.9474096549	98.5743629878	5.58136367863	29.2969779186	-57.9776053997	68.0360281433	-27.7776894137	-56.6251096457
181125000.0	-26.0380829386	94.4268720464	5.57009733797	27.9024297043	-57.720345785	62.4857259554	-27.8119311416	-57.3827110613
181812500.0	-26.1230819417	90.4649579257	5.55784053032	26.5287606239	-57.8010161861	64.1772869076	-27.8136415635	-58.1144185161
182500000.0	-26.1771970986	86.3116731174	5.54900451803	25.1492536856	-57.8044416436	60.5279451581	-27.8445122287	-58.8517505036
183187500.0	-26.2148722813	82.2775217764	5.5384057334	23.7898860372	-57.939360974	57.681620029	-27.861680124	-59.355975073
183875000.0	-26.2351534514	78.2338121678	5.53280216636	22.4184369509	-57.9918145444	50.5764935802	-27.8515650153	-59.9016391378
184562500.0	-26.2527700526	74.1226639952	5.52515383439	21.0730960499	-58.0937301053	50.3630168115	-27.8246602882	-60.2281656408
185250000.0	-26.2341344076	70.0659626517	5.51975561681	19.7253214517	-57.832829014	43.0524686058	-27.8161505299	-60.6625099731
185937500.0	-26.2147118225	65.9198750686	5.5123979975	18.3812661416	-58.4809522205	43.759936052	-27.7941746466	-60.7895946728
186625000.0	-26.170422314	62.0104543481	5.50984278287	17.0420863805	-58.1232364239	38.3351905896	-27.7665554463	-61.1063280576
187312500.0	-26.1248957835	57.8827893954	5.50546504934	15.7161735996	-58.5485185194	37.6759080838	-27.7315523513	-61.1077431827
188000000.0	-26.0499792464	53.9628973179	5.50337910657	14.3792535888	-58.6134208725	31.8100109297	-27.6911466638	-61.1218676863
188687500.0	-25.9841780007	49.943138365	5.49892852522	13.0657412204	-58.93455699	32.9085243912	-27.6581635461	-61.0288341019
189375000.0	-25.8795206109	46.2076190581	5.49781922469	11.7482307585	-58.8775442605	30.5537105434	-27.6266243211	-60.7994487684
190062500.0	-25.8054608865	42.3837402418	5.49723272364	10.4450785008	-58.9051103196	30.4616687698	-27.5924645147	-60.4721504506
190750000.0	-25.706008147	38.730492949	5.49971337474	9.14189566964	-59.1936455866	36.4281494667	-27.5595550638	-60.0601823047
191437500.0	-25.5887726339	34.9561524244	5.49813854096	7.86136096066	-59.5236780053	38.0730060991	-27.5298719011	-59.6491577338
192125000.0	-25.4759548537	31.5937813966	5.49855312629	6.57184880571	-59.64762742	37.7900275326	-27.4921583449	-59.1090254521
192812500.0	-25.3788355157	28.1453077563	5.50021184641	5.30097693444	-59.2865152257	37.2613367775	-27.4584422608	-58.7595735471
193500000.0	-25.2811049636	24.7921771747	5.50334925795	4.01301605722	-59.5120812647	35.154745567	-27.4180018011	-58.1706830916
194187500.0	-25.1771650418	21.4295482894	5.50467958564	2.74889981923	-59.2504737131	38.1988095583	-27.3950092733	-57.563188192
194875000.0	-25.1201629065	18.2233686714	5.50942031519	1.47683309458	-59.5746802904	36.9074709878	-27.364754305	-56.7894525364
195562500.0	-25.0266777372	15.0485878289	5.51292062881	0.223258069101	-59.3292454773	32.0623988201	-27.335482646	-56.1860477472
196250000.0	-24.9738330154	11.7693483658	5.51747028566	-1.03505241192	-59.0103532435	31.3237966793	-27.3388984676	-55.3766874494
196937500.0	-24.8986040268	8.63627232568	5.52084337482	-2.28522199806	-58.6738945807	23.7238156266	-27.3299409145	-54.3779991421
197625000.0	-24.8590745662	5.439832117	5.52815803081	-3.52470002551	-58.7763993755	24.5084056634	-27.3278863157	-53.5392434311
198312500.0	-24.7995689434	2.34174985733	5.53408558526	-4.7490092503	-58.4557184403	22.0635543891	-27.3287279655	-52.80946635
199000000.0	-24.7673984296	-0.963334833225	5.54358367996	-5.98792207386	-58.4792745736	22.6210474504	-27.3163649166	-52.0261830448
199687500.0	-24.7181971341	-4.099764875	5.54998598515	-7.21786846821	-58.4673185028	18.9014952818	-27.3093472732	-51.1968968132
200375000.0	-24.688567214	-7.33082381783	5.56061491743	-8.44919225186	-58.493269928	20.4240244559	-27.3178462111	-50.4311738387
201062500.0	-24.6367808566	-10.5476662716	5.56836751392	-9.66631331921	-58.4154811068	23.2499186011	-27.3482924524	-49.696310773
201750000.0	-24.6000927154	-13.9019060749	5.58119425296	-10.8914923229	-58.6926280228	23.1442448921	-27.382805902	-48.9950801232
202437500.0	-24.5566657333	-17.1371441175	5.59160356252	-12.1066491982	-58.8741327046	25.9546625351	-27.4117721978	-48.3675615279
203125000.0	-24.5151152822	-20.4264660838	5.6064671872	-13.3262215451	-58.5258740403	26.3773287772	-27.4297886469	-47.6225382141
203812500.0	-24.450789413	-23.7599490179	5.61795583454	-14.5284355166	-58.3025579556	24.2087117541	-27.4587770147	-46.8862831193
204500000.0	-24.4004100815	-27.1241316227	5.63293418677	-15.7449394849	-57.9830072529	25.2546422496	-27.4842532855	-46.3417968331
205187500.0	-24.34853731	-30.4625391552	5.64631081327	-16.9347546145	-58.0728119408	25.6798607869	-27.5281200761	-45.6551887315
205875000.0	-24.2696009227	-33.7439477254	5.66544552127	-18.1460080012	-58.3231751369	24.470335767	-27.5588890368	-45.0532754125
