#Frequency	|S11|	<S11	|S21|	<S21	|S12|	<S12	|S22|	<S22
100000000.0	-16.2490746866	147.926471278	-17.7129273859	-126.670913876	-58.5315427652	-100.510110707	-20.0846485504	-56.1969495831
100687500.0	-16.2130258857	144.925560369	-17.3161526659	-127.984802732	-58.307036391	34.118596336	-20.2116336692	-55.9984180122
101375000.0	-16.2014989892	141.865432361	-16.8754363264	-129.365109148	-62.1662603192	87.3549081717	-20.289733725	-55.4577489072
102062500.0	-16.1787542066	138.823897266	-16.4953886365	-130.705352295	-61.7282418758	148.483848738	-20.3956261514	-54.7738407298
102750000.0	-16.1708354415	135.640734974	-16.1396084955	-132.106954415	-61.9815790869	-127.564589754	-20.4986356012	-54.1539398273
103437500.0	-16.1674237208	132.523896938	-15.8082318994	-133.460203464	-61.7162637877	-64.6563969089	-20.6146731356	-53.6303699845
104125000.0	-16.1698115749	129.289093013	-15.495243617	-134.892770321	-63.1984205137	-32.5635890802	-20.7723533451	-53.1596512526
104812500.0	-16.1711357847	126.077010578	-15.2116323344	-136.313570917	-62.6280017061	-20.7152489408	-20.9230839004	-52.825913703
105500000.0	-16.1809003517	122.826552975	-14.9521113229	-137.770691253	-61.9613606363	-14.9519604826	-21.0705411832	-52.5348942098
106187500.0	-16.1876897332	119.499117223	-14.718158843	-139.214521308	-61.7204025294	-9.55085623349	-21.2330737824	-52.3009942211
106875000.0	-16.2055370283	116.087398571	-14.5206902256	-140.652821264	-61.4066417221	-35.458183683	-21.3980399034	-52.1629293638
107562500.0	-16.2418680118	112.572409972	-14.357166552	-142.034828025	-61.7365297241	-73.2904936944	-21.5953684559	-51.9525066042
108250000.0	-16.285426141	108.921795185	-14.2356993419	-143.327993244	-61.774384862	-101.841011908	-21.7827247341	-51.884251474
108937500.0	-16.3160986836	105.419779869	-14.0524841557	-144.600117033	-61.6813234229	-98.7023985251	-21.9469007028	-51.6449154139
109625000.0	-16.3519406522	101.850572235	-13.8937299802	-145.811433666	-61.7658392963	-101.602128096	-22.1185795748	-51.4617833065
110312500.0	-16.3909712306	98.1953434496	-13.7664774249	-146.946559772	-62.1404387055	-109.599074762	-22.2965165659	-51.260479728
111000000.0	-16.437813203	94.4359279397	-13.6723444399	-147.937645494	-61.455741486	-110.340143298	-22.4721707079	-51.1249949349
111687500.0	-16.4918094371	90.6006340759	-13.6139884906	-148.744197849	-61.9084217778	-108.67948153	-22.6572721903	-51.1385061091
112375000.0	-16.5540122802	86.6842129395	-13.5813591204	-149.283593475	-61.7729337005	-116.541851794	-22.8413361334	-51.1696578139
113062500.0	-16.6164583414	82.652874833	-13.574459684	-149.52275361	-61.969533783	-120.734329615	-23.0330256595	-51.1562500193
113750000.0	-16.6900303073	78.5365485444	-13.5774379699	-149.326062266	-62.1122418174	-127.666772136	-23.2226684446	-51.2514905461
114437500.0	-16.7676679252	74.2990540511	-13.5751338108	-148.693729259	-62.2139861441	-142.007370572	-23.4274122488	-51.4398818564
115125000.0	-16.8586742812	69.9137118739	-13.5455609406	-147.631295703	-62.3362285109	-154.342244124	-23.6329311781	-51.5986852879
115812500.0	-16.9445794658	65.3586864005	-13.4733513054	-146.205087009	-62.4750234757	-170.645264199	-23.8385797762	-51.7214916659
116500000.0	-17.050802052	60.7123662652	-13.3429001855	-144.508416046	-61.7920944139	176.769275068	-24.0348735339	-51.8945279875
117187500.0	-17.1515858015	55.9026381562	-13.1593510344	-142.606679673	-62.0743132732	171.371646052	-24.230869425	-52.0940009122
117875000.0	-17.281694323	50.9750076606	-12.9130303061	-140.653435416	-62.142774432	160.527086031	-24.4325018181	-52.210376762
118562500.0	-17.4211192087	45.8315069589	-12.6128602497	-138.64213739	-62.1576848496	160.734998953	-24.6325282439	-52.3469522877
119250000.0	-17.5786353104	40.5015703818	-12.2547673708	-136.647991562	-62.4637160161	160.149749906	-24.8343153871	-52.3924588605
119937500.0	-17.7580422717	34.9936873363	-11.8474301134	-134.702935006	-62.9627643691	162.522758896	-25.0248639898	-52.5356966841
120625000.0	-17.9640300647	29.3268413238	-11.3915159357	-132.863808398	-63.2389278078	165.385791156	-25.2203081699	-52.6341508282
121312500.0	-18.2038831113	23.4096956935	-10.8896638188	-131.137681001	-62.7022012311	178.814346385	-25.4010225432	-52.7737902909
122000000.0	-18.478608899	17.3364829844	-10.3417053699	-129.555920533	-63.3319699529	-162.100389889	-25.583268811	-52.8215511454
122687500.0	-18.8092671126	11.015979553	-9.75289368939	-128.14302605	-63.7449675001	-129.840033261	-25.7421006627	-52.932332107
123375000.0	-19.1757214353	4.5091929495	-9.12703999444	-126.916916199	-63.7688224163	-86.9823951725	-25.8751239404	-52.937023011
124062500.0	-19.6397527695	-2.24776173443	-8.46515738273	-125.886224587	-63.6220290736	-40.1928505362	-26.0125725005	-53.0050099409
124750000.0	-20.1973113296	-9.26673745093	-7.77171608533	-125.091274231	-63.6239652411	0.183759519986	-26.1266491893	-52.9749292269
125437500.0	-20.8761226732	-16.3402674017	-7.04377482524	-124.499445358	-63.6742037517	41.0305622636	-26.231763075	-52.9099602431
126125000.0	-21.8206889599	-23.8198534923	-6.28521108118	-124.172342899	-63.9505798437	80.1089523345	-26.3238632508	-52.8858698075
126812500.0	-23.5165261153	-28.6952481449	-5.4988305192	-124.076415057	-63.6319045762	118.602641197	-26.3845905996	-52.8230617054
127500000.0	-24.3886708536	-29.0901984234	-4.68315930951	-124.299148328	-63.1447644296	161.64983712	-26.4167721345	-52.8569805487
128187500.0	-25.0970871835	-29.80590024	-3.83984180141	-124.817860652	-63.1541034372	-167.46810621	-26.4571728593	-52.8039632087
128875000.0	-25.6738720933	-30.8889614411	-2.9679227624	-125.707923355	-62.8243037867	-138.173711473	-26.4574545371	-52.6797832884
129562500.0	-26.170313962	-32.0455269725	-2.07162589969	-127.012591328	-63.1167214736	-106.012195915	-26.4419084028	-52.6904730987
130250000.0	-26.6185003283	-33.3532316787	-1.15820284566	-128.819177696	-62.9868732945	-76.320564733	-26.4244699259	-52.8236146161
130937500.0	-26.9950215636	-34.7740128263	-0.241201914481	-131.176935514	-62.7826687413	-52.511818037	-26.3987000761	-52.8768280177
131625000.0	-27.3289153516	-36.2853342769	0.658666663409	-134.139607507	-62.3273100937	-26.0976404729	-26.3292129195	-52.9486908987
132312500.0	-27.6303626661	-37.8301303258	1.5239926759	-137.65975177	-61.8798558861	3.37753760161	-26.2536412568	-53.0433708383
133000000.0	-27.8939214222	-39.4848206626	2.33629569108	-141.684900935	-61.5936154209	32.2151820339	-26.1601219267	-53.2538210457
133687500.0	-28.136023319	-41.2182352223	3.08042391148	-146.082436733	-61.5229122227	60.3829032421	-26.065878287	-53.477364599
134375000.0	-28.3484357947	-42.8733380889	3.76070287713	-150.796529142	-61.036842536	84.9125998958	-25.9503413261	-53.7909710373
135062500.0	-28.5143990074	-44.6976575863	4.37351078132	-155.678593223	-60.8391297243	113.151516812	-25.821743625	-54.1748312827
135750000.0	-28.6685418375	-46.3971262561	4.9204531842	-160.697365545	-60.9435440287	133.937997384	-25.6753494187	-54.5739390621
136437500.0	-28.7814093394	-48.0972012899	5.4036539819	-165.799114103	-60.776778486	151.156655695	-25.5182055859	-55.0118653785
137125000.0	-28.8557203777	-49.7293203574	5.82745258257	-170.932445768	-60.2725650867	171.128429297	-25.3647509952	-55.5387701272
137812500.0	-28.8894973901	-51.3093491386	6.19624750761	-176.046447879	-59.8866516717	-175.411507629	-25.1887204518	-55.9800737188
138500000.0	-28.889525444	-52.7033947611	6.51441285597	178.876889831	-60.1073881104	-166.785303819	-25.0102382476	-56.4589524576
139187500.0	-28.8300286996	-54.0558742277	6.78219118563	173.879423351	-59.5494981333	-156.803245545	-24.8240211588	-56.9991988533
139875000.0	-28.7207360155	-55.2126573089	7.007350968	168.96735175	-59.5141704116	-155.276448521	-24.6406424666	-57.5430558063
140562500.0	-28.5479835641	-56.2584370815	7.19202703814	164.169601969	-59.1350489461	-157.626138243	-24.4712807237	-58.1858860535
141250000.0	-28.2820566963	-57.0721247176	7.3419644232	159.492649558	-59.0606144434	-164.595846828	-24.2792829735	-58.7843441235
141937500.0	-27.9065477779	-57.6118675589	7.45874734035	154.965668441	-58.8620892767	-168.356020643	-24.0860381941	-59.4590120444
142625000.0	-27.4109031469	-58.147086791	7.54882969753	150.58039226	-58.5745115385	-171.349697542	-23.9034961444	-60.0519480138
143312500.0	-26.633124096	-58.2339040244	7.61290651004	146.338205803	-58.2742771403	-176.935303059	-23.7168129106	-60.6768576777
144000000.0	-25.1059209094	-60.9506339252	7.65743228399	142.235433008	-58.4253817906	179.489478938	-23.5528544095	-61.2609368733
144687500.0	-24.3976973847	-68.1327141147	7.68281197206	138.293315566	-58.6989344888	167.661748502	-23.3949050884	-61.829501894
145375000.0	-23.8473056994	-74.9203879386	7.69464393483	134.484369934	-58.5336084341	166.973981706	-23.2303792491	-62.4372325434
146062500.0	-23.4215075935	-81.3793105154	7.69125278768	130.814927956	-58.2941581647	157.651276159	-23.089487371	-62.9469813406
146750000.0	-23.0640869838	-87.7009091944	7.67860812447	127.260977513	-57.8164714669	156.679240314	-22.9642983	-63.3171255278
147437500.0	-22.7614992663	-93.7868734732	7.65497926472	123.861283183	-58.2516364038	151.429159734	-22.8164201468	-63.6043634352
148125000.0	-22.513803807	-99.7362667053	7.62788326212	120.566449283	-58.3155295604	151.681377663	-22.6781272206	-63.7990310415
148812500.0	-22.3089216462	-105.544469823	7.59216450555	117.392339395	-58.8542074703	149.175396412	-22.5489802433	-63.973443819
149500000.0	-22.1196356194	-111.195517706	7.55548727076	114.32982956	-58.7278199264	145.867353709	-22.4405767482	-64.044371945
150187500.0	-21.9733247719	-116.628138901	7.51393198233	111.37840833	-58.8761108473	137.005260861	-22.3348499694	-64.0442708128
150875000.0	-21.8236533765	-121.841079257	7.4716509071	108.511316007	-58.5734947866	135.67579584	-22.2275280178	-63.9181638492
151562500.0	-21.7076183805	-127.084160469	7.42645201706	105.743465213	-58.8318309957	128.498059544	-22.1252296908	-63.736290059
152250000.0	-21.6095616185	-132.021681152	7.38043583198	103.053458115	-58.7752900395	126.521084344	-22.0343275541	-63.4398814929
152937500.0	-21.5153684113	-136.871369724	7.33083350406	100.441042187	-58.6844502832	124.991933013	-21.9482330203	-63.0678730297
153625000.0	-21.4439060844	-141.619302563	7.28408259421	97.9064125389	-58.3276549196	125.941922465	-21.8826055549	-62.6677340464
154312500.0	-21.3874950381	-146.267811039	7.2353124015	95.4428998753	-58.3696337486	123.118539414	-21.8018164117	-62.1800549669
155000000.0	-21.3497196838	-150.788934659	7.1861474532	93.0336587108	-58.4773910955	122.414167781	-21.7465726845	-61.6738906892
155687500.0	-21.3062363196	-155.281567654	7.13670675501	90.6978612493	-58.6303398282	119.754039478	-21.6966600156	-61.1278687855
156375000.0	-21.2922158377	-159.658379098	7.08780970644	88.4032938557	-58.7477994162	120.017868613	-21.6477240124	-60.449136518
157062500.0	-21.2583296514	-163.951921457	7.03990444715	86.1747336135	-58.2596548537	119.424628684	-21.6084022199	-59.712756774
157750000.0	-21.253250618	-168.176079685	6.99097226431	83.989292287	-58.1082528872	115.356012664	-21.5628423993	-58.976220873
158437500.0	-21.2313072679	-172.306431858	6.94342960891	81.8513148028	-58.1364495062	114.709835024	-21.5447607378	-58.1387912072
159125000.0	-21.2244391151	-176.373507931	6.89794081598	79.7507942295	-58.6182675615	118.662931826	-21.5502467642	-57.2487231722
159812500.0	-21.2082140501	179.645191677	6.85224780736	77.6905864683	-58.6259824193	118.161934487	-21.546176913	-56.3738135581
160500000.0	-21.2079076987	175.662185361	6.80794759863	75.6690159209	-58.6964880682	114.979887248	-21.5542430604	-55.4718893632
161187500.0	-21.1889905447	171.768028604	6.76258993041	73.6937675949	-58.4417923644	113.549069431	-21.5691594824	-54.5441261373
161875000.0	-21.1777036029	167.996556085	6.71902477013	71.7402190621	-58.5426856706	115.049270495	-21.6044104998	-53.6024445492
162562500.0	-21.1618316933	164.194453611	6.67534295684	69.8350633978	-58.4650953701	113.18807945	-21.6426839653	-52.5871415569
163250000.0	-21.1380905699	160.561117019	6.63474449663	67.9552979681	-58.8351417055	113.351432962	-21.6939999659	-51.58735976
163937500.0	-21.1257410818	156.964559546	6.59222665382	66.1229083018	-58.9160477075	110.008766724	-21.740137511	-50.5835513618
164625000.0	-21.0971169491	153.385040658	6.55454822032	64.3159851673	-58.4618658511	109.175318843	-21.8182478962	-49.5857912556
165312500.0	-21.0804360009	149.899792414	6.51321755035	62.5496418884	-58.1315719058	107.432851125	-21.8966025645	-48.6234313096
166000000.0	-21.0569240809	146.482937876	6.47699379484	60.8011857162	-58.1007103732	105.269202837	-21.9860054141	-47.6185973182
166687500.0	-21.0448039508	143.051692269	6.43929719285	59.0866642677	-58.1393142718	107.837047642	-22.080320888	-46.5776865366
167375000.0	-21.020620549	139.778940912	6.40380339971	57.3850084824	-58.0811504978	120.133644754	-22.1844913896	-45.6949635394
168062500.0	-21.0064196541	136.43624143	6.36823648011	55.7190109762	-58.2333416898	129.62857006	-22.2965871983	-44.720054974
168750000.0	-20.9819110887	133.252519723	6.33413464094	54.0709209665	-58.0533162926	143.644113797	-22.434539885	-43.7932208489
169437500.0	-20.9623626258	130.02841739	6.30060829055	52.4529458534	-58.011718523	154.993183661	-22.5831028032	-42.8441399822
170125000.0	-20.9451107305	126.843646817	6.26990330391	50.8379737386	-57.7306123537	168.759677211	-22.7481526105	-42.0413735223
170812500.0	-20.9287077463	123.776553933	6.23782926974	49.2552721833	-57.8382323608	173.62860368	-22.9091748517	-41.2302589444
171500000.0	-20.9038307982	120.747465859	6.20934712684	47.6938006613	-57.7148767542	-172.075912483	-23.0962148222	-40.5274148518
172187500.0	-20.8770612131	117.727521889	6.18344109731	46.1610383068	-58.1950857579	-162.725407084	-23.2836994444	-39.8430095836
172875000.0	-20.8559198356	114.73528505	6.15916019211	44.6348900034	-58.3440277069	-148.029373331	-23.473288249	-39.1712847085
173562500.0	-20.8181098101	111.827497163	6.13576322343	43.1378597792	-58.202205744	-139.498249425	-23.6975779472	-38.5515335895
174250000.0	-20.7960925971	108.978596133	6.11439314415	41.6572634188	-58.0901328389	-126.675508717	-23.920758893	-38.0260225058
174937500.0	-20.7519217696	106.179788605	6.09581242909	40.1937521184	-58.4622052148	-117.325973912	-24.1534093627	-37.510645092
175625000.0	-20.7201862292	103.309891964	6.07962921485	38.7452564958	-58.5131967113	-103.963036847	-24.3865412495	-37.0229391569
176312500.0	-20.6748789213	100.452352299	6.06360512455	37.3194561244	-58.0983611811	-99.9934406008	-24.6425445228	-36.7972585402
177000000.0	-20.630799921	97.6712591913	6.05040710122	35.9030821122	-58.1109047807	-86.4762728127	-24.9092774443	-36.6196253011
177687500.0	-20.5683069472	94.8914518211	6.03756453405	34.5088578429	-58.9355409201	-72.2833244328	-25.1955878228	-36.4657703254
178375000.0	-20.5274651487	92.1699176903	6.02833696004	33.1103310628	-59.0113602152	-60.3815665445	-25.4921039234	-36.3804785065
179062500.0	-20.4659195193	89.442478638	6.01914915173	31.7429890031	-59.028357896	-46.295409792	-25.7783321859	-36.5715435021
179750000.0	-20.4123514993	86.7639611855	6.0120238465	30.3691683429	-58.954202482	-31.9039498453	-26.0828011912	-36.6936025262
180437500.0	-20.3540303283	84.0721756224	6.00543253563	29.011001507	-58.5478611123	-16.7978289165	-26.3819064487	-36.9607874373
181125000.0	-20.2912466204	81.3402454681	6.00267624624	27.6525260049	-58.9534431808	-0.157156494719	-26.7136177789	-37.2511211465
181812500.0	-20.2269688275	78.7054488174	5.99836424383	26.2912876006	-58.9061732937	12.8375957932	-27.0320723302	-37.805812293
182500000.0	-20.1597365241	76.1079118203	5.99895393153	24.9362992863	-59.3012309533	26.7941778581	-27.3785907225	-38.244901579
183187500.0	-20.0794842534	73.5423869265	5.99733060334	23.6028263382	-59.0080752684	40.7591778631	-27.7095783172	-38.9350645409
183875000.0	-20.0075572441	71.067149417	5.99860562039	22.2505231331	-59.7482174382	45.04258191	-28.0121892725	-39.6972248848
184562500.0	-19.9319995718	68.5387559481	5.99923247029	20.9207383096	-59.438982088	47.9776932289	-28.3245336629	-40.7399509896
185250000.0	-19.858930184	66.0970625339	6.00283471308	19.5906615888	-59.5425990409	46.774295665	-28.6150695083	-41.7046890527
185937500.0	-19.7892915009	63.645311354	6.00565120487	18.2771191068	-59.115862118	45.7443547343	-28.9042420299	-42.9397489677
186625000.0	-19.7234587532	61.2622678135	6.01181137175	16.9588376655	-59.5080594651	39.4530396695	-29.1928369574	-44.2384575913
187312500.0	-19.6457555576	58.8608434787	6.01817716652	15.6662991745	-59.6432671041	38.3281560639	-29.4606944105	-45.4023446582
188000000.0	-19.572531968	56.5086100782	6.02656282794	14.3617605257	-59.8349805255	40.2561794144	-29.6921182956	-46.773529796
188687500.0	-19.508991236	54.137412208	6.03291794449	13.074051234	-59.8733886319	39.3842139299	-29.9246894097	-48.2313483832
189375000.0	-19.4429622868	51.8503774852	6.04153128379	11.7834667574	-59.3672549599	39.3879366735	-30.1360711375	-49.7722515475
190062500.0	-19.3856142979	49.5638445124	6.04930832427	10.5015517156	-58.8582065211	38.241645883	-30.3394838471	-51.351170627
190750000.0	-19.3308845701	47.2328706989	6.05972431298	9.22172129677	-58.9954449772	38.0696948635	-30.5187805232	-53.1065516572
191437500.0	-19.2866976217	44.9158085396	6.06970843854	7.94575764272	-59.1574124411	38.2759222751	-30.668359817	-54.8784308064
192125000.0	-19.2506414887	42.6176608659	6.08007916987	6.66571608865	-58.9409688826	40.3908429213	-30.7880891621	-56.6463663661
192812500.0	-19.2194462342	40.353970188	6.09091857513	5.3975801196	-59.0702015299	36.2988134981	-30.8872859888	-58.5966235499
193500000.0	-19.1990470042	38.105495041	6.10401104167	4.12105610822	-58.7036965828	35.7311543938	-30.9561220466	-60.4155879711
194187500.0	-19.1905354384	35.8162496637	6.1142890657	2.85763393662	-58.9842399972	30.3969280228	-30.9922647527	-62.176586964
194875000.0	-19.1992666911	33.5400475048	6.12877760456	1.58876005645	-58.2241934844	29.7322570652	-30.9939845173	-64.0913922375
195562500.0	-19.2052296626	31.1574588194	6.14279924659	0.335105883305	-58.0663877284	23.2486314227	-30.9547140197	-65.8641823101
196250000.0	-19.229551545	28.8025823905	6.15703564916	-0.928331177337	-58.1836758745	22.9162849806	-30.9161942103	-67.6988211364
196937500.0	-19.2543868143	26.4565751532	6.17184936381	-2.18281488876	-58.1695808483	17.897901629	-30.857649917	-69.3464110346
197625000.0	-19.2941737877	24.0914315641	6.18814635796	-3.42965941253	-58.887085135	16.2550317177	-30.7678293724	-70.9731604597
198312500.0	-19.3342854054	21.726931343	6.20425353684	-4.66786514987	-58.4869867968	10.5721530809	-30.6184125771	-72.6040405292
199000000.0	-19.3922625923	19.2788806737	6.22293670441	-5.91289104452	-58.2363264388	11.327590185	-30.4493759346	-74.0636346918
199687500.0	-19.4421313945	16.7875669386	6.24013156166	-7.14681839867	-57.9798434791	8.84875717651	-30.2487492678	-75.6576176389
200375000.0	-19.5156666066	14.2715742231	6.25969559753	-8.38651623436	-57.6505154077	6.73255227643	-30.0588731311	-77.0402829651
201062500.0	-19.574195755	11.6917098813	6.27865671674	-9.60999144714	-57.1763180586	8.7813845941	-29.8617436481	-78.459613688
201750000.0	-19.6463506813	9.03776049877	6.29803037476	-10.8448760468	-57.3378869224	10.5220419686	-29.6374767457	-79.4425072409
202437500.0	-19.7102802248	6.42123065804	6.31685091805	-12.0730257676	-58.2262351854	9.97449136459	-29.410651423	-80.5897974079
203125000.0	-19.7804513256	3.75953222955	6.33817849075	-13.3097653373	-58.1779817206	9.83595676514	-29.1640987359	-81.3741164546
203812500.0	-19.8295219781	1.08963088924	6.35721777693	-14.5317972233	-57.8454918661	11.7221110719	-28.8986035938	-82.232059832
204500000.0	-19.9104124825	-1.61462150863	6.37832168625	-15.7754269803	-57.7779216599	10.0722496796	-28.6290554877	-83.02960757
205187500.0	-19.9747494649	-4.31413375465	6.39983381774	-16.9989313195	-57.8780006801	10.5453808896	-28.3849098365	-83.6434420493
205875000.0	-20.0380457976	-6.97476581499	6.42452309944	-18.2475112976	-57.7750508379	6.13089323634	-28.1090332619	-83.9370878859
