#Frequency	|S11|	<S11	|S21|	<S21	|S12|	<S12	|S22|	<S22
100000000.0	-16.2648413651	147.876316812	-15.2362887632	-126.736956178	-55.3993595281	152.213819228	-19.012315304	-62.1653967832
100687500.0	-16.2463447545	144.958022672	-14.7870602258	-127.893281102	-57.7815433478	176.93201037	-19.0267942729	-62.1220741784
101375000.0	-16.2195760863	141.733150291	-14.3784030026	-129.210500671	-59.523693896	-176.810164967	-19.1273634958	-61.8074554976
102062500.0	-16.1956850609	138.705277614	-13.9849693716	-130.57175335	-59.1515332302	144.583240013	-19.2313068811	-61.514445294
102750000.0	-16.1658380402	135.505132663	-13.6238275294	-131.938113915	-60.1551374269	122.734138165	-19.3492229268	-61.0338922635
103437500.0	-16.1573456898	132.363921278	-13.2871788376	-133.384863737	-60.6795402051	120.548196697	-19.4999458552	-60.652472419
104125000.0	-16.1569020099	129.178977187	-12.9751217616	-134.832857614	-59.8769758035	117.261186571	-19.6559378224	-60.2794152416
104812500.0	-16.1639286634	126.025133381	-12.6951741852	-136.280966579	-60.5002855534	123.774989067	-19.8077973956	-60.1439412494
105500000.0	-16.1706999421	122.78574298	-12.437631444	-137.746470936	-60.5708567178	126.299901148	-19.971847153	-59.9524153605
106187500.0	-16.1824338871	119.471163129	-12.2113785587	-139.196582193	-60.3697815271	134.621928044	-20.1411576219	-59.8955518387
106875000.0	-16.2082430203	116.085054511	-12.0163331845	-140.622081913	-60.7130077878	148.39272878	-20.3248612059	-59.8756343651
107562500.0	-16.2448812078	112.594680347	-11.8534777994	-141.996031247	-60.6697144121	168.353910683	-20.5202662236	-59.7419218229
108250000.0	-16.2863064876	108.95735825	-11.7310245761	-143.282466152	-60.1912470658	174.04649666	-20.7125173973	-59.7313426887
108937500.0	-16.3161239061	105.420618943	-11.5467895139	-144.566512787	-60.8368217519	173.558089444	-20.8782837532	-59.6382647164
109625000.0	-16.3512415053	101.830832358	-11.3922337478	-145.783098948	-61.1116859096	176.268701119	-21.0577197835	-59.5667679358
110312500.0	-16.3856582663	98.1488847461	-11.2640690238	-146.92837989	-61.1066823361	179.554678668	-21.2434920595	-59.5568289649
111000000.0	-16.4392428908	94.4398345909	-11.1715028195	-147.916042395	-60.9234472768	171.176775206	-21.4330713249	-59.5512016948
111687500.0	-16.4888876703	90.6028100161	-11.1052199901	-148.740428642	-60.9229205677	160.589208772	-21.6187072291	-59.6373262921
112375000.0	-16.5534820652	86.7005681153	-11.0758811079	-149.306887758	-60.8316195949	161.510456289	-21.8194285962	-59.682131447
113062500.0	-16.6123611344	82.6779959949	-11.0658269858	-149.547431886	-60.7920955362	162.605168867	-22.0197844449	-59.7654532457
113750000.0	-16.6869218738	78.5918751724	-11.0713196907	-149.357818921	-60.3382815858	163.670964821	-22.2223813524	-59.9394868079
114437500.0	-16.7630984409	74.3607057684	-11.0694274323	-148.741389705	-60.3478185047	155.078341131	-22.4319205596	-60.1193421829
115125000.0	-16.8490787234	69.9675432515	-11.0398490525	-147.671113856	-60.149722878	153.973374143	-22.6514479477	-60.2644251452
115812500.0	-16.9366502469	65.4433716752	-10.9661973769	-146.227622174	-59.8605019994	141.064121685	-22.8660029344	-60.4658320787
116500000.0	-17.0378690963	60.795855288	-10.8384081682	-144.508218116	-60.0537677435	127.393553925	-23.0856611237	-60.6153416786
117187500.0	-17.1459197723	56.0193924448	-10.6518925917	-142.629927722	-60.8198131788	113.450684698	-23.3140883612	-60.8406880341
117875000.0	-17.2744812101	51.0357301305	-10.4032117289	-140.652291193	-60.2694091591	109.323051564	-23.540954697	-60.9141278752
118562500.0	-17.4134523945	45.9138437634	-10.1005086665	-138.652877723	-60.4198372105	92.9792233523	-23.7668693979	-60.9120653687
119250000.0	-17.5675048224	40.5538295479	-9.74185206807	-136.656565376	-60.0427556538	79.3500210738	-23.9940364583	-60.8603932337
119937500.0	-17.7509660462	35.0906670472	-9.33395653583	-134.728360797	-60.1692980888	67.3301619085	-24.2010439201	-60.7647732391
120625000.0	-17.9464444667	29.3587667522	-8.8735696059	-132.896938133	-59.9198238078	55.1110004157	-24.4216886986	-60.6564648761
121312500.0	-18.1970084674	23.5259753386	-8.36904645653	-131.179981597	-59.8209215552	41.4121476332	-24.6189729586	-60.4028434254
122000000.0	-18.4564744863	17.3573648852	-7.82016490633	-129.601521091	-59.9297544538	33.8584566332	-24.8129561142	-60.1221337463
122687500.0	-18.7886825648	11.1186206374	-7.23022604246	-128.207976895	-59.6965012702	32.4042401113	-24.9799373781	-59.7568723297
123375000.0	-19.1462169388	4.57143748305	-6.60419770185	-126.976437144	-59.5619975617	17.4610436751	-25.1291160154	-59.387619344
124062500.0	-19.5994436887	-2.2078858282	-5.94182192754	-125.968935296	-59.4756731177	1.22552045313	-25.2543313671	-58.9546219051
124750000.0	-20.1632701771	-9.27580741903	-5.24853569641	-125.162758028	-59.249489327	-10.2424061465	-25.3708355377	-58.4513873982
125437500.0	-20.8394271225	-16.6008688315	-4.52139698314	-124.589570165	-59.3754764779	-25.0588874761	-25.459581905	-57.8483224121
126125000.0	-21.7989025592	-23.8790801071	-3.76299300739	-124.244179581	-58.5818383119	-35.9578171311	-25.5332419238	-57.315472092
126812500.0	-23.2232337488	-34.4945345419	-2.97749546834	-124.167831432	-58.3751192761	-50.2857691142	-25.5788461674	-56.7199539598
127500000.0	-24.1016517496	-49.7710512756	-2.16243693234	-124.370209859	-58.1867638254	-64.5144198141	-25.5939192523	-56.2374049531
128187500.0	-24.8308462779	-64.967889326	-1.31815730452	-124.908193746	-58.062784061	-67.4705272226	-25.5911966488	-55.6370820841
128875000.0	-25.404092762	-80.4802231829	-0.44979130634	-125.787867171	-57.9230526501	-67.9420508178	-25.5646474949	-55.1748316129
129562500.0	-25.9119088694	-96.0840877599	0.445654324736	-127.109018693	-57.9273453451	-73.2905326247	-25.5108530393	-54.7209679422
130250000.0	-26.3447263067	-111.859378869	1.35480010104	-128.892963725	-58.1135662648	-85.4311963517	-25.4517220841	-54.3750702285
130937500.0	-26.7242295536	-127.77088104	2.27244293336	-131.28173505	-57.96637393	-92.9618966063	-25.3736259107	-53.9753476243
131625000.0	-27.0635796165	-143.698409761	3.17290942293	-134.230469454	-57.8310857065	-93.8285924625	-25.2722672955	-53.6384136115
132312500.0	-27.3634321344	-159.72330523	4.03733564968	-137.772304273	-57.8847316028	-103.187251043	-25.1412495564	-53.3411797822
133000000.0	-27.6287631638	-175.764015424	4.84710428362	-141.794142532	-57.5557940573	-102.252153352	-25.002416726	-53.1106340995
133687500.0	-27.8663284922	168.055598126	5.5935850714	-146.225046083	-57.343022435	-97.3030964081	-24.8470316863	-52.9718063609
134375000.0	-28.0805131091	151.946854259	6.27252462898	-150.923244788	-56.4734532569	-96.6563260231	-24.666031663	-52.8421745699
135062500.0	-28.2483907634	135.721700267	6.88351534029	-155.831060754	-56.2984134074	-103.490779929	-24.4747653097	-52.8417619887
135750000.0	-28.4009724651	119.59903887	7.42859054743	-160.841372977	-56.0215738693	-102.589119753	-24.2728511764	-52.9350463926
136437500.0	-28.508772902	103.501711212	7.91082628154	-165.954368979	-55.9282455521	-100.144962197	-24.0559232369	-53.1947728453
137125000.0	-28.5892681666	87.4635288304	8.33396825745	-171.072132943	-55.6737568798	-103.114383244	-23.8495700361	-53.5108710718
137812500.0	-28.6292211143	71.5486891607	8.70169115991	-176.185019622	-55.6335235519	-103.996548578	-23.6133590343	-53.8590947707
138500000.0	-28.6230385408	55.7305269953	9.01758989712	178.75658853	-55.4480540334	-108.884780315	-23.3847277584	-54.3252065976
139187500.0	-28.5682583754	40.0400699134	9.28471524354	173.753324217	-54.8356715691	-122.05159338	-23.1524528701	-54.9301058134
139875000.0	-28.4453667369	24.3850591315	9.50765128062	168.857999175	-54.9254460355	-140.921290782	-22.9294652815	-55.4867535717
140562500.0	-28.2818749375	8.98574425253	9.69218378949	164.055041141	-54.7428657655	-151.577823124	-22.7126301325	-56.2126294747
141250000.0	-28.026136216	-6.1892371042	9.84019202232	159.390006251	-54.4744221061	-159.337669316	-22.499717347	-56.9184009596
141937500.0	-27.6543042008	-21.0564225707	9.95719847978	154.854359717	-55.1265987193	-161.65159501	-22.2854783719	-57.7563922701
142625000.0	-27.1629631309	-35.7629917044	10.0465627606	150.462394025	-54.8787149184	-170.223240406	-22.0946658557	-58.5793140818
143312500.0	-26.3784928401	-50.430933857	10.1107435483	146.21218552	-55.0120580137	-173.674955023	-21.9079069075	-59.3791658019
144000000.0	-25.1191720734	-61.8280537878	10.1539950085	142.117613092	-54.7337738607	177.610826888	-21.7328003484	-60.165027094
144687500.0	-24.4179145487	-68.4909130568	10.1799098372	138.170900154	-54.5702871464	175.551905548	-21.5709090477	-60.9109017868
145375000.0	-23.830690894	-75.2835259966	10.1897076017	134.374255106	-54.6355911121	167.839132676	-21.4187409906	-61.6905612942
146062500.0	-23.4106383176	-81.6637438418	10.1877235836	130.723916064	-55.0251089686	164.103164653	-21.2857461446	-62.3214347743
146750000.0	-23.0361083573	-87.986647428	10.1757112486	127.205170394	-54.8716579198	160.721184819	-21.1675036299	-62.9065248874
147437500.0	-22.7475938053	-94.0041562475	10.1540132241	123.807532698	-54.9277089091	155.524102035	-21.0395227708	-63.3768026692
148125000.0	-22.500036773	-99.8890857729	10.1262602306	120.538909821	-54.859713058	152.926150647	-20.9276419115	-63.850040326
148812500.0	-22.2992138982	-105.686790742	10.0918412043	117.368423295	-54.7809651779	151.697447573	-20.8145024527	-64.2332647153
149500000.0	-22.1181606946	-111.264957054	10.054184849	114.323368165	-54.736786988	149.913375086	-20.7273483507	-64.5525946072
150187500.0	-21.973754854	-116.695157144	10.0123808261	111.370370993	-54.7490399359	145.44545416	-20.6344834304	-64.7359623054
150875000.0	-21.839039853	-121.900891323	9.96926859399	108.521350837	-54.7216817904	144.044385772	-20.5518300204	-64.8585493718
151562500.0	-21.7254713623	-127.127011449	9.92297730192	105.749428932	-54.8435014991	140.418999427	-20.4743283144	-64.9143195327
152250000.0	-21.6359400417	-132.032445982	9.87725047126	103.065982111	-54.9252960013	139.274849613	-20.4104194122	-64.8968041746
152937500.0	-21.5486194028	-136.936860265	9.82815650778	100.453305492	-54.8065300116	131.73120748	-20.3494203135	-64.8295006912
153625000.0	-21.4954212183	-141.660457259	9.78080097368	97.9272785837	-55.018827424	130.256153569	-20.301893391	-64.6611805672
154312500.0	-21.4271473098	-146.337744842	9.7323935744	95.4476419302	-54.9729965077	123.815054234	-20.2453335837	-64.4104000399
155000000.0	-21.3927393831	-150.868060032	9.68252551503	93.0401637724	-55.0106953591	122.18324103	-20.2117840769	-64.1439718193
155687500.0	-21.3404369876	-155.421504294	9.63412723188	90.6894187647	-55.0704032064	117.983676749	-20.1912154448	-63.8053450819
156375000.0	-21.3275949858	-159.76095706	9.58642250257	88.403562164	-55.7360826867	116.590733563	-20.1639278606	-63.3619414634
157062500.0	-21.295062386	-164.043661393	9.53941924268	86.1524293041	-55.5173873557	114.030088258	-20.1489833684	-62.8920137623
157750000.0	-21.28066805	-168.276284326	9.4919318423	83.9620195952	-55.6657988013	112.555735122	-20.1361294715	-62.3994818441
158437500.0	-21.2496368886	-172.427974245	9.44561341924	81.8074690965	-55.8045659109	112.638777377	-20.1394655739	-61.8603075573
159125000.0	-21.2276923018	-176.592458686	9.40013189556	79.7169637066	-55.6029633541	112.72922745	-20.1552491872	-61.2748752941
159812500.0	-21.2048539432	179.425002081	9.35516410678	77.6602422842	-55.4982110582	111.912250716	-20.1668780984	-60.6752195613
160500000.0	-21.1865066691	175.431012844	9.31100865543	75.6590544402	-55.3640874096	109.324931192	-20.190280021	-60.0682879207
161187500.0	-21.1638586726	171.587025519	9.2675849491	73.6758069428	-55.4058644151	107.924399617	-20.2201889896	-59.4149373969
161875000.0	-21.1371701316	167.737635548	9.22326434459	71.7369050763	-55.485878759	103.19387844	-20.2700945954	-58.7013036377
162562500.0	-21.1343499736	164.011896018	9.1818906267	69.8213825388	-55.3860360078	101.306692015	-20.3183081723	-58.0220046354
163250000.0	-21.1052568363	160.279794705	9.14051992693	67.9295188021	-54.8712706805	105.202006532	-20.3865263371	-57.2565782546
163937500.0	-21.0924751737	156.766081274	9.09960691819	66.0747283494	-54.9580843054	103.619907531	-20.4527994302	-56.5022661341
164625000.0	-21.0602010784	153.161749688	9.0604559551	64.2595822895	-54.579482735	102.457910822	-20.5351365383	-55.7594469192
165312500.0	-21.0469521028	149.696540132	9.01995632468	62.4702743345	-54.9551350805	100.801062437	-20.6174283381	-54.9911441931
166000000.0	-21.0156152986	146.312653523	8.98283645702	60.7231812018	-54.8862147472	95.740324899	-20.7151569045	-54.2932785341
166687500.0	-20.9980612566	142.976583417	8.94556877749	58.9911877846	-55.1983036585	95.3642126099	-20.8149984342	-53.5726147908
167375000.0	-20.9733682575	139.674245757	8.90944770448	57.3001133503	-55.1695448449	91.5298070718	-20.9393539874	-52.9547562765
168062500.0	-20.9651625689	136.421625391	8.87459236802	55.62189687	-55.4582018966	91.1382018035	-21.0639694282	-52.3265055664
168750000.0	-20.9372251701	133.278107055	8.84128075731	53.9808805134	-55.3744052971	88.2863957487	-21.2033403202	-51.7564910797
169437500.0	-20.9154416664	130.124785746	8.80683968574	52.3560299111	-55.7471455797	86.3596033651	-21.3533662907	-51.189338002
170125000.0	-20.8905969088	127.044738039	8.77633701666	50.7520692688	-55.8145122003	86.8148978291	-21.5132802542	-50.623552345
170812500.0	-20.867565267	123.978255734	8.74704967736	49.1669218943	-55.8494248553	86.6080435578	-21.6857419927	-50.1202791264
171500000.0	-20.8498279892	121.008003695	8.71967010219	47.6280608457	-55.8671669363	86.776382095	-21.8638933843	-49.727758928
172187500.0	-20.8240261613	117.977588459	8.69524446248	46.0983233418	-56.0688152818	85.4019964895	-22.0463604914	-49.3033533366
172875000.0	-20.8123221991	115.043334109	8.67112773633	44.5860356735	-56.2538600458	83.7124982159	-22.2352039281	-48.8942853416
173562500.0	-20.7831236453	112.126460449	8.64904777052	43.0865791073	-55.9062723791	82.4842623906	-22.4446115562	-48.6750680235
174250000.0	-20.7755883283	109.300628841	8.62853144743	41.6169887137	-55.9063007799	82.6236658902	-22.6553579095	-48.5026596727
174937500.0	-20.7410063112	106.413024376	8.61035064524	40.1607595594	-56.0487821608	82.2220618991	-22.8777211586	-48.4659520788
175625000.0	-20.7202581575	103.584997529	8.5929378585	38.7204016636	-55.9651051521	81.9904305417	-23.1130315073	-48.3062779532
176312500.0	-20.6814166894	100.77273431	8.57628700856	37.2911169841	-55.6818604637	75.4195432319	-23.3391227849	-48.3645058084
177000000.0	-20.6490034037	98.0005770685	8.56219511059	35.8791766349	-55.7387353272	75.5624507595	-23.5892828958	-48.4920826102
177687500.0	-20.5990576483	95.2839408112	8.54895831546	34.4633110179	-55.7529237816	73.6592473812	-23.8559212328	-48.7310140317
178375000.0	-20.5691042177	92.5573429465	8.53989874671	33.0684971208	-56.0167990146	72.5457895065	-24.1241418882	-48.9441828553
179062500.0	-20.5134748167	89.8949537466	8.53161862152	31.677469919	-56.0126433395	70.3553413274	-24.3917900692	-49.4123101236
179750000.0	-20.4614986496	87.2201060889	8.52432296765	30.3053936008	-56.1308270436	70.0046497798	-24.6639600933	-49.8563757536
180437500.0	-20.410037644	84.5744060207	8.51915186606	28.9292906707	-56.0418357949	61.990748892	-24.9196972419	-50.3412825974
181125000.0	-20.3559111504	81.7955462917	8.51580179463	27.5741888785	-56.058745127	60.3750835373	-25.1845709713	-51.0230682038
181812500.0	-20.3040881906	79.2141508339	8.51246872575	26.2088377447	-56.1303516062	56.7053400137	-25.4541057289	-51.7917954403
182500000.0	-20.23294421	76.5461862768	8.51299494144	24.8715942191	-56.1852650615	55.4012219998	-25.7386142144	-52.582212185
183187500.0	-20.163003351	73.9515089642	8.51194607792	23.520867854	-56.202137557	54.255775731	-26.0195712313	-53.3863400761
183875000.0	-20.0913754432	71.3650450279	8.51356619872	22.1938584942	-55.9020292409	51.94550937	-26.2704002183	-54.3762283426
184562500.0	-20.0147399586	68.7933959415	8.51610023871	20.8576665775	-55.7341487418	50.9806434646	-26.5083527151	-55.3639367959
185250000.0	-19.9226843702	66.2456985687	8.51863966917	19.5444720854	-55.924369605	48.7071711184	-26.7435925938	-56.4336802391
185937500.0	-19.851710911	63.7648495314	8.52146744336	18.2206449269	-55.9665383249	48.1520291018	-26.9807709362	-57.4177692913
186625000.0	-19.7783879897	61.2704013375	8.52837744983	16.9127310714	-55.518197515	50.5466394495	-27.1985957273	-58.6979653685
187312500.0	-19.7052518354	58.8243384595	8.53539421209	15.6033820164	-55.4045122442	49.6869858245	-27.414048983	-59.871390074
188000000.0	-19.6197135544	56.3994914965	8.54185567381	14.3071337982	-55.4774606865	46.1670429233	-27.5852579759	-61.2338875722
188687500.0	-19.5545115723	53.9624546493	8.54809905105	12.9958438759	-55.6130852801	44.5998560103	-27.7553196948	-62.5541473225
189375000.0	-19.4797981322	51.6167209594	8.55540634559	11.6988971521	-55.4336803349	43.8587387915	-27.9141256907	-64.0195995035
190062500.0	-19.4192891636	49.3259534466	8.56434771264	10.4037326045	-55.4843258625	44.2368180344	-28.0505005397	-65.3707968372
190750000.0	-19.3547035128	46.9664607779	8.57466723637	9.12417873558	-55.1950024226	40.1565465712	-28.1775130783	-66.7780153606
191437500.0	-19.3058341282	44.6514718818	8.58438389338	7.83919641705	-55.4252351746	37.6457059342	-28.2906603302	-68.1324313031
192125000.0	-19.2595784102	42.4198764498	8.59457847652	6.5617492734	-55.452446471	32.0288094712	-28.356240936	-69.4590948143
192812500.0	-19.2341006111	40.110923905	8.60599393499	5.29067759351	-55.483015372	31.3574835384	-28.3974945999	-70.9920458457
193500000.0	-19.2157717161	37.880332719	8.61781798852	4.01597342642	-55.5837698489	29.8732737851	-28.4336993505	-72.3862542724
194187500.0	-19.2015326307	35.5760214694	8.62975195338	2.73792666142	-55.9549489557	29.0586612868	-28.4408850021	-73.6458044033
194875000.0	-19.2102787261	33.2337165682	8.64289525201	1.46998986691	-56.5912661003	27.6816496305	-28.4241838138	-74.9174307898
195562500.0	-19.2139242427	30.8432148439	8.65661442274	0.206917029799	-56.5681821369	27.1240970172	-28.3817798969	-76.3122899469
196250000.0	-19.2432957655	28.4804155899	8.66956855124	-1.03955088204	-56.4062188435	28.5817258063	-28.3174169925	-77.5224064267
196937500.0	-19.2651125309	26.0997958841	8.68456279428	-2.30092881955	-56.3558669768	26.1847798275	-28.2520743382	-78.7485745158
197625000.0	-19.310789763	23.7330677446	8.69896653977	-3.52871767422	-56.266842929	25.5707778586	-28.1717967773	-79.8954814028
198312500.0	-19.3459705992	21.3333689514	8.71460282313	-4.7694267519	-56.514008552	25.415568572	-28.0551984997	-80.9561813629
199000000.0	-19.3991688654	18.861741233	8.73235954884	-6.00516381221	-56.6612758389	27.1811868797	-27.9289584538	-81.8950531975
199687500.0	-19.4434236706	16.387294421	8.74820525556	-7.25050743236	-56.3201819464	25.677132983	-27.7711294178	-82.9525833502
200375000.0	-19.5116666405	13.9265655546	8.76608009266	-8.48227777	-56.2280188938	23.7975922623	-27.6048461942	-83.8480003881
201062500.0	-19.5703435292	11.3745449194	8.78275627869	-9.72438585402	-56.7176501294	26.2232827891	-27.445775355	-84.7257793476
201750000.0	-19.6414078041	8.84180006182	8.80146572473	-10.9625058565	-57.0331766055	25.8805057516	-27.2781779996	-85.3736655977
202437500.0	-19.7035596974	6.23996816412	8.82051559132	-12.2080927858	-56.5473300317	20.8400739737	-27.0972933971	-86.1313708112
203125000.0	-19.7736310272	3.62577843021	8.84302732806	-13.4412090816	-56.7437680578	20.4480607252	-26.8968712353	-86.7033165788
203812500.0	-19.8301634658	0.99321340121	8.86313153409	-14.6809644153	-56.9070973211	14.3367608546	-26.6900481827	-87.1920083881
204500000.0	-19.901765213	-1.67435157448	8.88468318186	-15.9175080435	-57.1364321358	14.8109906574	-26.4815004235	-87.5617781992
205187500.0	-19.9734139725	-4.3061757073	8.90733917802	-17.1550431199	-56.703907143	13.6545064166	-26.2904013217	-87.8206983654
205875000.0	-20.0341636247	-6.96622506475	8.9327481479	-18.3888505623	-56.4852597059	13.8520843746	-26.0871905965	-87.9168524544
