#Frequency	|S11|	<S11	|S21|	<S21	|S12|	<S12	|S22|	<S22
100000000.0	-19.5686860548	120.208757459	-34.9992553845	-118.453643264	-63.3080280889	133.212787809	-21.9337980827	-34.3537568319
100687500.0	-19.4308011477	117.952965955	-35.0624556974	-121.078439079	-62.2677607218	101.178890494	-21.9984562824	-33.6972572314
101375000.0	-19.2989398675	114.980996997	-34.7707916127	-124.289733992	-63.3716462186	61.2160669119	-22.023723901	-33.6063329904
102062500.0	-19.1925701476	112.297260991	-34.4212659812	-125.425354707	-61.0968695867	58.1451011169	-22.0609138791	-33.1864150179
102750000.0	-19.0670672059	109.491149652	-34.0842081891	-126.980076336	-60.4535159907	21.1032001872	-22.0928760931	-32.9072072436
103437500.0	-18.9646516862	106.717776463	-33.7783285277	-128.308053831	-60.8120106617	29.007902195	-22.1320601372	-32.5056406654
104125000.0	-18.8736336474	103.65323219	-33.4991791491	-129.508830128	-61.5780329626	35.7935631396	-22.1844905988	-32.1802825268
104812500.0	-18.7944875424	100.633952732	-33.2599831074	-130.900090612	-61.9325397223	21.7165285486	-22.2403053343	-32.1022625129
105500000.0	-18.7199165019	97.5282272518	-33.0213512039	-132.576655209	-61.7025214725	-5.33386847685	-22.2883746139	-31.9764274354
106187500.0	-18.6518078875	94.2860708516	-32.8110793486	-133.670627533	-61.4476305509	-46.842317119	-22.3505224614	-31.8756867123
106875000.0	-18.587861848	90.9189390615	-32.6242889129	-134.779265953	-61.4821625937	-93.1498167509	-22.4149873631	-31.8341794903
107562500.0	-18.5343073086	87.4220188213	-32.4938886829	-135.808086737	-60.9579412644	-130.237609526	-22.4675812964	-31.7443027299
108250000.0	-18.472354101	83.7876003618	-32.4126994833	-136.744205748	-61.1085683703	-174.949714319	-22.5191799026	-31.8132872952
108937500.0	-18.3963797866	80.3803660259	-32.2888471162	-137.898318353	-60.8559002736	156.521079252	-22.5613652799	-31.7058726256
109625000.0	-18.3287086838	76.8690656639	-32.1827943668	-138.618685576	-60.875593658	125.306689008	-22.6070841176	-31.6218630522
110312500.0	-18.2517004128	73.2891094783	-32.0613439835	-139.495091487	-60.7887291541	86.2083225261	-22.6522782271	-31.6486236213
111000000.0	-18.1850150232	69.6173088183	-32.0048862392	-139.816983553	-60.5796587328	58.2864090142	-22.6967274511	-31.5953681875
111687500.0	-18.1165652988	65.878462653	-31.9577229445	-139.84778986	-60.6276516919	21.2903270548	-22.7424463868	-31.7234572332
112375000.0	-18.0496905677	61.9986217405	-31.9114488644	-139.816805578	-60.7496798314	-21.3794294414	-22.7817367254	-31.7518655097
113062500.0	-17.9847180572	58.0594198923	-31.8842967745	-139.165590437	-60.9156009052	-61.0205306437	-22.8267112345	-31.8491661196
113750000.0	-17.9225918423	53.9982826722	-31.8250866823	-138.120892588	-60.6947301147	-89.6833013755	-22.8756643794	-31.9120852055
114437500.0	-17.8722367005	49.8610037761	-31.7328699087	-136.663265761	-60.7242051337	-118.545373391	-22.9216077574	-31.9930818599
115125000.0	-17.8214384309	45.5483044684	-31.5872203628	-135.027350335	-60.3951838154	-160.406871669	-22.9693435186	-32.0807133077
115812500.0	-17.7679120415	41.1915490112	-31.3740042141	-133.215684447	-60.7404720685	146.519800742	-23.0092334377	-32.1819076305
116500000.0	-17.728354809	36.7438591171	-31.1204790583	-131.306385099	-60.3779718702	106.570226392	-23.0450014251	-32.3032112732
117187500.0	-17.6886715337	32.2267614117	-30.7932517915	-129.408447291	-60.4047917635	52.9015458234	-23.0668074183	-32.4272943085
117875000.0	-17.6660038135	27.5447719461	-30.4322253643	-127.502095042	-60.181261048	11.2804936526	-23.1012277463	-32.3913995027
118562500.0	-17.6511553618	22.773774567	-30.0028839535	-125.590995078	-59.8168160144	-18.6192099693	-23.1251830288	-32.3970330628
119250000.0	-17.6609837614	17.9033601708	-29.5353683084	-123.691289313	-59.9972285951	-46.1922278696	-23.1447232667	-32.420877204
119937500.0	-17.6882476405	12.9279750295	-29.0381078813	-121.925763327	-59.9741200166	-72.3014410567	-23.1634962618	-32.4103011117
120625000.0	-17.7431830576	7.96045651341	-28.4938981475	-120.513392215	-60.1019699341	-85.8366011744	-23.1810008814	-32.3984398805
121312500.0	-17.8348598066	2.88693715997	-27.9118668705	-119.166125016	-60.2342845768	-100.236118256	-23.1895907264	-32.3934968457
122000000.0	-17.9662304116	-2.15442276647	-27.2987150447	-118.104705256	-60.6706249064	-109.837590581	-23.1995230915	-32.437276052
122687500.0	-18.1402191323	-7.19423985397	-26.6509464018	-117.133413816	-60.316294543	-124.647841238	-23.2122741648	-32.3264324502
123375000.0	-18.3674543458	-12.0935214577	-25.9700223042	-116.501482853	-60.4637882274	-140.01436719	-23.2181115034	-32.2274000525
124062500.0	-18.6554210214	-16.9034054409	-25.2550912871	-115.914430797	-60.9285229763	-150.345492131	-23.2250503787	-32.1264584854
124750000.0	-19.0052054917	-21.2424591229	-24.5116197719	-115.628554606	-60.7297176238	-159.287348524	-23.2288862049	-31.9576600624
125437500.0	-19.3893540002	-25.3414726456	-23.7415487323	-115.568725407	-60.5096888427	-158.948922996	-23.2356450427	-31.6209139668
126125000.0	-19.8070403792	-28.7715228035	-22.9408564242	-115.748083966	-60.5484905194	-167.717159631	-23.251107513	-31.3959671007
126812500.0	-20.2078883347	-31.7704464971	-22.1104841949	-116.307566337	-60.5911921765	-167.892440593	-23.2562964169	-31.0642388712
127500000.0	-20.5857668223	-34.0511337014	-21.2747870671	-117.179926377	-60.4130601031	-157.517791824	-23.2567812336	-30.720557344
128187500.0	-20.9308212694	-36.1720273036	-20.3883325848	-118.370587031	-60.4889585085	-156.238301115	-23.2611057271	-30.3490144886
128875000.0	-21.2509597336	-37.9479216539	-19.5063307682	-120.170940414	-60.1900462866	-153.040109636	-23.2569838791	-29.837030421
129562500.0	-21.5345654751	-39.6274212173	-18.6290522046	-122.325835597	-60.1628801733	-139.602883463	-23.262054475	-29.37913021
130250000.0	-21.7936864526	-41.2333112686	-17.7407566835	-125.053154895	-60.4295291067	-136.901623954	-23.2720569547	-28.8815443797
130937500.0	-22.0230856384	-42.708525126	-16.8910464579	-128.333624757	-60.3518915963	-134.591001121	-23.2746037957	-28.3265358998
131625000.0	-22.2403211485	-44.0913170057	-16.0858053879	-132.169094474	-60.4913748558	-118.882466262	-23.2614734591	-27.8766976087
132312500.0	-22.4397635347	-45.4019723153	-15.3462113925	-136.375422824	-60.4305708121	-103.444356961	-23.2577553164	-27.3166164553
133000000.0	-22.6269496335	-46.7045481935	-14.6666844874	-140.761939178	-60.2383913975	-87.7810478408	-23.2607249225	-26.7648353522
133687500.0	-22.7893767036	-47.9651328715	-14.0555387593	-145.423036566	-59.9777432007	-83.1779274331	-23.2644211888	-26.1524351375
134375000.0	-22.9474936772	-49.182992936	-13.4977642288	-150.233955539	-59.6256424249	-69.4925595649	-23.2747864785	-25.5941242821
135062500.0	-23.0838393268	-50.4150573046	-12.9980849608	-155.121185415	-59.444618001	-66.3979493333	-23.2760290785	-25.0578182494
135750000.0	-23.2047309517	-51.5421447265	-12.5538692857	-160.001335816	-59.6062810349	-63.1999691841	-23.2786602101	-24.5500399875
136437500.0	-23.3018342322	-52.6120616582	-12.1701262085	-164.947970796	-59.2276122861	-60.9253055459	-23.294830729	-24.0518129266
137125000.0	-23.3775194151	-53.7107736428	-11.8245095404	-169.801785102	-59.2913562401	-63.8078220004	-23.3174700182	-23.4752035407
137812500.0	-23.4188138757	-54.7586906548	-11.5340311081	-174.660378346	-59.4717740693	-76.7651081811	-23.3269758849	-22.9003718085
138500000.0	-23.4323697622	-55.8261019448	-11.2738981303	-179.398235719	-59.4413273874	-89.3372247255	-23.3473841942	-22.3652773066
139187500.0	-23.4021032364	-56.8866749134	-11.0603558255	175.943888762	-59.2964812028	-107.090474209	-23.356529443	-21.7881655351
139875000.0	-23.3288902497	-58.0206257494	-10.8769886049	171.406809847	-59.0111965824	-119.63725948	-23.3743824375	-21.248085657
140562500.0	-23.2019474627	-59.2602452628	-10.7265537387	166.960872356	-58.9098792975	-134.046796084	-23.4010947725	-20.7775189207
141250000.0	-23.0203837977	-60.6319557807	-10.5983432154	162.663717508	-58.7299176157	-147.748326702	-23.4158942187	-20.2823148883
141937500.0	-22.7832594624	-62.474225886	-10.500848663	158.472830663	-58.9443835056	-150.832195174	-23.4366017863	-19.8875807162
142625000.0	-22.5153826374	-64.5287191473	-10.4167651161	154.412940182	-58.9330998706	-164.02432879	-23.4555874524	-19.4174175978
143312500.0	-22.2086746057	-67.2459116959	-10.3568030419	150.468451703	-59.1732308141	178.442335934	-23.4742004711	-18.9810525746
144000000.0	-21.9309772484	-70.4043430106	-10.3091592183	146.644083646	-58.8465278473	153.516682973	-23.4967219169	-18.5834684918
144687500.0	-21.6918579863	-74.2693056903	-10.2754989228	142.946177087	-59.2866438511	127.387734419	-23.516969748	-18.2037478757
145375000.0	-21.4818176158	-78.2577489052	-10.2541664568	139.361448609	-59.2447954057	112.35630338	-23.5379429718	-17.8260452964
146062500.0	-21.2969028572	-82.5562725245	-10.2407685649	135.894694324	-59.0595235496	104.640870369	-23.5651467721	-17.4469445036
146750000.0	-21.1529137005	-86.8293947104	-10.237975051	132.512139555	-59.1075593475	92.8723781304	-23.5937060906	-17.0829160641
147437500.0	-21.0451007991	-91.2205889338	-10.2425781032	129.249927814	-58.934340311	85.8506089352	-23.6026550885	-16.765856347
148125000.0	-20.9707286378	-95.5678411228	-10.2536291269	126.071727094	-58.9762077289	71.5751533901	-23.6277596215	-16.548707874
148812500.0	-20.9126966512	-100.054782007	-10.2707850201	122.996540554	-59.1623076098	45.7225403786	-23.6399371877	-16.181304351
149500000.0	-20.8709334093	-104.426997852	-10.2915633596	119.980367725	-59.01687771	33.0588060333	-23.668224645	-15.8661905063
150187500.0	-20.8494335308	-108.832459316	-10.3182930842	117.070541283	-59.0077749337	27.6108579201	-23.6849789372	-15.5439394649
150875000.0	-20.8469467211	-113.090620104	-10.3449752576	114.236183518	-59.6520833361	23.409056166	-23.7026723485	-15.1691258811
151562500.0	-20.8541209402	-117.475192053	-10.3768185275	111.490079474	-59.6833086372	23.6891432215	-23.7234874911	-14.8641020052
152250000.0	-20.8757534881	-121.626618149	-10.409852452	108.79797754	-59.8504086549	34.8538715243	-23.742519639	-14.4921064817
152937500.0	-20.9028579769	-125.825162933	-10.4489448462	106.175387977	-59.4999067831	41.8864873581	-23.7638492557	-14.134840755
153625000.0	-20.9476109071	-129.93845579	-10.4842688292	103.639483911	-59.6961237407	53.2089399933	-23.7883416061	-13.7124508846
154312500.0	-20.9889085435	-133.997580073	-10.5249707227	101.152090976	-59.9959981038	57.9932693113	-23.7939982269	-13.4213779079
155000000.0	-21.0466022701	-137.995426193	-10.5622439554	98.7310298938	-59.9258309572	60.4212726175	-23.8094363259	-13.023735079
155687500.0	-21.0993884725	-141.898627892	-10.6060226702	96.3481401144	-59.8235807433	62.7423964025	-23.8308277912	-12.6005847509
156375000.0	-21.1727882773	-145.827243024	-10.6463288197	94.038699067	-59.8665328732	77.0698942774	-23.8466687937	-12.2026281968
157062500.0	-21.2387611741	-149.627384216	-10.6927504061	91.7588761916	-59.932398491	81.339555852	-23.8566750896	-11.7600663195
157750000.0	-21.3173377183	-153.436895412	-10.7321561337	89.5419397344	-60.1847040776	96.9066200288	-23.8579390948	-11.3605348372
158437500.0	-21.3873968808	-157.084710054	-10.7788194406	87.3478087121	-60.3133726903	99.705145159	-23.8739426978	-10.904531859
159125000.0	-21.4602419176	-160.741429835	-10.8168867274	85.2312852221	-59.9080204098	89.5325301713	-23.8906307992	-10.4367554518
159812500.0	-21.5397762688	-164.30074257	-10.8611294603	83.1310418956	-59.9344986579	80.2518304236	-23.899418866	-9.96782856719
160500000.0	-21.636238553	-167.815386084	-10.8998010312	81.0889673918	-60.0227998615	74.4203397924	-23.9158859132	-9.52417100271
161187500.0	-21.7150580754	-171.208447204	-10.9440830106	79.0698015929	-60.4145191419	74.1891043322	-23.9314013178	-9.04642013226
161875000.0	-21.8063992763	-174.52656216	-10.9843951619	77.1100999741	-59.9697533114	72.5501982875	-23.9658205522	-8.58295851763
162562500.0	-21.899038187	-177.755581047	-11.0274374515	75.1522895965	-60.0749331587	59.1622059202	-23.9861128357	-8.12418463075
163250000.0	-21.9975680458	179.062537956	-11.0664230903	73.2572433243	-59.8946488391	39.4275273578	-24.0227907323	-7.63969686335
163937500.0	-22.1056489507	175.903609584	-11.1094939653	71.3727538011	-59.9815003334	25.3254088297	-24.0488310252	-7.19601190074
164625000.0	-22.2088474664	172.823218107	-11.1495094554	69.5373110631	-60.1659947287	10.5623278977	-24.098285676	-6.79173054867
165312500.0	-22.3248757914	169.717386846	-11.1930519617	67.7141783491	-60.3572634894	-2.08568464663	-24.1363321218	-6.27262404503
166000000.0	-22.445446732	166.80939854	-11.2302486908	65.9235402416	-60.2573492522	-14.6236044148	-24.1950100044	-5.85055773516
166687500.0	-22.5824959219	163.777900465	-11.2712905997	64.1830009214	-60.6138661618	-28.1452618935	-24.2413620352	-5.36029801482
167375000.0	-22.7231768574	160.983575853	-11.3095389063	62.4642181836	-60.3375012932	-50.9837310815	-24.3121183484	-5.05564363011
168062500.0	-22.867257945	157.992236223	-11.3477440644	60.7530018886	-59.9535390706	-77.3728978686	-24.3719483386	-4.82012710174
168750000.0	-23.0200135192	155.238915839	-11.3862513472	59.0778838416	-59.8776833564	-115.597635455	-24.4467186401	-4.52431994766
169437500.0	-23.1720196225	152.308435292	-11.4253737539	57.4416771278	-60.0226182492	-156.248162645	-24.5267533292	-4.32332077369
170125000.0	-23.3431527098	149.550795571	-11.4603433506	55.7936491112	-60.3420213053	156.95499757	-24.6139574326	-4.12170177875
170812500.0	-23.5147956006	146.516667636	-11.494364525	54.1973683719	-60.2735347712	113.77593975	-24.6865583578	-3.93431449704
171500000.0	-23.6950373649	143.743583153	-11.5277809047	52.6194481948	-59.849735874	74.6882177874	-24.7724649889	-3.76090091041
172187500.0	-23.8735725864	140.697716518	-11.5609007885	51.0742941584	-59.4725996518	43.666656067	-24.8631238502	-3.77641031493
172875000.0	-24.0684565754	137.642993814	-11.5917363333	49.5512009161	-59.9412785398	18.3701680233	-24.9438409371	-3.78459259606
173562500.0	-24.2595818416	134.473234079	-11.621027412	48.043675972	-59.6630699114	-10.4721649187	-25.0395407013	-3.82917652011
174250000.0	-24.460230049	131.345691975	-11.6447328258	46.5558468379	-60.130981058	-41.317761831	-25.1286643414	-3.96473377246
174937500.0	-24.6477453043	128.022321787	-11.671947544	45.0886031304	-60.2633549341	-81.3935630855	-25.2221844774	-4.18609759356
175625000.0	-24.8354948712	124.617233526	-11.693584629	43.6294724279	-60.6218464016	-109.553716371	-25.3176892107	-4.35533405114
176312500.0	-25.0341313184	121.202563221	-11.7182141693	42.1892344865	-60.6855170858	-136.001420581	-25.4138419768	-4.69541592164
177000000.0	-25.202347385	117.635303984	-11.7406227422	40.7660858767	-60.7392672288	-152.44179019	-25.5163631098	-5.02757348944
177687500.0	-25.3610263112	113.958130572	-11.7639088415	39.3512707485	-60.6049810376	-160.207379968	-25.6227470293	-5.36370002686
178375000.0	-25.5155591292	110.199121435	-11.7806300496	37.9462149688	-60.7256461853	-172.911223613	-25.7125250154	-5.74044599634
179062500.0	-25.6549129786	106.517426831	-11.7989829712	36.5410440356	-60.659723277	175.266074673	-25.8019285203	-6.26020075668
179750000.0	-25.7739804575	102.560093513	-11.8110772499	35.1746077846	-60.8755296917	163.954413393	-25.8896505195	-6.6720972305
180437500.0	-25.8871053958	98.6198474432	-11.8270083762	33.7789621992	-60.9694978573	162.496960379	-25.9553813096	-7.2378710643
181125000.0	-25.9681408724	94.4622055241	-11.835997471	32.4279681707	-60.8521648561	150.570500899	-26.0220530816	-7.74499095904
181812500.0	-26.0550345627	90.5044572729	-11.8506925022	31.0503398698	-60.5218489976	135.713770823	-26.0797741177	-8.24254706998
182500000.0	-26.111477534	86.3538208141	-11.8558301774	29.7191410976	-60.3428308137	121.435230829	-26.1385292805	-8.7473772088
183187500.0	-26.1426159532	82.2754614061	-11.8671126011	28.376878342	-60.1103993913	108.056048729	-26.1816946714	-9.21586842018
183875000.0	-26.167327591	78.2310518551	-11.8701132683	27.0450819473	-60.1152679717	82.0472628363	-26.2191414419	-9.83938313052
184562500.0	-26.1721896804	74.0811836914	-11.8787386455	25.7088481696	-60.2392918276	58.415505203	-26.2328899831	-10.3423615429
185250000.0	-26.1668091019	70.0761129647	-11.8824072225	24.417194218	-60.4193809042	46.0935509583	-26.2512024507	-10.8284739593
185937500.0	-26.1347434719	65.9857867308	-11.8874423228	23.0836169488	-60.5719634701	32.3483101699	-26.2576218418	-11.2288965442
186625000.0	-26.1134916979	62.0291408221	-11.885528196	21.7804719163	-60.3752232415	8.1105978058	-26.2493989111	-11.5421520717
187312500.0	-26.0559722801	57.9367588673	-11.8891905748	20.4756656501	-60.338329813	-9.00955216384	-26.2341979343	-11.8193559622
188000000.0	-25.9889947681	54.152191842	-11.8878515252	19.1758708922	-60.2082345447	-35.1302635674	-26.2100687434	-12.1768684762
188687500.0	-25.9158913517	50.1123892576	-11.891688047	17.8589412517	-60.1612820213	-54.7572686745	-26.1901777342	-12.4212559295
189375000.0	-25.8444553121	46.437501999	-11.8880985598	16.5546440965	-60.4305335723	-82.0745299349	-26.1603981549	-12.6119016968
190062500.0	-25.7628151226	42.6714773837	-11.8892661751	15.252440654	-59.8296880106	-112.052389504	-26.1244111092	-12.7277367881
190750000.0	-25.6769187738	39.1277728816	-11.8856580381	13.9692546907	-59.8711504954	-151.202760873	-26.0792158027	-12.800358762
191437500.0	-25.5800229736	35.4695736555	-11.8855115519	12.6899772103	-59.5156885636	171.874513774	-26.0414449859	-12.8113697539
192125000.0	-25.4913527292	32.149307141	-11.8810631934	11.4132357082	-59.4048726796	140.483818004	-25.9874919642	-12.7147233358
192812500.0	-25.390178056	28.6421348539	-11.8791277432	10.1487714225	-58.9458742165	95.9419058292	-25.9363899502	-12.6699156049
193500000.0	-25.2930913261	25.3512303528	-11.8755610809	8.86969805823	-59.1360536625	48.5778877897	-25.8748455356	-12.4380900736
194187500.0	-25.2083896572	22.0064107163	-11.8727238186	7.61271718106	-59.0837421051	-6.42468758183	-25.8060571683	-12.2664341954
194875000.0	-25.1395002192	18.7967120565	-11.8662074617	6.35756616465	-59.5056623636	-61.2194937263	-25.7317579087	-12.0799400246
195562500.0	-25.0623722128	15.5424362368	-11.8613516518	5.11482887859	-59.7226174308	-108.273647884	-25.6729496474	-11.8610879697
196250000.0	-24.9930315988	12.2057439037	-11.8566633438	3.87663354477	-59.8833927912	-162.863229981	-25.6059487507	-11.4794410824
196937500.0	-24.9418050748	9.09129824317	-11.8539023494	2.62108637926	-59.668771765	143.058785613	-25.5332883963	-11.0812036826
197625000.0	-24.8901419832	5.86878109606	-11.8484731032	1.38689259346	-59.5560622669	86.5630816073	-25.4726127593	-10.6472750574
198312500.0	-24.8457408006	2.81533604404	-11.8429060562	0.169878594017	-59.8546608382	42.4103471107	-25.4086452891	-10.2806574483
199000000.0	-24.803977029	-0.560346566157	-11.8339370405	-1.05276764237	-59.9087172826	-3.97384063167	-25.3443794815	-9.84222054467
199687500.0	-24.7558809666	-3.66775162269	-11.8281824428	-2.27288704647	-60.0348889555	-58.9885444043	-25.279261934	-9.44308185325
200375000.0	-24.72867548	-6.96789499018	-11.8192311405	-3.4887180072	-60.4705730696	-114.205534957	-25.2377251114	-9.0122864515
201062500.0	-24.6886854172	-10.1675886309	-11.8132541069	-4.69941621655	-60.3108632234	-169.836007595	-25.1896976772	-8.54893690299
201750000.0	-24.6448106133	-13.5047496358	-11.8010323374	-5.91823102373	-60.9103826693	141.241000857	-25.149892461	-8.04412527141
202437500.0	-24.608717082	-16.7979997349	-11.7917488006	-7.13235833689	-61.5217049535	83.7786657113	-25.1073135003	-7.55765912333
203125000.0	-24.5710949134	-20.0747140048	-11.7798534269	-8.32967801246	-62.0146139855	27.409815911	-25.0656382968	-7.04108386844
203812500.0	-24.5061380065	-23.3982271217	-11.7701262709	-9.52233046174	-62.151916841	-28.9604460034	-25.0299686287	-6.72194819299
204500000.0	-24.4548678637	-26.7738461581	-11.7562910588	-10.7110537045	-62.387490203	-94.4036427537	-24.9924198867	-6.30010449517
