#Frequency	|S11|	<S11	|S21|	<S21	|S12|	<S12	|S22|	<S22
100000000.0	-15.700185896	140.905143263	-26.4804339608	-129.328743433	-56.510485461	177.340318335	-21.9101911316	-41.9280275542
100687500.0	-15.6628002305	137.683632529	-25.9521627836	-129.943313637	-61.1954457903	55.141397917	-21.858003257	-42.07117255
101375000.0	-15.6622133435	134.568825751	-25.5046179056	-131.307292443	-62.929590852	14.6233127716	-21.8729927993	-41.8752783439
102062500.0	-15.6589681634	131.459692966	-25.1428214293	-132.686708069	-63.2321804322	9.57460716343	-21.8906487901	-41.6038375195
102750000.0	-15.654052863	128.329303098	-24.8070800234	-134.333725595	-63.850751212	15.3323198701	-21.9029129671	-41.3451782544
103437500.0	-15.6607219667	125.15554792	-24.5001752058	-135.853016264	-63.1056836722	16.6043846952	-21.9283372089	-41.075944392
104125000.0	-15.6821177453	121.742531053	-24.212727147	-137.464863706	-62.7211536699	-9.36223613907	-21.9559518222	-40.7506490414
104812500.0	-15.7079964568	118.376089252	-23.9415996098	-138.949499937	-62.4032155543	-24.6348810641	-21.9786473992	-40.6398558224
105500000.0	-15.7486105708	114.878636327	-23.7116742435	-140.552461126	-62.1514529284	-34.0436022864	-22.0049143682	-40.5916540877
106187500.0	-15.8032884285	111.225433648	-23.506452174	-142.191878947	-61.6359137984	-37.9974302465	-22.0397973536	-40.5256612746
106875000.0	-15.8636772197	107.46407481	-23.3434030898	-143.721372906	-61.629574755	-27.6018780341	-22.0826425437	-40.5374428901
107562500.0	-15.9401396859	103.535708697	-23.2235986413	-145.147489255	-62.0408125577	-20.8557578003	-22.128346164	-40.4628625576
108250000.0	-16.0204527922	99.4009984366	-23.1540074246	-146.405331749	-62.1124427176	-35.3916635664	-22.1603324815	-40.4606025341
108937500.0	-16.0805574346	95.5000519517	-23.010750553	-147.631263462	-62.1021742916	-49.9018279475	-22.1907409712	-40.3522818186
109625000.0	-16.1461943132	91.5427350436	-22.8988303639	-148.823219531	-62.1953124472	-66.0936628431	-22.220287677	-40.2212285277
110312500.0	-16.2152308775	87.4257296174	-22.8183947615	-149.818681562	-61.9462917291	-83.0803141165	-22.2522271519	-40.1826117052
111000000.0	-16.2990399275	83.1713153771	-22.7834185767	-150.601327414	-61.8524622063	-108.828574237	-22.2809150387	-40.1539087249
111687500.0	-16.3810350656	78.7679097446	-22.765343717	-151.003990139	-61.3321094162	-122.951367167	-22.310311779	-40.2049916801
112375000.0	-16.4788007559	74.2631039328	-22.7587925784	-151.060058156	-60.9752087642	-138.363513934	-22.3457857012	-40.2286270472
113062500.0	-16.5695986391	69.5854546308	-22.7497423749	-150.611330742	-60.9332840056	-153.115856123	-22.3766359875	-40.2101106496
113750000.0	-16.6824867321	64.7505829815	-22.7147728625	-149.713194682	-60.9944095494	-177.743380191	-22.4049269938	-40.2237526585
114437500.0	-16.7989298932	59.7521859073	-22.6346088772	-148.472353622	-61.1035301943	162.154545334	-22.4414308593	-40.2632647737
115125000.0	-16.9219757433	54.570684312	-22.5028047332	-146.95307832	-61.8400332224	137.448674698	-22.4803839816	-40.319545581
115812500.0	-17.0462189065	49.2440940247	-22.3159769409	-145.276189425	-61.4959718456	123.406408598	-22.507201367	-40.3712129898
116500000.0	-17.1886173411	43.736653755	-22.0728759774	-143.484885055	-61.3591487173	108.409777972	-22.5383139146	-40.4071645479
117187500.0	-17.3388165843	38.1044261465	-21.7674096384	-141.681193655	-61.3312732255	82.3500913342	-22.5666571823	-40.4675350696
117875000.0	-17.5078188819	32.2337589944	-21.4131632291	-139.910017779	-61.3410697928	53.7279869526	-22.6049636543	-40.4268522191
118562500.0	-17.6974726116	26.2015632425	-21.0143787714	-138.170903704	-61.7503515308	12.8242992325	-22.6245648134	-40.387119958
119250000.0	-17.8997993574	19.9161004667	-20.5581013869	-136.483453974	-61.9215247079	-29.5874525863	-22.6547322037	-40.2731063107
119937500.0	-18.1418159471	13.4895418058	-20.0653514511	-134.927082582	-61.887517855	-83.0104140585	-22.6714223119	-40.1285093415
120625000.0	-18.3900691256	6.83698324904	-19.5220308891	-133.471659172	-62.0950812675	-126.38385051	-22.7064027665	-40.0285628681
121312500.0	-18.7030299703	0.0496388616305	-18.9541778312	-132.167539203	-61.8181403581	-168.530834467	-22.7267629836	-39.9080723501
122000000.0	-19.0373634779	-6.95304219719	-18.3355588677	-131.037956732	-61.7212781711	140.652085718	-22.7506006089	-39.7460452008
122687500.0	-19.4498782909	-14.0876494782	-17.6870328332	-130.126348349	-61.488565096	89.76770032	-22.7653852729	-39.565425988
123375000.0	-19.9325615909	-21.4473939522	-16.999320646	-129.413605734	-60.9582381337	37.4298101312	-22.7794049237	-39.376350051
124062500.0	-20.5252264841	-29.0217660075	-16.285563331	-128.899679516	-60.8691409642	-15.3018293126	-22.7974377738	-39.1371360236
124750000.0	-21.2803844549	-36.7644289592	-15.5345260226	-128.63960438	-60.6685007943	-68.5155662674	-22.8153206675	-38.8439872199
125437500.0	-22.2586071678	-44.5313393437	-14.7601938966	-128.610119909	-60.2581915956	-113.375194101	-22.8340914992	-38.5035870682
126125000.0	-23.5687353666	-47.0131357494	-13.9481372087	-128.873913747	-60.3415806071	-168.361628874	-22.8590289209	-38.2225724023
126812500.0	-24.4664596741	-48.5854930743	-13.1179949384	-129.39784182	-60.1117972466	138.651207291	-22.882045316	-37.8737674855
127500000.0	-25.0838290677	-49.9351033369	-12.253939099	-130.317859322	-59.9892812386	94.1346600921	-22.8959722091	-37.5426269376
128187500.0	-25.637231727	-51.4419177549	-11.3637556519	-131.626979381	-59.9537032775	54.233350524	-22.9187033044	-37.0962085713
128875000.0	-26.0840830328	-53.001811714	-10.4518778427	-133.462296632	-60.1455399918	9.44539876167	-22.9347553899	-36.6224820431
129562500.0	-26.468368559	-54.6361602341	-9.54599502739	-135.806005549	-59.9168098811	-42.1671955539	-22.9496568412	-36.1446810047
130250000.0	-26.8011031062	-56.4456299158	-8.63863046456	-138.83366777	-59.7895470558	-87.2654298285	-22.9798900069	-35.7228264833
130937500.0	-27.0875256424	-58.2388849006	-7.77863930995	-142.395815169	-58.9711506767	-130.671634945	-23.0038780714	-35.2060455155
131625000.0	-27.3383389435	-59.9704196229	-6.96390289087	-146.439619209	-58.8158243289	-174.675227215	-23.0165519462	-34.7823970335
132312500.0	-27.5568718821	-61.7937690402	-6.21809116023	-150.861550973	-58.431783023	140.968207711	-23.0288618626	-34.2398121831
133000000.0	-27.7475898791	-63.5243457528	-5.53163013003	-155.630114366	-58.6187288456	96.9999340913	-23.0509334165	-33.7412253393
133687500.0	-27.8963069346	-65.3442039136	-4.92178316821	-160.539691622	-59.0262475606	56.5768313942	-23.0740299921	-33.2423066309
134375000.0	-28.0227628377	-67.0151011534	-4.3745836109	-165.609732938	-58.991827633	25.9133225873	-23.0906798812	-32.7940743
135062500.0	-28.1037819217	-68.6988348695	-3.89068299017	-170.731678661	-58.9146974992	-2.94827263686	-23.1030463929	-32.3419800696
135750000.0	-28.1719039992	-70.24453596	-3.46432581792	-175.919330093	-58.4098069183	-29.5551168882	-23.1309405164	-32.0059980867
136437500.0	-28.1928297099	-71.6849993234	-3.09676050141	178.918104625	-58.363544243	-44.7130376699	-23.1588791202	-31.7465699124
137125000.0	-28.1765186933	-73.0418242757	-2.7776376922	173.766461473	-58.3657614877	-49.1596064262	-23.1865460535	-31.3939906965
137812500.0	-28.1288125545	-74.1857716558	-2.50928202642	168.705427703	-58.6852320929	-67.3082298437	-23.2073318613	-31.0399042239
138500000.0	-28.0250855128	-75.273675152	-2.283156303	163.702925967	-58.9165960445	-90.8876877713	-23.2226331393	-30.7832944524
139187500.0	-27.8789148088	-76.1609102024	-2.10160764245	158.816452347	-59.1214882982	-109.575119407	-23.2428367482	-30.5138578696
139875000.0	-27.6470268464	-76.9536589884	-1.95454006724	154.031485532	-59.0772239329	-125.790069943	-23.2733666119	-30.2182874897
140562500.0	-27.3375549062	-77.4981525413	-1.84110007798	149.393354635	-59.3044248759	-140.27113222	-23.3064223503	-30.0695166228
141250000.0	-26.914527723	-77.8517631682	-1.75652954983	144.874762303	-59.476184417	-153.73675602	-23.3214519685	-29.8604370064
141937500.0	-26.3253386279	-77.9590876605	-1.70021020617	140.515793584	-59.752596834	-157.688642043	-23.3445732596	-29.7951970188
142625000.0	-25.5016546348	-78.0696153162	-1.66453955996	136.287699744	-59.9844467308	-169.768718502	-23.3649171769	-29.6777221251
143312500.0	-24.3444369511	-83.3297447194	-1.65047271188	132.224960954	-59.849418957	-179.265338495	-23.3829996517	-29.6259898521
144000000.0	-23.5845147222	-89.5499920507	-1.65350477885	128.299956452	-60.1510833019	-178.35070526	-23.4060731262	-29.5478701044
144687500.0	-23.1121958001	-95.8548260444	-1.67009580565	124.537426455	-60.3173548885	-175.545132118	-23.4318405559	-29.589393362
145375000.0	-22.6804281067	-101.938224174	-1.6976362687	120.915366434	-60.3103364618	-179.147858637	-23.4530368579	-29.5954715053
146062500.0	-22.3615486419	-107.807645557	-1.73724238383	117.436715325	-60.0667101616	176.894492437	-23.474094596	-29.5864526616
146750000.0	-22.0897357122	-113.558164395	-1.78252152778	114.076703208	-60.2840839912	176.509282092	-23.5019761415	-29.5828409118
147437500.0	-21.8794043033	-118.991350562	-1.83752818931	110.866424408	-60.8549449931	176.072966613	-23.504708159	-29.6262954135
148125000.0	-21.6961415866	-124.361934844	-1.89162999842	107.758912818	-61.191321136	171.279192114	-23.5252451008	-29.6456143962
148812500.0	-21.5503231958	-129.645479351	-1.95427495717	104.766004808	-61.1666801246	165.713142051	-23.5235518879	-29.6152028123
149500000.0	-21.4250077189	-134.665938597	-2.01401240865	101.868710212	-60.8833586216	161.809422611	-23.5406151007	-29.6227464629
150187500.0	-21.3278497129	-139.665806456	-2.07941086022	99.0798096603	-60.9225973641	153.747084531	-23.5416052168	-29.6492484702
150875000.0	-21.2577688527	-144.32389133	-2.14080753234	96.3844242768	-60.5899865909	151.076164385	-23.5429217901	-29.6481370801
151562500.0	-21.1933591965	-149.084196292	-2.20509805785	93.7788185695	-60.6985205399	147.288598863	-23.5380372054	-29.648393549
152250000.0	-21.1612990102	-153.565572378	-2.26724903113	91.2367678844	-60.58014391	148.350548669	-23.5507468478	-29.5786014922
152937500.0	-21.1206382118	-158.053529058	-2.33323898368	88.7830499779	-60.8059490154	152.172829943	-23.5457393306	-29.4378556297
153625000.0	-21.1156893137	-162.388027214	-2.39209343248	86.3971424138	-60.448777499	151.776790364	-23.5539402449	-29.2386023102
154312500.0	-21.093755311	-166.650815209	-2.45533521653	84.0699346276	-61.0879753047	141.539784504	-23.5449505895	-29.1473472578
155000000.0	-21.0986922587	-170.876195832	-2.5137292971	81.7906797562	-60.8500329425	131.556141262	-23.5375194874	-28.9997170273
155687500.0	-21.0916350569	-174.976040781	-2.57249025183	79.5904338348	-60.630656068	116.586379149	-23.5281040127	-28.7112131265
156375000.0	-21.1131393998	-179.057530336	-2.62779358215	77.4264247512	-60.1625733387	94.1209876688	-23.5162393112	-28.4846783321
157062500.0	-21.1198995453	176.984201872	-2.68259491918	75.3335580738	-60.0956164683	77.4880364589	-23.4981730138	-28.1760543634
157750000.0	-21.1408050305	173.046988306	-2.7354260046	73.2764019603	-59.826910077	50.8395292598	-23.4781137364	-27.8800267916
158437500.0	-21.1552972006	169.23042136	-2.78953838673	71.2698244412	-59.8497201214	35.8682369814	-23.4721923687	-27.5954849546
159125000.0	-21.173113299	165.404650351	-2.83703535704	69.2991169554	-59.4343000716	12.4050767904	-23.4600775438	-27.1830587284
159812500.0	-21.1965865247	161.743203232	-2.88732163848	67.3792634463	-59.0345721478	-2.94368027323	-23.45181987	-26.8131386033
160500000.0	-21.2197062174	158.010430108	-2.93311137851	65.4772795023	-58.9361312767	-19.4395684228	-23.4454825653	-26.4218075203
161187500.0	-21.2490025533	154.469111931	-2.97854129516	63.6182398323	-59.0062657852	-47.8082757446	-23.4329026997	-26.0410721809
161875000.0	-21.273720906	150.923893939	-3.02242522868	61.7775331526	-59.1965682881	-85.5824079698	-23.4319863156	-25.5094570421
162562500.0	-21.3108652137	147.466218771	-3.06549581952	59.9788826383	-59.4140164294	-115.09822868	-23.4257117308	-25.077751837
163250000.0	-21.32797954	144.006468417	-3.10485936391	58.195761462	-59.1776681455	-149.136081179	-23.4248024514	-24.6360631663
163937500.0	-21.3701290678	140.638352656	-3.1442607923	56.4627538919	-59.0996584346	168.615016508	-23.4141194508	-24.1938460592
164625000.0	-21.3897083622	137.295751141	-3.17959292156	54.731520108	-58.955233431	117.046614787	-23.4226532764	-23.7780051677
165312500.0	-21.4283827184	134.04343531	-3.21800450904	53.0530953832	-58.7751778708	70.5402281348	-23.4232325386	-23.3648725526
166000000.0	-21.4529157969	130.815131741	-3.25144806486	51.3900268053	-58.7526460131	28.8671951066	-23.4404195346	-22.9306808912
166687500.0	-21.4977048706	127.539825401	-3.28692222737	49.7541135881	-58.6028954591	-7.97086189007	-23.4633582444	-22.4788739659
167375000.0	-21.5349003165	124.409804965	-3.32016712471	48.1434732697	-58.9218440019	-50.4992169193	-23.4893031112	-22.079589637
168062500.0	-21.5752266625	121.243473647	-3.3522424303	46.5502708054	-58.8520449591	-94.4061571276	-23.5112596889	-21.7322534761
168750000.0	-21.6203088623	118.172884526	-3.38156568623	44.9794715935	-59.1609522969	-146.620068206	-23.5598352053	-21.3846318369
169437500.0	-21.6611725028	115.076800997	-3.41233550645	43.4350669444	-59.7754737517	166.45765723	-23.592483947	-21.1185345256
170125000.0	-21.7086707844	112.015949688	-3.43734510412	41.8874657178	-59.7267121324	118.192280778	-23.6356104443	-20.8286652332
170812500.0	-21.7528133499	108.940436345	-3.46447903449	40.38503857	-60.0580749	68.2164366093	-23.6733475092	-20.5788728533
171500000.0	-21.8077359765	105.88472767	-3.48586967453	38.9105490331	-59.6269226921	24.5191165742	-23.7189551676	-20.3533750327
172187500.0	-21.8490055133	102.838868265	-3.50680468037	37.4604296803	-59.4955616935	-17.4646891892	-23.7658614831	-20.1390005699
172875000.0	-21.9027979601	99.7859745532	-3.52481188171	36.0024522909	-59.8564871261	-45.9742579507	-23.8296915625	-20.0317953329
173562500.0	-21.9252590581	96.6994881244	-3.54274138741	34.5813404616	-60.0730132098	-69.3997654549	-23.9001575623	-19.9500035985
174250000.0	-21.9771005584	93.6585103323	-3.55641803208	33.160872004	-60.4066055326	-95.5278087301	-23.963617328	-19.8675873307
174937500.0	-22.0043441859	90.5094939398	-3.56988873362	31.761686007	-60.1761290844	-122.817606318	-24.0259591636	-19.8718646151
175625000.0	-22.0487798798	87.3872441591	-3.5775985615	30.3690809183	-60.289499869	-152.304834344	-24.0869962462	-19.7885196024
176312500.0	-22.0724780065	84.1983997933	-3.58895239348	28.9926320438	-60.539629998	178.735403494	-24.1548354721	-19.8782525157
177000000.0	-22.1020145801	81.0566532753	-3.59343340383	27.6231862335	-60.8263291343	152.234728042	-24.2332144609	-19.9507068083
177687500.0	-22.1046204207	77.8564645929	-3.60028307706	26.2642348731	-61.7580307761	126.468384905	-24.3012856555	-20.0461435516
178375000.0	-22.1284887261	74.6664362984	-3.60116323827	24.9090509275	-61.3898096722	112.789852708	-24.38130997	-20.0978535037
179062500.0	-22.1343501175	71.5209619007	-3.60267174474	23.5762870996	-61.0637608947	98.1018894507	-24.4408427184	-20.3227770675
179750000.0	-22.1312624053	68.2638776046	-3.60052726004	22.2441275084	-60.9049961014	77.384524142	-24.5196926655	-20.3925686157
180437500.0	-22.1340760092	65.012609022	-3.59895320173	20.9133347251	-61.2103093587	65.3049554865	-24.5811405505	-20.568983436
181125000.0	-22.111590868	61.7114346602	-3.59303239954	19.5658791096	-61.3829175036	64.0537699854	-24.6580785898	-20.6674601514
181812500.0	-22.1043820528	58.4783807859	-3.59059073189	18.2512370098	-61.1283192632	76.6169013428	-24.712922782	-20.7630226009
182500000.0	-22.0690427464	55.1435742662	-3.58153748182	16.9168959707	-61.8784222869	85.064971289	-24.7985765061	-20.8031927182
183187500.0	-22.0375070012	51.9013479852	-3.57361007513	15.6038676648	-62.2076853318	88.8883561949	-24.8565024474	-20.9129558612
183875000.0	-21.9934528414	48.6648394932	-3.5622831396	14.2760279912	-62.8016886297	87.9674775207	-24.9099439434	-21.0424673766
184562500.0	-21.9505865342	45.3949455039	-3.55165256663	12.9646833318	-63.3741750762	86.115595629	-24.9545931133	-21.1983380109
185250000.0	-21.8886867813	42.0524830878	-3.53849051998	11.6417430682	-63.3337838812	84.2983971219	-25.0103852911	-21.298096437
185937500.0	-21.8422525404	38.8151146489	-3.52792658062	10.3318597311	-63.1266483506	87.6420881169	-25.0430546359	-21.2821294974
186625000.0	-21.7831961996	35.4930309396	-3.51060181168	9.01488034461	-62.3923899454	79.0726606549	-25.1008389221	-21.3398769036
187312500.0	-21.7257696535	32.2042300831	-3.49601717863	7.71728263499	-62.2974934273	66.9744658544	-25.1348571324	-21.2510292944
188000000.0	-21.6534898527	28.9508910646	-3.47855070555	6.38636143888	-61.9486193585	51.4544917981	-25.1665305351	-21.2962624317
188687500.0	-21.5921070226	25.6933980188	-3.46318710326	5.07280374649	-61.8153815082	40.1422046857	-25.2025390266	-21.210864972
189375000.0	-21.5147848987	22.4291987997	-3.44584389717	3.75251432551	-61.7588445474	30.1725633135	-25.2527126971	-21.2356350175
190062500.0	-21.4453635003	19.1765980256	-3.42847611367	2.44536778416	-61.5246647692	14.4733783056	-25.2776352126	-21.0503858096
190750000.0	-21.3754001744	15.949720431	-3.40847657706	1.12645659785	-61.8837048085	-6.31301918601	-25.304312494	-20.8431216343
191437500.0	-21.302217283	12.6552526917	-3.39140352855	-0.172442956196	-61.681372718	-34.3317701719	-25.3304262795	-20.646926355
192125000.0	-21.2268099806	9.51317889844	-3.37189817242	-1.48824333543	-62.0460441467	-50.3479111035	-25.3573672212	-20.3470425368
192812500.0	-21.1394683322	6.28535692942	-3.35342494032	-2.78074117622	-62.1965429169	-77.0611768163	-25.3976039597	-20.1369073698
193500000.0	-21.0700365776	3.12593151767	-3.33390847273	-4.09827335027	-62.403914943	-106.399998491	-25.4216845571	-19.8117273478
194187500.0	-20.9861888812	-0.133853390577	-3.3166272019	-5.39405743391	-62.3430587513	-135.117136936	-25.4406093495	-19.4883260051
194875000.0	-20.9199773986	-3.30321428291	-3.29577679135	-6.70111732386	-62.0282503596	-163.878407456	-25.459677379	-19.1423758849
195562500.0	-20.8291897906	-6.55871706056	-3.27664569974	-8.00303388746	-61.989959612	156.481909343	-25.4806095439	-18.7894401837
196250000.0	-20.7518141014	-9.81419466171	-3.25625271079	-9.30275633049	-61.9171221406	127.531388449	-25.5193204222	-18.4044534068
196937500.0	-20.6626522802	-13.0269023425	-3.23734720219	-10.6038534527	-61.8415734017	109.046266772	-25.5345652116	-18.0284545519
197625000.0	-20.5823721341	-16.2112063851	-3.21563406712	-11.8804601388	-61.571946985	80.1672736272	-25.5578724007	-17.6105697673
198312500.0	-20.4945947926	-19.4116423502	-3.19604215439	-13.1467181566	-62.2150127808	42.0025538019	-25.5770512111	-17.3957324831
199000000.0	-20.4045099417	-22.6332956263	-3.17133017935	-14.4347130354	-61.9469428521	0.763019871905	-25.5941736487	-17.1195819934
199687500.0	-20.306190246	-25.7112547361	-3.15013471061	-15.7019635304	-61.1089178514	-39.3105923548	-25.6136743619	-16.9428981117
200375000.0	-20.216845455	-28.8657920285	-3.12756220737	-16.9811652414	-61.0931014392	-72.4783926639	-25.6495301744	-16.7083264737
201062500.0	-20.1161966717	-31.9203545826	-3.10671532791	-18.2335707957	-60.9108126635	-112.743116132	-25.679687179	-16.5485839844
201750000.0	-20.0135984565	-35.0309227478	-3.08033669395	-19.5090760461	-59.8010795307	-139.877604479	-25.7146296099	-16.2521430499
202437500.0	-19.9122740311	-37.9665188136	-3.05816661232	-20.7574623067	-59.749428735	-175.080793897	-25.7576775237	-16.0533236204
203125000.0	-19.7960115788	-40.9841609821	-3.03020180987	-22.0213416696	-59.3738408854	146.591718688	-25.7833796607	-15.9286864302
203812500.0	-19.6754530548	-43.8409775851	-3.00736670652	-23.2664637628	-59.8571101117	120.143131636	-25.8173321953	-15.889838774
204500000.0	-19.5509002005	-46.732248525	-2.97835137973	-24.5320096545	-59.8696530541	101.256544194	-25.8533692176	-15.8947102509
