#Frequency	|S11|	<S11	|S21|	<S21	|S12|	<S12	|S22|	<S22
100000000.0	-18.7285706745	127.607478849	-15.1715405381	-127.717067212	-63.6697424338	-163.247538228	-19.9338315981	-71.7650120891
100687500.0	-18.6524173573	124.652274669	-14.7630925677	-128.985199237	-62.8071305296	167.222296057	-19.9774892821	-72.2355050988
101375000.0	-18.5878652496	121.525141192	-14.3712476053	-130.296346435	-62.416980973	173.73728	-20.0523307097	-72.0528187422
102062500.0	-18.5260051988	118.321224011	-14.0218464032	-131.59584358	-60.9945018574	109.720919317	-20.1416766381	-72.2690147666
102750000.0	-18.472027794	115.103324242	-13.6821703259	-132.984493919	-61.6893082569	40.6745472609	-20.217754073	-72.2682200682
103437500.0	-18.4413336803	111.890455781	-13.3638685292	-134.385688881	-62.2688684966	6.55238510034	-20.2989502071	-72.2943567055
104125000.0	-18.4042733142	108.601362374	-13.0735626395	-135.794241221	-61.7640449319	-19.9871512918	-20.3940357847	-72.3497282409
104812500.0	-18.3792859357	105.237925476	-12.8071524802	-137.191695546	-61.2557411086	-32.2863707759	-20.4824164972	-72.4649070533
105500000.0	-18.3649335743	101.747607797	-12.563312394	-138.596293862	-61.4294973218	-63.4400835757	-20.5619604293	-72.5998720808
106187500.0	-18.3490791456	98.1105979803	-12.3560018802	-139.997468307	-61.9633866654	-105.543201454	-20.6569478459	-72.7671760873
106875000.0	-18.3406897321	94.3811288761	-12.1811862031	-141.331291565	-61.8727512889	-142.146143369	-20.7489270434	-72.9180242736
107562500.0	-18.3389092111	90.5389951754	-12.0501112272	-142.58353185	-61.665381821	178.406143628	-20.8500050462	-73.053467966
108250000.0	-18.3320503154	86.5158702598	-11.9621760691	-143.638747061	-61.9727358999	131.222988286	-20.9478312426	-73.2092889386
108937500.0	-18.3147456998	82.6992765903	-11.8077754587	-144.725027321	-61.8132792845	89.0536788575	-21.0409927485	-73.2756405013
109625000.0	-18.3011172511	78.7845257765	-11.6838388349	-145.711801645	-61.9481772958	56.4374307688	-21.1386010081	-73.3630328307
110312500.0	-18.2779527028	74.7903445785	-11.5866278498	-146.514323387	-61.5481419707	13.9300588084	-21.2352626297	-73.4400328697
111000000.0	-18.2678798085	70.6572693171	-11.5198408647	-147.094165709	-61.3535587951	-35.6956699957	-21.3314961641	-73.4970857691
111687500.0	-18.2507358464	66.4431448278	-11.4743408246	-147.362651977	-61.3308456856	-90.0741732853	-21.4247068827	-73.598474188
112375000.0	-18.2438180009	62.0970697569	-11.4422879865	-147.273541017	-61.3172439504	-144.73293071	-21.5222747554	-73.6512118649
113062500.0	-18.2285237261	57.6770632568	-11.4015032378	-146.762635593	-61.8234003964	160.579427278	-21.6229533304	-73.6512718836
113750000.0	-18.2212537551	53.1038807756	-11.3412584595	-145.834079036	-61.3766684791	115.254432412	-21.7252899086	-73.709217388
114437500.0	-18.21120766	48.4658923337	-11.2424093311	-144.535216785	-61.8242096173	62.9961998541	-21.8394210213	-73.7299392014
115125000.0	-18.2114742814	43.6367295932	-11.0912044493	-142.991424164	-61.5843242749	16.0871385657	-21.9541022778	-73.6868158904
115812500.0	-18.1963522838	38.6977648654	-10.8865112534	-141.249494902	-61.9222478619	-41.2781441452	-22.073519611	-73.5814129215
116500000.0	-18.200166696	33.6095523599	-10.6204827323	-139.417013798	-61.8010425593	-85.4491046267	-22.1857194321	-73.3861403946
117187500.0	-18.1982282974	28.4364324412	-10.3023169098	-137.538141671	-61.9622787108	-142.113138619	-22.2973064098	-73.2259252893
117875000.0	-18.2178903324	23.1141752605	-9.92882060283	-135.69017278	-62.3315422447	160.055560477	-22.4127690489	-72.8622475036
118562500.0	-18.2419151966	17.6290207776	-9.50675541002	-133.887726042	-62.4687250738	101.969104203	-22.5376925952	-72.4348769568
119250000.0	-18.280566062	12.0582538088	-9.03714915609	-132.187446621	-62.2763557966	43.3308491155	-22.6601844296	-71.8322408697
119937500.0	-18.3423794466	6.33264895218	-8.52334075535	-130.589505248	-62.4706261611	-16.3770145961	-22.7708417107	-71.2249679298
120625000.0	-18.4232106428	0.570479696871	-7.96487558088	-129.143304343	-62.0481431604	-71.7501219613	-22.8802936547	-70.5111472769
121312500.0	-18.5457961514	-5.36888033993	-7.36856469014	-127.867806871	-61.8294750785	-130.88970873	-22.9723660721	-69.6570541537
122000000.0	-18.6876929538	-11.2755402679	-6.73714145913	-126.790379927	-61.5372512296	168.485218062	-23.0600511434	-68.7380112119
122687500.0	-18.893646305	-17.2719819881	-6.06906603789	-125.905344622	-61.5915950014	99.1889779555	-23.1396307166	-67.7694297127
123375000.0	-19.1323775487	-23.1371760205	-5.36991145539	-125.236796069	-61.4551535267	29.4388534099	-23.1966950096	-66.6934829106
124062500.0	-19.4503671399	-28.9882055978	-4.64055929656	-124.780810588	-61.6681355192	-31.6049638562	-23.2481921915	-65.557859383
124750000.0	-19.8329151524	-34.4632823458	-3.88525351042	-124.596712872	-61.4941642173	-90.0850111433	-23.2865030713	-64.3864053808
125437500.0	-20.2639692083	-39.5704586876	-3.10238030118	-124.669068106	-60.9978376056	-154.047884013	-23.3142106266	-63.1404740072
126125000.0	-20.7317064582	-43.8329499653	-2.29284322746	-125.015441053	-60.6920693085	148.452213618	-23.3241138709	-61.9737708908
126812500.0	-21.1947611274	-47.6386752218	-1.45668932832	-125.637060223	-60.7004763996	82.0293978864	-23.3343082035	-60.727375964
127500000.0	-21.6202282664	-50.7143378756	-0.598639317073	-126.639398935	-60.5831104111	25.3415030717	-23.3250742614	-59.5328075021
128187500.0	-22.0047330317	-53.5638968178	0.281763177067	-128.034794479	-60.4636517984	-26.4015458849	-23.3091996261	-58.3756627007
128875000.0	-22.3289792283	-56.1133151266	1.17829597051	-129.889667356	-60.2489841958	-70.020791622	-23.2829800934	-57.1656666737
129562500.0	-22.628547015	-58.5152181774	2.07990856918	-132.266856933	-60.1989861889	-109.820619365	-23.2409844209	-55.9620351078
130250000.0	-22.8812559973	-60.8174081117	2.9660666733	-135.211222699	-59.6097046635	-142.552414916	-23.2017198661	-54.8958011446
130937500.0	-23.0974883239	-63.0333731445	3.82305132578	-138.69595014	-59.5969785889	176.35345752	-23.1574253455	-53.7559875704
131625000.0	-23.2987397815	-65.1378556298	4.62884130589	-142.681855027	-58.7056988356	143.540237417	-23.0852865583	-52.7334110209
132312500.0	-23.4698228664	-67.1967270965	5.37530138581	-147.031359968	-59.1605675673	104.752629099	-23.0094802208	-51.7377156736
133000000.0	-23.6367781194	-69.1594561569	6.05789655151	-151.69366208	-58.2569457175	73.3202725516	-22.9239527286	-50.8769538485
133687500.0	-23.7735630578	-71.0806606467	6.67187449938	-156.554693437	-58.7263478295	31.9518126929	-22.840657809	-50.0593835137
134375000.0	-23.9037751682	-72.9618684871	7.22292603505	-161.567708592	-58.2374821629	-1.75860417909	-22.7479485839	-49.3241561044
135062500.0	-23.986477812	-74.7788776414	7.71336765362	-166.643390019	-57.7767255041	-31.4150659856	-22.6494044792	-48.7543093093
135750000.0	-24.0602434765	-76.464641331	8.14447246224	-171.771054986	-57.3702783573	-68.0811101238	-22.5365019473	-48.3167706557
136437500.0	-24.1127884383	-78.0540635447	8.52101221667	-176.878833906	-57.1701037993	-94.7585571719	-22.4221165462	-48.0459646112
137125000.0	-24.1397037847	-79.6300928729	8.84590164798	178.023373873	-56.7566320892	-115.662231286	-22.3261003842	-47.8274068245
137812500.0	-24.1287278902	-81.0711935194	9.1242476746	173.018599266	-56.6749345945	-133.522941867	-22.2151705984	-47.7442013072
138500000.0	-24.0894007454	-82.3866531888	9.35931150674	168.085354859	-56.6197900721	-155.770977083	-22.1155696664	-47.8271591867
139187500.0	-24.0082752704	-83.7162756664	9.55595164854	163.2777904	-56.3402912442	-167.198646689	-22.0188838787	-47.9753952956
139875000.0	-23.8763140859	-85.0084284577	9.71486041104	158.57643034	-56.2215461498	-174.538493212	-21.9377683096	-48.194056537
140562500.0	-23.697400522	-86.3744254953	9.84529135735	154.012706313	-56.2524238978	-177.201053156	-21.8693413621	-48.5684066391
141250000.0	-23.4474589609	-87.7737751202	9.94703470731	149.572091051	-55.9334877598	175.077017026	-21.7971110527	-48.9538248376
141937500.0	-23.1338312933	-89.4478229418	10.0253068739	145.287875457	-55.7472111571	173.300784321	-21.7342465292	-49.4711868248
142625000.0	-22.7769894925	-91.4529342664	10.0830462638	141.136926355	-55.7984986971	169.630181657	-21.6835620656	-49.9951328482
143312500.0	-22.377519713	-94.2523253603	10.1223453143	137.129283323	-55.8374195169	165.109368148	-21.6458771532	-50.5736501018
144000000.0	-21.9877613494	-97.430165214	10.1452727186	133.238316963	-55.9149131603	163.952713777	-21.606966736	-51.1758063846
144687500.0	-21.6495407525	-101.325336999	10.1564040686	129.511221561	-55.7459629908	159.111769719	-21.5720296382	-51.8448758918
145375000.0	-21.3401616352	-105.353102019	10.1559470746	125.897111922	-56.0787133837	157.438233851	-21.5488011459	-52.4830066459
146062500.0	-21.1042432103	-109.611591108	10.1473312865	122.410083167	-55.8619441597	158.506578526	-21.5427655529	-53.1625810386
146750000.0	-20.8883618884	-113.872583536	10.1304349037	119.024564883	-55.9123064663	154.614724722	-21.541515189	-53.8366437856
147437500.0	-20.7327656111	-118.218215719	10.1063606819	115.761655497	-55.8166261002	148.99901572	-21.5302676117	-54.4897411996
148125000.0	-20.6106853442	-122.514005845	10.077870471	112.591604859	-56.2941744257	148.463779019	-21.5219962735	-55.1136137351
148812500.0	-20.5232873304	-126.903294564	10.0448018057	109.523081681	-56.4081547784	143.822752072	-21.5167024155	-55.7182941323
149500000.0	-20.4541411243	-131.142332279	10.0094358226	106.545716144	-56.0141193878	143.606454225	-21.5298018193	-56.3017130754
150187500.0	-20.4090194948	-135.472499522	9.96946567309	103.656827744	-56.2124074331	136.852679536	-21.5420267398	-56.8277520994
150875000.0	-20.3878146786	-139.620395529	9.92934177899	100.855755243	-55.6486851879	139.360484212	-21.5560040601	-57.2980155293
151562500.0	-20.3737255648	-143.844317892	9.88720172923	98.1287581323	-55.8368748425	135.744236314	-21.5632809291	-57.7732342754
152250000.0	-20.3926725352	-147.889086555	9.84320264002	95.4649562951	-55.7915525213	134.718509739	-21.5794232269	-58.1907692458
152937500.0	-20.4232639523	-151.928779418	9.79628488906	92.8852588922	-56.1904172262	135.156006357	-21.6001298429	-58.5301916676
153625000.0	-20.4662522531	-155.982535557	9.75054007086	90.3607781504	-56.1838904076	134.894910815	-21.6275772045	-58.8772218097
154312500.0	-20.5124339961	-159.911259649	9.70352343371	87.9099976866	-56.334129829	132.786930283	-21.6458258023	-59.1828225609
155000000.0	-20.5799122653	-163.897989475	9.65614025894	85.5032700717	-56.1879976842	133.025506307	-21.6785211189	-59.4249927367
155687500.0	-20.6423611734	-167.813130023	9.60914981977	83.1682963591	-56.2934455482	132.452913881	-21.7162007849	-59.6146791113
156375000.0	-20.7331481732	-171.711716646	9.5613658965	80.8659255638	-56.332024779	132.416028535	-21.7487765381	-59.7967640937
157062500.0	-20.8023647905	-175.520372159	9.51601952516	78.6256605137	-56.3327340822	129.042852777	-21.7792482759	-59.921275497
157750000.0	-20.8920017758	-179.374945724	9.46888139137	76.4235992676	-56.2281710545	121.78950402	-21.8048394578	-60.0280200388
158437500.0	-20.9713482995	176.900066077	9.42252519609	74.276202848	-56.5455885523	121.343741162	-21.8463915304	-60.1405538148
159125000.0	-21.0640145784	173.122998864	9.37722372357	72.1670231652	-56.334439242	117.015392288	-21.8876871509	-60.2161022717
159812500.0	-21.1457480679	169.447641133	9.33317777748	70.1042805197	-56.5085160969	116.07336224	-21.931153146	-60.2317787747
160500000.0	-21.2429175275	165.749391822	9.28837985171	68.0711101666	-56.440860151	112.114928051	-21.9679758761	-60.2878904582
161187500.0	-21.332000956	162.132109337	9.24501469905	66.0905964518	-56.2395441442	110.868258283	-22.0176872922	-60.2555436151
161875000.0	-21.4290819753	158.548706659	9.20254045984	64.1266259977	-56.3750827957	107.445053222	-22.08168413	-60.260390836
162562500.0	-21.5367518606	154.99454616	9.16125712118	62.2068634205	-56.0516042744	103.335957232	-22.1384983192	-60.1932055254
163250000.0	-21.6287591702	151.472663286	9.11833823503	60.300877878	-56.1537497613	97.7081050941	-22.1997849786	-60.1926911571
163937500.0	-21.7321897986	147.974918828	9.07751995213	58.4497396871	-56.0146604886	100.422118767	-22.2648563836	-60.0907184197
164625000.0	-21.8250951963	144.581101185	9.03781715441	56.6147478033	-56.3917465912	101.380718677	-22.3376482839	-60.0594289897
165312500.0	-21.9318730805	141.118804017	8.99898261432	54.8262376511	-55.8382108649	102.050211034	-22.4059874294	-60.0449749196
166000000.0	-22.0250585824	137.83235607	8.96217834962	53.0569731917	-56.0611326745	101.040667833	-22.4795491202	-59.989170807
166687500.0	-22.1334410843	134.415295928	8.92460439451	51.3197368107	-55.8753108276	100.381513202	-22.5524797087	-59.9747024008
167375000.0	-22.2351280102	131.269984006	8.88853996719	49.6031470829	-56.5580652954	100.27678369	-22.6322150145	-60.0829922026
168062500.0	-22.3416752408	127.916146441	8.85323076135	47.9129183463	-56.4850816066	96.4946378785	-22.7087611501	-60.1886690208
168750000.0	-22.4409282821	124.796662384	8.82022746469	46.2533451745	-56.5388850657	95.8982865903	-22.8035730609	-60.3404738439
169437500.0	-22.5372295698	121.517183308	8.7879265909	44.6301651864	-56.7375368201	88.7088825792	-22.8939515523	-60.4804939095
170125000.0	-22.638982649	118.353450095	8.75900897145	43.0051550773	-56.8600080821	87.2457501144	-22.9902929812	-60.6809653402
170812500.0	-22.7442571723	115.107327838	8.7305794823	41.4182435484	-56.6725037372	88.9198357224	-23.0880959726	-60.8783115178
171500000.0	-22.8399881813	111.915578286	8.70446165753	39.8517232295	-56.7336688692	88.6685160015	-23.176555874	-61.1336743296
172187500.0	-22.9461598753	108.645310466	8.68040395913	38.3164821169	-56.7514348695	79.7712110037	-23.2684233621	-61.4360858599
172875000.0	-23.0449854082	105.415364357	8.65629600872	36.7835186529	-56.5757256766	79.7266674894	-23.3536144633	-61.6939352488
173562500.0	-23.1330353537	102.125104901	8.63449796122	35.2851268097	-56.6434714622	71.9060620122	-23.4538278747	-62.1060086397
174250000.0	-23.2405898971	98.8824120986	8.61468546407	33.7908967357	-56.7839004425	72.7606952822	-23.5437754619	-62.4041720721
174937500.0	-23.3204575049	95.6257061362	8.59808896534	32.3174218036	-56.7154829421	71.9188306037	-23.6378693711	-62.8208844633
175625000.0	-23.4033617375	92.2249005185	8.58261392191	30.8432757223	-56.2613974977	69.4055669345	-23.7335980137	-63.0896587168
176312500.0	-23.4730750472	88.8378196515	8.56779219028	29.4011987769	-56.427190295	68.0262575783	-23.8329278295	-63.5330328854
177000000.0	-23.5434141707	85.3873433804	8.55498093995	27.9556148509	-56.2539151248	66.3845511681	-23.930503391	-63.9458950335
177687500.0	-23.5938862561	82.0044740083	8.54405682214	26.5315427929	-56.4780078682	66.4171956292	-24.0394017725	-64.3950399323
178375000.0	-23.6570624691	78.4726057305	8.53603824988	25.1039571221	-56.4341619065	64.1153016588	-24.1370323673	-64.7659202402
179062500.0	-23.7012862612	75.0881047548	8.52777906422	23.6950944335	-56.4934924345	64.5676105848	-24.2152515642	-65.2371561223
179750000.0	-23.7374302469	71.5958519232	8.52229216953	22.2851523932	-56.4789624961	67.4312782491	-24.3065203294	-65.6963407027
180437500.0	-23.7605033565	68.1184011712	8.5187673863	20.8906501189	-56.8497888873	63.9185987712	-24.3842006863	-66.1099095105
181125000.0	-23.7711056294	64.5261278128	8.5165061401	19.4908712792	-56.6442393605	58.2875969875	-24.4702740304	-66.4640345637
181812500.0	-23.7857370062	61.0001165724	8.51595464918	18.1095254299	-56.6550544101	57.1967155907	-24.5565244078	-66.8694973725
182500000.0	-23.78555574	57.5022837881	8.51564075141	16.7206118722	-56.5903059653	50.6162116383	-24.6530915096	-67.1917756346
183187500.0	-23.7746431393	53.9593780035	8.51624471207	15.3509730219	-56.5948064658	50.287300943	-24.7528789537	-67.5293342288
183875000.0	-23.7565370193	50.5132886107	8.51943780253	13.9698043323	-56.4635785674	43.5131805116	-24.8291385424	-67.8384073044
184562500.0	-23.7226058635	46.909345411	8.52240722903	12.6110186419	-55.9830765459	42.496785249	-24.9009318268	-68.0585034506
185250000.0	-23.6805107933	43.4381206698	8.52614482077	11.2465177346	-56.0647574269	36.429798389	-24.9703689136	-68.2023959459
185937500.0	-23.6476757937	39.8598564613	8.52826149712	9.88827372243	-55.9468001478	37.599728255	-25.0434285842	-68.2490223329
186625000.0	-23.6162577482	36.3597924292	8.53442678442	8.52094473525	-55.8208627534	41.9471252075	-25.1279392764	-68.3737283861
187312500.0	-23.566448906	32.6709436458	8.54044533905	7.17176238022	-55.4842685337	41.5446729111	-25.196748418	-68.3764040002
188000000.0	-23.503965682	29.2265477292	8.54835832261	5.81314844572	-55.7620781198	32.6352783915	-25.2563829094	-68.3675381841
188687500.0	-23.4502774421	25.6478889763	8.55542607719	4.47107215504	-55.740084435	32.3154091511	-25.3364963584	-68.3125778605
189375000.0	-23.3859054062	22.2491885045	8.56360589189	3.12140595329	-55.7972062627	33.1934385694	-25.4051310197	-68.2536901131
190062500.0	-23.3282451568	18.6919462977	8.57333864587	1.78836122742	-55.6268257655	33.0043221181	-25.4865605451	-68.088777759
190750000.0	-23.2567067949	15.2422420684	8.58404914649	0.446388043512	-55.6075126333	31.7174109353	-25.566027782	-67.9453933362
191437500.0	-23.1763191761	11.6798267707	8.59334491314	-0.876117694265	-55.5296832078	29.1037539456	-25.6435127499	-67.7457130914
192125000.0	-23.1093079323	8.26293206961	8.60292248387	-2.20116391579	-55.7397468846	29.2288924441	-25.723127837	-67.5193979173
192812500.0	-23.0359371729	4.78460770349	8.61424936956	-3.50828161837	-55.9745764244	29.3122144827	-25.796433292	-67.4163445723
193500000.0	-22.9675814309	1.37676344437	8.62577861323	-4.82899985857	-56.1863786027	28.6684877074	-25.8744919333	-67.1400598699
194187500.0	-22.8872409449	-2.02960893085	8.63702461073	-6.13055203977	-56.0119538408	26.4874888549	-25.9482289231	-66.9225084878
194875000.0	-22.8164255932	-5.47900217985	8.64997606842	-7.44047825385	-56.1212790032	25.239701704	-26.0276679579	-66.6391974509
195562500.0	-22.7241055794	-8.87819925188	8.66263958365	-8.72883249902	-55.9458107485	18.83892898	-26.109502725	-66.3753857328
196250000.0	-22.6366643094	-12.3794332058	8.67555108073	-10.0256762654	-56.3583531167	17.5449115978	-26.2008637805	-66.2463833169
196937500.0	-22.5380767885	-15.7566833534	8.68820340733	-11.307923907	-56.3593583144	10.5997833918	-26.2899482425	-65.7923727131
197625000.0	-22.4577895359	-19.177691732	8.70325844782	-12.5823923792	-56.2518273995	8.84947125675	-26.3833894782	-65.6035713485
198312500.0	-22.3657948586	-22.4670735377	8.71808271786	-13.8449316823	-56.3866594246	6.01755840512	-26.4552987291	-65.5289564108
199000000.0	-22.2740743022	-25.8400900719	8.735183771	-15.1248476819	-55.9537280169	5.36510314714	-26.5323813928	-65.4300292711
199687500.0	-22.1621429412	-29.1353115533	8.75229485633	-16.3855751845	-55.9755440273	3.73529640852	-26.6008727834	-65.3357112837
200375000.0	-22.0696247903	-32.4195539504	8.76905697489	-17.6619339433	-55.7538898454	3.31538023136	-26.6784853267	-65.2463637587
201062500.0	-21.9535140008	-35.6769501521	8.78553545163	-18.9168369524	-55.9016020619	1.55269673336	-26.7559963674	-65.2493926194
201750000.0	-21.8475606571	-38.9055857723	8.80454525769	-20.180569563	-55.8218411967	0.384910260248	-26.8417664661	-65.1837944576
202437500.0	-21.7258445944	-42.0125487478	8.8243362645	-21.4272349199	-55.9233373074	1.57392641108	-26.9191528649	-65.3315438566
203125000.0	-21.6063424926	-45.0942184481	8.84670120369	-22.6789229025	-55.9192499168	-1.91905128287	-26.9923097352	-65.3539045029
203812500.0	-21.4694325389	-48.0521107753	8.86712042103	-23.9177811097	-56.3840544584	-7.13577774178	-27.0479631868	-65.5680715324
204500000.0	-21.3434694759	-50.9264685675	8.88915891866	-25.1722921503	-56.2328757049	-6.94632984482	-27.1085299479	-65.6556231629
205187500.0	-21.2095371653	-53.7754067334	8.91071265508	-26.40424986	-56.4301145123	-7.33766666613	-27.1924321161	-65.8336846448
