#Frequency	|S11|	<S11	|S21|	<S21	|S12|	<S12	|S22|	<S22
100000000.0	-15.6316149515	154.383674007	-15.9014880322	-124.752522647	-70.3286742188	-69.3748173096	-18.726813135	-68.1181043565
100687500.0	-15.6427700156	152.029883898	-15.4165565829	-125.826494218	-62.2617211847	89.7972351883	-18.9094518403	-68.4491749827
101375000.0	-15.6275070638	149.510764833	-15.0042680234	-127.036843752	-63.1261705848	71.8448738985	-19.0299135078	-68.0707399901
102062500.0	-15.6254880812	147.00884145	-14.614901658	-128.421189944	-63.2052995218	67.5164965608	-19.1588710722	-67.7589050229
102750000.0	-15.6285307158	144.389166993	-14.2506309061	-129.779917707	-62.097886989	35.1233569841	-19.2778201891	-67.4152861238
103437500.0	-15.6429094444	141.784561561	-13.9069944483	-131.127557038	-62.2813928856	15.0705229788	-19.4021242654	-67.1329882672
104125000.0	-15.671843171	139.018873561	-13.5824192058	-132.547231562	-61.9203304526	10.8497521098	-19.5559570319	-66.8035566524
104812500.0	-15.7048756994	136.216982599	-13.2836775521	-133.940816644	-61.6747232518	28.6887790124	-19.6939808429	-66.6676472151
105500000.0	-15.749576046	133.311928411	-13.0042587032	-135.39443056	-61.3908362711	48.4997368707	-19.8276035741	-66.5404080164
106187500.0	-15.8045751598	130.264333605	-12.7559065163	-136.85787058	-61.3799743591	80.4234398453	-19.9846716009	-66.411052689
106875000.0	-15.8638516166	127.119116006	-12.5363716254	-138.296169094	-61.6224158	120.883326373	-20.1420937647	-66.3741436793
107562500.0	-15.9422161704	123.831069495	-12.3494589316	-139.715377094	-61.8127077166	148.087105252	-20.3102610205	-66.3553262711
108250000.0	-16.016668449	120.391343081	-12.1994374071	-141.063265189	-61.5057705854	-173.324235519	-20.4833366182	-66.4078543975
108937500.0	-16.0764188013	117.180075458	-11.992263451	-142.389672452	-61.2660311718	-142.896406403	-20.6415829739	-66.2933930799
109625000.0	-16.1391529946	113.860241189	-11.8121246939	-143.693899434	-61.7485570763	-123.230543283	-20.7988694864	-66.1914101326
110312500.0	-16.1979615885	110.437144246	-11.657276587	-144.937637746	-61.8007265253	-105.321239033	-20.9683444255	-66.1846815298
111000000.0	-16.2726087761	106.901290923	-11.5290952272	-146.104892878	-61.6183649922	-75.0125076306	-21.1319487269	-66.1800744739
111687500.0	-16.3455979847	103.262830622	-11.4308408188	-147.158674045	-61.0538892751	-44.0155379962	-21.2994945705	-66.2387379558
112375000.0	-16.4301649429	99.5083168711	-11.3665767739	-148.034353792	-60.881156546	-15.4026260411	-21.4716151951	-66.2978002979
113062500.0	-16.5085550487	95.6360951026	-11.3306404164	-148.699640149	-60.6967580603	26.9449707863	-21.6499400731	-66.3530307562
113750000.0	-16.5973418696	91.6765856346	-11.3203421618	-149.084791083	-60.7513760616	72.2315667441	-21.8194863966	-66.4826263364
114437500.0	-16.684077265	87.5819967627	-11.3291726113	-149.074835803	-61.1899825397	109.30871972	-22.0149215919	-66.5950600174
115125000.0	-16.7842994458	83.3368213724	-11.3391085462	-148.664947344	-60.7294910017	151.535797472	-22.2057230718	-66.6904120453
115812500.0	-16.8725303741	78.9160327691	-11.3326586238	-147.788968802	-60.8274864016	-173.473915173	-22.3965189368	-66.742777414
116500000.0	-16.9764101496	74.4352544883	-11.2876775229	-146.522470472	-60.6249657118	-131.050633953	-22.5731578174	-66.8342246208
117187500.0	-17.079012276	69.7907985201	-11.1969411188	-144.948656217	-60.7495516564	-98.9070221162	-22.7619360986	-66.9686285276
117875000.0	-17.1949198081	65.0181963812	-11.04725659	-143.189372485	-61.0993465034	-78.5096111972	-22.9605764071	-66.9844353889
118562500.0	-17.3174045446	60.0733423917	-10.8465003889	-141.303301186	-61.5336247236	-48.2808407247	-23.1556795551	-66.9868810627
119250000.0	-17.4453116922	55.0246449815	-10.5878147479	-139.329142819	-61.2285198783	-18.8128539579	-23.3437575926	-66.8572208783
119937500.0	-17.5905089767	49.7487203672	-10.2802539206	-137.341590182	-61.3831022309	8.71752775039	-23.5353851825	-66.6958820904
120625000.0	-17.7437264611	44.3399169165	-9.91697274177	-135.376977281	-61.6322941287	26.0964130917	-23.719527951	-66.5335269403
121312500.0	-17.9363561335	38.7834696934	-9.50810270736	-133.486048679	-61.3975013599	30.8111516256	-23.8935325041	-66.3258106862
122000000.0	-18.1371736914	33.0566217047	-9.04845405073	-131.680082543	-61.3941098968	33.1779723172	-24.0614606387	-66.0326608558
122687500.0	-18.391104208	27.1288298192	-8.55026699501	-130.001786259	-61.115882321	37.2036672506	-24.230077076	-65.7006783923
123375000.0	-18.652224145	21.0079890772	-8.00811248755	-128.448896051	-60.9657921025	47.9796971532	-24.3831406552	-65.2270967873
124062500.0	-18.9842033729	14.6240214168	-7.43025500173	-127.0510376	-61.2373201012	51.4973473365	-24.5222110784	-64.7844132195
124750000.0	-19.379528084	8.02635147096	-6.81366211876	-125.824921471	-61.0435077503	51.8840145698	-24.6492201754	-64.2054319275
125437500.0	-19.8598562222	1.20467804263	-6.16389281657	-124.796668282	-61.090530802	51.7159820882	-24.753892976	-63.5886902815
126125000.0	-20.4486370328	-6.06436889846	-5.47493278936	-123.949977718	-60.6952927975	49.7267799103	-24.8508000229	-63.0094089647
126812500.0	-21.1414547813	-13.9667546135	-4.75844728027	-123.313283857	-60.2095571024	51.0000855039	-24.9295764736	-62.3403886245
127500000.0	-22.1454046266	-22.8569762915	-4.0045570383	-122.912244423	-59.9126669108	48.4289503873	-24.9771922972	-61.7048922409
128187500.0	-23.047400774	-34.0389405022	-3.22398276566	-122.791213996	-59.929062882	37.9438753676	-25.0149866827	-60.9896724148
128875000.0	-23.790557086	-46.7328099737	-2.41058810979	-122.934037376	-59.9085376539	35.6987046769	-25.0339298548	-60.2048804144
129562500.0	-24.4497970136	-60.1686388209	-1.56707575916	-123.431104104	-60.1036143729	24.9779880647	-25.0351604221	-59.5175416437
130250000.0	-25.0148790359	-73.8830761456	-0.69148173252	-124.295236291	-59.7167065641	8.18872982574	-25.0257015353	-58.9281872716
130937500.0	-25.5242877536	-87.9202633335	0.203274726024	-125.633345562	-59.4578970986	-7.66133128868	-24.9958165032	-58.243624251
131625000.0	-25.9621819496	-102.168939657	1.11370584668	-127.477456957	-58.8720406089	-20.7007952285	-24.931747117	-57.6819877519
132312500.0	-26.3764520592	-116.51948335	2.01917531325	-129.903951934	-58.8220515628	-34.2527573591	-24.8621660152	-57.1006833503
133000000.0	-26.7501771021	-131.109945714	2.90209691455	-132.917529543	-58.4547702784	-47.5352356658	-24.7749223754	-56.6890066916
133687500.0	-27.0981906845	-145.869148992	3.73717847572	-136.463033117	-58.6099956374	-63.6894008476	-24.6831849529	-56.2396722706
134375000.0	-27.4250432109	-160.760595322	4.52164838295	-140.431257085	-58.4412182598	-76.7986214146	-24.5633211103	-55.8777053869
135062500.0	-27.7301358485	-175.844272876	5.24060887426	-144.720869869	-58.1341504072	-81.3342366348	-24.4254634044	-55.5929713796
135750000.0	-28.0103997492	169.041917775	5.89965199441	-149.243875691	-57.4501861817	-95.4501068869	-24.269935542	-55.406415686
136437500.0	-28.2532346582	153.673304087	6.49317977927	-153.956661949	-57.5079802865	-112.09460742	-24.1261174574	-55.3760134747
137125000.0	-28.4858960394	138.359154864	7.02807467874	-158.777277621	-57.1027214142	-123.348170308	-23.9676424015	-55.4578758202
137812500.0	-28.6608028774	122.979686598	7.50447461461	-163.652051427	-56.6233351663	-130.345534503	-23.8064877006	-55.5635268861
138500000.0	-28.816250568	107.600286079	7.9295421232	-168.567124198	-56.6697547275	-131.468813045	-23.6273105287	-55.7452802152
139187500.0	-28.9186701462	92.150686203	8.29994661212	-173.473386909	-56.0530735736	-137.16380655	-23.4576693929	-56.0483705195
139875000.0	-28.9619956235	76.7336467982	8.6253451089	-178.343795435	-55.9941130441	-137.935708328	-23.2738966095	-56.4032383728
140562500.0	-28.9608376263	61.4230595987	8.90591883027	176.83444088	-55.6064081462	-140.097702453	-23.0939078984	-56.9465560867
141250000.0	-28.8846210212	46.306612032	9.14761466758	172.096567948	-55.1328375818	-143.459292304	-22.9131294695	-57.4445181751
141937500.0	-28.7323303217	31.3097098293	9.351682944	167.44259559	-55.1357818378	-152.244142786	-22.7386999624	-58.1279659078
142625000.0	-28.476598033	16.4993012758	9.5235801051	162.886826954	-55.1349287057	-155.855387496	-22.5611462349	-58.7468278834
143312500.0	-28.0880924814	2.09351448093	9.66143905861	158.441976851	-55.0341856514	-162.142084191	-22.4028522741	-59.5002435412
144000000.0	-27.5866639605	-11.681238953	9.77464842772	154.106191194	-55.193888039	-165.350631682	-22.2452303933	-60.1997693643
144687500.0	-26.7717119176	-24.4888405153	9.86040993213	149.904775704	-55.1205724365	-170.5817267	-22.103882162	-60.959175232
145375000.0	-26.0288668193	-34.9392498479	9.92673325146	145.825987497	-54.8791678208	-174.472410249	-21.9658037978	-61.7165218844
146062500.0	-25.4407410536	-43.8679008902	9.97276714884	141.877103438	-55.0987890622	176.906219194	-21.8497091016	-62.587879124
146750000.0	-24.9106585482	-51.9891848282	10.0024937928	138.045877359	-54.9787279224	174.423748206	-21.7344864254	-63.2520929442
147437500.0	-24.4825299782	-59.769859719	10.0149564722	134.344865948	-55.3553298731	169.703955403	-21.6114481613	-63.9249138207
148125000.0	-24.0845426683	-67.1482996779	10.0185216854	130.765261752	-55.1107991188	162.254674949	-21.5148730691	-64.5268980473
148812500.0	-23.7688960065	-74.238370692	10.0085934898	127.300091192	-55.3281057782	158.179466358	-21.4197858071	-65.1273115122
149500000.0	-23.4469835257	-81.0802330146	9.99301354543	123.961866829	-55.5125830201	154.406463699	-21.3391452245	-65.6725872908
150187500.0	-23.1715114392	-87.5858049068	9.96611234066	120.720908132	-55.8467222158	151.389025217	-21.2694151139	-66.1308896281
150875000.0	-22.8990017346	-93.7868347297	9.93748660021	117.594935374	-55.4411790458	144.562699675	-21.203637797	-66.5182335873
151562500.0	-22.6498362504	-99.7870884755	9.90068668878	114.564337857	-55.4979789735	142.220986656	-21.1503033303	-66.8368906247
152250000.0	-22.3982155537	-105.42414968	9.86151032556	111.627000244	-55.2446680254	140.141536708	-21.1138799978	-67.0958878055
152937500.0	-22.1622042663	-110.824100888	9.8146535044	108.780699759	-55.5598522752	138.967711653	-21.0804671815	-67.284338776
153625000.0	-21.9635457204	-115.832911554	9.77061662139	106.026413913	-55.3530164545	132.806887111	-21.0531918653	-67.4438921216
154312500.0	-21.7445863767	-120.698888645	9.72089880838	103.34753182	-55.4808700254	129.320627142	-21.0173841677	-67.4863710579
155000000.0	-21.5716416676	-125.287305411	9.67112918552	100.735721272	-55.3990257864	124.965497499	-20.9966826274	-67.4613818485
155687500.0	-21.3850286679	-129.677613766	9.61889930128	98.2055424071	-55.2252338662	124.282811612	-20.9923053094	-67.4388931327
156375000.0	-21.2385953102	-133.790887671	9.56606574009	95.7454231588	-55.6351026967	122.869779989	-20.9804373296	-67.3290982406
157062500.0	-21.0887311254	-137.731079777	9.51238179928	93.3411705985	-55.6949234158	120.591779539	-20.9835647933	-67.0937711692
157750000.0	-20.9791233276	-141.484273656	9.46002849305	91.0119248295	-55.7460045742	115.106889292	-20.9917796266	-66.8437244384
158437500.0	-20.8654007502	-145.149321973	9.40489715365	88.725007356	-55.8729357781	114.832257345	-21.0089340635	-66.5715382466
159125000.0	-20.7720045955	-148.614679957	9.35276053506	86.5103674991	-55.8927896523	114.214896731	-21.0407581429	-66.2708177318
159812500.0	-20.6942477219	-151.933819299	9.29829365754	84.3415242493	-55.8062773937	113.710768111	-21.0779929291	-65.9139439057
160500000.0	-20.6430724582	-155.118553446	9.24755685665	82.2283736441	-55.8672466733	111.640508384	-21.1143440691	-65.559696517
161187500.0	-20.5970007724	-158.199262561	9.19425124046	80.1527852959	-55.6396492104	105.633879804	-21.1595110854	-65.1666763232
161875000.0	-20.5629111771	-161.110954895	9.14442699258	78.1191492317	-55.952564693	102.52716577	-21.2221223246	-64.8051864177
162562500.0	-20.5628149583	-163.993033347	9.09325704199	76.131676009	-55.8933770876	92.924117341	-21.2814397046	-64.39658947
163250000.0	-20.5560884677	-166.774627922	9.04429219974	74.1818234879	-55.9195584363	76.6853956514	-21.3562196797	-63.945980799
163937500.0	-20.57673654	-169.491132773	8.99487872162	72.275917188	-55.5827059963	54.5645775919	-21.4328569935	-63.5557309877
164625000.0	-20.6000811983	-172.116451514	8.94901259808	70.4024367579	-55.5212072898	37.9602793781	-21.5441834422	-63.2530024586
165312500.0	-20.6550218646	-174.730896938	8.90093855417	68.5703728682	-55.563156185	20.7359994324	-21.641086285	-62.8879188813
166000000.0	-20.7091117092	-177.246463044	8.85761970071	66.7671511923	-55.6269488738	8.69822617041	-21.7519019442	-62.5568596126
166687500.0	-20.7956691681	-179.793193011	8.81224929218	64.9885081879	-55.4631055534	-8.32760895244	-21.8706897358	-62.2384444856
167375000.0	-20.8820980697	177.794695683	8.769875506	63.2471546115	-55.1596952412	-22.6567673937	-21.9960994355	-61.9719055432
168062500.0	-20.9980449109	175.339546076	8.72700949844	61.5358080721	-55.300217365	-36.7582401273	-22.1285796458	-61.7761869867
168750000.0	-21.1132833065	172.896974395	8.6870474825	59.8562422311	-55.3392669686	-51.2691992656	-22.2722860054	-61.6594031763
169437500.0	-21.263807126	170.375755572	8.64614468176	58.2055529286	-55.4741439175	-69.4446712371	-22.4273765794	-61.5327721634
170125000.0	-21.419039931	167.859355573	8.61106447033	56.5706358177	-55.1229772367	-85.9086927576	-22.5891471887	-61.4367342875
170812500.0	-21.5847682629	165.287519467	8.5736376472	54.9609738475	-55.1404771967	-99.8130049587	-22.7494646491	-61.4079619872
171500000.0	-21.7595573998	162.679049771	8.53965586438	53.3746047937	-55.5203281892	-117.114203754	-22.9137841288	-61.4313711474
172187500.0	-21.9474352182	159.921627384	8.50625665078	51.8162712874	-55.6572503126	-133.053778112	-23.0908339868	-61.6244790085
172875000.0	-22.1354691826	157.090242898	8.47443897888	50.2727163387	-55.5675841715	-152.079529762	-23.2551750871	-61.7699639128
173562500.0	-22.3315473276	154.041285924	8.44447405166	48.7491564788	-55.3954797287	-168.983659761	-23.4576292529	-62.0500307945
174250000.0	-22.5400846191	150.992958281	8.4179889591	47.2492318766	-55.2532073576	178.788638351	-23.6424511309	-62.2594477303
174937500.0	-22.7285095495	147.735897896	8.39132505707	45.7546978337	-55.3719608073	164.538279202	-23.836722528	-62.6255074003
175625000.0	-22.927627091	144.377646125	8.36876747291	44.2853282759	-55.18640423	148.106432052	-24.0216602114	-62.9836167624
176312500.0	-23.1063781467	140.944536399	8.34367470521	42.8276052135	-55.9253842166	132.352194551	-24.2165991518	-63.5284272222
177000000.0	-23.2745988277	137.315529454	8.32353378102	41.3856598482	-55.7717633813	114.164469538	-24.4020146594	-64.1167781333
177687500.0	-23.4073384453	133.560409208	8.30163068572	39.9540538168	-55.9307595438	99.8427640346	-24.6085914625	-64.8671437024
178375000.0	-23.5495336709	129.734212129	8.28410498444	38.535702117	-55.7933073171	85.016240696	-24.799976219	-65.592433306
179062500.0	-23.6551128862	125.82249503	8.26494350206	37.1235881078	-55.6928585546	70.3497572734	-24.9838796779	-66.3960963256
179750000.0	-23.7453085401	121.839746511	8.24921758667	35.7308627701	-55.7607613321	65.5984635891	-25.1648393148	-67.2611397352
180437500.0	-23.8149028301	117.766552888	8.23272298413	34.3351366975	-55.7779771932	64.3143507364	-25.3347413742	-68.138855112
181125000.0	-23.8703359849	113.554627059	8.22062100012	32.9540815918	-55.9984105729	65.7764256032	-25.51495085	-68.9900960872
181812500.0	-23.9002429505	109.418463221	8.20491841852	31.5864155451	-55.9038874029	65.0037586803	-25.6655571533	-69.8516206261
182500000.0	-23.9096436233	105.232330913	8.19422091091	30.229296287	-56.1870328966	66.517064596	-25.8348405411	-70.8452772545
183187500.0	-23.8816329305	100.993997451	8.18072239509	28.8781441848	-55.9662031243	64.5148892093	-25.9958635804	-71.8195235148
183875000.0	-23.8323236761	96.8370152322	8.17137064222	27.5362287857	-56.0335539337	61.3999236794	-26.1418533393	-72.8279177401
184562500.0	-23.7703595324	92.6063341427	8.16197643628	26.2021705567	-55.8422900659	58.9225454256	-26.257872016	-73.7821914075
185250000.0	-23.6700090286	88.4216780678	8.15488016906	24.8795708691	-55.7975735224	58.354713066	-26.3785902721	-74.6978126352
185937500.0	-23.5590688328	84.3183296334	8.14472980248	23.5600232854	-55.6624462086	55.1520292865	-26.4750432677	-75.5432052526
186625000.0	-23.417511567	80.3374796647	8.14043390759	22.2530223937	-55.755251779	53.7597002567	-26.5872839554	-76.6389802376
187312500.0	-23.269329369	76.2871852944	8.13350398474	20.947367974	-55.7354361457	49.999191388	-26.6685034895	-77.4884414977
188000000.0	-23.0862052376	72.3856997823	8.12912712757	19.6494703686	-56.2439379369	49.0886239007	-26.7541539786	-78.4381532538
188687500.0	-22.9086848646	68.5476146897	8.12391511997	18.3613811866	-55.8052928831	49.9950377321	-26.8288187565	-79.3143278231
189375000.0	-22.6978197243	64.8786532294	8.12166863611	17.0804320859	-56.1981071798	49.230561677	-26.8885535392	-80.2056623
190062500.0	-22.4898311442	61.3189022055	8.11956082155	15.8065310486	-56.2006183329	50.4153382648	-26.9489243993	-80.9919840052
190750000.0	-22.2565123281	57.9870354104	8.12008670525	14.539714772	-56.4668330269	50.2310115511	-26.9931514396	-81.9522311038
191437500.0	-22.0334380018	54.748320562	8.11752184565	13.2770174558	-56.6076302119	39.8333035677	-27.019049448	-82.8146201617
192125000.0	-21.7985559011	51.7558792637	8.11768048317	12.0265005433	-56.7082361509	39.1924580882	-27.033030016	-83.6416935624
192812500.0	-21.5649503128	48.8596761496	8.11710623897	10.7815851414	-56.8088382793	35.8957048925	-27.0383433754	-84.4442722395
193500000.0	-21.3373875973	46.1065024099	8.11961757546	9.53692486004	-56.5042861391	36.709948777	-27.0334489251	-85.1966514142
194187500.0	-21.1187633753	43.5291797202	8.11970675714	8.30529440088	-56.6228301823	35.6953836298	-27.0283260195	-85.7931108049
194875000.0	-20.9284804607	41.08867772	8.12308565596	7.06906724845	-56.4463803978	35.8136011275	-26.9906362706	-86.3882549052
195562500.0	-20.7240231844	38.7065512249	8.12562577498	5.84888164486	-56.5235293618	35.3868592518	-26.9578875919	-87.0392149469
196250000.0	-20.5480704191	36.4306694489	8.13006149335	4.635360955	-56.4902483765	34.5130039467	-26.9110593515	-87.6021092014
196937500.0	-20.3758181607	34.2304052549	8.13363676488	3.4131865485	-56.8360300595	27.9512534002	-26.8807306053	-87.9838509848
197625000.0	-20.2375157231	32.1214649759	8.1397754529	2.21501285587	-56.607671377	28.2277029456	-26.8264969318	-88.4388763139
198312500.0	-20.0983986344	30.1716257075	8.14451680507	1.02187842422	-56.6280815518	28.1082247188	-26.750652611	-88.8739814329
199000000.0	-19.9857413753	28.1531727476	8.15473119186	-0.178251750919	-56.4580590238	27.2376424672	-26.6603643516	-89.202269813
199687500.0	-19.8716194098	26.1760943495	8.16110067733	-1.37382846605	-56.381440255	24.7914939599	-26.56719908	-89.5204389488
200375000.0	-19.7917567226	24.2522872406	8.17124225725	-2.56742902579	-56.4833934875	20.9648709982	-26.4629801849	-89.7570401041
201062500.0	-19.7113640529	22.2985126012	8.17954598738	-3.75547303409	-56.5873359093	23.6668136095	-26.3589504946	-90.0578093049
201750000.0	-19.656297858	20.3314247967	8.19147302175	-4.9419012444	-56.583211204	23.1023845803	-26.2656158897	-90.2544708198
202437500.0	-19.6019089388	18.4055882755	8.20107671106	-6.1232643899	-56.9252793305	23.047219212	-26.1593122875	-90.5747800718
203125000.0	-19.5618625838	16.4992180733	8.2157588957	-7.30460941439	-56.7982792159	21.2650691051	-26.0543651368	-90.7039069212
203812500.0	-19.5196558903	14.5147620946	8.22685410831	-8.48642897758	-56.7951236309	19.8154273468	-25.9192040387	-90.7655527107
204500000.0	-19.498190868	12.5854697048	8.24176534888	-9.66704146721	-56.6471179226	20.397724398	-25.7936222595	-90.8622279511
205187500.0	-19.4799294827	10.5807782916	8.25520512471	-10.8362663264	-56.4967128461	19.2957860697	-25.6830814522	-90.879791565
205875000.0	-19.4644871444	8.62969924446	8.27278154697	-12.0123562322	-56.5872182368	20.7996777327	-25.563070496	-90.7828320998
