#Frequency	|S11|	<S11	|S21|	<S21	|S12|	<S12	|S22|	<S22
100000000.0	-18.7190365222	141.477675748	-21.2436093796	-124.446904494	-59.9903042606	-55.883106944	-20.8420023468	-50.2667978975
100687500.0	-18.6829555258	138.62803964	-20.8839435912	-125.25231737	-62.7312985876	48.5574951798	-20.9749869027	-50.4161016541
101375000.0	-18.6346349252	135.40984618	-20.4571759701	-126.465189621	-64.5791892737	20.9691029799	-21.0237843057	-49.7916923916
102062500.0	-18.5858207372	132.305326906	-20.0603036435	-127.734298366	-62.3977647196	0.22816005901	-21.1353242843	-49.2718342199
102750000.0	-18.5311451897	129.114152969	-19.7046486618	-129.09770172	-63.3840656135	61.2419268801	-21.2403659245	-48.7310690771
103437500.0	-18.4795572368	125.986960194	-19.3591973979	-130.450821513	-62.1180529584	116.77800234	-21.3500502282	-48.1390119358
104125000.0	-18.4491010018	122.792424227	-19.0416439329	-131.777351731	-63.4322816806	173.463779639	-21.4758267363	-47.4446886855
104812500.0	-18.4079254334	119.598334334	-18.7519590684	-133.094729543	-62.6975736092	-166.364070574	-21.605229757	-47.017578507
105500000.0	-18.3769237966	116.385934989	-18.4872419712	-134.418248397	-62.5069360848	-159.312411524	-21.739580164	-46.6624574847
106187500.0	-18.3483480903	113.065988926	-18.2448198551	-135.779057989	-62.3852531101	-143.449962528	-21.8835063615	-46.263787171
106875000.0	-18.3279278537	109.676648197	-18.0353580745	-137.063128734	-62.2739527494	-131.641002584	-22.046553556	-45.9812322435
107562500.0	-18.3208264796	106.231285718	-17.8568775406	-138.319114922	-62.8139086219	-132.415458412	-22.2138614881	-45.7096328441
108250000.0	-18.3143292226	102.613697797	-17.7170407343	-139.482067617	-62.39599335	-130.414171974	-22.3761565009	-45.5840037677
108937500.0	-18.2986647253	99.132174387	-17.5199770761	-140.637625412	-62.171228419	-115.776131642	-22.5247165825	-45.2311469401
109625000.0	-18.2826416176	95.5690599859	-17.3480385519	-141.752395142	-62.1763789499	-101.07299061	-22.6687066485	-44.9597622364
110312500.0	-18.2686118685	91.9127428468	-17.2011562335	-142.788136862	-61.7248336778	-89.6797312189	-22.8244026464	-44.7160618787
111000000.0	-18.2637889736	88.1926125329	-17.0896432427	-143.679491447	-61.2774048103	-69.6924780315	-22.9851831351	-44.4294793904
111687500.0	-18.2557748139	84.375926338	-17.0027742523	-144.40303051	-61.0179285157	-38.8949211138	-23.1558628065	-44.3535970483
112375000.0	-18.2573797207	80.5015807849	-16.9472799245	-144.89122053	-61.2310440419	-8.66347222195	-23.3224940791	-44.2575231576
113062500.0	-18.2524843036	76.5217376889	-16.9123841361	-145.0832478	-61.4656447089	18.04188344	-23.4958920729	-44.196951629
113750000.0	-18.2627516956	72.4643104947	-16.889043719	-144.876900929	-61.7781853254	35.46453411	-23.6623703007	-44.2460205145
114437500.0	-18.2669954006	68.2865301234	-16.8578893018	-144.236908303	-61.2105408438	50.5981337131	-23.8441318881	-44.3534913438
115125000.0	-18.2860387372	63.9811792578	-16.806525355	-143.200228198	-61.5683924413	61.1789263549	-24.0264379183	-44.4187576571
115812500.0	-18.2895333556	59.5521774284	-16.7155614793	-141.825062572	-61.8148477732	75.1919859594	-24.2179941169	-44.5315453491
116500000.0	-18.310191282	55.0114980658	-16.5686443994	-140.155787457	-61.7370783741	88.6355296323	-24.3923209141	-44.6896833078
117187500.0	-18.3261985016	50.329841761	-16.368335493	-138.317637381	-61.3495008659	104.125883276	-24.5762924028	-44.9331505707
117875000.0	-18.3662821959	45.5053048354	-16.1048674661	-136.403522565	-61.0614911151	122.508487244	-24.7695897735	-45.0173887419
118562500.0	-18.4010240134	40.5399835553	-15.7923604356	-134.429768573	-61.2472699977	137.514369359	-24.9551100307	-45.2764999538
119250000.0	-18.4550554041	35.4145506771	-15.4209007051	-132.483664132	-61.4190025651	163.816465073	-25.1239545692	-45.3554087595
119937500.0	-18.5238794259	30.1536287733	-15.0003755934	-130.590904764	-61.2734728861	-163.357675454	-25.2925397751	-45.6240362433
120625000.0	-18.6046591085	24.7262514613	-14.5301873311	-128.800173301	-61.1484834391	-134.272788069	-25.4703301311	-45.7998084581
121312500.0	-18.7159315501	19.1549036112	-14.0180704853	-127.103610789	-61.0648122315	-116.488573444	-25.6334459064	-46.1027519281
122000000.0	-18.8464659435	13.4111482296	-13.4576146065	-125.589184845	-60.8846155536	-87.6859752015	-25.7997566908	-46.2990653574
122687500.0	-19.0213017149	7.57170385118	-12.8602030028	-124.253671244	-61.0462352399	-68.2546729557	-25.9441043951	-46.6475232233
123375000.0	-19.2265093041	1.58248828239	-12.2248323979	-123.10124164	-61.295992139	-37.5183515734	-26.0758541405	-46.8536442701
124062500.0	-19.501900577	-4.45485533115	-11.560469088	-122.144976209	-60.5440360935	-7.40103849094	-26.2046563679	-47.1793107628
124750000.0	-19.8360897387	-10.5460468705	-10.8644171001	-121.428289642	-60.7956096276	23.226564256	-26.3293541148	-47.3993906342
125437500.0	-20.236775144	-16.5861181164	-10.1351356847	-120.926004306	-60.7585890299	62.2418542762	-26.4383752344	-47.5535459773
126125000.0	-20.7194262556	-22.3973852179	-9.37976392479	-120.669040903	-60.901753518	91.2223788992	-26.5406790737	-47.9324951949
126812500.0	-21.3052492498	-27.6158964398	-8.596151743	-120.653988208	-61.1321051602	111.370547691	-26.6353968113	-48.1580916047
127500000.0	-21.9152974227	-31.8131034477	-7.78833932043	-120.949871943	-61.3951298151	137.67386914	-26.6947652387	-48.5258218851
128187500.0	-22.5469839525	-35.2612523276	-6.95387922023	-121.531224983	-61.718017418	151.34173994	-26.7465096042	-48.9190791152
128875000.0	-23.0662257164	-38.0038060111	-6.09594603265	-122.485021007	-62.2689143185	154.789276468	-26.7823716219	-49.2015455254
129562500.0	-23.5502678195	-40.475776515	-5.21544933749	-123.817263654	-62.1119627376	156.911181157	-26.8068834637	-49.5334649817
130250000.0	-23.9592970676	-42.8971716969	-4.31998117898	-125.617414986	-62.0106858609	160.027192018	-26.8227410674	-49.9901308429
130937500.0	-24.3135354917	-45.1120861916	-3.41960592141	-127.942998025	-61.4261841308	159.563520727	-26.8340239096	-50.245485018
131625000.0	-24.6364997122	-47.223552771	-2.53555423208	-130.846125294	-61.5271213791	152.030727108	-26.8202302727	-50.6247837775
132312500.0	-24.9113325312	-49.2904560212	-1.67917975998	-134.255901577	-61.4753778879	150.613688495	-26.7897786306	-50.9918703826
133000000.0	-25.1685861047	-51.357704555	-0.875824985563	-138.169223161	-61.297191023	140.331862205	-26.7421654491	-51.5482200829
133687500.0	-25.3854473094	-53.4130665239	-0.133458725811	-142.47898474	-60.9973577426	125.309499778	-26.6885377996	-51.9498054602
134375000.0	-25.5823963868	-55.3557746259	0.545131249028	-147.084400722	-60.6204881992	116.545570051	-26.6210073653	-52.4863087228
135062500.0	-25.7411378737	-57.3816436372	1.15870373989	-151.874542736	-61.3262497739	110.391325095	-26.5328825956	-53.055641872
135750000.0	-25.8883780125	-59.2593218043	1.70775860354	-156.801768579	-61.0851775201	100.077230466	-26.4227492381	-53.5332976094
136437500.0	-25.9938431592	-61.1029222803	2.19602040132	-161.810911569	-61.088919863	85.7197119248	-26.3277840485	-54.173362753
137125000.0	-26.084535798	-62.868082243	2.62312035061	-166.868776308	-61.0291475756	64.8306026306	-26.2235984791	-54.7231566516
137812500.0	-26.1433649249	-64.4762279745	2.99844102589	-171.888374148	-61.1883350589	46.7713995118	-26.1062525236	-55.2662968927
138500000.0	-26.1796519375	-65.9948526103	3.32158093826	-176.891039816	-61.32575711	34.3713466271	-25.9655840156	-55.8594602526
139187500.0	-26.1720129174	-67.4017720011	3.59656528407	178.185638381	-61.4212962421	17.6952397308	-25.8238493968	-56.5060218328
139875000.0	-26.1232205052	-68.7502823767	3.82823201723	173.349199882	-61.1187950074	3.64238277466	-25.6802015934	-56.9842807794
140562500.0	-26.0276382551	-70.0181984737	4.02453236686	168.624926436	-60.6150107983	-19.9454002606	-25.5434428117	-57.7114551937
141250000.0	-25.8649645654	-71.2327974815	4.18531799202	164.018842103	-60.9555555987	-36.9553761455	-25.3859672292	-58.1412022173
141937500.0	-25.6378322423	-72.3774253502	4.31470993085	159.559593407	-60.6185537077	-59.7750421285	-25.2298634775	-58.7793276887
142625000.0	-25.3418999791	-73.5597963205	4.41943775675	155.223776943	-60.8357980023	-83.9796567398	-25.0662354023	-59.2636761858
143312500.0	-24.9533977485	-74.9433207245	4.50004825706	151.026256818	-60.7973401967	-106.585055351	-24.9017526283	-59.7446504055
144000000.0	-24.4712793253	-76.9188490214	4.56155417088	146.964411619	-60.5131581361	-126.216691758	-24.7358609181	-60.2096434832
144687500.0	-23.9624888468	-79.8722768013	4.60653234543	143.061573416	-60.0729182804	-151.716226786	-24.5947442101	-60.6057967871
145375000.0	-23.4240705693	-83.5323960169	4.63774256418	139.27954902	-59.7153926309	-175.955943882	-24.437900177	-60.9660254408
146062500.0	-23.0048114872	-87.8008160394	4.6551152644	135.626717939	-59.119134779	169.44296304	-24.3049633113	-61.3056289904
146750000.0	-22.6121740708	-92.3527938654	4.66230569953	132.081859308	-59.4406578314	162.943613856	-24.1541938939	-61.5052085964
147437500.0	-22.3096371957	-96.8457379056	4.66019693613	128.667543674	-59.2516147284	149.649705467	-24.006835948	-61.6120873679
148125000.0	-22.0499710249	-101.52384126	4.65302702178	125.354405438	-59.4577248531	148.217323606	-23.8546026828	-61.6333531864
148812500.0	-21.8364235069	-106.24938917	4.6383046425	122.144935148	-59.1886095842	144.40878281	-23.7082565515	-61.6515643739
149500000.0	-21.6591154118	-110.893521956	4.61936931962	119.026278754	-58.7477518663	142.216109242	-23.5813172245	-61.5767036129
150187500.0	-21.5181921167	-115.499532308	4.59411386767	116.014858247	-58.7613985432	140.848636896	-23.4556621738	-61.3654560668
150875000.0	-21.4036253762	-119.953207211	4.56807409922	113.082507388	-58.7689649994	131.171067859	-23.3360416435	-61.1579576369
151562500.0	-21.3173339504	-124.503082654	4.53742143082	110.23403882	-58.77697402	114.120684418	-23.2130556457	-60.7677271651
152250000.0	-21.2550168089	-128.766418741	4.50462456	107.452724586	-58.201290627	93.5863627085	-23.1013374437	-60.3296931072
152937500.0	-21.2102186884	-133.080801791	4.46740161565	104.755473296	-58.6072523582	77.830608657	-23.0023054827	-59.9228286293
153625000.0	-21.1905606932	-137.303203917	4.43207923229	102.132795871	-58.1871448105	55.5670875294	-22.9060283039	-59.3318895464
154312500.0	-21.1752781429	-141.509510109	4.39529732633	99.5676459571	-58.027438398	38.4951472949	-22.802881045	-58.7512861246
155000000.0	-21.1750230211	-145.701423041	4.35565003474	97.0499160283	-57.9777295804	14.673946434	-22.7033987098	-58.1319953841
155687500.0	-21.1717595516	-149.824614619	4.31611661045	94.6095267872	-58.4323650683	-3.47225561081	-22.6391275799	-57.3616361473
156375000.0	-21.2012613774	-153.947694791	4.27523152291	92.2123645887	-58.0418006446	-24.8963462222	-22.5573909367	-56.5440429311
157062500.0	-21.2183134003	-157.989130228	4.23419180034	89.8820575607	-58.0487192405	-41.7294814292	-22.490128611	-55.6615869521
157750000.0	-21.2593447488	-161.960399204	4.19121288046	87.5851939364	-57.7504695986	-58.1613336602	-22.4241834818	-54.7076261259
158437500.0	-21.2872891273	-165.910846838	4.14812734072	85.3503392389	-58.0119453278	-74.5674068773	-22.3800113354	-53.803211663
159125000.0	-21.3276456379	-169.805162546	4.10565723903	83.1540377184	-58.1085591782	-93.3770175334	-22.3411635453	-52.7951018651
159812500.0	-21.3587756873	-173.702356744	4.06431072329	81.0118849206	-57.8734021506	-111.267212971	-22.3108990681	-51.7920486943
160500000.0	-21.412161131	-177.562346605	4.02254976089	78.9101417418	-57.7793455353	-126.674582916	-22.2911307433	-50.7789353723
161187500.0	-21.4500061978	178.656557855	3.97999364865	76.8462796021	-57.7577202742	-139.554329952	-22.2791866853	-49.6808125512
161875000.0	-21.495674481	174.910936936	3.93882424723	74.8112328337	-58.0099772094	-153.159796863	-22.2749711291	-48.5964495275
162562500.0	-21.5428212557	171.199528485	3.89764206885	72.8197579672	-58.1617547024	-158.501921142	-22.2859981577	-47.4795476163
163250000.0	-21.580626497	167.468608794	3.85641664076	70.8539102008	-58.0254075609	-172.276186385	-22.2970912184	-46.3429823374
163937500.0	-21.6250182982	163.835961755	3.81601228585	68.9399434932	-57.5700779861	176.029455021	-22.3187331976	-45.2416225571
164625000.0	-21.6570340018	160.203995143	3.77649679235	67.0454021787	-57.7095718395	162.814618572	-22.3561659056	-44.1004047033
165312500.0	-21.701767441	156.628869793	3.7367974933	65.1926147436	-57.470925379	150.850404364	-22.3988145286	-43.0208630352
166000000.0	-21.7348990016	153.153054739	3.69752136038	63.3601859803	-57.9970109953	150.237498792	-22.4573455972	-41.9116176407
166687500.0	-21.777157413	149.628483793	3.65850249835	61.5635109318	-57.9904992511	142.696128166	-22.5235162857	-40.7661055694
167375000.0	-21.8015476408	146.262205604	3.62069591361	59.791278823	-58.1193728829	140.652692932	-22.5973849287	-39.5833160645
168062500.0	-21.8387271163	142.801988509	3.58349510082	58.0601440358	-57.7261564019	143.521974185	-22.6828205729	-38.4964222777
168750000.0	-21.8607089954	139.493469511	3.54723918252	56.3627046826	-58.2421222444	157.088228433	-22.7912361328	-37.4960231874
169437500.0	-21.8907509826	136.099323041	3.51106070026	54.6896870908	-58.4556805954	169.891029206	-22.8963041993	-36.4418230406
170125000.0	-21.9057754706	132.788282078	3.47871430352	53.0217928682	-58.3849397693	-176.4009865	-23.0254886134	-35.3936011702
170812500.0	-21.9342896776	129.483164564	3.44452848482	51.3854218683	-58.2352441794	-161.293024225	-23.1549027512	-34.4516900541
171500000.0	-21.949164562	126.229792088	3.41276618422	49.784550321	-58.4644531264	-141.694272343	-23.3007671616	-33.4836639162
172187500.0	-21.9775736267	123.000695912	3.383432977	48.210162684	-58.2853594485	-123.404919394	-23.4609807148	-32.6736395311
172875000.0	-21.9943886889	119.825405191	3.35501414452	46.6429802108	-57.6544971424	-106.444375074	-23.6211142957	-31.7864022572
173562500.0	-21.9993928573	116.692551214	3.32762226939	45.1087718515	-57.8837227475	-93.5410122777	-23.8176029322	-30.9571348083
174250000.0	-22.0119305489	113.643000077	3.30409058807	43.582589859	-58.4948785511	-75.8075378491	-24.0050169424	-30.1783447904
174937500.0	-22.0035067848	110.548928476	3.28230064989	42.0884488433	-58.9555220174	-47.0057887401	-24.2140963524	-29.5380254331
175625000.0	-21.9970860568	107.500604506	3.26197226327	40.6005756424	-58.6060931528	-24.1557058415	-24.4163712887	-28.8981390203
176312500.0	-21.988654344	104.439306407	3.24321362122	39.140056663	-58.3629280179	9.53303426025	-24.6459431187	-28.3130086715
177000000.0	-21.9781905223	101.443054151	3.22493364822	37.6826629347	-58.4365180146	39.2794460604	-24.8935003674	-27.8643248045
177687500.0	-21.9459727868	98.4460064081	3.20796884178	36.2464363039	-58.5079682622	69.5243594065	-25.1650240954	-27.4156112242
178375000.0	-21.9275356733	95.4562696248	3.19463284461	34.8104659135	-58.7184522688	91.1537163904	-25.4249937687	-26.9344598148
179062500.0	-21.8845839785	92.5549299702	3.18007308139	33.3959157524	-58.6427164235	121.769516941	-25.6940088681	-26.7484922668
179750000.0	-21.8521759174	89.6269001073	3.16827677925	31.9897552999	-58.3320506138	143.121736387	-25.9756409844	-26.4150869336
180437500.0	-21.8057199494	86.7111032479	3.15680460788	30.5939258069	-58.703994716	172.179156369	-26.249267977	-26.414485075
181125000.0	-21.7668583892	83.7770774298	3.14767375323	29.1988913592	-59.3615521601	-158.383637043	-26.5309335495	-26.2178148526
181812500.0	-21.7167182441	80.9056005794	3.13950535274	27.8179736895	-59.236622565	-131.569724423	-26.8334479708	-26.3773362485
182500000.0	-21.6562792322	78.0422278802	3.13264254266	26.4413145209	-59.3259158546	-112.656894245	-27.1430401102	-26.5428474147
183187500.0	-21.5811093877	75.2405302656	3.12787950866	25.0855126453	-59.0815764402	-99.0246792712	-27.4620362278	-26.8532690314
183875000.0	-21.5100727211	72.5066026122	3.12408337537	23.7242173147	-59.0440093533	-80.4645716882	-27.7641438816	-27.1832381719
184562500.0	-21.4384545275	69.7504828813	3.12194911351	22.3810185584	-59.1520155648	-64.7067343341	-28.0696547995	-27.8176063005
185250000.0	-21.3589324319	67.0664172309	3.12037692754	21.0373222075	-59.4788696748	-51.4275006879	-28.3635322575	-28.2177060747
185937500.0	-21.2843204072	64.4157320696	3.11839014376	19.6899238885	-59.0816849997	-49.8566293462	-28.6536796226	-28.8799030653
186625000.0	-21.2089053565	61.8296474011	3.12033725527	18.3530299755	-59.0431756959	-50.4871010098	-28.9759508776	-29.5927546305
187312500.0	-21.1355488098	59.2113756391	3.12202561159	17.0307653609	-59.3350505028	-61.0027503625	-29.2596584922	-30.4083964472
188000000.0	-21.0545568586	56.6953618764	3.12513604745	15.6989937702	-59.4937387627	-76.3735876201	-29.5503693328	-31.4426377957
188687500.0	-20.9907683712	54.2216793398	3.12692597162	14.3817679806	-59.6416327107	-105.231964465	-29.8374482208	-32.5453385182
189375000.0	-20.9197253023	51.808995233	3.13029232871	13.0720266217	-60.010688369	-134.287841567	-30.1174116246	-33.7927217572
190062500.0	-20.8635598977	49.3375488717	3.13433321129	11.7699856241	-60.0179638688	-174.476323087	-30.3567298266	-34.8966798007
190750000.0	-20.7998739889	46.9293986709	3.14004599762	10.4678300568	-60.4042757165	158.250437463	-30.6086152986	-36.3015800967
191437500.0	-20.7552102703	44.4641957051	3.14529008069	9.17735297469	-59.77980682	123.705350476	-30.8007819152	-37.8599198104
192125000.0	-20.7074269458	42.0777414998	3.1507598064	7.88308328124	-59.6338970517	83.5130414015	-30.9730363786	-39.3940504498
192812500.0	-20.6829395726	39.6313845062	3.15723394894	6.59854458575	-59.3319926346	39.5771530728	-31.1321688478	-41.0933565919
193500000.0	-20.6559095699	37.3020940191	3.16359780016	5.30392317362	-59.6830659911	-8.1014777693	-31.2629164971	-43.0745304479
194187500.0	-20.65178372	34.9404707972	3.16928721351	4.02155427347	-59.5035425229	-59.2237353812	-31.3491339	-44.719159559
194875000.0	-20.6541106195	32.560480478	3.17810898338	2.73768038467	-59.8894955813	-105.946562557	-31.420838848	-46.6050979331
195562500.0	-20.6530312714	30.1607735757	3.1877773132	1.46910074329	-59.8442839929	-150.430665036	-31.4792592088	-48.5694274358
196250000.0	-20.6722948306	27.6876668985	3.19717871535	0.198348115415	-59.9813484032	166.814663212	-31.5009610644	-50.5323316594
196937500.0	-20.6963361539	25.2442501789	3.20700064138	-1.07193679601	-59.9866960811	136.998589442	-31.5043040006	-52.3991266995
197625000.0	-20.7380045353	22.7995291679	3.21929277815	-2.32248809363	-59.608068937	108.436412516	-31.493558568	-54.1453036408
198312500.0	-20.7694039824	20.3654262575	3.23076753212	-3.56609913442	-58.9880569684	70.3592870518	-31.4330759857	-56.0712579133
199000000.0	-20.8251688341	17.8274670191	3.24505351685	-4.81571859367	-59.1351796019	40.4725614132	-31.3170135484	-57.788611075
199687500.0	-20.8745312793	15.3206642159	3.25764960148	-6.06016182507	-58.9829412737	9.80178307948	-31.2098194455	-59.5390843731
200375000.0	-20.9434744402	12.7561237642	3.27196418411	-7.31263387745	-58.7527806246	-21.9163476663	-31.059190009	-61.1305440817
201062500.0	-21.0084864088	10.1303329843	3.28548395527	-8.54484997083	-58.9588388571	-51.7133933186	-30.9155815703	-62.9740660826
201750000.0	-21.0799824066	7.46122124083	3.30054903393	-9.7949762969	-58.7767828683	-77.3203215411	-30.7153447805	-64.4237526747
202437500.0	-21.1421729019	4.77948953345	3.31552047602	-11.0310407763	-58.710729984	-104.521278087	-30.5395746201	-66.1634889835
203125000.0	-21.219167635	2.07998449285	3.33322359845	-12.2710838527	-58.6827132182	-125.511887062	-30.3150996188	-67.445423578
203812500.0	-21.2724959156	-0.650485408401	3.34859644178	-13.4953464343	-58.6796316866	-138.96807643	-30.065039298	-68.8619330088
204500000.0	-21.3524731226	-3.370880917	3.36584267895	-14.7404469871	-57.962822899	-148.220334431	-29.805343534	-69.9764606061
205187500.0	-21.4150889804	-6.1111045919	3.38280362935	-15.9550952801	-58.0679342595	-148.987634858	-29.5495307964	-70.9992435951
