#Frequency	|S11|	<S11	|S21|	<S21	|S12|	<S12	|S22|	<S22
100000000.0	-17.720271529	144.688795805	-18.2972530625	-125.727610621	-60.7640250978	56.352148242	-20.2051295757	-56.312639624
100687500.0	-17.6669969998	141.9968375	-17.934757989	-126.82187483	-60.00558819	127.709556701	-20.2940578513	-56.0700591132
101375000.0	-17.6501119651	138.791428512	-17.5496145979	-128.099039138	-60.690097268	-169.560285879	-20.3769576893	-55.3219834065
102062500.0	-17.6107044582	135.563729071	-17.1671010431	-129.434975125	-61.4604045332	-163.1612104	-20.4788524024	-54.6568385298
102750000.0	-17.5910123918	132.45583294	-16.810843038	-130.83877333	-61.3786291678	-123.850184879	-20.5961791859	-54.0641127368
103437500.0	-17.5729295477	129.393177297	-16.4817903888	-132.185808763	-61.9166222597	-103.663945187	-20.7224255431	-53.5718837012
104125000.0	-17.5606061292	126.174736999	-16.1662561846	-133.560102558	-62.2498698945	-83.1710048873	-20.8694860798	-53.0010045152
104812500.0	-17.5485591381	123.017204972	-15.8782618038	-134.917639138	-62.3421142693	-61.4348366428	-21.0102168056	-52.6186145402
105500000.0	-17.5423766563	119.766149796	-15.6146845929	-136.306479521	-62.5384353367	-23.3278556729	-21.1619401803	-52.3904604164
106187500.0	-17.5318214142	116.448879043	-15.3784989367	-137.664464646	-62.0239057303	-25.9505794968	-21.3287754926	-52.0847585455
106875000.0	-17.5336339018	113.078034506	-15.1760875577	-139.021670864	-62.0362297261	-28.7630651269	-21.5025969251	-51.8717708647
107562500.0	-17.5521085674	109.584888179	-15.0032188651	-140.313483576	-62.187539138	-32.9046630369	-21.6800456844	-51.6184222041
108250000.0	-17.5766314939	105.929713045	-14.8687145486	-141.517742541	-62.5468491987	-34.2843897025	-21.8719173479	-51.5777688971
108937500.0	-17.5863721571	102.428838752	-14.6839500726	-142.716693141	-62.3844348358	-20.619411355	-22.0395479851	-51.2977529134
109625000.0	-17.6050866914	98.8308667145	-14.5214569349	-143.875923693	-62.3675922673	-19.2850334516	-22.2118644281	-51.0616293069
110312500.0	-17.6203351912	95.1592316897	-14.382559983	-144.951217462	-62.1858381599	-8.28562850317	-22.3874730176	-50.892590859
111000000.0	-17.6429513974	91.4386445585	-14.2737337177	-145.896681123	-62.1853713565	-6.40916540072	-22.569605586	-50.7374883196
111687500.0	-17.66668102	87.6002418594	-14.1968830065	-146.633360804	-61.9390169329	-2.56746979197	-22.7542904573	-50.7172957572
112375000.0	-17.7008393071	83.6941619761	-14.1477281319	-147.147533975	-61.6121064927	-0.329027664834	-22.9446773552	-50.7009382038
113062500.0	-17.7367202925	79.7156781429	-14.1260831243	-147.365528971	-61.7019434316	7.59860289385	-23.1354199424	-50.7101608488
113750000.0	-17.7777161712	75.5760287485	-14.1105696185	-147.153778162	-61.454063511	7.15792295581	-23.3309365683	-50.7802810766
114437500.0	-17.821821294	71.3846874429	-14.0942352568	-146.521433956	-61.2378263669	-2.46719327421	-23.5306540139	-50.92371593
115125000.0	-17.8730284013	66.9893571927	-14.0451239085	-145.493681328	-60.7225230983	0.855844295253	-23.7413838235	-51.0128239612
115812500.0	-17.9246571525	62.4908575596	-13.9625860957	-144.083117783	-60.2873027866	-8.6525516524	-23.9467207235	-51.14807118
116500000.0	-17.984638892	57.8480378845	-13.8263540647	-142.416772353	-60.4061246878	-20.7558290703	-24.1505368581	-51.3131093785
117187500.0	-18.0461924064	53.1336442429	-13.6339309664	-140.548161069	-59.9194750651	-32.0734946302	-24.3526679284	-51.5292215168
117875000.0	-18.1192096239	48.1711043708	-13.3813693204	-138.601783818	-59.4630993763	-33.0473860236	-24.5695531158	-51.670234539
118562500.0	-18.2074896861	43.0714502703	-13.0763134904	-136.623251802	-59.4735448796	-34.7777156399	-24.7719200626	-51.8318779174
119250000.0	-18.3094722687	37.8281676055	-12.7126284923	-134.6380195	-59.4473075788	-49.3666694219	-24.9729393503	-51.8470404018
119937500.0	-18.4220321349	32.3745152649	-12.2998460724	-132.715428397	-59.2526630551	-62.2358332334	-25.1609958686	-51.9777304914
120625000.0	-18.5597732785	26.7794220421	-11.8361349906	-130.903942876	-59.4444993524	-73.8484474808	-25.3614812902	-52.1340787805
121312500.0	-18.7259314527	20.9840484427	-11.3279433958	-129.19983002	-59.5397105458	-86.6963960544	-25.5410114755	-52.2262436979
122000000.0	-18.9184028413	15.0437507865	-10.7733878253	-127.642600932	-59.1918412207	-107.685165152	-25.7237805738	-52.3544026297
122687500.0	-19.1480850637	8.88807386594	-10.1801378544	-126.266454205	-59.1115442902	-123.304795118	-25.8790468171	-52.4572439571
123375000.0	-19.4199978121	2.64852480211	-9.55154022288	-125.074692394	-58.7483696954	-140.715373699	-26.0288748721	-52.4892749755
124062500.0	-19.7507119394	-3.79958839862	-8.88880679057	-124.092444445	-58.7233756449	-153.519289304	-26.1635137461	-52.5155884319
124750000.0	-20.1637905849	-10.2809288273	-8.19364793225	-123.334514862	-58.3933457995	-166.695342967	-26.2831192171	-52.5223597941
125437500.0	-20.6357944959	-16.8014369699	-7.4699474142	-122.793190979	-58.0147163199	-178.686242131	-26.3739101092	-52.4628533423
126125000.0	-21.2569807115	-23.0555373266	-6.71016199926	-122.508354066	-58.0451905379	160.377972374	-26.474369528	-52.5777072065
126812500.0	-22.0017548125	-29.1640760101	-5.92526789845	-122.457810264	-58.0149221888	146.973117013	-26.5391590974	-52.5647673045
127500000.0	-22.8935597033	-32.8126358331	-5.11651046738	-122.695550425	-58.2619030722	121.860401492	-26.5868518786	-52.6276786526
128187500.0	-23.6600508935	-35.9365216157	-4.28234486222	-123.256057301	-58.0686950065	107.896032669	-26.6190086447	-52.634160983
128875000.0	-24.2954560014	-37.97467117	-3.4173797279	-124.164334971	-58.0687045732	82.6596443571	-26.6222933951	-52.6833138253
129562500.0	-24.8157389797	-40.0987452625	-2.53495003375	-125.472095665	-57.7667284256	65.060749449	-26.6149476665	-52.7514026246
130250000.0	-25.2744020552	-42.0882132779	-1.63026930299	-127.247929958	-57.8129774559	45.6556394911	-26.5947100805	-52.9322006363
130937500.0	-25.6715919508	-44.184621218	-0.727676245982	-129.573643101	-57.959499506	27.6692540905	-26.5641280254	-53.0005751185
131625000.0	-26.0064518932	-46.135766168	0.165914053321	-132.489167517	-57.9616144432	14.5394701108	-26.5027368492	-53.139067104
132312500.0	-26.3069585554	-48.0882770643	1.02054574765	-135.930748516	-57.9797889566	-5.14512125914	-26.4373271092	-53.2980911676
133000000.0	-26.5713355414	-50.103421821	1.8314396715	-139.874650192	-58.4055407486	-20.819011286	-26.3422884059	-53.5519540827
133687500.0	-26.7997003639	-52.0846474295	2.57463707777	-144.186987933	-58.1423504424	-29.9911219598	-26.2416010231	-53.7677365554
134375000.0	-27.0032643784	-54.0778278701	3.25718413359	-148.83066272	-57.9678661747	-44.3711391418	-26.1202001804	-54.0415994432
135062500.0	-27.1730821817	-56.074358392	3.87130467547	-153.646177222	-58.2199052677	-68.5086141211	-25.9876180892	-54.383502234
135750000.0	-27.3184663755	-57.9702166498	4.42442630995	-158.60569605	-57.9784589062	-95.7060313402	-25.8309688612	-54.7368163115
136437500.0	-27.4316485727	-59.7563339364	4.9100467617	-163.646706646	-58.3532941656	-118.623661521	-25.6790858998	-55.226150376
137125000.0	-27.518476543	-61.5469344295	5.3394593924	-168.734094587	-57.7720596859	-132.857259775	-25.5246090861	-55.6521289447
137812500.0	-27.5668552339	-63.1791004179	5.71119810501	-173.780453162	-57.9925053504	-146.123905545	-25.3489197743	-56.1560270995
138500000.0	-27.5808103412	-64.7164396169	6.03510432336	-178.820977045	-57.952132962	-149.463747861	-25.1547369442	-56.6537794816
139187500.0	-27.5521116125	-66.1371914824	6.30785914588	176.23601911	-58.1506434869	-153.379015196	-24.9652465074	-57.1814176186
139875000.0	-27.4777418972	-67.4774139198	6.54031489032	171.370220664	-58.2061934804	-154.808722684	-24.7920666033	-57.6803687147
140562500.0	-27.3499926321	-68.6741186226	6.73271512869	166.623707727	-58.2441582071	-161.799604066	-24.6095578477	-58.3769032689
141250000.0	-27.1562006332	-69.7063510298	6.89135623466	161.994108993	-57.889465338	-161.590841147	-24.4200911767	-58.9791910173
141937500.0	-26.8807219246	-70.6389532136	7.01638211192	157.517595974	-58.031660772	-173.172371095	-24.2302347465	-59.6109546515
142625000.0	-26.5434208174	-71.5806426559	7.11792450456	153.158536009	-57.6853458653	178.621089788	-24.0565727676	-60.1896747529
143312500.0	-26.0385866264	-72.7394543295	7.19054456498	148.958773752	-57.978339503	174.173391756	-23.8573847364	-60.7056535589
144000000.0	-25.4080944131	-74.0343213361	7.24708143411	144.874057885	-58.1342182061	170.897827726	-23.6896519927	-61.2455790776
144687500.0	-24.6305466191	-77.8150219743	7.28345152484	140.953490252	-57.7813031648	170.648224855	-23.516911451	-61.7595004458
145375000.0	-23.9749915521	-82.0420785558	7.30829593248	137.156834714	-57.7447724514	163.545044823	-23.3548699728	-62.2566081107
146062500.0	-23.4449190851	-87.2955251848	7.31618531769	133.50396064	-57.6657182472	161.431252591	-23.2055370702	-62.6441969557
146750000.0	-23.0243227894	-92.4166002457	7.31771940077	129.95595913	-58.0614441717	156.04011065	-23.0701606432	-62.9649825408
147437500.0	-22.6688414251	-97.6780320861	7.30739713303	126.554711894	-57.6122060657	153.334503655	-22.9165425744	-63.1806018372
148125000.0	-22.3739296702	-102.687037807	7.29384318241	123.23796172	-57.6979653361	147.956068462	-22.782014887	-63.4187672966
148812500.0	-22.1374652884	-107.836187747	7.27026141709	120.047619555	-57.5643548343	143.088827232	-22.6403122401	-63.5205165877
149500000.0	-21.9307883892	-112.778558798	7.24609733111	116.950323855	-57.6859442603	137.823855015	-22.5153998132	-63.5575281118
150187500.0	-21.7604257954	-117.699072046	7.21383501277	113.958198006	-57.5936965138	136.981197559	-22.3897773339	-63.476015396
150875000.0	-21.6247419707	-122.399579519	7.18428472814	111.050521366	-57.8536177669	134.356775304	-22.2872258961	-63.3723577961
151562500.0	-21.5043108251	-127.163939705	7.14835792817	108.226381646	-57.9214606928	132.318330317	-22.1780530193	-63.1427776629
152250000.0	-21.4111139465	-131.641959129	7.11251706493	105.474184146	-57.6349976683	131.743294852	-22.0818449063	-62.8457399133
152937500.0	-21.3325293636	-136.096871957	7.06970598367	102.803659844	-58.004468999	130.726512352	-21.9965608724	-62.4987854564
153625000.0	-21.2783447909	-140.524855354	7.03185542403	100.207696086	-57.9301495879	128.442601379	-21.9189880922	-62.1170057835
154312500.0	-21.2311267995	-144.773273116	6.98918080825	97.6839043681	-57.9192647745	125.611487411	-21.83352186	-61.6181283735
155000000.0	-21.2011618525	-149.054277491	6.94775020134	95.2002139291	-57.42385143	124.871114668	-21.7679838947	-61.0625686811
155687500.0	-21.176603969	-153.265635418	6.9038350485	92.7932743523	-57.2421849616	120.528724014	-21.7219293486	-60.4602872289
156375000.0	-21.1787250569	-157.418895906	6.86079770706	90.4293772335	-57.1044599859	118.802576939	-21.6714424376	-59.8423413316
157062500.0	-21.166796543	-161.414206973	6.81669256486	88.12811951	-56.97871641	116.935674546	-21.616035617	-59.111393327
157750000.0	-21.1728634749	-165.468854914	6.77422446008	85.8649788748	-56.8688329845	115.4077412	-21.5683903357	-58.3239789174
158437500.0	-21.1794866933	-169.401791552	6.72875942684	83.6636345361	-56.9572673834	108.311692115	-21.5457929242	-57.4944116911
159125000.0	-21.1835097025	-173.356897977	6.6888083219	81.4972675897	-57.1144989748	109.014037204	-21.5375294002	-56.5849118287
159812500.0	-21.1818447315	-177.2130178	6.64401422395	79.3857312045	-57.2885320759	104.339338878	-21.5316135602	-55.6593405641
160500000.0	-21.2063809267	178.897674127	6.6044069234	77.3016993314	-56.9620347538	103.341807004	-21.5370721341	-54.7850445763
161187500.0	-21.2167066864	175.104969659	6.56026788834	75.2719277612	-57.2976183387	97.5292664644	-21.5408247208	-53.8246704378
161875000.0	-21.2356089769	171.43050839	6.5218484988	73.266272124	-57.2631911093	96.5122649132	-21.5694167512	-52.8826188064
162562500.0	-21.2524626244	167.733436409	6.47932241454	71.3112461213	-57.3917406783	95.0808105934	-21.601081374	-51.9181429223
163250000.0	-21.2654708163	164.089110825	6.44050279679	69.3648232533	-57.4442303438	93.596555759	-21.6480289124	-50.8807537232
163937500.0	-21.2878130531	160.488422027	6.39867485598	67.4838418942	-57.8912040855	89.3919400309	-21.6886297429	-49.8743848696
164625000.0	-21.2947981355	157.028186332	6.3618551949	65.6092639413	-57.9969152235	88.3459712051	-21.7578513826	-48.8213320063
165312500.0	-21.3032513269	153.510012198	6.32004532087	63.7956246887	-58.1419895957	88.7926981231	-21.8276175331	-47.8160537869
166000000.0	-21.3205549395	150.115877248	6.28394559877	61.9904876956	-58.0808774362	88.1767060615	-21.9091420309	-46.7542441569
166687500.0	-21.3305918403	146.598421279	6.24383105339	60.2225859811	-58.2597228047	87.5697522022	-21.9965226312	-45.7239967381
167375000.0	-21.3472676374	143.383597549	6.20935008046	58.4711007807	-57.8382322022	84.5872601556	-22.1004920969	-44.7523433481
168062500.0	-21.3483937354	140.022453377	6.1721007028	56.7585981856	-58.6889577945	84.5776420213	-22.2014623807	-43.7926792488
168750000.0	-21.3614672954	136.907516448	6.13827606935	55.0779719896	-58.7479695782	80.2025687128	-22.3286722734	-42.9549678264
169437500.0	-21.3666936537	133.631973712	6.10271711756	53.4269827604	-59.1698029341	78.9733095703	-22.4622794683	-42.0675453323
170125000.0	-21.3732966155	130.480814509	6.07324405674	51.780060457	-58.8476089217	81.0605406647	-22.6186920114	-41.164544551
170812500.0	-21.3695921973	127.277273528	6.04100263087	50.1671175505	-58.6488146987	81.2291060257	-22.7814659009	-40.3230734618
171500000.0	-21.3799653006	124.188144536	6.01355310501	48.5727003277	-58.8684183974	75.5717299796	-22.9635278298	-39.5863455841
172187500.0	-21.3897271019	121.119505207	5.98586070932	47.0164751692	-58.8585848622	74.2962942127	-23.1462077986	-38.8808547481
172875000.0	-21.3981330547	118.106515247	5.96138245562	45.4716819117	-58.930843029	73.2490512813	-23.3336748066	-38.1769006199
173562500.0	-21.3855492603	115.093918302	5.93567704029	43.9544139268	-58.8276696999	72.3419136667	-23.5509996418	-37.5037222678
174250000.0	-21.3936470245	112.174256365	5.91442599283	42.449010074	-58.8425819347	65.645572499	-23.7717937773	-36.932598196
174937500.0	-21.3789544803	109.302818354	5.89244070036	40.9679468029	-58.7101934152	65.1658223142	-24.003244865	-36.4252057081
175625000.0	-21.3611949616	106.370232966	5.87525439076	39.4845427541	-59.0241263285	62.4801849165	-24.2318639973	-35.9798167416
176312500.0	-21.3479372385	103.502595644	5.85341541114	38.0352295274	-58.6773304676	62.3823799253	-24.4840863677	-35.7417086073
177000000.0	-21.3268081083	100.597020925	5.83900769961	36.5866617681	-58.8068522463	63.8937639113	-24.7458559507	-35.5382954641
177687500.0	-21.2889518906	97.8203286003	5.82195406724	35.1562139895	-58.8908772475	64.9865778324	-25.0365176508	-35.3379288623
178375000.0	-21.2633910795	94.9633914659	5.8112129453	33.7333894925	-58.6587882737	65.1157976458	-25.3326353587	-35.2495203399
179062500.0	-21.2279868249	92.1803207925	5.79712830838	32.3324191278	-59.0602499835	65.1426960267	-25.6085404173	-35.4162253692
179750000.0	-21.1919614022	89.3901089208	5.78886859175	30.9301732891	-59.1709676071	63.1861442044	-25.9189066524	-35.4413742018
180437500.0	-21.15547906	86.5967609779	5.77911798591	29.5476874882	-59.1220159156	62.9235937019	-26.2024708994	-35.7434448638
181125000.0	-21.1062739255	83.8035884549	5.77339112461	28.1543252714	-58.4976157288	63.9311153985	-26.5213893616	-36.0189642347
181812500.0	-21.0592833831	81.096854892	5.76520210114	26.7898093494	-58.3899750573	60.6913939763	-26.8259749402	-36.5442708586
182500000.0	-21.0092247069	78.3920019166	5.76454805996	25.4162304289	-58.7212499681	58.9688363272	-27.1798033267	-36.9624324948
183187500.0	-20.9365612081	75.7585027198	5.75972048197	24.0661566968	-58.9004971152	53.7277668636	-27.4919373507	-37.5491860212
183875000.0	-20.8713475889	73.2326174486	5.76003981039	22.7089100767	-58.5872862824	53.0456134821	-27.8187071382	-38.3589138286
184562500.0	-20.8024797097	70.5995437837	5.75621003001	21.3770127653	-58.8378004957	49.9825820428	-28.1071619079	-39.2001289026
185250000.0	-20.7417049196	68.0240662413	5.75775989227	20.0395264767	-57.873553461	47.9220472604	-28.4243644754	-40.1285094819
185937500.0	-20.6718604144	65.4565111766	5.75576874889	18.7119795431	-58.0710400433	46.8527841201	-28.7061553871	-40.9719393814
186625000.0	-20.6095185129	63.0247098664	5.76144288476	17.3801398195	-58.0006032221	47.5038909539	-29.0077970637	-42.1287924004
187312500.0	-20.5412247378	60.4663844821	5.76317481862	16.0657857295	-58.0857464615	40.0282982533	-29.2647696797	-43.2619618053
188000000.0	-20.4800329743	58.0881334323	5.76853020084	14.7367884724	-57.8479318456	40.396887644	-29.4998109646	-44.674332091
188687500.0	-20.4139255552	55.6544692708	5.7701152961	13.4297496953	-57.9936415025	39.2762972471	-29.733351483	-46.0453316679
189375000.0	-20.3536656611	53.2877797829	5.77530590457	12.1110115683	-57.921995314	39.4069598349	-29.9467227175	-47.557262896
190062500.0	-20.2964034774	50.8556085898	5.77893933979	10.8128124562	-58.6004296697	37.6305600242	-30.1555607533	-49.0068482101
190750000.0	-20.2542388633	48.5367404306	5.78847830841	9.51042245725	-58.6457146251	39.3307470912	-30.3294890706	-50.8816790224
191437500.0	-20.2101058069	46.1260045846	5.79308439222	8.23111220828	-59.2401055168	40.6098453011	-30.4953732587	-52.5548546892
192125000.0	-20.1846046958	43.8105749058	5.80154701258	6.93560710377	-59.2752913745	42.818355205	-30.6172487252	-54.3089106056
192812500.0	-20.1604657921	41.4365216216	5.80943371372	5.66531132448	-59.0052142774	43.3907332511	-30.728792531	-56.0911236015
193500000.0	-20.1469605093	39.1516235786	5.82058629734	4.37431411509	-59.0765844635	35.3554534566	-30.7923516126	-57.7971323714
194187500.0	-20.1449304956	36.8131511574	5.82768915746	3.10187110458	-58.9301214281	35.2379321796	-30.84692392	-59.5342123031
194875000.0	-20.1633348354	34.4212857486	5.84080933523	1.82551036645	-58.6776793739	32.9470815595	-30.8509412197	-61.3771759125
195562500.0	-20.1820104185	32.0732969604	5.84993883708	0.562021027653	-58.2585747083	33.008142149	-30.842230953	-63.2233126987
196250000.0	-20.2074668476	29.7052336396	5.86204701374	-0.703126546929	-58.0311102243	26.1162891354	-30.7952221238	-64.8648236693
196937500.0	-20.2373399054	27.2834350212	5.87295417405	-1.96342898654	-57.7230421651	27.3410281317	-30.7354064242	-66.5950636848
197625000.0	-20.2837258333	24.8905867214	5.8872673033	-3.21753320614	-57.8329777476	26.9136813573	-30.6533166861	-68.0787777137
198312500.0	-20.3305863168	22.4472383472	5.90032316814	-4.45450284591	-57.7268169301	27.1563700242	-30.5361044487	-69.6809844111
199000000.0	-20.3950118686	19.9106479686	5.91756175708	-5.71324938691	-57.9046952422	25.4422318396	-30.3870254387	-71.0413574538
199687500.0	-20.4532132351	17.3906393302	5.93090240574	-6.95668245192	-57.0820368203	24.6450953877	-30.17858602	-72.6904330485
200375000.0	-20.5305138924	14.7818327364	5.94837838516	-8.20644130758	-57.1069636065	24.8589332917	-29.9971881538	-74.0692283054
201062500.0	-20.6092389232	12.1609991705	5.96288948318	-9.44175701389	-57.4274529879	22.8897546573	-29.7873214871	-75.4165542287
201750000.0	-20.6879483041	9.44022371419	5.98176768803	-10.6963402297	-57.4792917706	19.9455611998	-29.5965102259	-76.5460880659
202437500.0	-20.7661656161	6.78465464309	5.9976113803	-11.9267105568	-57.4741294233	18.7721208095	-29.3527540766	-77.6980777125
203125000.0	-20.8446076174	4.0743026543	6.0191422267	-13.177817689	-57.6254833292	18.7735939555	-29.1234161859	-78.7431398853
203812500.0	-20.9131542249	1.34548415305	6.03438106329	-14.4072286913	-57.1261507586	18.4103069588	-28.8475143502	-79.6739161504
204500000.0	-20.9952834013	-1.39539003305	6.0537613734	-15.6471638012	-57.2060481049	18.6315142569	-28.6021317349	-80.4320140124
205187500.0	-21.0729978595	-4.11550645511	6.07087767549	-16.8636976596	-57.1865971115	17.4764063389	-28.3496716978	-80.9023221293
205875000.0	-21.1325763478	-6.89733999269	6.09494096965	-18.1044546887	-57.0837364014	16.7653510246	-28.0813446633	-81.3021365679
