#Frequency	|S11|	<S11	|S21|	<S21	|S12|	<S12	|S22|	<S22
100000000.0	-16.6485885874	134.762454163	-16.9434729507	-127.731567407	-70.3218612569	107.503216914	-21.0110377682	-63.2669071368
100687500.0	-16.5305145982	132.09362795	-16.5051723889	-128.879917455	-67.4517472838	5.44992851687	-21.1440081337	-63.2869095497
101375000.0	-16.4740482267	129.209303832	-16.1291841863	-130.204668852	-64.66434153	-10.5928135971	-21.2061455547	-63.2533466731
102062500.0	-16.4181629571	126.250184671	-15.7761032626	-131.622034276	-62.5658008381	-17.1095248514	-21.3061751218	-62.8734114285
102750000.0	-16.3793037715	123.233859738	-15.4501330777	-133.051956596	-62.1049861782	-78.2284470004	-21.3948102647	-62.5581078492
103437500.0	-16.343360213	120.230856825	-15.1427528038	-134.522256233	-61.8782427848	-85.9976587172	-21.493783202	-62.353371477
104125000.0	-16.3177273591	117.025249307	-14.8632136817	-136.024031534	-61.0219042536	-94.8402276776	-21.6098973395	-62.173208404
104812500.0	-16.305361191	113.890924802	-14.6098839307	-137.532470351	-60.6537110707	-92.6039148908	-21.7092624651	-62.1837563909
105500000.0	-16.3023675012	110.583773762	-14.3879843213	-139.02402898	-60.9210894651	-88.9776774966	-21.7842128196	-62.2765819428
106187500.0	-16.2993836135	107.145440391	-14.2042376785	-140.493580206	-60.7745579104	-93.0444151641	-21.8922050114	-62.3629478612
106875000.0	-16.3111689627	103.651370547	-14.0592049026	-141.902994035	-60.5317762008	-96.9904871663	-21.9871870426	-62.499705913
107562500.0	-16.3369538012	100.013771705	-13.9556647503	-143.217084712	-60.1501743806	-103.104170974	-22.095315105	-62.5194071376
108250000.0	-16.3604364276	96.2315006504	-13.9042999355	-144.351931069	-60.6250641866	-115.739481021	-22.1891788388	-62.6690854029
108937500.0	-16.3664227307	92.6590417101	-13.7774488649	-145.496992525	-60.1109614778	-138.818748362	-22.2790571054	-62.614374956
109625000.0	-16.383115438	88.9822465222	-13.6845904588	-146.529095447	-60.5232687347	-165.440926202	-22.3619816625	-62.5922722406
110312500.0	-16.3946348543	85.2284215885	-13.6214143819	-147.364669045	-60.2338399418	166.852090457	-22.4519585674	-62.6343484974
111000000.0	-16.4237477221	81.3560125679	-13.5882205561	-147.982031173	-60.3574237606	137.385746952	-22.5413759336	-62.6387297609
111687500.0	-16.4499265216	77.378149583	-13.5809080945	-148.237588096	-60.3354928778	107.928120877	-22.6285715768	-62.7286368271
112375000.0	-16.486782963	73.2963151532	-13.5827695509	-148.122850646	-60.5117308983	67.698903538	-22.7184896635	-62.8369280999
113062500.0	-16.523100287	69.1025390333	-13.5822833173	-147.548784254	-60.7239105729	26.7741052588	-22.8167570348	-62.9593992863
113750000.0	-16.5663356804	64.792249192	-13.5525799839	-146.559800256	-61.0998967383	-3.50193006073	-22.905524136	-63.0524434787
114437500.0	-16.6174704017	60.3540183163	-13.4808276115	-145.210141689	-61.1011324719	-35.831666986	-23.001627178	-63.1191886688
115125000.0	-16.6774497087	55.7830215312	-13.3573764835	-143.616992742	-61.2529793132	-70.515518949	-23.0877092587	-63.1689269617
115812500.0	-16.7437976286	51.0731604976	-13.1802503669	-141.828148863	-60.8605592173	-116.081148222	-23.1866390738	-63.1721156332
116500000.0	-16.8184123652	46.2903848716	-12.9435833098	-139.94925916	-61.3715949088	-154.137868452	-23.2700529214	-63.1398003777
117187500.0	-16.9111063177	41.3645172143	-12.654096674	-138.020430753	-61.6611186651	165.357553748	-23.3451681452	-63.1071951681
117875000.0	-17.0189295165	36.2839975754	-12.3105945598	-136.119983754	-61.9262101604	121.052288909	-23.4352415153	-62.925395015
118562500.0	-17.1476605074	31.0846785691	-11.9207300756	-134.253131412	-62.1772297121	79.9854535242	-23.5182791275	-62.6750446272
119250000.0	-17.2951508566	25.7677229423	-11.4805949084	-132.47830509	-62.059364029	36.0788010029	-23.6009290776	-62.2368038645
119937500.0	-17.4759228442	20.3753565673	-10.99920365	-130.808246764	-61.6170854061	-7.00288064595	-23.6780713059	-61.8604841209
120625000.0	-17.6878394571	14.8488706712	-10.4699361426	-129.267091874	-61.7920878855	-48.4051450372	-23.7508838128	-61.3996980439
121312500.0	-17.9557587172	9.23605483068	-9.90504363189	-127.873061681	-61.5875933063	-92.9022624697	-23.8013323849	-60.9121171599
122000000.0	-18.2595586253	3.56090304997	-9.29961400615	-126.636947665	-61.6205569356	-132.896217117	-23.8632332727	-60.4005112887
122687500.0	-18.6448235931	-2.08817353351	-8.65862493914	-125.596154785	-61.448509526	-173.528657476	-23.9091709707	-59.757010816
123375000.0	-19.1013078504	-7.69084302609	-7.98408809603	-124.744621187	-61.7226383805	143.89926867	-23.9453344963	-59.1013625944
124062500.0	-19.7001798074	-13.082379394	-7.27662901632	-124.098422396	-61.8441859031	107.764315917	-23.9677008223	-58.3518293855
124750000.0	-20.4512274993	-17.8440332786	-6.5373085358	-123.695192196	-61.7552163737	68.3176475644	-23.9948857771	-57.5508354242
125437500.0	-21.2422005794	-21.360132563	-5.76714079422	-123.524921501	-61.4646043998	28.6497498748	-24.0138504481	-56.6753869137
126125000.0	-21.9780191407	-23.2024588774	-4.96556810166	-123.635914916	-61.6462659064	0.268324163539	-24.0327698937	-55.8808392605
126812500.0	-22.5738752248	-24.5915266875	-4.1342679838	-124.035796621	-61.2123737695	-20.9911416546	-24.0512880058	-55.0244877802
127500000.0	-23.0412949421	-25.6175215577	-3.27587437716	-124.808827788	-61.2859311356	-36.228054618	-24.0429235344	-54.148120697
128187500.0	-23.4586011703	-26.5986587368	-2.39015396223	-125.976619255	-61.0360736523	-58.0430176606	-24.042301466	-53.1984242508
128875000.0	-23.8221894191	-27.4819543348	-1.48731586257	-127.646500799	-60.7146102041	-70.936799482	-24.0278588095	-52.1964943846
129562500.0	-24.140699629	-28.3556152333	-0.578963151572	-129.846539908	-60.4317486671	-82.1695490469	-23.9979400874	-51.2120107548
130250000.0	-24.4311604509	-29.2646347246	0.317948280383	-132.633365978	-60.1858790082	-85.1701505696	-23.9699007127	-50.2480372675
130937500.0	-24.6826362349	-30.1945635942	1.18019726635	-135.984035594	-59.775421998	-95.7589595858	-23.9426878606	-49.2863067063
131625000.0	-24.9152765873	-31.089843874	1.98951754425	-139.815441882	-59.612962577	-96.8699213383	-23.8961863542	-48.3898721131
132312500.0	-25.1201939202	-31.9670384949	2.74113538091	-144.01377305	-59.483313949	-104.132627829	-23.8558998634	-47.4492224988
133000000.0	-25.3153888491	-32.8539286833	3.42874608878	-148.525682855	-59.4381566508	-104.247992004	-23.795604673	-46.6377455136
133687500.0	-25.4894161327	-33.7511668236	4.04963472005	-153.218159559	-59.2803451937	-108.674890954	-23.7464040903	-45.8100473689
134375000.0	-25.6484900999	-34.6155823945	4.60835935497	-158.070630298	-58.6395476951	-118.882137107	-23.6953646147	-45.0589983706
135062500.0	-25.7799382681	-35.5836150934	5.10816245091	-162.988606816	-58.4751754082	-121.331912643	-23.6343790044	-44.4123430752
135750000.0	-25.8903517821	-36.4806450464	5.55021322488	-167.950538697	-57.9748131824	-130.078640649	-23.5713186651	-43.9004551461
136437500.0	-25.9756540003	-37.3783705881	5.94006852658	-172.912173412	-58.2503345024	-131.836967819	-23.5171657007	-43.5080134468
137125000.0	-26.0352740747	-38.285591633	6.27962789638	-177.865887748	-58.3804937007	-139.467167051	-23.4758293626	-43.1454268668
137812500.0	-26.0489513539	-39.1357981936	6.57238753934	177.250707273	-58.2150297087	-143.747486088	-23.4290725938	-42.7806869481
138500000.0	-26.0173482967	-39.9339103818	6.82293316336	172.411592976	-58.191094448	-149.609854116	-23.3837235397	-42.5328728727
139187500.0	-25.9295421624	-40.7858253018	7.03436416499	167.675675141	-58.2289030028	-150.072647978	-23.3441528218	-42.2245940277
139875000.0	-25.7678769942	-41.7785741345	7.20981888571	163.028782775	-58.5433573667	-160.351871997	-23.3135772961	-42.1153252374
140562500.0	-25.5335402901	-42.8405145145	7.35315730256	158.509032052	-58.2394766348	-165.019832882	-23.2936650975	-42.0864412392
141250000.0	-25.142573339	-44.1481252187	7.46661288166	154.102911266	-58.0424351102	-171.161987699	-23.268811322	-42.0969320742
141937500.0	-24.6106045371	-46.1249122186	7.5554912452	149.838459639	-57.664805934	-175.850632128	-23.2509783409	-42.1391811009
142625000.0	-24.0321309322	-49.3616073109	7.62241727276	145.689532913	-57.661338011	-176.246086193	-23.2359704046	-42.2231371453
143312500.0	-23.5104500304	-54.2758329952	7.66820708775	141.689718065	-57.3799699977	-176.881751509	-23.2344553615	-42.3357610386
144000000.0	-23.1181707267	-59.6811884242	7.69552629816	137.792927318	-57.5718850881	177.446190236	-23.2415232769	-42.5491295817
144687500.0	-22.8641883492	-65.4464637735	7.70978742573	134.042565213	-57.0212067433	174.173756074	-23.2643705391	-42.7427043105
145375000.0	-22.6418386012	-71.1962724783	7.71139912033	130.412993185	-57.3573573369	170.860183972	-23.2803372356	-43.0645434623
146062500.0	-22.4840338085	-77.0191190354	7.70248498267	126.914486453	-57.141718236	163.256898737	-23.313712504	-43.2832623498
146750000.0	-22.3539375675	-82.811926104	7.68329501671	123.513798149	-57.5890805975	161.009743785	-23.3472925744	-43.522073781
147437500.0	-22.2597227383	-88.4990755835	7.65595279566	120.245818736	-57.4220585461	155.289296898	-23.3859273489	-43.7480902769
148125000.0	-22.1990078027	-94.1292515152	7.62462289306	117.066240305	-57.5422095871	153.84687945	-23.4207670128	-44.0015801733
148812500.0	-22.1513102221	-99.7732173947	7.58699521743	114.005470226	-57.3984514431	147.054106096	-23.4687143565	-44.2445857794
149500000.0	-22.129513631	-105.257416772	7.54583809188	111.041684983	-57.4585420806	144.121344265	-23.5267138116	-44.437771636
150187500.0	-22.1022184198	-110.71328065	7.50083142564	108.176891555	-57.3002454654	136.953195815	-23.585313517	-44.6115590903
150875000.0	-22.0977103433	-115.996563768	7.45479377924	105.387358203	-57.64114242	135.479097889	-23.6478081612	-44.7257170876
151562500.0	-22.0831136875	-121.249610439	7.40599889376	102.689886505	-57.8619464159	134.637967769	-23.7150470419	-44.9090966765
152250000.0	-22.0841895881	-126.281702255	7.35664062874	100.063874496	-57.8448952544	133.131167827	-23.7909064148	-44.9738789308
152937500.0	-22.0774475207	-131.230171523	7.30480995622	97.5151678444	-57.8548483176	130.557734536	-23.8631568741	-45.0516213811
153625000.0	-22.0902007229	-136.094820018	7.25550171211	95.0328953268	-57.4752376634	129.812265707	-23.9465842014	-44.9950260699
154312500.0	-22.0843493018	-140.855183775	7.20398083915	92.6205953523	-57.5262677356	124.423435768	-24.0071384339	-45.0025957839
155000000.0	-22.0953044842	-145.499281572	7.15195852019	90.2642296695	-57.3462066934	124.992579037	-24.0805711088	-44.943326309
155687500.0	-22.089915969	-150.106673089	7.10030737809	87.9832772858	-57.6337689828	124.409395857	-24.1628695777	-44.8845618092
156375000.0	-22.1125623151	-154.589664146	7.04809979856	85.7405251622	-57.3561325939	118.492601801	-24.2394574424	-44.7818530707
157062500.0	-22.1122874216	-158.915853956	6.99773259949	83.5601888143	-56.8666930846	117.27526735	-24.3216973245	-44.608540672
157750000.0	-22.1179858258	-163.150843643	6.94757521642	81.4151074795	-56.9387845621	118.458101788	-24.3988555587	-44.4326271403
158437500.0	-22.1301053435	-167.335560083	6.89861257221	79.3220273911	-57.0789196414	116.876981859	-24.4977992365	-44.3124987529
159125000.0	-22.1272050382	-171.33000463	6.85066028305	77.2732031278	-57.2436113725	112.589913692	-24.5929584274	-44.0570342678
159812500.0	-22.1319610474	-175.246635377	6.80279600995	75.2713032807	-57.4446873095	112.949065295	-24.6835057238	-43.8347003461
160500000.0	-22.1351735522	-179.108765734	6.75621980245	73.2924539262	-57.2714782266	105.744399773	-24.7859613286	-43.6546700128
161187500.0	-22.1418746785	177.192298769	6.71127915755	71.3707757577	-56.8879512196	105.815408804	-24.8697158223	-43.3639504986
161875000.0	-22.1531741048	173.563600115	6.66654635933	69.4682335581	-57.1133616502	100.627885833	-24.9917664207	-43.2171662176
162562500.0	-22.1772886431	170.019361034	6.6225975059	67.6171502139	-57.0727798004	101.463299712	-25.0955635812	-43.0288463012
163250000.0	-22.1716937739	166.617299382	6.57885202963	65.7785136302	-57.217067086	101.893159264	-25.2208099076	-42.9252045385
163937500.0	-22.2026224598	163.257124334	6.53783185252	63.9937480259	-56.732413694	99.0755836481	-25.3346420368	-42.8383413763
164625000.0	-22.2163750855	159.988919521	6.49684786492	62.2173295274	-57.0261740825	96.1976168142	-25.4661060147	-42.761997605
165312500.0	-22.2448632589	156.815978132	6.45550641581	60.4950701193	-56.7675987705	93.5239910525	-25.5878869463	-42.5957227582
166000000.0	-22.2795783086	153.750834183	6.41735748626	58.7802425698	-57.2703167909	91.931034655	-25.7214188643	-42.574686108
166687500.0	-22.3210087692	150.57449188	6.37847822302	57.0978346429	-56.9584723187	81.496153572	-25.8522481412	-42.5736510984
167375000.0	-22.3677660065	147.606528483	6.34140093417	55.4316905314	-57.315640413	80.1994183101	-26.0072866617	-42.6978305506
168062500.0	-22.4162604327	144.537584131	6.30550080353	53.8025732408	-56.6375234107	82.3037962503	-26.1349576438	-42.8139707014
168750000.0	-22.4749468766	141.603484817	6.27130153618	52.1948004343	-56.943471772	81.7556527445	-26.2758751134	-43.0730700696
169437500.0	-22.5267688373	138.609499891	6.23746810457	50.6202800349	-56.6349277482	79.2090395434	-26.4187494733	-43.2339956999
170125000.0	-22.6027990565	135.704820441	6.20681170027	49.0489843808	-56.7441288985	79.4299372818	-26.5627907141	-43.5712113367
170812500.0	-22.6567549916	132.761876522	6.17473516976	47.5115551736	-56.7102057497	72.0614847716	-26.7020852189	-43.9292496382
171500000.0	-22.726980085	129.846262669	6.14548897429	45.9903120921	-56.7712179362	74.0077712809	-26.8411588962	-44.4940517833
172187500.0	-22.7912407017	126.80050401	6.1196012731	44.4900004874	-56.8007657872	70.0307246468	-26.9908120643	-45.0173771448
172875000.0	-22.8833043587	123.810991872	6.09490717707	43.0036600245	-56.6957458772	69.9302897591	-27.1181246433	-45.553180437
173562500.0	-22.9429589181	120.795788695	6.0706243811	41.5468021304	-56.9857639999	77.0996225254	-27.2655572321	-46.2419977033
174250000.0	-23.0345772614	117.749477528	6.04941767282	40.0912262108	-57.1450296279	77.4753770364	-27.3811661696	-46.8766196763
174937500.0	-23.1050546078	114.591753311	6.03070908077	38.6634093035	-57.0738472052	74.3270752931	-27.5014557548	-47.6093970895
175625000.0	-23.1823380598	111.467665068	6.01245991259	37.2372094173	-57.0050067636	74.1123784611	-27.6094190782	-48.2793426657
176312500.0	-23.2520970199	108.164589785	5.99476154905	35.8374187037	-56.8427670995	74.5029073933	-27.7237521666	-49.2195295654
177000000.0	-23.3138655983	104.927299771	5.98023258003	34.4394503136	-56.3938813058	74.0317790142	-27.8288606705	-50.0946148062
177687500.0	-23.3602338221	101.697362791	5.96678712408	33.0684166838	-56.9241714926	72.3690738993	-27.9392614419	-50.9820296075
178375000.0	-23.4092868616	98.3458065321	5.95490386518	31.6883493398	-56.8284516474	70.8690577047	-28.0334802899	-51.8004215041
179062500.0	-23.4375564287	95.0239527763	5.94380505394	30.337103808	-56.8585665262	69.5757924539	-28.093220659	-52.7217884515
179750000.0	-23.4557053324	91.6418927439	5.93545890285	28.9752505499	-56.5947299045	68.592214841	-28.1518721461	-53.5464046616
180437500.0	-23.4842980483	88.1438378129	5.92897055967	27.6243497642	-56.9624496272	65.7495516257	-28.1885837818	-54.3961461827
181125000.0	-23.479738895	84.645461959	5.92224432803	26.2737927971	-56.9146920285	65.9560632971	-28.2371978271	-55.070094999
181812500.0	-23.483115952	81.2162366293	5.91743443879	24.9409605318	-57.0979730008	67.3898507107	-28.2699466265	-55.8093949769
182500000.0	-23.4580105035	77.696104254	5.91469507208	23.6004620339	-57.0286098544	60.0997041993	-28.3246073748	-56.5118735832
183187500.0	-23.4223653049	74.2496889069	5.91289649405	22.2866203635	-57.0665270423	59.9243650626	-28.3467644582	-57.1276261364
183875000.0	-23.3640535936	70.8819494023	5.91176120095	20.9631552734	-57.3185607313	64.4634792177	-28.3433076506	-57.7215500025
184562500.0	-23.3193584575	67.4256795184	5.91055861507	19.6608769413	-57.3411583945	64.411308354	-28.3192826385	-58.1989577437
185250000.0	-23.2405336088	64.0616054017	5.9110151408	18.3501587869	-57.6394749418	52.7258091965	-28.3159740744	-58.5493887934
185937500.0	-23.1713398966	60.731542453	5.91107867047	17.0466551803	-57.4818209735	52.3274516793	-28.2962561123	-58.730168461
186625000.0	-23.0990748763	57.4500007306	5.91520030033	15.7360588634	-57.6155869067	45.3057556725	-28.2898876187	-59.0713510681
187312500.0	-23.002931455	54.078281538	5.91896076461	14.4444702007	-57.6409033388	44.2647833363	-28.2681486548	-59.110802949
188000000.0	-22.9113999318	50.870448467	5.92336049712	13.1442190924	-57.8691704184	44.7723978282	-28.2433785092	-59.1651484493
188687500.0	-22.8224238407	47.6664406194	5.92783578234	11.8598132196	-57.8997042775	44.7091018496	-28.2086609495	-59.0153106356
189375000.0	-22.7315150466	44.5948471809	5.93320636997	10.5785376427	-58.0969038044	41.1346657563	-28.1800568074	-58.8960534403
190062500.0	-22.6210791195	41.5346268481	5.93917663377	9.30476629792	-58.0912060521	42.3521973132	-28.1443837559	-58.6491901615
190750000.0	-22.5302217319	38.5211578319	5.94773948856	8.0252994253	-58.3634333606	31.7835804295	-28.1217062395	-58.2974239976
191437500.0	-22.4298944247	35.5545706164	5.95432984142	6.77158417601	-58.4223925059	29.0803399543	-28.0776258784	-57.948925789
192125000.0	-22.3399600761	32.7224199953	5.9608335128	5.50524689174	-58.5461650062	23.2367321836	-28.0612551425	-57.4925635355
192812500.0	-22.2366990947	29.8448007836	5.96981896511	4.2594979961	-58.4528097976	21.3788531828	-28.027395931	-57.061218916
193500000.0	-22.161003839	27.1191870016	5.97862713218	2.99462580497	-58.5438842147	20.9312930083	-27.9995195532	-56.4339089578
194187500.0	-22.0834655713	24.3130100669	5.98697790251	1.75106233768	-58.797238661	12.9880476263	-27.9621972641	-55.7741159305
194875000.0	-22.0391525625	21.5146886869	5.99691409245	0.489284259567	-58.6427444969	13.1391602102	-27.921478526	-55.0913081193
195562500.0	-21.9783380644	18.799670143	6.00851310243	-0.751128685584	-58.7832559852	9.51734494119	-27.9074830822	-54.4140753123
196250000.0	-21.9439843321	16.0388767858	6.02008808935	-1.9961645407	-58.6706609639	11.5973835847	-27.9053036829	-53.6265563485
196937500.0	-21.8967149094	13.2778782258	6.03203449431	-3.22916881718	-58.7167710584	5.09437096247	-27.9062326003	-52.7120892756
197625000.0	-21.8722691704	10.5275697711	6.04405388942	-4.44703504341	-58.4361700548	5.63401486647	-27.9106995249	-51.8313686658
198312500.0	-21.840154895	7.82472939794	6.05796265589	-5.66223249796	-58.7751903423	-1.39246029123	-27.9053393399	-51.1179906911
199000000.0	-21.8236753352	4.95842123426	6.0738559455	-6.89500717453	-58.6148716863	-1.63653508873	-27.8896405753	-50.3688567146
199687500.0	-21.8049192504	2.13925575841	6.08859926682	-8.10629080449	-58.614053332	-0.977545335343	-27.8722053001	-49.5798686728
200375000.0	-21.8044613032	-0.695739065206	6.10264759879	-9.33717198398	-58.6055687889	0.510775822021	-27.8903911391	-48.8194626991
201062500.0	-21.7974410956	-3.59534393749	6.11776687752	-10.5432018964	-58.5085417379	2.80088095664	-27.9219922833	-48.0035078186
201750000.0	-21.783133591	-6.49272316263	6.13574430995	-11.7603311772	-58.2883774829	3.47487898842	-27.9438194396	-47.2840586544
202437500.0	-21.7834723767	-9.39304231708	6.15257603765	-12.9641064021	-57.9291076792	3.40093748398	-27.9899626416	-46.6905473741
203125000.0	-21.7737128568	-12.298079606	6.17213626935	-14.1747955709	-57.6769914213	0.983973993358	-28.0108326813	-46.1025566382
203812500.0	-21.7550669566	-15.2436868184	6.18917971694	-15.368110082	-57.8319823675	5.97477937824	-28.0307880874	-45.4462509401
204500000.0	-21.7541619276	-18.1932625711	6.20862826154	-16.5834595428	-57.6631862105	5.79432615448	-28.0584085729	-44.8470292421
205187500.0	-21.7464813214	-21.1877970877	6.22889087402	-17.7732507101	-57.6646853008	6.0653493855	-28.099932636	-44.174780636
