#Frequency	|S11|	<S11	|S21|	<S21	|S12|	<S12	|S22|	<S22
100000000.0	-18.6729766212	127.520118717	-17.6270235505	-128.338870039	-61.3601780711	-140.527345442	-21.4111047235	-65.5376319285
100687500.0	-18.6345371716	124.860567167	-17.2262418513	-129.138466859	-62.846061317	10.5918125376	-21.3677065166	-65.7811112244
101375000.0	-18.5936123467	121.589703543	-16.8515670039	-130.442326143	-60.0014974148	66.7874254992	-21.4331541105	-65.8506801458
102062500.0	-18.5386157873	118.458683869	-16.5015213315	-131.702669726	-60.2770246164	131.876448782	-21.5173779212	-65.8659707963
102750000.0	-18.496303802	115.151781735	-16.1692199397	-133.032370361	-60.5491604154	-175.114070599	-21.5756139168	-65.7714213621
103437500.0	-18.4551077526	111.959101571	-15.8571725775	-134.424035188	-60.8496762095	-144.766498568	-21.6357092192	-65.7833215584
104125000.0	-18.4258864878	108.56582441	-15.5567029855	-135.839771481	-60.9127273054	-140.846514769	-21.7186692299	-65.7468327559
104812500.0	-18.3979599247	105.235247859	-15.2908184427	-137.210562975	-61.0297686383	-135.958908834	-21.7985715588	-65.9256023986
105500000.0	-18.3735558546	101.744489278	-15.0529567482	-138.618807501	-61.3996856442	-114.541872782	-21.8572312546	-66.0433799543
106187500.0	-18.3564872716	98.1398914594	-14.8456756965	-139.984773496	-61.6852053272	-108.615133081	-21.9267959486	-66.137729776
106875000.0	-18.3422908026	94.4603555264	-14.6718633649	-141.303497322	-61.8054017738	-122.395912694	-22.0022941545	-66.2844923825
107562500.0	-18.341151517	90.5844598517	-14.5408785194	-142.546373518	-61.3611055177	-120.498930995	-22.0776954634	-66.3576006715
108250000.0	-18.3339690813	86.5471564008	-14.4550733342	-143.622574178	-61.5005387493	-111.135462939	-22.1534348444	-66.5196352425
108937500.0	-18.316331378	82.717004184	-14.3016789314	-144.675659837	-62.1060586921	-82.2454147165	-22.2260716103	-66.5660834077
109625000.0	-18.3058115473	78.7782175002	-14.1787626368	-145.665399825	-61.9005815663	-64.5759236584	-22.3034980871	-66.6331109031
110312500.0	-18.2817183663	74.7403739412	-14.0815832286	-146.453674354	-62.2699753438	-46.3980900078	-22.3864767256	-66.6902731409
111000000.0	-18.2711445042	70.6134344844	-14.0137133245	-147.036996897	-62.2985938765	-19.3829123454	-22.4641201072	-66.7249756369
111687500.0	-18.2495411476	66.3963737341	-13.9702478732	-147.305683112	-62.8910981932	-1.13587547023	-22.5313300889	-66.8388135897
112375000.0	-18.2388045377	62.0464838805	-13.9388935849	-147.226757078	-63.1007746635	9.90325251696	-22.6028567061	-66.9075425314
113062500.0	-18.2219890146	57.6212853024	-13.9011146501	-146.705683367	-63.2648766725	23.2235827867	-22.6754892503	-66.9549829731
113750000.0	-18.2139240594	53.0936510817	-13.840707568	-145.780035176	-63.3584657976	32.183565854	-22.7520802418	-67.0307407938
114437500.0	-18.2009135724	48.443369064	-13.7416292476	-144.501812369	-63.1005960958	46.9063112636	-22.8310772977	-67.0378198303
115125000.0	-18.1938132698	43.6108736597	-13.5912244188	-142.946233872	-63.3096114562	51.1045513947	-22.9143694155	-67.0587907114
115812500.0	-18.1851170708	38.6332154629	-13.3840624169	-141.206991788	-63.436764394	65.7114574624	-22.9951394132	-66.971310699
116500000.0	-18.1832704815	33.5967342335	-13.1226410382	-139.354692688	-63.4977143047	82.3904396505	-23.071616448	-66.8760687515
117187500.0	-18.1810604122	28.4026436084	-12.8072432494	-137.473169095	-63.364459141	97.0613814805	-23.1409548403	-66.8121647529
117875000.0	-18.1958547681	23.0631495447	-12.4337662777	-135.624835093	-63.1834857279	123.551541867	-23.2237175196	-66.5386233827
118562500.0	-18.2286714181	17.5816463317	-12.0125647575	-133.832201223	-62.9739522674	138.056674258	-23.3049456322	-66.2294837086
119250000.0	-18.2680152228	12.0022273764	-11.5428167528	-132.114741478	-62.7204373858	142.176000836	-23.3899273633	-65.8007016578
119937500.0	-18.3353867592	6.28879737825	-11.0276539679	-130.52744095	-62.7295413508	157.16714584	-23.4564533332	-65.3927220633
120625000.0	-18.4153479369	0.479003799022	-10.4691567818	-129.082486387	-62.2734113995	170.785020594	-23.5324131154	-64.9371337472
121312500.0	-18.5403905701	-5.44890650689	-9.87363210737	-127.818703604	-62.0190873225	-176.129375298	-23.5914786881	-64.3710922449
122000000.0	-18.6854086046	-11.3981341619	-9.24153533557	-126.728654842	-61.8647234176	-159.529906189	-23.6600565858	-63.7438985091
122687500.0	-18.8988403683	-17.3481977585	-8.57325107566	-125.865133556	-61.6974830926	-142.616043291	-23.717743462	-63.0665204267
123375000.0	-19.1428344077	-23.2546456193	-7.8748497346	-125.196896723	-61.5566010802	-125.929977636	-23.7579148475	-62.3409031054
124062500.0	-19.463053626	-29.1087696338	-7.1445345638	-124.742854565	-61.5773578112	-112.558943955	-23.8014595976	-61.5960778119
124750000.0	-19.843235513	-34.6499856002	-6.38853729603	-124.537683213	-60.8423735786	-98.6587944508	-23.8369935545	-60.750943029
125437500.0	-20.2772545086	-39.7132894963	-5.60528181812	-124.591272653	-60.9518183021	-88.6525354988	-23.8627379453	-59.848833696
126125000.0	-20.735838241	-44.0907254502	-4.79693183813	-124.940521795	-60.0151471186	-87.5850147261	-23.8855430542	-59.0219514536
126812500.0	-21.1983567624	-47.9228481018	-3.96294933023	-125.569519033	-59.7667660097	-82.3127108368	-23.8970600625	-58.1188731609
127500000.0	-21.6095626301	-51.0769979425	-3.10604578687	-126.56871041	-59.0894768084	-83.7186681899	-23.8950122864	-57.2898732345
128187500.0	-21.9935373373	-53.8794370772	-2.22536398834	-127.937069393	-59.5316132569	-92.9372803431	-23.8970879877	-56.4072705098
128875000.0	-22.3187253392	-56.4836162862	-1.32927621557	-129.784206373	-59.8261982074	-95.3623962176	-23.889443606	-55.4673808003
129562500.0	-22.6092303038	-58.9137254382	-0.427215745014	-132.144429101	-59.4324641854	-97.1334059418	-23.8751823811	-54.5908766776
130250000.0	-22.8635480311	-61.2342037894	0.459035211926	-135.091930398	-58.8794895454	-97.028046182	-23.8648607157	-53.807215316
130937500.0	-23.0770320372	-63.4749615212	1.31638893141	-138.573521248	-58.6895624931	-101.040446583	-23.8503870113	-52.9370527039
131625000.0	-23.2879102572	-65.617775533	2.12213594604	-142.539930612	-58.7796735834	-105.082402405	-23.8214241497	-52.172455503
132312500.0	-23.4634928833	-67.6490839016	2.87000271568	-146.881502452	-58.7290964011	-107.212494531	-23.7872542857	-51.3370577985
133000000.0	-23.6258340267	-69.6120497511	3.55288944107	-151.548005024	-58.3698348838	-113.248194708	-23.7483465404	-50.6829127087
133687500.0	-23.7528662705	-71.5418549949	4.16828978711	-156.408084517	-58.4120384829	-115.740446031	-23.7154593195	-50.0164845195
134375000.0	-23.8835008297	-73.3813447268	4.72076055461	-161.426572983	-58.0227754251	-122.573984795	-23.6853772209	-49.4433348418
135062500.0	-23.9641948231	-75.1696395846	5.21008587694	-166.500629999	-57.9765045845	-134.606206845	-23.6374704504	-49.0073800479
135750000.0	-24.0367297643	-76.8315070166	5.64184501726	-171.617907625	-58.0641242838	-142.946780721	-23.5837014135	-48.5842443752
136437500.0	-24.0813802616	-78.443328327	6.01793879252	-176.720906731	-57.8646971484	-145.004450779	-23.5386815669	-48.3396355712
137125000.0	-24.1027379527	-79.9851947655	6.34457115286	178.193581303	-57.8074679722	-153.328976159	-23.5028097898	-48.1670097514
137812500.0	-24.0967600212	-81.4241559271	6.622951745	173.193040901	-58.1462441898	-153.751464494	-23.4564763795	-47.9819431396
138500000.0	-24.0531651988	-82.7416636565	6.85861265014	168.263563381	-58.1299012918	-162.263227963	-23.4099629638	-47.984326471
139187500.0	-23.971954731	-84.0790734345	7.05383169066	163.457380312	-57.9070589331	-165.302625026	-23.3616210172	-48.0082697675
139875000.0	-23.8318286071	-85.368094556	7.21270257901	158.761459332	-57.628245619	-164.953744281	-23.3221145668	-48.1108506122
140562500.0	-23.6542046892	-86.7263349592	7.34252344207	154.197398164	-58.002431973	-169.450886726	-23.2985014984	-48.2964103374
141250000.0	-23.3997739285	-88.1097967204	7.44433733561	149.756058195	-57.9122680994	-176.950409664	-23.2675309422	-48.5665047637
141937500.0	-23.0922479581	-89.7150829049	7.52273914364	145.472839906	-58.0687692051	-179.151159494	-23.2332783176	-48.8553679176
142625000.0	-22.7263653773	-91.765283829	7.5805553759	141.315296026	-57.9952858451	172.712074637	-23.2157111016	-49.2353929472
143312500.0	-22.341650548	-94.4285556963	7.6193817684	137.314921637	-58.2779837797	169.215132194	-23.194167179	-49.5851315334
144000000.0	-21.9484398659	-97.5893985919	7.6444177256	133.431062959	-58.1102601407	164.049439683	-23.1900323783	-50.0083401785
144687500.0	-21.6246573164	-101.377662982	7.65567607679	129.705135776	-58.6264442861	162.331353763	-23.1779112467	-50.4495068261
145375000.0	-21.3147831575	-105.43354887	7.65752543221	126.082161631	-58.0646315026	159.664517572	-23.1798696111	-50.9487371138
146062500.0	-21.0819876966	-109.609803108	7.6489636425	122.594447628	-57.5028489551	159.954052392	-23.1889901984	-51.4143193256
146750000.0	-20.8806147825	-113.895430134	7.63309408833	119.202105259	-57.6066147351	156.579914604	-23.2068355639	-51.8303079968
147437500.0	-20.7268589377	-118.198389912	7.60911906341	115.945667205	-57.8139909198	149.990470268	-23.2062034468	-52.2903604135
148125000.0	-20.6050854582	-122.521571612	7.58166584694	112.772655077	-58.4574161761	148.582644337	-23.2158996373	-52.7729150654
148812500.0	-20.5083441298	-126.863654922	7.54898909111	109.702155493	-58.3430405173	142.644154849	-23.2219386841	-53.2174864838
149500000.0	-20.4460710701	-131.124345703	7.51259553161	106.716411858	-57.9956062838	143.433870535	-23.2491058355	-53.6206411783
150187500.0	-20.4045698118	-135.363528712	7.47178470397	103.832817415	-57.9539388153	140.3877452	-23.2617222173	-54.0093317696
150875000.0	-20.3950818283	-139.519593262	7.43107989699	101.024838482	-57.861725802	139.03567122	-23.2727421624	-54.3462941905
151562500.0	-20.3836890061	-143.697428851	7.38761832197	98.2981066642	-57.9938949058	136.049227314	-23.2684327911	-54.6402437386
152250000.0	-20.40965308	-147.78165304	7.34350887871	95.6401856883	-58.658895537	134.605237507	-23.2925331282	-54.8458023498
152937500.0	-20.4368248906	-151.857108163	7.2965188612	93.0584884174	-58.4728129953	132.431147036	-23.2998773024	-55.076456279
153625000.0	-20.493935946	-155.834177076	7.25142171477	90.5339965039	-58.7482706972	130.803201846	-23.3387741693	-55.1837299389
154312500.0	-20.537209271	-159.76036622	7.204647036	88.0815387404	-58.6302424701	127.945545483	-23.3407293743	-55.3022429604
155000000.0	-20.6048099623	-163.691302151	7.15749900095	85.6698404585	-58.6333347937	117.041730044	-23.3663084665	-55.3882479436
155687500.0	-20.6706826491	-167.601172639	7.11078079987	83.3306244064	-58.4976502785	116.808388423	-23.3949475676	-55.4468683516
156375000.0	-20.7597502813	-171.472473787	7.06341022957	81.0315872112	-59.2522765945	108.312771189	-23.4176797088	-55.4120701362
157062500.0	-20.8338425274	-175.325159053	7.0174934232	78.7901659798	-59.1338196204	109.040695498	-23.4382767565	-55.3379626672
157750000.0	-20.9212365528	-179.080767083	6.96980726237	76.5893258012	-58.8948349754	103.013387479	-23.4563667599	-55.252328287
158437500.0	-21.0098038599	177.189604879	6.92295429899	74.4439286456	-58.8107727964	103.87889953	-23.4835344946	-55.1432522472
159125000.0	-21.0939903003	173.428784518	6.87738153312	72.3278388591	-58.8127545271	106.885396613	-23.5294121482	-55.0453670653
159812500.0	-21.1891763777	169.745015214	6.8327302038	70.265880975	-59.153861485	106.193129732	-23.5516880402	-54.8790215108
160500000.0	-21.2803882507	166.088896332	6.78883530624	68.2304860779	-59.0253057585	100.993875453	-23.5929202503	-54.7744949377
161187500.0	-21.3719641707	162.430115405	6.74411404894	66.2439878223	-59.1193797581	101.921814968	-23.6194320717	-54.5462798803
161875000.0	-21.4684762358	158.853342362	6.70190048937	64.2745870995	-58.658763577	94.4778050142	-23.6723206331	-54.3131663027
162562500.0	-21.5745725619	155.263307971	6.65894577801	62.360121433	-58.5599062028	93.9518161206	-23.7195876034	-54.1238981834
163250000.0	-21.6580492335	151.725777843	6.6182847921	60.4559256082	-58.2249569048	87.2685996483	-23.7749483462	-53.9497197743
163937500.0	-21.7535215641	148.219880026	6.57709927617	58.6102713451	-58.2816068267	86.711071887	-23.8283744133	-53.698458214
164625000.0	-21.843257025	144.730547219	6.53954883749	56.7729173642	-58.0853300357	85.6596011009	-23.8857522019	-53.451585868
165312500.0	-21.9595659712	141.327184681	6.49930042815	54.9852075886	-57.841909172	82.6909609053	-23.9506389799	-53.1899770768
166000000.0	-22.0493044257	137.977390373	6.46317021781	53.2103960249	-57.4858646214	81.3687847546	-24.0100346848	-53.0391904492
166687500.0	-22.152958531	134.622893975	6.42580362382	51.4729269385	-57.8019253526	79.6226062646	-24.086803867	-52.8566102043
167375000.0	-22.2462198639	131.336782007	6.39006742583	49.757014822	-57.6404142268	80.3735565299	-24.1641653865	-52.7711696423
168062500.0	-22.3488989359	128.036756312	6.35483172776	48.0759655019	-57.9520597573	78.1438174665	-24.2507727093	-52.6347196359
168750000.0	-22.4453115357	124.770543217	6.32107116071	46.4222802545	-57.7048042315	77.6950159253	-24.345239341	-52.6489343723
169437500.0	-22.5411003341	121.507066911	6.28799350185	44.7905753916	-57.4757258584	73.4493184383	-24.4311437188	-52.6693722037
170125000.0	-22.6388092222	118.247567721	6.25872419858	43.1608284208	-57.3038950042	73.3683680598	-24.5255443136	-52.6731694379
170812500.0	-22.7328654041	114.9710507	6.2291813645	41.5695943397	-57.2514332282	67.0335628527	-24.6081733659	-52.7229207605
171500000.0	-22.8388385422	111.722790291	6.20141301818	39.9973933144	-57.2833137903	69.3859287713	-24.7167119805	-52.7906979121
172187500.0	-22.939907673	108.468089894	6.17561387369	38.4593547395	-56.9882293012	82.7584119562	-24.8093928782	-52.9438299187
172875000.0	-23.0380749487	105.176985226	6.15166531727	36.9199606144	-57.2509007628	82.7965793145	-24.9015198664	-53.0428740576
173562500.0	-23.1113924107	101.937795578	6.12923868505	35.4158699953	-56.6589322961	84.3689814254	-25.0089485376	-53.2752907675
174250000.0	-23.219140865	98.6956966974	6.10971111885	33.9252741443	-56.6660175593	82.38483816	-25.1114314484	-53.5561394542
174937500.0	-23.293049919	95.3837464353	6.09249994347	32.451641099	-56.3855923604	82.6544700654	-25.2255210723	-53.8783123132
175625000.0	-23.3792270774	92.0172221561	6.07733093001	30.9798633341	-56.7645790714	82.1695303498	-25.3227778637	-54.127621129
176312500.0	-23.4519884913	88.6600439057	6.06142013639	29.542897562	-56.9758505587	71.0289072133	-25.406602564	-54.4593755846
177000000.0	-23.5206221487	85.3276371878	6.04928275422	28.1032226583	-56.9350489036	69.2783505991	-25.5289303342	-54.8708922317
177687500.0	-23.5661130431	81.9355550873	6.0385353258	26.6740985946	-56.9207026145	69.2777257739	-25.6250521163	-55.2859846151
178375000.0	-23.623621192	78.5741397616	6.03058631467	25.2471199489	-57.094306515	71.4235152589	-25.7481663933	-55.5878516089
179062500.0	-23.6574884009	75.1450869858	6.02343528895	23.8409061985	-57.2227017686	73.8463802649	-25.8273707768	-56.021673689
179750000.0	-23.6936788983	71.6978431155	6.01759572588	22.4343562131	-57.4531872708	75.2301750507	-25.9172483274	-56.3158926558
180437500.0	-23.7304224791	68.171566909	6.01179533074	21.0475341978	-57.6292572519	72.8165587954	-25.9853649222	-56.6811899027
181125000.0	-23.7533845224	64.661587347	6.00930596921	19.6527907922	-57.9583695785	64.622327239	-26.0773516594	-57.0383379911
181812500.0	-23.7720856972	61.2302555714	6.00712939996	18.2776582313	-57.9721914906	64.7236839625	-26.1650154506	-57.4392384991
182500000.0	-23.7592002052	57.6872294876	6.00779602276	16.89876036	-58.1437414698	58.6166738273	-26.2571403065	-57.7771407562
183187500.0	-23.7544875329	54.2088088854	6.00686695481	15.5343179126	-58.6238722418	57.9489039643	-26.3428940914	-58.0097467024
183875000.0	-23.7370152022	50.6863018943	6.00844753011	14.1619906763	-58.4968414754	56.0562834648	-26.4144315403	-58.2970930219
184562500.0	-23.7281212187	47.140145994	6.01044902768	12.8104090476	-58.6654896794	54.9360393619	-26.4680176235	-58.5077087155
185250000.0	-23.6932518806	43.6082438845	6.01519400052	11.4437746002	-58.855358231	50.2891528046	-26.5368334221	-58.6881833076
185937500.0	-23.670651423	40.0539095045	6.01906481385	10.0824840457	-58.9351259342	50.9631136571	-26.59538677	-58.7340124538
186625000.0	-23.6372561892	36.5670879941	6.02683512366	8.72111220251	-58.6471239361	49.8458007151	-26.6804417272	-58.7889097058
187312500.0	-23.5946728627	33.0496097355	6.03338904104	7.38205069283	-58.7188129543	49.2317419346	-26.7460244994	-58.8283468407
188000000.0	-23.5430055336	29.5281108553	6.04080704649	6.02946545701	-58.5695319533	49.0826938306	-26.792094437	-58.8461834376
188687500.0	-23.5007495505	26.0152349624	6.04842288876	4.68977624209	-58.3941984651	45.5116106402	-26.8566170835	-58.8300652719
189375000.0	-23.4325863523	22.5042982164	6.05629682329	3.33940963068	-58.3245883677	35.4021413998	-26.9222604197	-58.7212693401
190062500.0	-23.3803974303	19.0319917128	6.06420210569	2.01156984201	-58.6652375511	28.348964833	-26.993794998	-58.5512523278
190750000.0	-23.319758282	15.4895311778	6.07489917834	0.677646992992	-58.8707794605	28.7453292442	-27.0655341134	-58.4569196169
191437500.0	-23.2475052712	11.9325464752	6.08449621029	-0.643179860453	-58.9789299906	24.1740002482	-27.1246253376	-58.2382021065
192125000.0	-23.1831572083	8.47601242137	6.09518743512	-1.96096562037	-59.1580308212	23.8952653776	-27.1814017375	-57.9987686167
192812500.0	-23.0980666438	5.00869495864	6.10601599172	-3.26540337309	-59.5111676105	22.5424317668	-27.252413724	-57.8233406129
193500000.0	-23.0303510097	1.52133256979	6.11961675476	-4.58727143895	-59.2198528951	23.1544160842	-27.3294589482	-57.5737184663
194187500.0	-22.945334272	-1.98395319059	6.13140254147	-5.88983860641	-59.3380802809	18.2102154253	-27.3844743004	-57.1709699005
194875000.0	-22.8859162163	-5.49194766163	6.14392654583	-7.19795261526	-59.1628941879	17.358673835	-27.4546196466	-56.8146042558
195562500.0	-22.7960383661	-8.99531644426	6.15760216736	-8.4869831282	-59.0887122497	6.6191047301	-27.5168621172	-56.5592568752
196250000.0	-22.7185155274	-12.4533709479	6.169236162	-9.78577448507	-58.9779445316	4.83957414312	-27.593812646	-56.3240428089
196937500.0	-22.6183679368	-15.8373383223	6.18241664349	-11.0709707072	-59.016446929	4.08747971282	-27.6668368542	-55.8201869601
197625000.0	-22.5256450201	-19.1874478755	6.19745187907	-12.3504237454	-58.9379215012	5.36060920234	-27.7399823464	-55.4931931845
198312500.0	-22.4190524615	-22.5295470766	6.21252440429	-13.6192813946	-58.5210581338	7.57282720201	-27.7989870627	-55.2935894873
199000000.0	-22.3258490517	-25.9202065601	6.22861371349	-14.9019802248	-58.4569233212	5.98604792409	-27.8564853949	-54.9914854359
199687500.0	-22.2138288938	-29.1710810294	6.24412290978	-16.1655238304	-58.0339754785	6.52177250645	-27.9327120092	-54.7652876518
200375000.0	-22.1141210222	-32.4492195877	6.2621119622	-17.4420855771	-57.6025127349	8.93401520108	-28.0015535636	-54.7214882978
201062500.0	-21.9946970853	-35.6851568456	6.27975058228	-18.7011685318	-57.3872794638	5.87422196805	-28.0837991008	-54.6206418509
201750000.0	-21.8670006031	-38.8943787351	6.29988414899	-19.972292015	-57.2020274585	6.21759608961	-28.1731263092	-54.4935168836
202437500.0	-21.7449658703	-41.9694406654	6.31853642458	-21.2215682439	-56.6503106935	5.33599845533	-28.2474732869	-54.5205261811
203125000.0	-21.6118210491	-44.9508981165	6.34033872536	-22.4747890384	-57.1560726778	2.87708899317	-28.3276087349	-54.6031224789
203812500.0	-21.4715254314	-47.9357159314	6.35946931204	-23.7126548459	-56.9590361629	-0.321843795907	-28.3712178091	-54.8293792155
204500000.0	-21.3340312883	-50.8608295444	6.38161878776	-24.9657091586	-57.0882200728	-6.25460677157	-28.4313027896	-54.9820875397
205187500.0	-21.1973079009	-53.6823682143	6.40423532412	-26.1999886572	-56.9832480828	-7.24883753898	-28.4989043448	-55.1182275553
