#Frequency	|S11|	<S11	|S21|	<S21	|S12|	<S12	|S22|	<S22
100000000.0	-16.8833264155	146.922919241	-17.9550240219	-126.104685607	-73.3547246224	43.4811454113	-20.1760648228	-57.4212357849
100687500.0	-16.8651374553	144.092387948	-17.5797563481	-127.520888815	-65.6608841571	-8.27265047958	-20.2857331591	-56.3412811481
101375000.0	-16.8275681346	140.961739754	-17.1779315026	-128.800549315	-62.902513055	34.4539010082	-20.3713596448	-55.8342834884
102062500.0	-16.8255593288	137.843316252	-16.7955792042	-130.211184577	-61.8264719262	12.9456525559	-20.4647187403	-55.2352230517
102750000.0	-16.8004311405	134.654531804	-16.4393714282	-131.550380098	-61.3738049596	18.2263576719	-20.575587836	-54.7754173288
103437500.0	-16.7810347255	131.516267731	-16.1120121022	-132.943712483	-61.4630913081	80.047590126	-20.7045530075	-54.2412909156
104125000.0	-16.7806170088	128.317003007	-15.8021159573	-134.330033553	-60.9717906321	125.920874787	-20.8512417688	-53.6427738167
104812500.0	-16.7809534475	125.128495824	-15.5157373556	-135.730778153	-60.4054656264	137.36459232	-20.99223139	-53.3281561953
105500000.0	-16.7864015432	121.811831621	-15.257019997	-137.157244678	-60.8422424974	128.207276673	-21.1339733939	-52.922534181
106187500.0	-16.7957859995	118.494085834	-15.0257250358	-138.559551424	-61.4826967705	116.346907016	-21.3035051044	-52.6107937703
106875000.0	-16.815658055	115.093348838	-14.8280070412	-139.959940273	-61.4889471651	117.922410917	-21.4707628468	-52.4766986128
107562500.0	-16.8474671881	111.600293321	-14.665817171	-141.321736304	-61.5842901856	129.895031982	-21.6577326382	-52.2956662699
108250000.0	-16.8855950237	107.967513992	-14.5403160113	-142.568388582	-61.4279707365	145.276613367	-21.8430569253	-52.1992215891
108937500.0	-16.914864369	104.455991184	-14.357403425	-143.845252375	-60.9276873182	161.408930631	-22.0054866149	-51.9553813423
109625000.0	-16.9469964823	100.839697565	-14.1949153879	-145.030084167	-60.8139741676	-172.649792229	-22.1688141413	-51.7339731067
110312500.0	-16.9715843788	97.1922868193	-14.0677465298	-146.130116998	-61.1521863478	-155.528508456	-22.3486444511	-51.5508325861
111000000.0	-17.0189060308	93.4475712669	-13.9669283859	-147.106350216	-61.3929736922	-152.215884918	-22.5316448358	-51.4343170201
111687500.0	-17.0644756895	89.5977396745	-13.901378445	-147.899785881	-61.4759345127	-136.37108219	-22.7146125497	-51.3887859833
112375000.0	-17.1199377013	85.6313259988	-13.8626966587	-148.430753246	-61.5665373431	-120.908192823	-22.897741627	-51.4005331794
113062500.0	-17.1678568552	81.5809756839	-13.8514136991	-148.648471674	-61.7485288748	-118.29436509	-23.0915606349	-51.4513361058
113750000.0	-17.2321302307	77.4498156802	-13.8456402231	-148.480590358	-61.9303130709	-106.235329967	-23.2846258566	-51.5203303288
114437500.0	-17.2999507716	73.2111284806	-13.8390332588	-147.875421873	-61.9444236548	-101.242339546	-23.4915763245	-51.6090034
115125000.0	-17.3809337475	68.827280373	-13.8023363696	-146.828474586	-61.9256354111	-99.6292531131	-23.6891635514	-51.7349875065
115812500.0	-17.4581614517	64.2942339696	-13.7264009647	-145.424149237	-61.7075022919	-110.617980712	-23.8968862145	-51.8745921511
116500000.0	-17.5481397746	59.6418812965	-13.5945117738	-143.740069386	-61.9238005618	-110.234610492	-24.0922323195	-52.103578761
117187500.0	-17.6360394399	54.8327280325	-13.4081766166	-141.880380446	-61.9145486514	-122.029716098	-24.2917573918	-52.2477008447
117875000.0	-17.7420067855	49.8877771912	-13.1595393517	-139.922314316	-62.0560954772	-125.387402086	-24.4981124714	-52.4139310459
118562500.0	-17.8610360008	44.7092726362	-12.8576919866	-137.932810467	-62.1259006768	-124.038066564	-24.7109305856	-52.5475744019
119250000.0	-17.9937690687	39.3929556442	-12.4986401571	-135.941236225	-61.95186935	-121.617700261	-24.9028699473	-52.5621975518
119937500.0	-18.1468587095	33.9012418166	-12.090195444	-134.017633131	-61.7717386762	-120.444007669	-25.0935421546	-52.6822701247
120625000.0	-18.3126215197	28.2283067201	-11.6299365023	-132.170200614	-61.5837662375	-107.79298279	-25.2847876267	-52.8275510403
121312500.0	-18.5243759311	22.3570927103	-11.1260837919	-130.473335815	-61.2545727467	-100.822965792	-25.4599740453	-52.943812932
122000000.0	-18.7459340937	16.255917373	-10.5741399377	-128.903946088	-61.3567551291	-87.7064811031	-25.6399830516	-53.0160087673
122687500.0	-19.0340424926	10.024042209	-9.98605977868	-127.504972636	-61.0633787749	-87.8202987328	-25.796418296	-53.0524619499
123375000.0	-19.3542452563	3.52636484196	-9.35689915449	-126.267605121	-61.1300510273	-84.2675923458	-25.9384510069	-53.0202281163
124062500.0	-19.7477834761	-3.12559006213	-8.6944544604	-125.265354722	-60.7613994484	-82.1457358391	-26.0608599858	-52.9557080201
124750000.0	-20.2296448721	-9.91023575524	-7.99861362853	-124.466996186	-60.9761642318	-91.0540274424	-26.1747040972	-52.9171031381
125437500.0	-20.8165725189	-16.8868098753	-7.27495195119	-123.915574684	-60.857592081	-104.045081401	-26.2749341426	-52.8202642584
126125000.0	-21.5771342106	-23.9602900189	-6.51694905495	-123.576635794	-60.6439886214	-120.193801788	-26.3707038581	-52.7497112489
126812500.0	-22.5923899657	-30.3373361821	-5.73535685972	-123.512942888	-60.4956837476	-134.914825585	-26.4346806694	-52.7043637143
127500000.0	-23.5642992694	-32.4134355552	-4.91975164858	-123.731020034	-60.1574357954	-143.174346189	-26.4803678761	-52.6897572466
128187500.0	-24.3828728686	-33.7749162081	-4.08378610583	-124.274020793	-60.0671897187	-144.452219831	-26.4983992876	-52.6369538492
128875000.0	-25.0040962673	-35.1419087964	-3.21388864757	-125.151794257	-60.0981261796	-150.2243125	-26.5032814635	-52.6077338648
129562500.0	-25.541194109	-36.5622836469	-2.32528612274	-126.470568446	-59.6699896416	-149.467880761	-26.4882746571	-52.6289515191
130250000.0	-26.0035303814	-38.3084254848	-1.4152497191	-128.244417147	-59.5486837514	-146.751088894	-26.4685693884	-52.6695519902
130937500.0	-26.3990055577	-40.040403386	-0.507227516494	-130.592221603	-59.1365586806	-147.46335248	-26.4318814599	-52.6386888722
131625000.0	-26.7495694254	-41.799195334	0.391011934935	-133.489998576	-59.0162122667	-150.184861313	-26.3577738749	-52.7464022993
132312500.0	-27.0579926347	-43.5735579091	1.25163315255	-136.972504797	-59.1334790161	-153.422665832	-26.2892601648	-52.8757377559
133000000.0	-27.3357864482	-45.4066513799	2.0653101366	-140.940305721	-59.2517309506	-151.653123046	-26.1959826484	-53.0349869447
133687500.0	-27.5716804661	-47.2891408029	2.8095814622	-145.311808927	-59.0081406156	-155.245721613	-26.1030810997	-53.2090560197
134375000.0	-27.7873657257	-49.1572148816	3.49345558653	-149.964965402	-59.0793968316	-153.79509803	-25.9789155637	-53.5038770567
135062500.0	-27.9561055526	-51.0584486829	4.10372095355	-154.816974834	-59.5597757563	-160.435295743	-25.8523988128	-53.7192379181
135750000.0	-28.1100255845	-52.7911521414	4.65435260785	-159.801294443	-59.3587830451	-162.101120561	-25.6902390495	-54.0808959486
136437500.0	-28.2185357655	-54.557760903	5.13932728118	-164.875172476	-59.0888037883	-160.252467868	-25.5570647125	-54.6032063333
137125000.0	-28.3129400787	-56.2415244347	5.56840290256	-169.96874224	-59.0490303485	-159.346230654	-25.4002849576	-55.0864004113
137812500.0	-28.3525331261	-57.8289398107	5.93757512219	-175.05542265	-58.9815131477	-165.660509629	-25.2375844862	-55.4977335594
138500000.0	-28.363517536	-59.316606691	6.25997033258	179.893716936	-58.798507856	-168.156822522	-25.0467654934	-56.0181051163
139187500.0	-28.3312156474	-60.6248237451	6.52947202001	174.916075366	-59.6290255699	-178.326675463	-24.8662382646	-56.4958297569
139875000.0	-28.2382919476	-61.8588967671	6.75901070587	170.039577914	-59.6028043202	-178.150977426	-24.6886410621	-57.0145120629
140562500.0	-28.0957606816	-62.9172861782	6.94746223859	165.270958758	-59.4798284803	174.572573127	-24.5190769483	-57.7039491097
141250000.0	-27.8735374194	-63.7988149932	7.10169093132	160.617450847	-59.4768689822	172.504440511	-24.3325591931	-58.3731945601
141937500.0	-27.5643434579	-64.5990528094	7.22227564648	156.103408509	-59.7480864373	172.417881306	-24.1585682339	-59.0251004464
142625000.0	-27.1310618033	-65.1469464087	7.31941630561	151.729777391	-59.7598785971	-178.107778171	-23.9785534323	-59.6746858386
143312500.0	-26.5174470406	-65.6348378519	7.38660423759	147.50480352	-59.7735569641	-175.119400524	-23.8010996805	-60.3177724148
144000000.0	-25.6445227689	-66.7962491674	7.43739563743	143.413042422	-59.8264327673	-176.106115542	-23.6357364439	-60.9641727853
144687500.0	-24.8239577061	-72.2692745022	7.46783737858	139.483776297	-59.6457837787	179.624975036	-23.4717701815	-61.5405632271
145375000.0	-24.1339837924	-78.429483243	7.48736754553	135.681337562	-59.2759636233	176.903815203	-23.3182118007	-62.0702766156
146062500.0	-23.6476859919	-84.4956788158	7.49102347251	132.020057506	-58.9637492543	171.423302602	-23.1830200888	-62.4694375829
146750000.0	-23.2250639271	-90.4237273623	7.48676405053	128.483512857	-59.2116186011	159.414540778	-23.0563465882	-62.8476576776
147437500.0	-22.8890122401	-95.9840229671	7.46969949738	125.070093429	-58.9496644177	159.459407423	-22.9174335259	-63.1227800498
148125000.0	-22.6033809474	-101.562435432	7.44957713139	121.782631789	-59.1897503985	153.245763275	-22.7845440717	-63.3964845505
148812500.0	-22.3729604142	-107.059784134	7.42055157046	118.596219057	-58.9505378908	151.523055543	-22.6602259169	-63.5542867702
149500000.0	-22.1676879789	-112.350394877	7.39018730465	115.522511686	-59.3701379319	145.179685327	-22.5448366116	-63.6342150211
150187500.0	-21.9965563624	-117.563408311	7.35235308879	112.546740107	-59.0118728679	142.382812667	-22.4332646525	-63.6045911389
150875000.0	-21.8531564348	-122.541863055	7.31650822139	109.670057285	-58.9215244064	136.459211562	-22.3307330788	-63.5028219038
151562500.0	-21.7279190413	-127.49340429	7.27428970322	106.865360095	-58.6598551551	137.58677815	-22.2275387983	-63.3002908652
152250000.0	-21.6372799731	-132.273630185	7.2339181692	104.147666914	-58.2248292216	140.590783375	-22.1392742839	-63.0770609907
152937500.0	-21.5457855151	-136.96904881	7.18699661961	101.500380852	-58.1405910796	141.892142011	-22.0543890889	-62.7377787731
153625000.0	-21.4919526239	-141.533798061	7.14442377386	98.935579736	-58.2967714905	141.423608496	-21.9858403287	-62.3607620532
154312500.0	-21.4154930073	-146.041719437	7.09693612427	96.4276027425	-58.1771864343	140.2068931	-21.9001007762	-61.8799615322
155000000.0	-21.3872433424	-150.430069904	7.05213008643	93.9795325505	-58.0569434701	138.901380766	-21.839436748	-61.4274482766
155687500.0	-21.3332436422	-154.799950013	7.0051116389	91.598935886	-58.184945374	139.413272974	-21.7953972742	-60.7808274507
156375000.0	-21.3183079683	-159.074360803	6.96110453361	89.2759310896	-57.4857606994	137.978206617	-21.7470776665	-60.1894889192
157062500.0	-21.2795906183	-163.258403025	6.9147225885	86.9943107106	-57.2979514658	125.384248129	-21.7014597939	-59.5103344125
157750000.0	-21.2661384509	-167.366937415	6.87037562571	84.7655381813	-57.2334178605	106.62200522	-21.6551830013	-58.746370902
158437500.0	-21.2467758286	-171.402729125	6.82345787922	82.593954015	-57.6512101335	86.2927433467	-21.6347262621	-57.9261403119
159125000.0	-21.2295878222	-175.354982103	6.78050925871	80.473189838	-57.0127276929	70.1838865753	-21.6200738507	-57.1224445128
159812500.0	-21.221696489	-179.293536865	6.73463546762	78.3881484023	-56.9689485084	52.3335010718	-21.6131110585	-56.235093387
160500000.0	-21.2169032215	176.857356028	6.6932778743	76.3508755048	-56.7458393843	37.683952941	-21.6121235467	-55.3663091746
161187500.0	-21.2070514399	173.04477419	6.64796168942	74.3507450854	-57.1470697475	17.3819939815	-21.6227941705	-54.3936570813
161875000.0	-21.1959851283	169.316903046	6.60730098791	72.3755468997	-57.086240839	1.97636410867	-21.6513841655	-53.4501604077
162562500.0	-21.1959870613	165.582359838	6.56427772985	70.4493407272	-57.5414644531	-14.732264023	-21.6816920843	-52.4624110404
163250000.0	-21.1747533292	161.899797263	6.52429402634	68.5456149815	-57.6616840418	-26.277358961	-21.7329291907	-51.4670967943
163937500.0	-21.1737467474	158.304963133	6.481923331	66.6855046844	-57.992837021	-36.4942680477	-21.7746975321	-50.4410674315
164625000.0	-21.1551293701	154.748981333	6.44495579933	64.8460632289	-58.0183003043	-53.063851252	-21.8340746994	-49.3974387577
165312500.0	-21.1572914628	151.29369359	6.40232489838	63.0463062692	-58.0123828126	-68.1485952665	-21.9103802413	-48.4213733267
166000000.0	-21.1377553865	147.961815943	6.36611654393	61.2699923378	-58.2463836855	-79.6611585596	-21.9925557601	-47.3883449172
166687500.0	-21.1335390005	144.526799127	6.32683281074	59.5221151983	-57.4640562998	-95.2064961325	-22.0773310165	-46.4009696101
167375000.0	-21.1178669336	141.277790086	6.29155241223	57.8026786914	-57.5722932726	-107.508698094	-22.1789712943	-45.479429684
168062500.0	-21.1108849201	138.001269152	6.25456523949	56.1070959842	-57.4615473615	-122.626477742	-22.2855708079	-44.5795615864
168750000.0	-21.0980343058	134.828917257	6.22243760747	54.4502081801	-57.635195347	-143.297590427	-22.4161110625	-43.7644446484
169437500.0	-21.0805092869	131.660581733	6.18819745045	52.8169734685	-57.2486027224	-161.875211041	-22.559525783	-42.8951265786
170125000.0	-21.0646209465	128.511005265	6.16009057001	51.1981910843	-57.6387293102	175.083111176	-22.7051412445	-42.0514052033
170812500.0	-21.0422293772	125.421433342	6.12884751267	49.6031307324	-57.7458243238	159.262073209	-22.8543606334	-41.2591864411
171500000.0	-21.0378803775	122.429426765	6.10195895041	48.0346081647	-57.9082315474	139.846112273	-23.0312700593	-40.531888342
172187500.0	-21.0294228918	119.40305216	6.0752218999	46.4869764707	-57.8043635917	125.638796112	-23.2162138764	-39.7693639802
172875000.0	-21.033662353	116.495475247	6.05097576869	44.9637435695	-58.1091583227	107.896056667	-23.4044605892	-39.1734708919
173562500.0	-21.0126046081	113.56041235	6.02542710283	43.4561762547	-57.8459825373	92.8376736625	-23.6238074439	-38.5710930455
174250000.0	-21.0132254184	110.722207051	6.00552158612	41.9750461404	-58.4049560535	83.9077665245	-23.8326644306	-38.0221959635
174937500.0	-20.990441209	107.855530677	5.9850923454	40.505755102	-58.2206866206	84.958348963	-24.0807881129	-37.5433175789
175625000.0	-20.9730182738	104.971352807	5.96908665566	39.0514779377	-57.8821032724	82.9170126858	-24.3043511845	-37.0893336925
176312500.0	-20.9385720608	102.114487816	5.95051282494	37.6092308554	-57.7240970311	81.6108738378	-24.557179926	-36.7815856189
177000000.0	-20.9082116791	99.2822764459	5.93705931301	36.1854646298	-57.6819689608	78.3509021897	-24.8262094673	-36.5676751347
177687500.0	-20.8624180965	96.4389585995	5.92233333174	34.7654743348	-57.8735081758	76.8327147257	-25.1183454734	-36.4124171598
178375000.0	-20.8308113892	93.6909598756	5.91358923955	33.3666423209	-57.6134442188	75.4691144697	-25.4034220508	-36.2809539079
179062500.0	-20.7841510354	90.9850141761	5.90232509396	31.9705852288	-57.53871097	72.3530137544	-25.6899962301	-36.3581853717
179750000.0	-20.7369191251	88.2925238111	5.89453979564	30.5876258003	-57.209185809	69.0694462468	-25.9986559318	-36.4735122584
180437500.0	-20.6903008848	85.5985539361	5.88619685276	29.2031594193	-57.2219891188	65.7112523574	-26.2742563017	-36.7400781939
181125000.0	-20.6343157482	82.8416917606	5.88296997608	27.8346159834	-56.8781908614	64.0420222367	-26.5869684443	-36.9941388217
181812500.0	-20.5837840327	80.2200589663	5.87637809977	26.4733565601	-56.8698649084	57.5955330249	-26.8761430391	-37.4825335447
182500000.0	-20.516794003	77.5782817548	5.87652021448	25.1202386914	-56.7318035869	56.9259031415	-27.1981769836	-38.0503529052
183187500.0	-20.4499187	74.9340445808	5.87289405223	23.7733963658	-56.7875526056	51.4589445308	-27.5092512025	-38.5486987626
183875000.0	-20.3758109803	72.3906141155	5.87445002638	22.4353627379	-56.7915714909	51.640430346	-27.8278402524	-39.2892281847
184562500.0	-20.3075973305	69.7990428593	5.87353855627	21.1018123814	-57.0153512525	46.184211666	-28.0940156617	-40.2069720465
185250000.0	-20.2307041759	67.2537051543	5.87647985793	19.7773590508	-57.1499036889	46.4387031254	-28.4033620896	-41.0205455475
185937500.0	-20.1636379167	64.7901877659	5.8752762708	18.4543801269	-57.2728858279	44.4955483978	-28.6798849716	-41.8537970782
186625000.0	-20.0999127389	62.3627024433	5.88154388715	17.1340732973	-57.336880891	45.9757508126	-28.9778797505	-43.0198882497
187312500.0	-20.0389665245	59.8826125901	5.8838906132	15.8180877387	-57.2008570045	46.138401168	-29.2192169847	-44.1364541075
188000000.0	-19.9666860043	57.512850909	5.89144505446	14.5106053018	-57.0091239608	47.1681192557	-29.4629622048	-45.3712301029
188687500.0	-19.9059589215	55.0989624952	5.89540929459	13.2077896399	-57.3336689992	44.0922028213	-29.6733086542	-46.8299274146
189375000.0	-19.8350556308	52.7212588687	5.90406216565	11.9122541233	-57.2006255453	42.1050098957	-29.898788611	-48.2500223563
190062500.0	-19.7725569592	50.3796474619	5.91015110523	10.6155207949	-57.1588508334	39.004686798	-30.0994611004	-49.5885219752
190750000.0	-19.7170942375	48.0396040473	5.92120128353	9.33420615059	-57.0802064791	40.0302754411	-30.2748495345	-51.1989168505
191437500.0	-19.6788028768	45.6597640504	5.92858443968	8.04701445843	-57.5542140627	36.8242920472	-30.4365677875	-52.8016593136
192125000.0	-19.6343399453	43.3994478173	5.9378002581	6.75797075728	-57.6020681619	35.6948348962	-30.5521113659	-54.3320002439
192812500.0	-19.6170714421	41.0885916299	5.94643557934	5.48028083913	-58.2382666278	35.922131414	-30.6709188104	-56.1735145447
193500000.0	-19.6047429808	38.8080209142	5.95840442714	4.2005091532	-58.278270406	28.1868617278	-30.7554505062	-57.9187992838
194187500.0	-19.6028419066	36.4928312197	5.96735366745	2.929404669	-58.5005947587	27.3277590045	-30.7882238967	-59.5985696359
194875000.0	-19.6174991409	34.2262383559	5.98129564989	1.65621596507	-59.1015538098	26.0910867885	-30.7831586731	-61.3020039923
195562500.0	-19.6274718287	31.8663962346	5.99258678371	0.384439179062	-59.4563669844	25.3436353868	-30.7732455546	-63.0693871195
196250000.0	-19.6595090355	29.4933002498	6.00602556208	-0.871459218458	-59.5122778695	25.0189223203	-30.7191296885	-64.783467362
196937500.0	-19.6910344674	27.1297383401	6.01816608899	-2.13008852096	-59.2614977111	26.1480245911	-30.6842583159	-66.4419044363
197625000.0	-19.7414654978	24.8059556777	6.03402840766	-3.373809533	-59.1787249589	15.9456906518	-30.6112645325	-67.9699835218
198312500.0	-19.7883328783	22.4776095659	6.0478863976	-4.61985696093	-58.8287995205	15.2624576536	-30.5070741394	-69.5775961329
199000000.0	-19.8535735323	20.013178254	6.06613600759	-5.86450380734	-59.0405227976	15.4446999289	-30.3721487107	-70.9751481427
199687500.0	-19.907484773	17.5024147992	6.08251670521	-7.10851210076	-58.8858965891	15.1209539695	-30.2228318775	-72.3402341071
200375000.0	-19.9860408336	14.9881754156	6.10128721524	-8.35003202301	-59.0813014571	12.0289317257	-30.0502296098	-73.8911167567
201062500.0	-20.0537005024	12.4479650288	6.11704587677	-9.58584567061	-59.0713559836	11.306903633	-29.8643410387	-75.1518127654
201750000.0	-20.1334337656	9.85712244426	6.13729793005	-10.8238957825	-59.1888832459	8.50055505707	-29.6907998416	-76.2597384939
202437500.0	-20.2052551259	7.26528206724	6.15480940959	-12.0633449153	-58.9248189228	7.70517523511	-29.4681923689	-77.4279329374
203125000.0	-20.2813264471	4.63374398952	6.17760526072	-13.2980941322	-58.8683940462	7.39159241037	-29.2384547154	-78.4769243204
203812500.0	-20.3481723212	1.90108091677	6.19528205078	-14.5349186629	-58.8778084107	6.80984424687	-28.9640985095	-79.3203629755
204500000.0	-20.4278038934	-0.780300078043	6.21779702267	-15.760365247	-58.7297277372	8.54680705695	-28.7429219982	-80.1886110343
205187500.0	-20.5106089187	-3.4524158743	6.23607663609	-16.9889284354	-58.4777462516	6.42397490854	-28.5004022964	-80.8136016757
