#Frequency	|S11|	<S11	|S21|	<S21	|S12|	<S12	|S22|	<S22
100000000.0	-18.7447549737	127.959183637	-35.8704208742	-129.502800709	-73.0451292743	30.6317258798	-21.8172660582	-35.39321435
100687500.0	-18.6742023941	124.850327771	-34.9916400304	-128.330616506	-62.5899592054	-13.0672672977	-21.7935002413	-35.8210758311
101375000.0	-18.6005235097	121.492845955	-34.5397222473	-129.120033432	-60.8929261882	-34.9459453298	-21.7605288978	-35.8109177866
102062500.0	-18.5437062071	118.374947043	-34.1437225275	-129.55597523	-60.8166304069	-74.1348958725	-21.7625361245	-35.6376733883
102750000.0	-18.4908627044	115.172985063	-33.7713979678	-130.881638507	-62.6803031804	-102.389770307	-21.7711462892	-35.3819528691
103437500.0	-18.443106258	111.942206403	-33.4022927336	-132.111736743	-62.7635265874	-85.45576304	-21.7856011972	-35.153831912
104125000.0	-18.4092775754	108.64086448	-33.1041362658	-133.414040718	-63.0913373027	-68.8072865737	-21.8066091852	-34.9413910681
104812500.0	-18.3895208786	105.311215899	-32.7971601412	-134.796185555	-62.8599762168	-54.7540347028	-21.8409336041	-34.9164524235
105500000.0	-18.371388975	101.818692707	-32.54578793	-136.235745898	-62.3807221672	-61.8072461697	-21.8626044041	-34.8728740272
106187500.0	-18.3514664816	98.2037178675	-32.3336337774	-137.533701801	-62.2411058866	-63.7674468227	-21.8925612636	-34.8188856138
106875000.0	-18.339722714	94.4522947091	-32.1780490265	-138.858209501	-61.7364041237	-49.3421963116	-21.9279190646	-34.8396851798
107562500.0	-18.3415565325	90.5979005724	-32.0546176099	-140.244649388	-61.5845382074	-51.2740864849	-21.9537505388	-34.8248896289
108250000.0	-18.3320769256	86.5313258892	-31.9677388414	-141.364090209	-61.4087737882	-75.8796661843	-21.9813201654	-34.9176369252
108937500.0	-18.3108211707	82.7016231699	-31.7927847135	-142.277312126	-61.0225092836	-91.0057536223	-22.0019550254	-34.8907486541
109625000.0	-18.2985200539	78.7734561228	-31.6816574653	-143.297216115	-60.9799555099	-105.691295015	-22.0222758393	-34.835053871
110312500.0	-18.2775264765	74.7574395421	-31.5883461985	-144.066609457	-61.0870457691	-121.632256698	-22.0426581676	-34.8541436845
111000000.0	-18.2699834453	70.6669006074	-31.5215747173	-144.47066193	-60.9439748275	-134.233563525	-22.074201236	-34.8244798802
111687500.0	-18.2550709201	66.4360679695	-31.4821855128	-144.745326814	-60.9828810355	-153.52876593	-22.093238315	-34.9140312835
112375000.0	-18.2485427824	62.0824908707	-31.4583421522	-144.703370111	-60.7917685712	-168.272554814	-22.1224947742	-34.9651513302
113062500.0	-18.2352742659	57.6248085324	-31.4311706708	-144.372840114	-60.600593411	173.20597797	-22.1487566542	-34.9738904623
113750000.0	-18.2262355526	53.0702364487	-31.3630075898	-143.530120838	-60.4228540034	148.680057154	-22.1803653272	-35.0877814865
114437500.0	-18.2176689732	48.3740083285	-31.2609638143	-142.117875397	-59.9387821787	133.265865935	-22.2077457446	-35.1741377988
115125000.0	-18.2121205175	43.5380102167	-31.1195311097	-140.570274216	-59.7063691111	114.841125887	-22.2380216162	-35.2588782952
115812500.0	-18.2062552776	38.5732464903	-30.9116703935	-138.804428388	-59.6880476538	88.6918137784	-22.2611911161	-35.2936697669
116500000.0	-18.2040035321	33.4983328435	-30.6538618807	-136.949894457	-59.5480515577	59.6323531764	-22.2866370189	-35.3844593541
117187500.0	-18.2032171194	28.3041410322	-30.3286393323	-135.069694081	-59.0843472328	19.5637186126	-22.3042690894	-35.4765563639
117875000.0	-18.2126422145	22.9383874876	-29.9543269357	-133.175109572	-58.9012110432	-9.13114731606	-22.3316002055	-35.4738888576
118562500.0	-18.2427659325	17.4562962585	-29.5444510211	-131.371328519	-58.5752173267	-51.1750510959	-22.3475083816	-35.4926294961
119250000.0	-18.2807226574	11.8634782636	-29.0748196597	-129.576807924	-58.6826171489	-91.6597999675	-22.3667518003	-35.4717754099
119937500.0	-18.3454170416	6.17536585089	-28.5656156108	-127.970175781	-58.9122179291	-132.425307216	-22.3809320225	-35.4024316631
120625000.0	-18.4245140269	0.380204469181	-28.0035927924	-126.513362136	-58.9713836068	-173.153838986	-22.4097655793	-35.3774871804
121312500.0	-18.5477690391	-5.47636557722	-27.4130586893	-125.231563161	-58.5415204327	158.037499446	-22.4154633289	-35.3679347808
122000000.0	-18.6908773628	-11.4253901772	-26.7585805117	-124.07962768	-58.6271154127	118.532366701	-22.4400955256	-35.2838213442
122687500.0	-18.8903359129	-17.3600941974	-26.0941521074	-123.189996864	-58.9879307718	79.2437236448	-22.4526512975	-35.1681201363
123375000.0	-19.1325156009	-23.2872977297	-25.3777335612	-122.377249795	-58.8428960632	39.5110903409	-22.4682584127	-35.0083784671
124062500.0	-19.4470393887	-29.0948580141	-24.6528126337	-121.865657549	-58.4257648476	12.0779968157	-22.4863760371	-34.8463557746
124750000.0	-19.8332538957	-34.5793474894	-23.8821694741	-121.529220046	-58.408775669	-14.4452991991	-22.5068949562	-34.6333597582
125437500.0	-20.2544419711	-39.6769873998	-23.1102425965	-121.591467473	-58.3133243905	-32.8011150058	-22.5229437519	-34.2996752401
126125000.0	-20.7337594949	-44.0900644608	-22.2926573321	-121.903159435	-58.0298104663	-60.7578396602	-22.5553026495	-34.0829806932
126812500.0	-21.1862834065	-47.8637301319	-21.453088399	-122.525715543	-58.0679120772	-87.2580328502	-22.5769300402	-33.783383255
127500000.0	-21.6106703609	-50.9755429886	-20.5805208285	-123.377879633	-57.8682381494	-113.501258133	-22.5947530071	-33.5070171073
128187500.0	-21.9736272216	-53.8075082308	-19.7041581763	-124.929761192	-57.8644155866	-139.535899197	-22.6066821429	-33.1405506243
128875000.0	-22.3070219728	-56.3601368759	-18.7875350402	-126.650871963	-58.3561696237	-158.876128202	-22.6284437008	-32.7420235625
129562500.0	-22.5871676551	-58.6955036769	-17.8812075461	-129.037036082	-58.4587860165	179.442933233	-22.6425981357	-32.3537483781
130250000.0	-22.8426292924	-60.9844274489	-16.9728002258	-131.780042967	-58.5410689946	168.191426063	-22.6644147619	-31.9952098968
130937500.0	-23.0508346636	-63.160099252	-16.1371848694	-135.216639185	-58.5742575901	165.471345223	-22.6884581996	-31.4978194552
131625000.0	-23.2638745442	-65.268140206	-15.3161856096	-139.171761188	-58.2863579439	152.294555393	-22.7007861821	-31.1139551843
132312500.0	-23.444499339	-67.3053418435	-14.5749723274	-143.525965449	-58.1026065681	127.917548243	-22.7164868059	-30.6292086144
133000000.0	-23.6041675621	-69.2630298032	-13.890883204	-148.162841471	-58.4525439627	103.248940761	-22.7368491892	-30.221352321
133687500.0	-23.7366246662	-71.1794076622	-13.2766001935	-153.046171314	-58.6108135498	83.786204096	-22.7583702712	-29.7262425775
134375000.0	-23.8613231353	-72.9861275247	-12.7204804633	-158.011412823	-58.7730476762	67.3981724942	-22.7815238957	-29.3239330549
135062500.0	-23.9551286547	-74.7577097817	-12.2345593366	-163.087501976	-58.8413450446	39.5615367503	-22.7984413062	-28.8919088831
135750000.0	-24.0305896292	-76.4053474954	-11.8055532564	-168.165543161	-58.9397822857	15.3846583698	-22.8162208125	-28.4873844119
136437500.0	-24.0824106886	-77.9985352334	-11.4280088463	-173.273338249	-59.4107220404	3.75233533336	-22.8438585935	-28.1567641162
137125000.0	-24.1056542143	-79.5493781855	-11.1009151627	-178.33210681	-59.8793346363	3.47666778376	-22.8793840503	-27.8703089508
137812500.0	-24.1068123502	-81.0033266684	-10.8219466423	176.666602244	-59.8557285005	-5.71069618901	-22.8992805922	-27.49451982
138500000.0	-24.0590605918	-82.3927549586	-10.5852755441	171.753478314	-59.9429288821	-18.3839866659	-22.9200912508	-27.1623020613
139187500.0	-23.9876405595	-83.7099464528	-10.3896832659	166.953872283	-59.8194614388	-21.614442142	-22.9362842564	-26.8625021225
139875000.0	-23.8539058394	-84.9861258436	-10.2308538636	162.26978022	-59.929202012	-27.0271468999	-22.9570454297	-26.5658156937
140562500.0	-23.6792861541	-86.3169450181	-10.1012497248	157.723189035	-60.3933110517	-18.6492460491	-22.9944496019	-26.3790079323
141250000.0	-23.4272977615	-87.7384266783	-10.0005249668	153.310576447	-60.463187694	-18.5448849677	-23.0114586102	-26.1633519982
141937500.0	-23.1155569822	-89.431670224	-9.92285727344	149.048988615	-60.4903111467	-18.615513293	-23.0279488822	-26.0310151858
142625000.0	-22.7648422036	-91.4266806474	-9.86597383814	144.901871307	-60.4503818949	-15.5641841917	-23.0464627856	-25.9464847514
143312500.0	-22.360008183	-94.0839188366	-9.82624755095	140.923370966	-60.560396103	-2.18025119273	-23.0556234767	-25.8189080599
144000000.0	-21.975461144	-97.3274539906	-9.80345448369	137.048437522	-60.3564652235	13.0362692559	-23.0778930614	-25.724653662
144687500.0	-21.6346964705	-101.186832828	-9.79024323207	133.329159635	-60.6165113366	28.4924829879	-23.0998846752	-25.6565216065
145375000.0	-21.3438049783	-105.25332509	-9.78950405145	129.711654813	-60.7202730716	42.5989528524	-23.1233133796	-25.6063918992
146062500.0	-21.0977043061	-109.457776912	-9.80095017578	126.23291603	-60.4809764749	48.2552947357	-23.1363398175	-25.5246484566
146750000.0	-20.9012219588	-113.822901286	-9.81640212163	122.856225497	-60.799082534	64.0569791736	-23.153767486	-25.444268524
147437500.0	-20.7409513884	-118.158716334	-9.84288545401	119.607336135	-60.9402374969	79.9243216644	-23.1513623324	-25.4364165601
148125000.0	-20.6359627262	-122.543938742	-9.87047040321	116.464010843	-61.0481082872	85.8880486428	-23.1534598834	-25.4309362386
148812500.0	-20.5300615644	-126.886593078	-9.90754003384	113.402319631	-60.9991332926	90.2845713359	-23.1516624073	-25.4267613077
149500000.0	-20.460411639	-131.116339905	-9.94220002376	110.45000011	-61.3504279412	107.535120733	-23.1610545918	-25.4404251443
150187500.0	-20.4158186903	-135.369791007	-9.98445744536	107.57377949	-60.9582238301	134.567865411	-23.1556962824	-25.4335179995
150875000.0	-20.402685282	-139.558291334	-10.0249479468	104.805079235	-61.4371357822	169.585637836	-23.1468834333	-25.4285978634
151562500.0	-20.3944030359	-143.779166423	-10.0690883596	102.091324101	-61.8054927968	-146.811724984	-23.1325947356	-25.3495155818
152250000.0	-20.4151773468	-147.852621065	-10.1115132731	99.4677072437	-61.835596558	-100.41851275	-23.1317339253	-25.2668733692
152937500.0	-20.4380956577	-151.90544893	-10.1601582808	96.889695151	-62.0121819153	-58.2185374778	-23.1162602374	-25.1780135916
153625000.0	-20.4843774645	-155.929336134	-10.2033939356	94.3905309637	-61.3598760621	-27.0372579427	-23.1138252656	-25.0427317328
154312500.0	-20.5328374767	-159.879597679	-10.2539499135	91.9364024517	-60.6818425383	0.734705356674	-23.087698112	-24.9233571937
155000000.0	-20.5953142885	-163.810090199	-10.300863912	89.5503918074	-61.036990043	27.0770980348	-23.0692019677	-24.7482200402
155687500.0	-20.6641659253	-167.723329876	-10.3507944318	87.2084428565	-61.6342144261	43.4227140095	-23.0619358658	-24.5148067932
156375000.0	-20.7426043968	-171.610824484	-10.3984289663	84.9348918823	-61.4999341867	48.5091924208	-23.0402046806	-24.3167590972
157062500.0	-20.8186943152	-175.478770342	-10.4468458374	82.6927725386	-61.2612642538	52.1658142884	-23.0173810367	-24.0728534044
157750000.0	-20.8970239032	-179.275651239	-10.4938266778	80.5118194941	-60.7865133343	45.217472861	-22.9821614989	-23.8137715909
158437500.0	-20.9838764612	176.977770231	-10.5414976603	78.3543833468	-65.8224863809	38.6065441362	-22.9628770546	-23.5499282642
159125000.0	-21.0669493615	173.267192618	-10.5851633107	76.2583256674	-65.6397158216	35.9531276674	-22.9480295285	-23.2162247494
159812500.0	-21.1524277513	169.572890565	-10.6299719325	74.2088699049	-66.1342341099	24.2572255015	-22.9211222672	-22.7942219782
160500000.0	-21.2409532002	165.910045681	-10.6728341852	72.1961820196	-66.2994792844	1.56857969481	-22.9043683534	-22.4405752532
161187500.0	-21.3346575334	162.298185354	-10.7156799407	70.2132723098	-66.7048438084	-13.1415815086	-22.8837686458	-22.0940671265
161875000.0	-21.4231631077	158.763853097	-10.7604691633	68.2531488994	-66.9109255573	-27.9735192327	-22.8648178849	-21.6825530263
162562500.0	-21.5287557779	155.22004286	-10.8044758052	66.3483507494	-67.1480021769	-41.6291057895	-22.844111522	-21.2974802107
163250000.0	-21.6132550414	151.68985531	-10.8439173288	64.452529113	-67.3587338137	-47.7385257743	-22.8412842618	-20.9015382498
163937500.0	-21.7186706507	148.223020298	-10.8861526389	62.6227018889	-67.0580849711	-66.5702311017	-22.8264241718	-20.5020275116
164625000.0	-21.8101863884	144.874823109	-10.9247386118	60.7937777685	-66.7175470227	-95.248944719	-22.8219835617	-20.1144036038
165312500.0	-21.9067863324	141.47730498	-10.9654850774	59.0183641422	-66.5880024422	-111.828683281	-22.8170743388	-19.6647180437
166000000.0	-22.0042901463	138.166781985	-11.0029410821	57.2623971238	-66.614780465	-124.153727776	-22.8170694148	-19.2988709721
166687500.0	-22.1034051961	134.783109949	-11.0405921649	55.5486328498	-66.3222445245	-137.391141172	-22.8228293955	-18.8808632881
167375000.0	-22.204864352	131.560461857	-11.0769351133	53.8384689226	-66.2169846881	-163.149020011	-22.8407069999	-18.5223400358
168062500.0	-22.3038172118	128.304952737	-11.1133036229	52.1723882188	-65.5585393212	170.544229139	-22.8561040143	-18.1363322027
168750000.0	-22.4019024101	125.091329886	-11.1481122988	50.5124183294	-64.9725865674	131.823557405	-22.8915620438	-17.8718217131
169437500.0	-22.4943538336	121.831696688	-11.1836473324	48.8937744007	-64.8946321442	102.672142544	-22.9115312928	-17.6330551155
170125000.0	-22.6032741648	118.604978407	-11.2141274942	47.2917175807	-65.1170474837	81.4700958941	-22.9444094079	-17.3777049601
170812500.0	-22.6974082986	115.386047585	-11.245958394	45.7158590298	-65.7834582533	63.3474675721	-22.9753976748	-17.1200623194
171500000.0	-22.8151548159	112.156837517	-11.2726151113	44.1670949937	-65.896459048	37.6920041845	-23.0121631763	-16.9009833104
172187500.0	-22.9095696181	108.897044121	-11.2987312977	42.6280558847	-65.6882187604	22.3018021458	-23.0574063925	-16.7784166378
172875000.0	-23.0221970245	105.634723064	-11.3230386708	41.134352251	-65.6388011213	18.8452215585	-23.0933293103	-16.6711546268
173562500.0	-23.1074993788	102.403102327	-11.3460395858	39.6432202466	-65.649956095	15.3963468345	-23.147406903	-16.5601617187
174250000.0	-23.2229287961	99.2082685121	-11.3649729573	38.1830427039	-65.9253063176	6.53999003114	-23.1952732545	-16.4766399288
174937500.0	-23.2963986016	95.880418547	-11.3846546585	36.7202072051	-66.3501592886	8.49844541784	-23.2445038935	-16.4599482779
175625000.0	-23.3815419755	92.510721307	-11.3998659778	35.2940863553	-61.5498688989	5.91951029368	-23.2943286656	-16.3909508273
176312500.0	-23.4593452183	89.1339025577	-11.4170944534	33.8601280919	-61.6369765828	10.8861785183	-23.34064793	-16.4708742541
177000000.0	-23.5328098555	85.8044322906	-11.4283667252	32.4656152017	-61.4655513732	25.436267109	-23.40502054	-16.5375965508
177687500.0	-23.5909327757	82.4426966214	-11.4439408691	31.0518499228	-61.5055691197	46.2018674731	-23.4595192404	-16.6002104945
178375000.0	-23.6542699223	79.024405586	-11.4512421783	29.6746119869	-61.3076115941	64.9593049714	-23.5177659528	-16.6232976525
179062500.0	-23.7063361437	75.5709870923	-11.4600553854	28.2984137886	-61.2008449889	73.908480248	-23.5804811694	-16.7847799335
179750000.0	-23.7384431065	72.0922575406	-11.465149494	26.9440053545	-61.0563465168	87.4730649727	-23.6501632902	-16.9037304617
180437500.0	-23.7849068369	68.5479950218	-11.4725322426	25.5724781752	-60.8198257667	95.7303430472	-23.6973668205	-17.1548590517
181125000.0	-23.7919171824	64.9838688353	-11.4745200868	24.2217409827	-61.1123939477	114.29988011	-23.7634041507	-17.2955829822
181812500.0	-23.820376678	61.3962706131	-11.4785135354	22.866257234	-61.9587922521	143.457443512	-23.8233557642	-17.4115572408
182500000.0	-23.8216955737	57.8933981276	-11.4765947328	21.5115282227	-62.5827900566	172.367437435	-23.888570954	-17.5979202235
183187500.0	-23.8260427026	54.364471052	-11.478345141	20.164285807	-62.7205653545	-160.882648265	-23.9460759203	-17.6302478747
183875000.0	-23.815494713	50.9334842765	-11.4763713875	18.8167303395	-63.1889238574	-141.265447756	-23.9965028304	-17.7724716664
184562500.0	-23.7947299088	47.3044460009	-11.4744086894	17.4858713897	-63.5213179351	-112.684007207	-24.0303513243	-17.8953518751
185250000.0	-23.7546428723	43.7296179945	-11.469541843	16.1499254128	-63.5692884486	-97.2462329745	-24.0803366019	-18.03456375
185937500.0	-23.7282190962	40.1791290869	-11.465970646	14.8301975459	-63.6941533892	-78.9829095441	-24.1111571842	-18.0338776621
186625000.0	-23.6993363119	36.6784324403	-11.4563281763	13.4904670723	-63.9435823197	-61.4692899498	-24.1581187559	-18.0773342848
187312500.0	-23.6445902825	33.1033846567	-11.448334396	12.1627904084	-63.5169384303	-50.9573076082	-24.1928030026	-17.9808248946
188000000.0	-23.5878941116	29.5731154116	-11.4378330593	10.8366495384	-62.8073913534	-35.1409617129	-24.2123174109	-17.997526113
188687500.0	-23.517625061	26.0349712444	-11.4296592376	9.52707689846	-62.6419922652	-8.19540014789	-24.234818786	-17.9051288077
189375000.0	-23.4552450059	22.5695526982	-11.4218119724	8.22398468121	-62.3570799	6.00335748809	-24.2673962462	-17.8444608118
190062500.0	-23.3734656231	19.1162014863	-11.4109286549	6.90733550675	-61.8197067958	12.3869723039	-24.2890018156	-17.7044705916
190750000.0	-23.3111046312	15.6480569523	-11.3992722534	5.59430669457	-61.968291549	31.9772170412	-24.3199107965	-17.5521970472
191437500.0	-23.2170444669	12.0872704997	-11.3890985867	4.2994286978	-61.7205471334	49.005939973	-24.3477901827	-17.3236166547
192125000.0	-23.1551233422	8.64480474715	-11.3795138928	2.99189553851	-61.6608621826	53.0407868901	-24.3635965276	-17.1359437421
192812500.0	-23.0717941822	5.23376343913	-11.3679531187	1.69842387998	-61.5637965108	60.1489758728	-24.391063304	-16.9426945371
193500000.0	-23.0016993789	1.80889438633	-11.3583233107	0.39916061136	-61.6024300142	61.0107423449	-24.4144828711	-16.641645581
194187500.0	-22.9171305649	-1.66634066176	-11.3490123	-0.903141502999	-61.5300722883	63.3047922043	-24.4276626492	-16.4249599584
194875000.0	-22.8501648519	-5.14691968831	-11.3340437622	-2.20557540411	-61.608897736	71.175630108	-24.4402681643	-16.1618993864
195562500.0	-22.7506248388	-8.57260087908	-11.3220937494	-3.4931349879	-61.5949011636	76.9836903185	-24.4531285872	-15.8561199359
196250000.0	-22.6650804474	-11.9531133688	-11.309515464	-4.77825995524	-61.3823764156	81.2881371337	-24.4692191288	-15.5370405216
196937500.0	-22.569379834	-15.3233954575	-11.2962842888	-6.06001998446	-61.3172705548	83.5917568318	-24.4754279643	-15.1424449185
197625000.0	-22.4713842323	-18.6433099089	-11.281113833	-7.31939141076	-60.986290225	82.759107005	-24.4801616467	-14.7570946277
198312500.0	-22.3783493088	-21.9415262415	-11.2667411787	-8.58668143764	-61.0534363094	83.8149202403	-24.4949139385	-14.531521226
199000000.0	-22.2689648119	-25.3095034669	-11.2485367635	-9.85940979691	-60.2952455446	73.6370340507	-24.4945688658	-14.2280453934
199687500.0	-22.1539507324	-28.6456295454	-11.2352117736	-11.1293056318	-59.6402440541	61.3651515213	-24.512177476	-13.9769128187
200375000.0	-22.0355143644	-31.8662258301	-11.2159317397	-12.3784732976	-59.9482202598	47.7758756592	-24.5282526163	-13.7354735802
201062500.0	-21.9170167615	-35.1785534501	-11.201996969	-13.6259820636	-59.4890024621	40.8289147893	-24.5526066944	-13.5433186052
201750000.0	-21.7957848645	-38.3189415182	-11.1827444062	-14.8640460713	-59.0932542646	24.6960292209	-24.5740012686	-13.2667927
202437500.0	-21.6851431675	-41.3977865455	-11.1657221002	-16.1144918	-59.1788743002	19.3979249553	-24.5988305821	-13.1648892252
203125000.0	-21.5571399045	-44.4253971902	-11.1428761961	-17.3491320485	-59.510732471	16.0967825164	-24.6159774354	-13.0340098757
203812500.0	-21.4198686168	-47.4243176052	-11.1257747388	-18.5754115813	-59.4168484286	0.439218132397	-24.6430733302	-12.9598829702
204500000.0	-21.2831814314	-50.3421655804	-11.1025918364	-19.8052585164	-59.8476829841	-15.2956107347	-24.6670332671	-12.966136473
