#Frequency	|S11|	<S11	|S21|	<S21	|S12|	<S12	|S22|	<S22
100000000.0	-18.8812550893	141.746848052	-43.3139244491	-108.641950428	-56.7579727244	-84.7481279284	-20.0747964951	-29.661881568
100687500.0	-18.7521465979	139.181357101	-43.0067999513	-114.758230142	-64.7906363178	-45.7584405129	-20.1168385679	-28.9830952169
101375000.0	-18.6910089883	135.809621265	-42.9489048426	-117.140702468	-62.1584115022	33.331154821	-20.1612733554	-28.3963473787
102062500.0	-18.6530113254	132.556831715	-42.4111362566	-118.410838927	-62.0237577833	70.0584850803	-20.1679391474	-27.7146293663
102750000.0	-18.5999388668	129.354901285	-42.119321052	-119.889256546	-61.6533520449	94.8549347466	-20.2062183505	-27.041301274
103437500.0	-18.5470924494	126.205765836	-41.9668155761	-121.625326254	-61.3068183707	85.3123157693	-20.2397216723	-26.3259033601
104125000.0	-18.5035922683	123.003625115	-41.6092713367	-122.639715474	-61.2297517971	76.4881177224	-20.2902745052	-25.5164684871
104812500.0	-18.465536043	119.83107686	-41.2958318188	-123.966535518	-61.3829928772	71.2795656161	-20.3633472879	-24.8553729034
105500000.0	-18.4289261634	116.559883902	-41.0816302209	-125.299844757	-63.2189658121	63.2907185061	-20.4317452483	-24.3576638228
106187500.0	-18.3942942264	113.234998056	-40.8830009117	-126.927716967	-62.4509936922	27.8321297455	-20.5139474809	-23.8417704262
106875000.0	-18.3702909899	109.817376669	-40.6647480447	-128.535215215	-62.0139384918	-5.86130351778	-20.5966496907	-23.3729218693
107562500.0	-18.3613905522	106.3625202	-40.4610302102	-130.258370277	-62.4799791404	-58.5146591135	-20.6878808686	-22.8826768468
108250000.0	-18.3501884727	102.728088742	-40.3095922549	-131.827029163	-62.9890560672	-101.211614386	-20.7875253262	-22.5262695279
108937500.0	-18.3298868877	99.2078495135	-40.1084672281	-133.32992631	-63.1169274081	-132.101104781	-20.8645973661	-22.0173849385
109625000.0	-18.317273505	95.6310597992	-39.9109235315	-134.52456871	-62.8649265676	-173.379392172	-20.9478156056	-21.5637391743
110312500.0	-18.3010528547	91.9413032166	-39.8210245468	-135.533917449	-62.6704811182	152.398718634	-21.0372286238	-21.1497705103
111000000.0	-18.2990806315	88.2094345456	-39.6907584334	-136.682533233	-62.6752559996	109.743754161	-21.1288610976	-20.7252505291
111687500.0	-18.2879452135	84.4182973157	-39.6219160452	-137.346006984	-62.8356692854	55.2048235471	-21.2294918985	-20.3689039954
112375000.0	-18.2859257233	80.5174309866	-39.6194570986	-137.677769777	-62.5961739372	10.5090654142	-21.3323799665	-20.0948712598
113062500.0	-18.2754451402	76.5714980821	-39.6216757741	-137.84818397	-62.4317696749	-43.7166805258	-21.445559948	-19.8062324751
113750000.0	-18.2816144247	72.4930067147	-39.5626298266	-137.460261972	-62.551470323	-100.068085174	-21.559358644	-19.6271788297
114437500.0	-18.2807713987	68.340757421	-39.5586610858	-136.953943723	-62.3790690685	-156.939764406	-21.6836843496	-19.4378473915
115125000.0	-18.2951672859	63.9807603235	-39.4964626482	-135.85937907	-62.1152147953	146.98845044	-21.8164494069	-19.3170709089
115812500.0	-18.3026738189	59.5653717478	-39.3505427914	-134.40986723	-63.1170835844	89.7696062886	-21.936423507	-19.1732829137
116500000.0	-18.3226715769	54.9986839993	-39.2178668088	-132.942091947	-62.8690647881	32.5094051175	-22.0601148652	-19.1564954042
117187500.0	-18.3383172689	50.366663679	-39.0293334077	-131.036442401	-62.997368324	-21.7002625429	-22.1895900117	-19.1753695234
117875000.0	-18.3679725254	45.5282910627	-38.7858779794	-129.100594836	-63.0113951857	-77.0709814327	-22.3162804345	-19.0960016596
118562500.0	-18.4085179751	40.5363900048	-38.4593341518	-127.275136589	-62.7904943719	-132.918010169	-22.4488864717	-19.1135536398
119250000.0	-18.4519557654	35.3980478017	-38.0798215755	-125.231734144	-62.4699783642	171.652451815	-22.5792529419	-19.059518656
119937500.0	-18.5238832834	30.1159752752	-37.6265667971	-123.540488812	-62.6832905071	127.003782612	-22.7033204957	-19.0911825384
120625000.0	-18.6033220147	24.6660294791	-37.1708607667	-121.600128121	-63.2354101966	90.4027882856	-22.83511209	-19.2118034678
121312500.0	-18.7209133022	19.066460095	-36.6058808853	-119.928524122	-63.2674236812	56.2916626191	-22.9538914796	-19.3442256705
122000000.0	-18.8484396113	13.4160996961	-36.066640938	-118.444758519	-63.3285505307	18.2565797885	-23.0985573733	-19.4861070327
122687500.0	-19.0295403628	7.53160165597	-35.4381310296	-116.895081988	-63.7239357058	-18.9775880205	-23.2313621343	-19.6962060531
123375000.0	-19.2320854321	1.59781184651	-34.8360468376	-115.697205349	-64.06176354	-42.8223179081	-23.3563123828	-19.9599242797
124062500.0	-19.5117559666	-4.55093472842	-34.1452679794	-114.410391943	-63.7606330499	-58.8993376953	-23.4766254785	-20.2026696238
124750000.0	-19.8428260573	-10.6096706283	-33.4612652926	-113.620068023	-63.0154581762	-84.861546737	-23.6010708862	-20.4307944868
125437500.0	-20.2462876063	-16.719227266	-32.7148807128	-112.777174029	-62.8550551979	-97.9060512528	-23.7148696198	-20.7324574214
126125000.0	-20.7357239518	-22.490835047	-31.9760480665	-112.467873271	-62.9110474177	-97.9279847646	-23.8479190591	-21.0885067353
126812500.0	-21.3228308886	-27.8956585885	-31.1799719946	-112.357539076	-62.5337921561	-95.502681708	-23.9667049167	-21.3990599923
127500000.0	-21.9542000254	-32.0966388532	-30.3791831399	-112.678025706	-62.4075535825	-91.9457832835	-24.074094072	-21.7680807994
128187500.0	-22.565182445	-35.6211550228	-29.4932970597	-112.863758473	-63.0457631439	-88.2347201794	-24.1663170837	-22.1431416802
128875000.0	-23.1116563871	-38.4664371289	-28.6369662535	-114.018565193	-63.099776759	-74.2380440029	-24.2521606635	-22.5368612962
129562500.0	-23.6058579846	-41.0542472178	-27.688144173	-115.438494833	-63.3489615085	-58.2930305095	-24.3398805635	-22.9074514069
130250000.0	-24.0199114819	-43.380058288	-26.8048283241	-117.458817848	-63.3174653644	-41.2589313691	-24.4275412034	-23.3319395579
130937500.0	-24.3798405092	-45.6209480763	-25.8921446046	-119.774420278	-63.1180712669	-14.1407780981	-24.5030880764	-23.6817149284
131625000.0	-24.6993421347	-47.7494383879	-25.01367076	-122.807143043	-63.1970077251	2.160971377	-24.5559451229	-24.0969554254
132312500.0	-24.9842063623	-49.8173716254	-24.130366918	-126.122391641	-63.1993731658	17.8274415219	-24.6065655686	-24.5377185453
133000000.0	-25.2452250553	-51.8777413534	-23.3373717973	-130.188876173	-62.0949119478	41.8967553542	-24.6519989929	-25.0272227739
133687500.0	-25.4657567332	-53.887818143	-22.5828590567	-134.375080118	-62.4028253892	59.6393031631	-24.704857058	-25.4716453878
134375000.0	-25.6727055298	-55.917382892	-21.9012915572	-139.194192588	-62.1864001491	73.0261933785	-24.7303079115	-25.9805755041
135062500.0	-25.832473126	-57.9362414912	-21.2745021111	-143.954354998	-62.1001755932	75.2663456751	-24.7553766953	-26.5189328506
135750000.0	-25.9866018695	-59.8356541741	-20.7333184954	-148.855228681	-62.0421237148	77.6413469509	-24.7532325676	-27.1276944162
136437500.0	-26.1069154365	-61.651827885	-20.2437462665	-153.78540177	-61.7779976568	79.2485356585	-24.7642618986	-27.7284196411
137125000.0	-26.2041760308	-63.4273576939	-19.8131086097	-158.870213539	-60.8543367686	71.6289572901	-24.7671397724	-28.3564191778
137812500.0	-26.2610027437	-64.9956130771	-19.4323353806	-163.883689472	-60.4141015731	69.2626049791	-24.7595048246	-28.8810420617
138500000.0	-26.2951455806	-66.5376099461	-19.1101614863	-168.855569882	-60.4027343908	73.9232394239	-24.7330516252	-29.5043478673
139187500.0	-26.286964636	-67.9914214925	-18.8375468015	-173.760506519	-60.2183574995	85.6603406188	-24.6907994201	-30.08695643
139875000.0	-26.2292449759	-69.3657529136	-18.6029133199	-178.565860889	-59.8899888355	100.005895114	-24.6406511969	-30.6498571805
140562500.0	-26.1336621713	-70.6295663825	-18.4132191353	176.703904999	-59.5747443766	109.783039592	-24.596952647	-31.2013670384
141250000.0	-25.9642648385	-71.7772084236	-18.2457738754	172.166414689	-59.374466275	114.058664913	-24.5371920325	-31.7698186263
141937500.0	-25.7409980823	-72.9503937401	-18.1189385195	167.6899917	-59.5513444841	114.209503215	-24.4650820295	-32.3289006608
142625000.0	-25.4432794986	-74.0604645832	-18.0103291137	163.398426332	-59.699670595	104.338246353	-24.3870306021	-32.7831759793
143312500.0	-25.0550416912	-75.4561243012	-17.9313212267	159.208032213	-59.5823480869	94.3702564526	-24.2838726928	-33.2330313488
144000000.0	-24.562529715	-77.266045828	-17.8645121089	155.206342822	-60.0601278299	92.2724412988	-24.1854073122	-33.720789996
144687500.0	-24.0320952558	-80.2373022923	-17.8242722146	151.279066574	-60.237906814	82.5907539245	-24.0808151174	-34.1255590036
145375000.0	-23.5120541464	-83.8239367984	-17.7913993033	147.558890655	-59.7065700005	81.3879390033	-23.9909842673	-34.5359374518
146062500.0	-23.0681910307	-88.0692268205	-17.7761673309	143.964933812	-59.5793587124	81.6321726432	-23.8880442803	-34.8867491716
146750000.0	-22.6601970237	-92.4849281569	-17.7672741829	140.478752588	-59.268597945	69.1799326502	-23.7833577877	-35.189003737
147437500.0	-22.3538784937	-97.122283413	-17.7717369501	137.110578806	-59.2018369533	66.9291640751	-23.6449610429	-35.4249822807
148125000.0	-22.0913683605	-101.723089648	-17.7798414307	133.830672882	-58.9506128269	54.8172755155	-23.5210451578	-35.6679911089
148812500.0	-21.8888315344	-106.46646593	-17.7932150429	130.661667817	-59.0913235078	41.5740162371	-23.3865698082	-35.8554614702
149500000.0	-21.7017988422	-111.052735259	-17.8134524128	127.573974312	-59.0811007772	40.8122247643	-23.254884446	-35.8946494503
150187500.0	-21.5512014818	-115.680313371	-17.8351569136	124.618851584	-58.9973438046	36.819120115	-23.1212846561	-35.9102956386
150875000.0	-21.4323566408	-120.160279659	-17.855411116	121.72084744	-58.9097713322	36.6053896715	-22.9811541471	-35.8424971836
151562500.0	-21.3378754521	-124.636023391	-17.884679094	118.949448947	-59.3624011079	39.2004416371	-22.8451864907	-35.7361074192
152250000.0	-21.2763227327	-128.904186547	-17.9187134292	116.228307017	-59.4061582361	52.2683747804	-22.7213457532	-35.5321998049
152937500.0	-21.2166973778	-133.214944465	-17.9550315647	113.60546501	-60.0869876276	68.3283455567	-22.5911078141	-35.2585397321
153625000.0	-21.1932919708	-137.411511729	-17.9953201734	110.995328543	-59.9080812959	86.4258264462	-22.4641426416	-34.8948599113
154312500.0	-21.1643806696	-141.560016403	-18.0295445715	108.489384156	-59.6481086459	105.820002839	-22.3215882189	-34.5311245832
155000000.0	-21.1762275246	-145.759849964	-18.0693204494	106.037534029	-60.0317041088	112.800455199	-22.1933909041	-34.0427666828
155687500.0	-21.1643096619	-149.81589629	-18.104918573	103.630560603	-60.3347846691	115.288171295	-22.0790379649	-33.4765004834
156375000.0	-21.199248559	-153.942177551	-18.1496747119	101.255503604	-60.3236826175	107.405734366	-21.9603881298	-32.8448619519
157062500.0	-21.2134321956	-157.906179402	-18.1892887992	98.9906445214	-60.37461377	93.3793294489	-21.8368651763	-32.1591803331
157750000.0	-21.2559691034	-161.935839829	-18.2317159731	96.7384657577	-60.1157716828	82.4536022597	-21.7229653256	-31.4379172903
158437500.0	-21.2868246585	-165.855059961	-18.2724212278	94.5326872453	-60.0440186811	71.6533564678	-21.6103741245	-30.6894785802
159125000.0	-21.3240944207	-169.791732616	-18.3170177103	92.3638209978	-59.7503707905	68.3313324995	-21.5091924468	-29.862593397
159812500.0	-21.3589632344	-173.620368504	-18.3580394823	90.2762144336	-59.9971668808	63.2750477182	-21.406609624	-29.0261366561
160500000.0	-21.3989618039	-177.502584758	-18.4027621139	88.1844352299	-60.1932454754	49.1215523405	-21.3205648703	-28.1789503055
161187500.0	-21.4378978861	178.736727647	-18.4449699716	86.1612731585	-59.8618771179	36.7108196014	-21.2305818004	-27.2415599167
161875000.0	-21.4756940847	175.024149026	-18.4870588849	84.1995418362	-59.9351636964	33.5806721594	-21.1637707845	-26.2965960706
162562500.0	-21.5278782352	171.322763825	-18.5315607009	82.242080741	-59.7810868829	19.3074607023	-21.0897140204	-25.3529932201
163250000.0	-21.5568402252	167.653895871	-18.5728455493	80.3015677595	-60.0735918469	2.65591162843	-21.0287007154	-24.2936502122
163937500.0	-21.6105134755	164.030120367	-18.616485467	78.4289363389	-60.4335730367	-11.6702472678	-20.9672189269	-23.278724892
164625000.0	-21.6353466793	160.487547006	-18.6520749876	76.5629696779	-60.7961075279	-33.8499049468	-20.9279682775	-22.2600198152
165312500.0	-21.6750957583	156.864509571	-18.6889142963	74.7477224215	-60.8904517685	-45.3488038489	-20.8841106518	-21.2416928996
166000000.0	-21.6962606679	153.417043827	-18.7259290027	73.0026593429	-61.0488270641	-46.1856557123	-20.8611981262	-20.2002072275
166687500.0	-21.7440236056	149.831999512	-18.7660331733	71.2389006757	-61.0407979685	-60.3334302587	-20.8390931499	-19.1392210616
167375000.0	-21.7719046527	146.509948926	-18.806181544	69.5291217945	-61.3386455699	-77.046299501	-20.83398935	-18.1490016961
168062500.0	-21.807953313	143.069959967	-18.8522661419	67.8294215353	-61.188257104	-90.8794499849	-20.8291436054	-17.1559973671
168750000.0	-21.8297325286	139.740228117	-18.8834013873	66.1785211868	-60.9905395167	-106.496223016	-20.8433824862	-16.1699607756
169437500.0	-21.8611570899	136.321481013	-18.9256295517	64.4916971137	-62.0239669318	-119.848408861	-20.849969804	-15.1920245811
170125000.0	-21.8830347164	133.057420464	-18.9513918715	62.8527067494	-61.0674375305	-134.896158864	-20.8745884878	-14.2484505569
170812500.0	-21.9103853175	129.70355514	-18.9875958374	61.2781518052	-61.1899117953	-152.68389738	-20.9026345807	-13.283917506
171500000.0	-21.9334635418	126.507020705	-19.0197559764	59.7402917183	-61.19485877	-172.015459428	-20.9543385505	-12.3803497215
172187500.0	-21.9483040968	123.24766358	-19.0478056699	58.1792263892	-60.8947387886	-178.973973604	-21.0093472382	-11.5287715911
172875000.0	-21.9800713735	120.097118356	-19.0758851154	56.6835180619	-60.7733767488	166.690744431	-21.0636051365	-10.6800014902
173562500.0	-21.9794024129	116.99322577	-19.1003968146	55.2174641749	-61.0870146096	154.494084222	-21.1338763554	-9.8632998849
174250000.0	-22.005573378	113.954840435	-19.126332889	53.7188353685	-61.1352089459	153.274782482	-21.217130002	-9.07609140381
174937500.0	-21.9927423023	110.890820024	-19.1514479993	52.2900867468	-61.0587842693	152.114772082	-21.3092356802	-8.37148844147
175625000.0	-21.99135018	107.805226197	-19.1766943279	50.8514544387	-61.2021294359	148.545895623	-21.4109846216	-7.58839998643
176312500.0	-21.9783542406	104.78293048	-19.1945426951	49.4851104576	-61.1801039267	151.553452644	-21.523019552	-6.93761102779
177000000.0	-21.9673684372	101.723575095	-19.2183226711	48.0744688187	-61.3944703005	156.225604633	-21.6552712229	-6.30775524791
177687500.0	-21.939663886	98.7437725999	-19.2327606928	46.7328724423	-61.3366747633	170.715864166	-21.7920248055	-5.61668561402
178375000.0	-21.9277163503	95.7045091191	-19.2461233167	45.3104020029	-61.2029922686	173.090156201	-21.9317299213	-5.04630145784
179062500.0	-21.8912696425	92.8237326709	-19.255511393	43.9605280914	-61.3017551403	162.241424125	-22.0699587274	-4.50305439172
179750000.0	-21.8521474921	89.8480147034	-19.2694452658	42.579284545	-61.3157941979	163.57605685	-22.2245892435	-3.92629177445
180437500.0	-21.8132363685	86.9760212828	-19.270525483	41.2668479436	-60.8072485778	167.894087029	-22.3726742575	-3.55614289294
181125000.0	-21.7663368717	83.9752200437	-19.280493139	39.9217534167	-60.4255581643	169.803673999	-22.5442642512	-3.09512259706
181812500.0	-21.7199572548	81.092877374	-19.2877335663	38.6209619256	-60.4705089837	166.544789106	-22.7127669875	-2.68670100437
182500000.0	-21.6597224595	78.2395776015	-19.30131246	37.2773434003	-60.9582652198	166.282224181	-22.8976349075	-2.2331352823
183187500.0	-21.5978241186	75.4145944174	-19.3012450371	35.9617346922	-60.6537676794	155.189808883	-23.0822071534	-1.86746980324
183875000.0	-21.5210784498	72.7526553705	-19.3014339898	34.6408038223	-60.7251181699	147.048840498	-23.2746569698	-1.64232882058
184562500.0	-21.4518919356	69.9612202149	-19.2999870248	33.3234351375	-60.6497568703	148.508865421	-23.4619156179	-1.50799162414
185250000.0	-21.3707641437	67.261932525	-19.2967908736	32.000557132	-60.6953743236	151.453513749	-23.6652247231	-1.25385678597
185937500.0	-21.2974391409	64.5892637807	-19.3022411136	30.6998800755	-60.524999645	162.437299314	-23.8477928704	-1.10644138769
186625000.0	-21.2195346434	62.0777882072	-19.3002205018	29.438121516	-59.8514122996	165.219995037	-24.0582808108	-1.01652544369
187312500.0	-21.1495632561	59.4599786473	-19.3043312025	28.1510106827	-59.9806308839	179.419544338	-24.2465463957	-0.973463961461
188000000.0	-21.0589522433	56.988504974	-19.3000992782	26.8582901862	-60.0293407785	-173.829403108	-24.440816645	-1.01468386276
188687500.0	-20.9948946555	54.4471348742	-19.2996821804	25.5451847278	-60.1231862265	-158.895468279	-24.6398169006	-1.04869095437
189375000.0	-20.9160773136	52.0657493343	-19.2933341111	24.2852290288	-60.0183896424	-156.705083796	-24.8421733437	-1.1519660295
190062500.0	-20.8473469531	49.5339686767	-19.2891117445	22.9896457284	-60.0125994414	-142.199377362	-25.0361388222	-1.29777031137
190750000.0	-20.785515121	47.0969836132	-19.2801261746	21.7362136823	-60.0584758352	-127.604627121	-25.2328777597	-1.43409123262
191437500.0	-20.7356813934	44.5753513025	-19.2744050369	20.4721732109	-60.0049375197	-111.40447369	-25.4181598986	-1.80828638719
192125000.0	-20.6946212119	42.2666377822	-19.2600227879	19.2048816788	-60.1609417983	-93.4508972367	-25.5839497408	-2.11640584718
192812500.0	-20.6621705315	39.8219956875	-19.251099992	17.9326022996	-60.0401963659	-77.1738929258	-25.7515837059	-2.60102148869
193500000.0	-20.6429928907	37.5492481523	-19.2375744461	16.6370335576	-60.4090049885	-73.3479108617	-25.9262522717	-3.11748568872
194187500.0	-20.6334115437	35.1632431732	-19.2321484633	15.3790929209	-59.9002872613	-58.8905018761	-26.0745844566	-3.76478255059
194875000.0	-20.6396832096	32.8133737976	-19.2205436849	14.1369831132	-59.7816871609	-55.5558438576	-26.215201085	-4.47313479743
195562500.0	-20.6370893865	30.4368887141	-19.21145232	12.8841335969	-59.8708435505	-49.2663298929	-26.3625263418	-5.16441195163
196250000.0	-20.6677507748	27.9913701964	-19.1995058899	11.6494153507	-59.3333801761	-34.9589304483	-26.5021504974	-6.10364718986
196937500.0	-20.6845865322	25.5744309458	-19.1855997711	10.4243863012	-59.5135713694	-32.2997626573	-26.6218244887	-6.96531516328
197625000.0	-20.7260548019	23.110884002	-19.1790078878	9.20341451007	-59.5183197964	-30.7149281128	-26.724355185	-7.9279618375
198312500.0	-20.7632725774	20.6969144357	-19.1706266569	8.00935836097	-59.4710282624	-29.8902605455	-26.808789885	-9.03849871644
199000000.0	-20.8265369184	18.1518732832	-19.1574129853	6.796839424	-59.1909438156	-29.126214623	-26.8774406477	-10.2890811545
199687500.0	-20.8769052308	15.6235611698	-19.1414767221	5.60126525859	-58.8486482093	-40.9994433878	-26.946471262	-11.4934395957
200375000.0	-20.9498042072	13.0287773814	-19.1343540786	4.36977418457	-59.2403934618	-39.4924584513	-26.9871289413	-12.8026437821
201062500.0	-21.0081352719	10.4098198343	-19.1247352015	3.18544239993	-59.3743793528	-39.8922757749	-27.0229564911	-14.0872112767
201750000.0	-21.0848734836	7.72291926966	-19.113884114	1.99248249738	-59.2976804312	-42.3259021491	-27.0293680404	-15.2787130116
202437500.0	-21.1562083477	5.09353695707	-19.0997868341	0.838336888461	-59.1943757325	-54.5494979153	-27.0182080169	-16.6895502398
203125000.0	-21.230684184	2.41465173958	-19.0824767717	-0.364580194148	-59.283748044	-63.8955054539	-26.9929771572	-18.0647872767
203812500.0	-21.2872774628	-0.295789131882	-19.0604942933	-1.53571985793	-59.1261702755	-77.2866046342	-26.9372171024	-19.4585657926
204500000.0	-21.3633198882	-3.03445080312	-19.0444593546	-2.72534736537	-59.6208298109	-90.7144896867	-26.8819236399	-20.8025393292
205187500.0	-21.4385489552	-5.76700380453	-19.0220250486	-3.8930087945	-59.5286390254	-106.001516795	-26.8067991816	-22.1203883075
