#Frequency	|S11|	<S11	|S21|	<S21	|S12|	<S12	|S22|	<S22
100000000.0	-17.6247387884	144.900634553	-36.1234366812	-123.48120329	-64.4466480289	60.3228365741	-19.983368385	-29.5613133519
100687500.0	-17.616154565	142.016420546	-35.7217254507	-125.313062804	-58.8988122615	-83.7586615524	-20.1171042247	-29.2896761865
101375000.0	-17.6094754452	138.854474025	-35.2373926566	-125.850828404	-59.5093758335	-117.595514605	-20.1575631558	-28.7804462528
102062500.0	-17.5830527027	135.575535653	-34.7975868642	-127.252727025	-61.020804348	-123.937788628	-20.1996928081	-28.0256675398
102750000.0	-17.5627378865	132.40031892	-34.5010973122	-128.731179443	-60.5217262852	-151.68529434	-20.2353080629	-27.2162042088
103437500.0	-17.5362090406	129.346587165	-34.1399397476	-130.363800387	-61.3460721702	168.093483093	-20.2798120758	-26.5871001893
104125000.0	-17.5319545584	126.157083435	-33.7852355858	-131.654478436	-61.0484190307	162.625682379	-20.347774048	-25.7883994907
104812500.0	-17.5195984503	122.971899082	-33.4820036042	-133.03447788	-61.1811589576	138.593206438	-20.4176738526	-25.1817223275
105500000.0	-17.5137308051	119.727557583	-33.2206083053	-134.194435909	-60.9738762431	137.58583254	-20.4875041654	-24.6950613778
106187500.0	-17.512264721	116.401219008	-32.9842448489	-135.38307811	-60.9081786439	120.556406942	-20.5715151254	-24.1316991
106875000.0	-17.5220018083	113.002349914	-32.7818336408	-136.834548128	-60.9851695876	91.935826522	-20.6616067888	-23.5898162108
107562500.0	-17.5407714531	109.519064759	-32.598184998	-138.094364808	-60.8940472838	74.5749679993	-20.7606840356	-23.0170099201
108250000.0	-17.5619106833	105.906734795	-32.4564653917	-139.333631112	-60.9372220431	65.1231134842	-20.8640492643	-22.6633616328
108937500.0	-17.5756608398	102.390634405	-32.261977519	-140.451894859	-61.0410464672	52.2400213007	-20.9476551914	-22.1955016882
109625000.0	-17.593873965	98.8261480736	-32.1184231553	-141.459939389	-62.2485706323	42.001947409	-21.0299754976	-21.7350915716
110312500.0	-17.6099831947	95.1608354883	-31.9284519368	-142.57338533	-62.3430804489	29.8587842314	-21.1247791961	-21.2611989678
111000000.0	-17.6373838754	91.420431597	-31.8368267787	-143.522190098	-62.0649734176	20.6509571384	-21.220628064	-20.8619643281
111687500.0	-17.6635010694	87.5993631788	-31.74140514	-144.396714174	-61.8282940902	20.3859281582	-21.3262693385	-20.5599668206
112375000.0	-17.6963886709	83.7054313997	-31.7092660585	-144.901024071	-61.4444646431	13.4716246297	-21.4328491494	-20.2554090598
113062500.0	-17.7311412001	79.7018320168	-31.702321662	-145.054577591	-61.5037751869	14.7602684533	-21.5399234122	-19.9820544123
113750000.0	-17.7754990159	75.6034424066	-31.6824177818	-144.850011235	-61.3746605364	25.6423028097	-21.6571190103	-19.7940533487
114437500.0	-17.8168279574	71.4161246904	-31.6290757992	-144.255321521	-61.5297443431	27.6418633494	-21.7837685675	-19.6240626451
115125000.0	-17.8679630097	67.0019993441	-31.5754978009	-143.170970395	-61.0517048815	42.6708276075	-21.9103803915	-19.4416600745
115812500.0	-17.9218967224	62.5281715954	-31.4991488228	-141.677534276	-61.2438926249	64.2076964777	-22.0403744531	-19.2851670927
116500000.0	-17.9830549986	57.861053987	-31.3633403998	-140.043328275	-61.0734773961	78.0096700119	-22.1616055466	-19.1986106675
117187500.0	-18.0394529537	53.1611000802	-31.1789231568	-138.073341569	-60.9661986208	96.5877492081	-22.3031633043	-19.2731364226
117875000.0	-18.1159378517	48.2017093214	-30.9149007566	-136.12556097	-60.7528328292	113.002398836	-22.4361609573	-19.1968332478
118562500.0	-18.201755617	43.1705294235	-30.6140493988	-134.075414518	-61.269732512	138.206061654	-22.5756284818	-19.1742094202
119250000.0	-18.3074773779	37.8397374573	-30.2389829545	-132.189693548	-61.4627734491	157.411996115	-22.7058396896	-19.1142661475
119937500.0	-18.4144877292	32.4418890298	-29.8221187622	-130.244265451	-61.5723311289	173.196216145	-22.8442623462	-19.1436344637
120625000.0	-18.5511505552	26.7907836852	-29.3482322873	-128.425266075	-61.4681746681	-170.547500505	-22.9780989385	-19.2401657074
121312500.0	-18.7144303351	21.0483160052	-28.8389618972	-126.765990334	-61.2863414066	-152.009745957	-23.1168023875	-19.3704028001
122000000.0	-18.9010084569	15.0562914701	-28.2793163875	-125.134215464	-61.1657574993	-126.368987635	-23.258062845	-19.5448330791
122687500.0	-19.1251403708	8.94102009384	-27.6810039158	-123.655445863	-60.9539367014	-111.896040268	-23.3869608978	-19.7945501711
123375000.0	-19.3942426605	2.69153429164	-27.0508092542	-122.455355912	-60.7102305807	-101.374970838	-23.5122919233	-20.088108262
124062500.0	-19.7277830716	-3.74157662798	-26.3858394415	-121.404902811	-60.8160636078	-91.2065611018	-23.6447977493	-20.3706846601
124750000.0	-20.1373474741	-10.2508876458	-25.6929455197	-120.659005225	-60.9734680656	-83.1760375866	-23.7697137119	-20.627887259
125437500.0	-20.6214408892	-16.8806443058	-24.9613538097	-119.992552434	-60.7165993476	-80.5289707711	-23.8929597388	-20.8146574309
126125000.0	-21.2347317374	-23.3060142122	-24.1957290199	-119.738951348	-60.5284810636	-80.3854106631	-24.020751365	-21.095990821
126812500.0	-21.9844503144	-29.4836070257	-23.4047820921	-119.650676329	-59.5245482235	-80.7983304751	-24.1361262803	-21.3484639858
127500000.0	-22.8426747409	-33.3567507929	-22.6078952082	-119.880356478	-59.4993520346	-81.0374362016	-24.2468096459	-21.7608198777
128187500.0	-23.6393521723	-36.5503311685	-21.7635827275	-120.320845795	-59.5447618163	-94.7891566113	-24.3493336596	-21.9908811995
128875000.0	-24.2754275501	-38.8108398512	-20.9035378967	-121.209742118	-59.6396043963	-114.392733163	-24.4418357608	-22.2858203535
129562500.0	-24.8012452068	-41.0120135954	-19.999802292	-122.40689256	-59.9019887395	-131.181264005	-24.5279056864	-22.6044506687
130250000.0	-25.2679655626	-43.031050126	-19.0821334059	-124.252913072	-60.0585703009	-156.82959383	-24.622600162	-23.0172228745
130937500.0	-25.6537451032	-45.2082039524	-18.1672307557	-126.436692371	-60.1989113609	179.548689909	-24.698213678	-23.3271745787
131625000.0	-26.0216722732	-47.1866120797	-17.291084301	-129.328178301	-59.9008240693	153.201492663	-24.7674393441	-23.8445617878
132312500.0	-26.3213967116	-49.1655408127	-16.4280373232	-132.670441436	-59.8602100386	122.78853656	-24.8214844848	-24.2552273732
133000000.0	-26.591485476	-51.1471382115	-15.6201444209	-136.625364326	-59.532086203	91.3117807876	-24.8666709427	-24.7294844979
133687500.0	-26.8342987649	-53.1521667985	-14.8644292305	-140.872271374	-59.9862404082	64.1096254675	-24.9131980011	-25.0803213622
134375000.0	-27.0466800602	-55.0729161677	-14.1873577977	-145.570705561	-60.0437352703	35.1824813354	-24.9445941009	-25.5247996317
135062500.0	-27.2124936566	-57.0949941403	-13.5649378867	-150.348326674	-59.7884062517	6.25968997799	-24.9631567655	-26.0371452374
135750000.0	-27.3554733746	-59.0228500848	-13.023663662	-155.278713057	-59.3095488907	-20.1796115743	-24.9699487585	-26.6510499834
136437500.0	-27.4737823586	-60.8133072413	-12.5337435411	-160.288760097	-59.1496199855	-50.1829820259	-24.9805513709	-27.2850278641
137125000.0	-27.5666952332	-62.6133713116	-12.1082268608	-165.351603758	-58.9446207561	-76.4614769591	-24.981633789	-27.8504778427
137812500.0	-27.6147038027	-64.1970735034	-11.7323365884	-170.402759865	-59.1636048658	-90.3507487457	-24.9649507584	-28.3929279099
138500000.0	-27.6310843938	-65.7437724233	-11.4128260432	-175.415793124	-58.911899405	-105.933244644	-24.9330181469	-28.9810716774
139187500.0	-27.6082332334	-67.096986623	-11.1355375253	179.632782147	-59.1415439162	-128.352797564	-24.8989984837	-29.5474313663
139875000.0	-27.5412089386	-68.4271588471	-10.9049742537	174.77789091	-58.9532074957	-152.101367948	-24.8550996213	-30.0473487437
140562500.0	-27.4206486699	-69.5928729857	-10.7084335903	170.018736147	-58.7542045462	-165.888956327	-24.8128747121	-30.588496186
141250000.0	-27.2229982728	-70.6703916141	-10.5533121248	165.405867633	-58.643976126	170.982203901	-24.7413821211	-31.1278863863
141937500.0	-26.9507217682	-71.5666339474	-10.4275968325	160.926630384	-58.9346528499	154.140742656	-24.6746309156	-31.6983446423
142625000.0	-26.5939275787	-72.4625689611	-10.3285757613	156.580905459	-58.8418804528	140.364553234	-24.5854701445	-32.1781706559
143312500.0	-26.0964746415	-73.4316128498	-10.2529529042	152.384404329	-58.6785224137	126.362501495	-24.4940650219	-32.6764936847
144000000.0	-25.4636001156	-74.7189829396	-10.1976316345	148.344087197	-59.2417254994	112.644391934	-24.4051843939	-33.190108307
144687500.0	-24.7246775488	-78.2294114605	-10.1605427386	144.432905784	-59.2697372879	96.7808651166	-24.3005407561	-33.5994693413
145375000.0	-24.0306629727	-82.4069459337	-10.1345129316	140.647250315	-59.1664444488	81.3631689095	-24.1910978899	-34.0525608426
146062500.0	-23.5008281596	-87.4672594611	-10.1235318136	137.001739396	-59.3314773492	62.0672988183	-24.0848150992	-34.4445592176
146750000.0	-23.0787171069	-92.5527425193	-10.1199770987	133.472584826	-58.8155910086	34.4179800836	-23.96889315	-34.7617288307
147437500.0	-22.715188959	-97.7249656253	-10.1311443488	130.080184014	-58.8045057724	5.15349572692	-23.8392148487	-35.0135297438
148125000.0	-22.4262507775	-102.685636757	-10.1451013519	126.784175958	-59.1443831996	-37.6783130401	-23.706712865	-35.2185200478
148812500.0	-22.1640554649	-107.815783913	-10.1668305694	123.607146654	-59.3102873347	-67.2769944619	-23.5661320726	-35.3110313143
149500000.0	-21.96289336	-112.724475753	-10.1909815787	120.531903136	-60.0013572491	-104.933954261	-23.4384663073	-35.3751327597
150187500.0	-21.7912687089	-117.686719882	-10.2226573994	117.55464564	-59.8160597939	-141.257884974	-23.3130230179	-35.3914502648
150875000.0	-21.6415181631	-122.354854648	-10.2566667486	114.660342493	-59.6444903	173.270298092	-23.1755630189	-35.3994708607
151562500.0	-21.5233034639	-127.179299651	-10.2908788289	111.876815411	-59.9377458247	130.744250787	-23.0331153172	-35.3173521004
152250000.0	-21.4341331804	-131.633705518	-10.3293402554	109.136938733	-59.8254926059	89.2676402571	-22.9024202559	-35.1206394787
152937500.0	-21.3620581558	-136.112163499	-10.3711735012	106.493428183	-59.7901235346	44.2311408524	-22.7697605164	-34.8146513029
153625000.0	-21.3005832168	-140.426219337	-10.4122156991	103.906468716	-60.0603857211	0.954413815731	-22.6345444785	-34.4647396636
154312500.0	-21.2535010903	-144.714565314	-10.4524566845	101.404244895	-60.250472664	-53.4432920686	-22.4958755656	-34.0644082933
155000000.0	-21.2227922205	-148.990825215	-10.4940255406	98.9432804111	-60.032937515	-110.635103866	-22.3677055444	-33.5651457351
155687500.0	-21.1954126577	-153.187541192	-10.5344662139	96.5662706314	-60.2275049894	-164.648410147	-22.2481891028	-32.9813523256
156375000.0	-21.1925545194	-157.356845986	-10.578322189	94.2167193116	-59.9558338157	152.227552671	-22.1230952076	-32.3920004046
157062500.0	-21.1826855752	-161.379585213	-10.6183096802	91.9349146677	-60.1945013115	110.885857056	-22.0013900279	-31.7006332753
157750000.0	-21.1829952321	-165.448498526	-10.6654765988	89.6865307299	-60.4685798311	63.1302244228	-21.8778920087	-31.0060126252
158437500.0	-21.1913561005	-169.353915899	-10.7094293401	87.4971624999	-60.5318855749	19.0373856182	-21.770160189	-30.2247326302
159125000.0	-21.1990907594	-173.32842356	-10.7532636636	85.3575423234	-59.9955457932	-35.0544384434	-21.6662096915	-29.3733707278
159812500.0	-21.2072836845	-177.144222766	-10.7933434255	83.2669814378	-60.0105144096	-92.1457535705	-21.5691021058	-28.5308644936
160500000.0	-21.2285797775	178.947398186	-10.8389110357	81.1972982386	-59.9096817994	-159.40799086	-21.4787055588	-27.6699004508
161187500.0	-21.2390289244	175.212136783	-10.8802697007	79.1827759552	-59.5563900123	132.802647919	-21.3873939476	-26.7060938304
161875000.0	-21.2544885847	171.44577172	-10.9214715002	77.1965688388	-59.5341033038	78.8792222006	-21.319962503	-25.7715721941
162562500.0	-21.2762032857	167.766490751	-10.962961993	75.2534675994	-59.8436680643	38.0089238413	-21.2504400638	-24.8148720802
163250000.0	-21.2874400553	164.107870766	-11.0054334348	73.3294753585	-60.1027831093	9.60248482313	-21.1929518936	-23.7835788135
163937500.0	-21.3036320439	160.568738187	-11.0480454802	71.4519787002	-60.0584957467	-19.1341339402	-21.1408845642	-22.7771022935
164625000.0	-21.3156712925	157.046125179	-11.0863436443	69.59556479	-60.0525607915	-43.818365496	-21.0969086667	-21.762249413
165312500.0	-21.3252017647	153.567894323	-11.1278044721	67.7799453324	-59.5531809145	-59.5548550112	-21.0635381105	-20.7214298636
166000000.0	-21.3358331378	150.163420119	-11.165882662	66.0020261038	-60.7296221659	-87.5868479761	-21.038042708	-19.6913911099
166687500.0	-21.3388588477	146.713050274	-11.2032771166	64.2362574206	-60.2699828868	-102.755101386	-21.0170915765	-18.6415618095
167375000.0	-21.3538795761	143.45552771	-11.2385974964	62.5204485705	-60.282954008	-125.964360166	-21.0079702909	-17.575410156
168062500.0	-21.351774327	140.090092456	-11.2745906994	60.8166855951	-60.3480675492	-141.648786265	-20.9972368076	-16.6155751027
168750000.0	-21.3495792096	136.932557071	-11.3125668369	59.1449136414	-60.0650931395	-164.687492826	-21.0056618915	-15.5586595967
169437500.0	-21.3446457941	133.637820301	-11.347527434	57.4957982436	-60.2175152709	-177.699991207	-21.0232863662	-14.5964691022
170125000.0	-21.351540409	130.528713653	-11.379152549	55.8701992273	-60.5505926761	171.251965262	-21.0491991067	-13.5953862963
170812500.0	-21.3508093519	127.297039592	-11.4135603693	54.2700649119	-60.7539567535	157.812098769	-21.082497825	-12.574084319
171500000.0	-21.3543929167	124.26003049	-11.4463585469	52.6974919565	-60.5103661659	155.547111696	-21.1286067814	-11.6522202002
172187500.0	-21.3602393137	121.144191012	-11.4771480516	51.1471504915	-60.6448982368	145.890855747	-21.1850236649	-10.7850439006
172875000.0	-21.3703803494	118.173919273	-11.5048555514	49.6059014268	-60.8735321023	146.182187363	-21.2453847037	-9.90944978364
173562500.0	-21.358950899	115.13821438	-11.53401241	48.1049698197	-61.2878224938	136.206043873	-21.3244875208	-9.00228184209
174250000.0	-21.3586116958	112.274536147	-11.5596745414	46.6272864439	-61.3031328694	135.236265436	-21.4112799375	-8.19882625
174937500.0	-21.350254326	109.337502709	-11.5815597089	45.1782058561	-61.2806295269	143.393059547	-21.5129143777	-7.42686549985
175625000.0	-21.3320849393	106.419125559	-11.6002844532	43.727501069	-61.2458556027	147.679578755	-21.6128690183	-6.63253311045
176312500.0	-21.314751489	103.518338535	-11.6200655011	42.3045926311	-61.2446650731	159.118617233	-21.7305098066	-5.93948299883
177000000.0	-21.2878305383	100.667644537	-11.6381710888	40.8904542411	-61.2654630665	174.279162006	-21.8567441515	-5.30208796953
177687500.0	-21.2554169341	97.84656291	-11.6531339657	39.4917985125	-61.3107159088	-156.491796461	-21.9974376604	-4.60390805321
178375000.0	-21.2259871191	94.9907257757	-11.6665910079	38.0795456837	-61.0515305447	-115.289603855	-22.1395589577	-3.92042567397
179062500.0	-21.1912421847	92.2807765255	-11.6798256486	36.7166273457	-61.4990645004	-85.0138577833	-22.2951849003	-3.38522091212
179750000.0	-21.1440766104	89.4851499927	-11.6910872337	35.3578066619	-61.1513940307	-56.8654106024	-22.4483750087	-2.79634645625
180437500.0	-21.0988784867	86.7586516979	-11.6997561207	34.0121571382	-60.7762159625	-33.0195518911	-22.6149224786	-2.3389910169
181125000.0	-21.051458645	83.9295510034	-11.7062045207	32.6540375565	-61.4126740282	-1.08284844612	-22.7757788973	-1.84344477874
181812500.0	-20.9965747944	81.2540780119	-11.7131296635	31.3200069763	-61.0877488953	31.8809013366	-22.96962947	-1.44398421436
182500000.0	-20.9431468445	78.4705142168	-11.7162445993	29.9732608354	-61.3427937748	60.1210500569	-23.1495477961	-1.03819355215
183187500.0	-20.8769731561	75.8545028974	-11.7202203243	28.6590744816	-60.037420266	92.4146871987	-23.3439851022	-0.637931082595
183875000.0	-20.817642757	73.2391345958	-11.7244978065	27.3266994329	-59.7980775062	123.699423633	-23.5346814311	-0.323307597414
184562500.0	-20.744979001	70.6676234277	-11.724269251	26.0215071406	-59.9109288468	149.966099197	-23.728448814	-0.118576557963
185250000.0	-20.6824722848	68.0668926869	-11.7235302149	24.7072085458	-59.6741573886	175.175195708	-23.9271205656	0.113087919295
185937500.0	-20.621169816	65.4981193946	-11.7208509008	23.3979408747	-59.9023488214	-154.782453532	-24.1284862185	0.27748526027
186625000.0	-20.5671093301	63.0453048743	-11.7182541893	22.102425124	-60.1763547667	-125.688470155	-24.3363966429	0.385150001139
187312500.0	-20.4930601946	60.5169028734	-11.7098119468	20.8036565199	-59.9957474267	-106.335045172	-24.5329500019	0.49877304757
188000000.0	-20.4290748071	58.1140708189	-11.70486258	19.5197883906	-59.391457173	-79.4155416223	-24.7331077106	0.432761174737
188687500.0	-20.3690306354	55.6118698687	-11.6979978374	18.2120632117	-59.6602115894	-62.1357100661	-24.9458844277	0.41220534202
189375000.0	-20.3138500504	53.2949078913	-11.6906048472	16.9321966546	-59.9148718026	-47.9532333146	-25.1566943013	0.297037458887
190062500.0	-20.2569443198	50.8690876073	-11.6803619745	15.6527651784	-59.8237612779	-34.8298007882	-25.3505033336	0.183217362671
190750000.0	-20.2127325604	48.5475780756	-11.6691758631	14.3762028039	-59.3319708306	-11.4101575859	-25.5534788241	-0.0825650953353
191437500.0	-20.1713833911	46.0851977035	-11.6610537164	13.0967519262	-59.3284352186	3.11429423452	-25.7404110042	-0.299044628151
192125000.0	-20.1389904442	43.8151811477	-11.6532196518	11.8272901174	-59.3469238982	16.6784943789	-25.9278896278	-0.667392327344
192812500.0	-20.1168664632	41.4170897138	-11.6453622321	10.5595230702	-59.7284836333	32.4455113714	-26.1204423433	-1.18722427424
193500000.0	-20.1052366526	39.1811119417	-11.6339625246	9.28267287444	-59.9740503754	51.0337312261	-26.2886065937	-1.77340391517
194187500.0	-20.1051239237	36.8079812054	-11.6251684516	8.02374973697	-60.0786285603	65.8039267248	-26.4532068853	-2.32619017712
194875000.0	-20.1238911726	34.5285568881	-11.6117486353	6.77037555499	-60.3727197408	67.5542553132	-26.6112538465	-3.02663678237
195562500.0	-20.140686571	32.1313592701	-11.601901256	5.50056426388	-60.343291355	68.4111416926	-26.7537914589	-3.82920175961
196250000.0	-20.1686191521	29.7303662314	-11.5905696221	4.23779661394	-59.9796559999	70.0158717901	-26.8897349474	-4.65234721961
196937500.0	-20.208952167	27.2908256539	-11.581034205	2.96744031663	-59.987890703	60.7162464176	-27.0007569431	-5.44836221195
197625000.0	-20.2618278887	24.8972081378	-11.5663166329	1.72496232572	-60.092611961	56.0407789866	-27.1071948481	-6.43573679053
198312500.0	-20.3103610764	22.4281214059	-11.553522566	0.498453050944	-59.6898192414	53.1318142802	-27.2041782422	-7.52095781263
199000000.0	-20.3804845511	19.9330836274	-11.5358722239	-0.751124789216	-59.9613780455	46.5501588967	-27.2607709637	-8.70021672432
199687500.0	-20.4413511038	17.4286517572	-11.5216942818	-1.97607991025	-59.543716926	49.0040013459	-27.3363935456	-9.94650540965
200375000.0	-20.5165138008	14.8296990317	-11.5071111781	-3.22514402136	-59.544083191	49.6153183138	-27.3785708185	-11.2585114055
201062500.0	-20.5935992722	12.1972110421	-11.4914695346	-4.44679133488	-59.9816675556	51.3594146188	-27.418478878	-12.7426798927
201750000.0	-20.6656734455	9.49389480839	-11.4752894697	-5.71327847033	-59.7953417706	64.4687576769	-27.4304017989	-14.0874519719
202437500.0	-20.751483164	6.86879299539	-11.4581473108	-6.92944996823	-59.6852753061	74.3130035428	-27.4317753278	-15.5302699419
203125000.0	-20.8282221715	4.16350695906	-11.439878229	-8.16734069734	-59.337338862	87.6242479453	-27.3995537653	-16.8997780243
203812500.0	-20.9000372649	1.4869848005	-11.4244084014	-9.38034098913	-59.4298357085	101.818069829	-27.3601730339	-18.4398621938
204500000.0	-20.9899869381	-1.33975063348	-11.4071079765	-10.6056384749	-59.4077224249	113.464965652	-27.3000129253	-19.8516210641
205187500.0	-21.0658591393	-4.02426364648	-11.3878022053	-11.8211462786	-59.7643778022	118.343993593	-27.2312702719	-21.2941485229
