#Frequency	|S11|	<S11	|S21|	<S21	|S12|	<S12	|S22|	<S22
100000000.0	-19.8840118835	138.498217755	-44.9111824075	-123.683116799	-58.5319272024	-23.9330256358	-20.2107378374	-29.8541675816
100687500.0	-19.7643460099	135.050390122	-44.0006845464	-118.862249211	-57.6582779577	135.80017026	-20.1659639686	-28.4093773801
101375000.0	-19.6670577362	131.735893154	-43.056518861	-118.618861113	-58.5073349541	-53.360186263	-20.1809647866	-27.7734205298
102062500.0	-19.572432432	128.3994095	-42.6457653789	-120.213586413	-58.0126478038	-8.21841707974	-20.2112583108	-27.1287085962
102750000.0	-19.4745280111	125.163931757	-42.2572051343	-122.051675066	-59.5914264441	17.5541805717	-20.245409316	-26.451860711
103437500.0	-19.3937890839	122.072352336	-41.8334303659	-123.594054736	-60.5560858639	3.5537995005	-20.2746341965	-25.8169879762
104125000.0	-19.317303026	118.889956119	-41.4874114484	-124.383864455	-60.5557652899	18.1805160199	-20.3268580311	-25.0887511589
104812500.0	-19.2487611885	115.709794293	-41.2135849284	-125.525990141	-61.0795376347	13.1439916725	-20.390137918	-24.5072111291
105500000.0	-19.1878086754	112.509624576	-40.9238287995	-126.484157	-60.8276103855	6.74868461903	-20.4591280411	-24.0081679556
106187500.0	-19.1279526818	109.251189747	-40.7094078138	-127.618649091	-62.1694664762	-8.53629705314	-20.5448670667	-23.4843495639
106875000.0	-19.0735837094	105.879415035	-40.5149850068	-128.878083298	-62.4626313405	-16.6390722839	-20.6327540022	-23.0400812105
107562500.0	-19.02801642	102.452620538	-40.3839319961	-129.922140346	-62.6043086511	-14.6553064624	-20.7261779672	-22.5702148514
108250000.0	-18.9854803343	98.8618423533	-40.2555709172	-130.736018452	-62.2777531029	-4.7593686191	-20.8325244239	-22.2657866487
108937500.0	-18.9339417445	95.3390601996	-40.0221269202	-131.691920527	-62.4013126163	9.3403310914	-20.9081463477	-21.7520529123
109625000.0	-18.8836974322	91.8131853756	-39.8411242568	-132.798744934	-62.5194968908	22.0997472859	-20.9916231702	-21.3427265767
110312500.0	-18.8314836881	88.1917755561	-39.6924563566	-133.723473895	-62.6734006524	24.839879986	-21.0836463042	-20.9936486363
111000000.0	-18.7934747311	84.5272784959	-39.5952961193	-134.924999589	-62.8380244304	23.0929122614	-21.1799662324	-20.6417102083
111687500.0	-18.748066378	80.7577870533	-39.5386952631	-135.523292257	-63.007413633	11.1156362207	-21.2839123758	-20.3295885751
112375000.0	-18.7155036691	76.9480266343	-39.5073719625	-135.87782749	-63.169142038	10.3629835984	-21.3911417167	-20.0637399868
113062500.0	-18.6755345826	73.0504739571	-39.4588321531	-135.892218269	-63.1570198656	7.88732688226	-21.5000276365	-19.8172954646
113750000.0	-18.6453271445	69.050177283	-39.4548795964	-135.195028931	-63.1762520668	-3.22401459488	-21.6125172183	-19.6473663653
114437500.0	-18.6201183562	64.9971898249	-39.4251720206	-134.375978162	-62.8113089953	-6.07280790541	-21.7325472994	-19.5170424296
115125000.0	-18.5949154126	60.7288181165	-39.3870297487	-132.853317286	-62.9364269497	-6.33533507284	-21.857848382	-19.3795264323
115812500.0	-18.5633583349	56.4020698842	-39.2767340539	-131.485022055	-62.6241593257	-6.60601062426	-21.980211593	-19.2404783048
116500000.0	-18.5474102308	51.9037551113	-39.1291513978	-129.979791117	-62.4570759086	-16.9080452721	-22.1017464221	-19.2718805069
117187500.0	-18.5222475368	47.3713368043	-38.9266968376	-128.121901478	-62.877184884	-29.6206091687	-22.2347659835	-19.2900635029
117875000.0	-18.5178519873	42.6511319573	-38.6431784362	-126.154395328	-62.311568187	-37.6033902847	-22.3642365346	-19.2752261057
118562500.0	-18.5112402047	37.8403701607	-38.3307891653	-124.079865546	-62.3819542148	-50.7061655042	-22.4964738676	-19.3007586771
119250000.0	-18.5210345465	32.8162029435	-37.9532174186	-122.166781817	-62.3227414427	-59.3263131579	-22.6244327891	-19.3120535888
119937500.0	-18.5396483615	27.7131929042	-37.5610457167	-120.375328832	-62.4769204814	-71.5076912702	-22.7444496774	-19.4224833531
120625000.0	-18.5764371262	22.4344626038	-37.0673672412	-118.42563839	-61.4880092008	-72.2815910026	-22.8724210311	-19.5597455308
121312500.0	-18.6451175632	17.03457144	-36.5492170744	-116.942038737	-61.4618099813	-62.8457155717	-22.9982055904	-19.710395923
122000000.0	-18.7300667794	11.5132585708	-35.9585540428	-115.258337972	-61.0281732489	-62.6303400897	-23.1262328766	-19.8882798411
122687500.0	-18.8569854444	5.89706619763	-35.3810564679	-114.052387219	-61.624238524	-67.2161094991	-23.248004685	-20.112076951
123375000.0	-19.0157569057	0.15952790178	-34.7167528565	-112.95083798	-61.3931569076	-81.5631498747	-23.3632612955	-20.332671837
124062500.0	-19.2307034231	-5.63397138482	-34.0411704595	-112.088747355	-61.5887807199	-103.728342072	-23.4865537237	-20.6450365135
124750000.0	-19.4951085961	-11.3442908324	-33.3021770329	-111.494177642	-62.0351535002	-124.155956801	-23.602264369	-20.8810646759
125437500.0	-19.8156254755	-17.1222097258	-32.6019385223	-111.206605277	-62.0827197494	-151.964953971	-23.710838559	-21.1049105587
126125000.0	-20.2146936522	-22.4669702885	-31.8396790151	-110.837781733	-61.9985746083	-179.31409819	-23.8351895938	-21.4560408242
126812500.0	-20.6784066495	-27.5779831667	-31.0679267024	-110.927412689	-62.2915812613	144.223574932	-23.9476890902	-21.810132129
127500000.0	-21.1818021149	-31.6716073895	-30.2335729432	-111.234242208	-62.4791055517	115.998681847	-24.0485519913	-22.1638139095
128187500.0	-21.6840094262	-35.525076283	-29.44821436	-111.798987836	-62.2696800517	88.9585468788	-24.1441310396	-22.5560051049
128875000.0	-22.1222721478	-38.5141487717	-28.5571559814	-112.663442448	-61.9950058815	65.6478030949	-24.2297449247	-22.9293945499
129562500.0	-22.538664545	-41.4336256529	-27.7004180018	-114.28730684	-61.8939303721	37.8895600785	-24.3070926601	-23.3566774823
130250000.0	-22.9087207981	-44.0353110526	-26.7728734933	-115.864886926	-61.8346193337	22.5489564577	-24.3871348769	-23.7333407435
130937500.0	-23.2373788908	-46.4979784794	-25.9022116911	-118.667038315	-61.6900727516	7.71039708132	-24.455317338	-24.0871721681
131625000.0	-23.5272072488	-48.7201120273	-24.9722800352	-121.432015963	-61.7697223319	-16.9158591315	-24.5136084468	-24.5485923159
132312500.0	-23.7924888097	-50.9184755636	-24.1568085342	-125.275334735	-61.5288486999	-31.4448466354	-24.5710149581	-24.9948485032
133000000.0	-24.0286263901	-52.9985389145	-23.3479193979	-128.958213706	-61.8129059893	-45.9008641074	-24.6169315273	-25.5092110549
133687500.0	-24.236331513	-55.0980808393	-22.6329732474	-133.282828341	-62.0113852251	-57.8244049876	-24.660858438	-25.9324261266
134375000.0	-24.4292418256	-57.063573596	-21.9450693231	-137.725234517	-61.641260751	-70.3456281161	-24.6876982184	-26.449744457
135062500.0	-24.583475451	-59.0879458845	-21.3534706249	-142.639697337	-61.6911492375	-75.9310338923	-24.7051854285	-26.9699408011
135750000.0	-24.7329746268	-61.0241495016	-20.7968272953	-147.518347878	-62.0725458523	-75.6656335007	-24.7138840123	-27.5742600121
136437500.0	-24.8471456701	-62.8447323807	-20.3118607745	-152.512804419	-62.4497657842	-69.8678953358	-24.7226317508	-28.1648101682
137125000.0	-24.9580006611	-64.6254318758	-19.881416121	-157.501637586	-62.4356678096	-66.0237284553	-24.7216788789	-28.7495149811
137812500.0	-25.0223251199	-66.2613195694	-19.5108344927	-162.508179833	-62.6066509018	-62.6812921754	-24.7012256052	-29.2461937048
138500000.0	-25.0637402577	-67.832458147	-19.1913684605	-167.475055995	-62.2207914218	-71.6847557956	-24.6733010149	-29.8819088606
139187500.0	-25.0676883219	-69.2273014172	-18.9149664492	-172.348752475	-61.8195577178	-73.3356699163	-24.639758659	-30.4200873874
139875000.0	-25.0416078415	-70.65232282	-18.6766490914	-177.148375281	-61.1085065509	-67.5527285857	-24.600649684	-30.9943602202
140562500.0	-24.9702616147	-71.9152731348	-18.4770065106	178.202120191	-61.4312274565	-54.1126165513	-24.552806226	-31.5705748879
141250000.0	-24.849804796	-73.2192533234	-18.3136626928	173.6194917	-61.32616483	-41.7275608551	-24.4837915639	-32.0798938656
141937500.0	-24.6681501524	-74.4952296164	-18.1742146348	169.211802916	-60.7050434585	-36.8543505873	-24.4109394204	-32.6195044301
142625000.0	-24.4313446803	-75.8113351172	-18.0710091986	164.911279528	-61.250438824	-34.3356586026	-24.3306350766	-33.1400754221
143312500.0	-24.109912199	-77.4336906976	-17.9801946521	160.796395369	-61.6577137239	-20.380786465	-24.2218233548	-33.5599988941
144000000.0	-23.73027932	-79.3468907149	-17.9217741066	156.755836737	-61.1478726536	4.71707578089	-24.1264353024	-33.9623842955
144687500.0	-23.3149377513	-82.2037024812	-17.8647492851	152.885257418	-60.7795659134	19.6082688271	-24.0274749687	-34.3898065348
145375000.0	-22.8947892259	-85.2888868495	-17.8275308014	149.140133051	-60.9441611177	26.1690761054	-23.9179010217	-34.773080054
146062500.0	-22.5448794774	-89.1074130764	-17.7995531944	145.52649218	-61.8527093033	36.5909088498	-23.8049363129	-35.0947942743
146750000.0	-22.2076334248	-93.0461903243	-17.7861840826	141.993711852	-62.0211272396	38.6881770011	-23.7013580383	-35.3541055206
147437500.0	-21.9410437073	-97.1979353761	-17.7816564557	138.593386699	-62.3267872033	28.6929420018	-23.5657053906	-35.6299719319
148125000.0	-21.7084426584	-101.435454041	-17.786970911	135.327250844	-62.4669759567	28.3894065953	-23.4398917775	-35.8685479963
148812500.0	-21.5240467756	-105.86775984	-17.8012218437	132.148340455	-62.9189454455	28.7949719029	-23.3036755935	-35.9626894781
149500000.0	-21.3588596843	-110.186484941	-17.8140880426	129.077268556	-62.8952338396	16.6289367098	-23.175432548	-36.0104240812
150187500.0	-21.2418372413	-114.627123029	-17.8367375182	126.08159389	-62.8067557009	-6.26812650283	-23.0394284014	-35.9763717734
150875000.0	-21.1484110652	-118.818663449	-17.8580520699	123.177627016	-62.7541294598	-33.3238578138	-22.9016862183	-35.9047805284
151562500.0	-21.0803968617	-123.217187996	-17.8856355327	120.294471864	-62.9183498041	-56.5273568603	-22.7626894546	-35.759642349
152250000.0	-21.0380748209	-127.281687627	-17.9092586236	117.563400125	-62.8731893558	-83.5871830526	-22.636947691	-35.5421300083
152937500.0	-21.0117447446	-131.449158461	-17.944594969	114.883525891	-62.372291977	-110.750093165	-22.5016345817	-35.284448398
153625000.0	-21.010449881	-135.483086838	-17.9695436782	112.282959068	-61.6927914308	-147.733197601	-22.3720042101	-34.9204464331
154312500.0	-21.0019398395	-139.553442721	-18.0069534743	109.727653181	-61.7622540387	169.101543417	-22.2425645551	-34.5198562729
155000000.0	-21.0323745986	-143.598810618	-18.041129241	107.273344647	-61.9795237815	119.93257113	-22.1173689106	-34.0730483702
155687500.0	-21.0573295203	-147.571062514	-18.0816298779	104.824172009	-62.1218273164	75.8984993245	-22.004306952	-33.4889162197
156375000.0	-21.1070004456	-151.579279053	-18.1168594701	102.471968164	-62.3356866596	22.680196561	-21.8843027708	-32.9414495188
157062500.0	-21.1393584072	-155.497696183	-18.1620585524	100.148730797	-62.6401749105	-39.8129325106	-21.7676495017	-32.2818670278
157750000.0	-21.2021972479	-159.48195281	-18.1963551553	97.8781201402	-62.1771867373	-108.495466276	-21.6561922077	-31.5777572817
158437500.0	-21.2501966811	-163.291937894	-18.2403263711	95.6235264905	-62.1413951716	-163.989576197	-21.5539387389	-30.8458596383
159125000.0	-21.3150951917	-167.149482938	-18.2818745051	93.4863784823	-62.0470712077	151.339000549	-21.4599987594	-30.0303074136
159812500.0	-21.3762884121	-170.881859985	-18.3234668089	91.356677109	-62.5326894116	107.433540568	-21.3661054566	-29.1963098262
160500000.0	-21.450380972	-174.745792035	-18.3667714205	89.2467524911	-62.1373400067	65.396177002	-21.2909153408	-28.3717618001
161187500.0	-21.5154589495	-178.415738408	-18.4076037868	87.1909175442	-62.1359076718	10.828795258	-21.2046258339	-27.5151264177
161875000.0	-21.5926278391	177.851524505	-18.450609164	85.1891771655	-62.1300081381	-32.493564941	-21.1358809925	-26.5763405155
162562500.0	-21.6664442419	174.206239683	-18.494305031	83.2300607506	-61.85607596	-73.6920684838	-21.0674266857	-25.6357489109
163250000.0	-21.733771831	170.461405003	-18.5407620566	81.2486964174	-61.3798151119	-114.006390889	-21.0096452844	-24.6515507807
163937500.0	-21.8167631381	166.897114817	-18.5812150753	79.3467547427	-61.0978225168	-145.80896391	-20.9455790228	-23.6662539562
164625000.0	-21.8760222113	163.291476145	-18.6216500893	77.4524058476	-61.0353729881	-172.348842205	-20.9100289973	-22.6410789889
165312500.0	-21.9481586577	159.761314303	-18.6622098732	75.6019139256	-61.0479444831	161.845509666	-20.8765272666	-21.603843848
166000000.0	-22.0082696274	156.226989375	-18.7031234826	73.7758400905	-60.4081283924	136.470825376	-20.8542924629	-20.6310290031
166687500.0	-22.0860460323	152.690079464	-18.7407399653	72.0273984108	-60.3635780584	111.176394211	-20.8329944726	-19.6313692626
167375000.0	-22.1489854954	149.339800419	-18.7832860351	70.242420351	-60.307397231	94.4465296484	-20.8314217834	-18.6638602793
168062500.0	-22.2136412807	145.841478749	-18.821412579	68.5197227638	-60.4582963352	81.2187859679	-20.8272103531	-17.6572228302
168750000.0	-22.2673083259	142.517649673	-18.8639710675	66.8283515538	-60.4054939533	76.2642490797	-20.8386021789	-16.6635058579
169437500.0	-22.3238703827	139.002947369	-18.9003032088	65.1567914194	-60.4860058356	62.8175357651	-20.859358571	-15.6578003851
170125000.0	-22.3705132529	135.660657506	-18.9378880928	63.504534241	-60.4816727653	36.0278941828	-20.8917957888	-14.6960783828
170812500.0	-22.4229867598	132.226552871	-18.9735321463	61.9210480977	-61.346288711	21.4556804698	-20.9187129782	-13.762437659
171500000.0	-22.4689565416	128.96155447	-19.0068411453	60.3263608879	-61.1428550688	19.245731752	-20.9673200489	-12.8583638739
172187500.0	-22.5150866059	125.556461768	-19.038373191	58.7392722094	-60.884429838	14.5848402879	-21.0237601555	-12.0190403771
172875000.0	-22.5549222758	122.289749447	-19.0699977056	57.1891423241	-60.86896683	17.8932454701	-21.0805637949	-11.2512286456
173562500.0	-22.5822209599	118.927394191	-19.1043660438	55.6578050798	-60.8899170023	26.4301807839	-21.1619025718	-10.362249765
174250000.0	-22.6289086026	115.776733114	-19.1307456516	54.191939177	-60.6919021543	36.3519813315	-21.2359066229	-9.54981227084
174937500.0	-22.6311210815	112.519350748	-19.1645449249	52.7405144594	-60.5697579686	51.3819516068	-21.3277925894	-8.79462523377
175625000.0	-22.6452821013	109.335425393	-19.1847980464	51.3086790298	-60.5393607284	52.5944255834	-21.4260927899	-8.07675695096
176312500.0	-22.6505450369	106.087741896	-19.2115836249	49.8300535079	-60.6065312291	53.2645010272	-21.53704625	-7.45574857377
177000000.0	-22.6504657686	102.913432771	-19.2308162	48.4359866531	-59.8898996057	54.4451645291	-21.6633668344	-6.84373121
177687500.0	-22.6293223701	99.7745651184	-19.2572659549	47.0111722777	-59.8306115318	43.4579588277	-21.7994126862	-6.1954040336
178375000.0	-22.6246045316	96.5681169766	-19.2689076859	45.6244516042	-60.7395977618	44.3206015349	-21.9399944069	-5.56492723821
179062500.0	-22.5867273013	93.4749089136	-19.2910355011	44.2063661709	-60.833692694	43.3777045456	-22.0828046454	-5.03208791005
179750000.0	-22.5605066736	90.3165400875	-19.300992844	42.861042581	-60.7019616597	39.8475646781	-22.2427770191	-4.52365555972
180437500.0	-22.5249864217	87.2752558782	-19.3153481369	41.4967850118	-60.539552406	24.7617609952	-22.3946068484	-4.05966971033
181125000.0	-22.4794450572	84.0709601317	-19.3229572678	40.1764663151	-60.8126753274	3.307555772	-22.5644494911	-3.65921039888
181812500.0	-22.436611931	81.0999850079	-19.3329300064	38.8349751802	-60.6903190094	-12.3596156382	-22.7295584519	-3.31758461704
182500000.0	-22.3822421655	77.9853196562	-19.3343687402	37.5078886084	-60.5470983176	-41.5150583739	-22.9163967364	-2.96488649166
183187500.0	-22.3123073389	75.0197534118	-19.3457266425	36.1697209502	-60.5824640835	-60.1363592824	-23.0992636509	-2.64238542745
183875000.0	-22.2460035433	72.0576492444	-19.3475893376	34.8294931044	-60.8654358187	-73.6895042653	-23.28154443	-2.39227459559
184562500.0	-22.163202626	69.1730107984	-19.3535827078	33.5340486827	-60.692943245	-92.0863783047	-23.467071448	-2.28857090032
185250000.0	-22.0867265563	66.2926515588	-19.3564408741	32.2721484427	-60.6292848084	-109.811196524	-23.6578144639	-2.15665313805
185937500.0	-22.0038529664	63.5123381739	-19.360200788	30.9851307351	-60.581355956	-138.555881676	-23.8530290842	-2.10597634996
186625000.0	-21.9280720695	60.7764046045	-19.358539819	29.6956503154	-60.4303132092	-166.122517368	-24.0433805988	-2.07454798435
187312500.0	-21.845447222	58.0664962954	-19.3592572907	28.4063501	-60.7804123753	174.179327401	-24.2361872877	-2.03498589661
188000000.0	-21.7563552558	55.4100602355	-19.3594405924	27.1012885412	-60.1834599617	144.394190549	-24.4327055298	-2.03597200801
188687500.0	-21.6813341052	52.7585289825	-19.3627168306	25.820719708	-60.3480446876	103.983150003	-24.6326274084	-2.16739456254
189375000.0	-21.5900922482	50.2588986092	-19.362124311	24.5495481217	-60.4395190428	72.1939527223	-24.8207085786	-2.30673357361
190062500.0	-21.5208704826	47.6881468923	-19.3549416463	23.282548802	-60.5784233167	28.5677727848	-25.0027337161	-2.53751388018
190750000.0	-21.4545072402	45.2357195847	-19.3442476539	22.0184636653	-60.4957054491	-7.76247776291	-25.1871118868	-2.76275992879
191437500.0	-21.390007445	42.6242457273	-19.3399729208	20.7413742515	-60.7299519363	-41.5847012743	-25.3682019044	-3.1082368055
192125000.0	-21.3450536796	40.2516431639	-19.3303583316	19.473230663	-60.7361663064	-71.9172240258	-25.5385055105	-3.52313973277
192812500.0	-21.3045380335	37.6785722195	-19.3236744092	18.2632354315	-60.6515459339	-97.4750403644	-25.7180344212	-4.031331338
193500000.0	-21.2696215804	35.3376649573	-19.3159542741	17.0239310289	-60.5492273094	-124.303449907	-25.8780435206	-4.55537899173
194187500.0	-21.2506514238	32.9033644396	-19.3122657357	15.7863691719	-60.6176956982	-152.384830821	-26.0126907323	-5.22960204569
194875000.0	-21.2490458138	30.522972186	-19.2978379134	14.5252169612	-60.895359026	179.149647025	-26.1568634874	-5.95491713004
195562500.0	-21.2347201696	27.9972707752	-19.2897306814	13.3166994269	-60.0019933459	150.549447712	-26.2989307526	-6.76817319101
196250000.0	-21.2529471474	25.5591338352	-19.2825567504	12.0831429297	-60.1317351326	110.704737586	-26.4284931099	-7.65815444403
196937500.0	-21.2677409899	23.0309983896	-19.2758681343	10.8302261676	-60.1709401316	81.2652881904	-26.5325250668	-8.47242129837
197625000.0	-21.2960342882	20.5326752786	-19.2629039351	9.63178537128	-60.1731462887	54.797454205	-26.632412543	-9.48903754881
198312500.0	-21.3247164252	18.0436180303	-19.2524487122	8.42164377536	-59.7960122826	27.1780792297	-26.7066991164	-10.5671248586
199000000.0	-21.3722503092	15.4849125761	-19.2427152382	7.19865113541	-59.8702199219	-6.45945302982	-26.7643244412	-11.7898848735
199687500.0	-21.4092746644	12.9682179413	-19.2351995622	6.01032972375	-60.028190075	-34.202829969	-26.8003253207	-12.9562778167
200375000.0	-21.4700440482	10.3758489899	-19.2154855311	4.7861310127	-60.5374426512	-74.4154869375	-26.8292868801	-14.3196017369
201062500.0	-21.5064265219	7.76739655409	-19.2106831337	3.58382292163	-60.1653072792	-116.55912176	-26.8488267667	-15.6107997753
201750000.0	-21.5715558455	5.03955061948	-19.1925039505	2.38705257888	-60.1552660169	-150.933091166	-26.8504902574	-16.7882328813
202437500.0	-21.6190618841	2.41092472735	-19.1845350554	1.12585147456	-59.8083235185	-176.696655819	-26.8310848269	-18.0870218387
203125000.0	-21.6814322677	-0.352512609527	-19.1625801093	-0.0948136803503	-60.0421676316	157.53909209	-26.7933086284	-19.3893348332
203812500.0	-21.7250977233	-3.02878817857	-19.1531192555	-1.27360016437	-60.4154873279	141.20912112	-26.7338422734	-20.7570180216
204500000.0	-21.7907481148	-5.83666445498	-19.1333538077	-2.43994498453	-60.0081014137	120.564303924	-26.6652314938	-22.1195424633
205187500.0	-21.8419290536	-8.49070748654	-19.1170149377	-3.66456704174	-60.2837927754	110.329710167	-26.5853333884	-23.457149832
