#Frequency	|S11|	<S11	|S21|	<S21	|S12|	<S12	|S22|	<S22
100000000.0	-15.6931878732	140.793298043	-13.776020287	-129.216418558	-62.667840819	-127.189755879	-19.6384099181	-71.50090923
100687500.0	-15.6636006445	137.683192796	-13.3464438364	-130.564636671	-64.9185609547	128.015472765	-19.6817317688	-71.7003372144
101375000.0	-15.6640218903	134.509982432	-12.9525860891	-132.044275532	-62.2974757182	93.6226252768	-19.7139368338	-71.6860928928
102062500.0	-15.653961239	131.517180498	-12.5939014729	-133.523560078	-61.2117617393	29.5566053852	-19.8004514292	-71.5309051704
102750000.0	-15.6526508439	128.382210768	-12.2556357758	-135.063296852	-60.6651476876	33.642633666	-19.8646298952	-71.6209542191
103437500.0	-15.6661532311	125.185770368	-11.9376414067	-136.637283695	-59.4508654147	43.0387780773	-19.9301128845	-71.5782871948
104125000.0	-15.6851018449	121.82822754	-11.6460312108	-138.216742544	-58.9980595543	75.5281986318	-20.0245127572	-71.5663788773
104812500.0	-15.7103822405	118.427138364	-11.3792059458	-139.815668193	-58.845532466	102.771278369	-20.1095871664	-71.6770157235
105500000.0	-15.7508186478	114.90333023	-11.1449455474	-141.413880984	-59.009599995	129.742546129	-20.1867691597	-71.7559104281
106187500.0	-15.798108216	111.25808054	-10.9446824221	-143.004152635	-59.194824143	135.399296083	-20.2743177552	-71.8683497977
106875000.0	-15.8572387555	107.491861492	-10.7826100984	-144.547094499	-59.1986832413	135.472314255	-20.3596488698	-72.0183638161
107562500.0	-15.937778895	103.544015216	-10.6622854964	-145.994399485	-59.4471365162	126.815146416	-20.4553977624	-72.1207874591
108250000.0	-16.0227340661	99.3820605165	-10.5912242183	-147.279875753	-59.5033181705	131.921791415	-20.5533023904	-72.2448188574
108937500.0	-16.0840459936	95.4730037232	-10.450095786	-148.577034888	-59.5814033981	122.19383034	-20.6426417731	-72.3021229304
109625000.0	-16.1520254765	91.5063712315	-10.3426850427	-149.737870129	-59.1167744113	109.71553739	-20.7273061225	-72.365967597
110312500.0	-16.2204238471	87.3521332351	-10.2654280477	-150.726584551	-58.9670892179	108.767708172	-20.8213852654	-72.4578423399
111000000.0	-16.3049924588	83.1010380759	-10.2224874061	-151.479129877	-59.1995032825	95.666098128	-20.9218566351	-72.5039581248
111687500.0	-16.3833205112	78.719122338	-10.2023616469	-151.915702502	-59.023430951	94.9884734204	-21.0188978673	-72.5754897007
112375000.0	-16.4822329928	74.1821681508	-10.1956350219	-151.941909826	-59.2630845325	96.7088669377	-21.1155719533	-72.6538061926
113062500.0	-16.5733784338	69.4761932651	-10.1857814066	-151.525641677	-59.3831310998	101.579124251	-21.2191976293	-72.6945737797
113750000.0	-16.6828522127	64.6293783873	-10.1500560193	-150.663158927	-59.733281925	104.579648991	-21.3255977908	-72.6564362892
114437500.0	-16.7995085994	59.6727214742	-10.0716273411	-149.445347239	-59.5808244721	105.368324256	-21.4430460261	-72.6598325716
115125000.0	-16.9223650986	54.4854111942	-9.9402369812	-147.949826125	-60.1313598325	96.3745114101	-21.5639128473	-72.6371885019
115812500.0	-17.0444627978	49.1744252588	-9.7537322073	-146.285979133	-60.4863867319	97.448006468	-21.6798289177	-72.5379215101
116500000.0	-17.1859560455	43.6533941058	-9.50795550976	-144.528768843	-61.4265074884	85.254153893	-21.7923521257	-72.3621565312
117187500.0	-17.334144762	38.0323127736	-9.20792576503	-142.726872898	-61.4068115537	74.0979693644	-21.9055374626	-72.1548374428
117875000.0	-17.4996950523	32.1299190774	-8.8550829145	-140.935677497	-61.6904270653	61.3660179415	-22.0335144994	-71.841389445
118562500.0	-17.6883613381	26.1193901774	-8.45456108267	-139.209570787	-61.5977654183	47.9902966617	-22.1581433002	-71.4148325142
119250000.0	-17.8858945331	19.8727548049	-8.00476490632	-137.54331375	-61.3730399883	33.7669971867	-22.2869039385	-70.8312298783
119937500.0	-18.1182767554	13.4677534563	-7.51160847633	-135.999870258	-61.1968828442	14.1179623092	-22.4064033991	-70.218983474
120625000.0	-18.3735778225	6.81578006574	-6.97524583621	-134.581207253	-61.0725987436	1.96434259678	-22.52579544	-69.5368511191
121312500.0	-18.6849888719	-0.0206439581033	-6.39874221856	-133.315156666	-60.9070042676	-5.43393244938	-22.62942602	-68.6953080118
122000000.0	-19.0169873766	-7.01794059709	-5.78263975917	-132.209914537	-61.2345914808	-15.7931651925	-22.7386811398	-67.7808516325
122687500.0	-19.429880595	-14.3003971082	-5.13240501258	-131.305308637	-60.8750165249	-26.4808198657	-22.832146852	-66.7728296276
123375000.0	-19.9084948511	-21.5687694463	-4.44813310121	-130.586307588	-60.8618593003	-26.9980272498	-22.9024157354	-65.6719434027
124062500.0	-20.5050819239	-29.2981547646	-3.73185251349	-130.096900719	-60.6018731481	-37.0256522858	-22.9624006578	-64.5335360353
124750000.0	-21.2592247175	-36.90263184	-2.98637836534	-129.83108521	-60.572529291	-51.5518874636	-23.0077971478	-63.3682626884
125437500.0	-22.2519557726	-44.4351491818	-2.20848583702	-129.824179492	-60.2649858041	-62.3787653087	-23.0422688111	-62.1187002395
126125000.0	-23.4995406618	-46.443106564	-1.39922690221	-130.074802969	-60.1529484855	-65.8198508547	-23.0588842723	-60.8897611221
126812500.0	-24.426455611	-48.0425931242	-0.562375425231	-130.659163872	-60.0036793614	-66.8368270904	-23.0712365211	-59.6485182599
127500000.0	-25.0261860946	-49.382029135	0.301376743855	-131.597918528	-59.733508104	-69.673077987	-23.0575411593	-58.4121514096
128187500.0	-25.5614752679	-50.9360554452	1.19129057503	-132.954786624	-59.4097158221	-67.1356976154	-23.0351481208	-57.1869629066
128875000.0	-26.0086905216	-52.410310605	2.09847873179	-134.774848485	-59.2869489864	-69.7959526957	-23.0041534427	-55.9436419329
129562500.0	-26.3960431917	-54.1120659529	3.01167740877	-137.18511252	-59.0111967675	-70.4320262266	-22.9538875492	-54.7549564372
130250000.0	-26.7334305253	-55.8041927198	3.91060981555	-140.167398502	-58.3819521532	-78.0411490411	-22.8959596283	-53.6562967695
130937500.0	-27.017884867	-57.6271205801	4.77469080496	-143.748496736	-57.9910805055	-91.6471768459	-22.8292695735	-52.5948262224
131625000.0	-27.2663928362	-59.4098934497	5.5829868512	-147.799050051	-57.789671604	-102.468076602	-22.7451795301	-51.6003050334
132312500.0	-27.4850622779	-61.2428798611	6.32929249007	-152.257778859	-57.7624838549	-105.768446935	-22.6546537358	-50.6478682731
133000000.0	-27.6814320725	-63.0630105746	7.00791880991	-156.988097519	-57.6610116821	-115.303303419	-22.5642779168	-49.805755064
133687500.0	-27.8313633043	-64.875467681	7.61826829212	-161.926116785	-57.1487671076	-117.439738153	-22.4637229508	-49.0727401478
134375000.0	-27.9629218087	-66.5608426801	8.16336761423	-166.999694723	-57.1298957429	-127.38158592	-22.3603360559	-48.4400965976
135062500.0	-28.0438709168	-68.231543667	8.6471186757	-172.145219898	-56.9337526853	-130.720361947	-22.2435624238	-47.9208218824
135750000.0	-28.1123155109	-69.8250433012	9.07139253461	-177.313468224	-56.8383723107	-139.028700119	-22.1248128518	-47.5696913437
136437500.0	-28.1465567347	-71.2904909085	9.44053311911	177.502826208	-56.8505330845	-141.305542239	-22.0019505599	-47.4128563178
137125000.0	-28.140472305	-72.7191366806	9.75717808684	172.355060268	-56.6264506616	-145.997293867	-21.8871705097	-47.2746187892
137812500.0	-28.087774532	-73.8970620122	10.0263054713	167.279225328	-56.6351405659	-153.541499878	-21.7699610101	-47.2268815566
138500000.0	-27.9815779354	-74.9547300414	10.2507829582	162.280182427	-56.3376136717	-157.568139586	-21.6561153497	-47.3849187687
139187500.0	-27.8308084712	-75.7939376271	10.4341432838	157.384240494	-55.9092173034	-164.013335463	-21.5382490222	-47.6672588532
139875000.0	-27.6054130196	-76.4759261174	10.5795834334	152.607041603	-56.1004461491	-165.766265652	-21.4362459792	-48.0131301583
140562500.0	-27.2959193906	-77.0946462782	10.6923150681	147.954412245	-55.6844633718	-173.97895677	-21.3531618242	-48.5552095974
141250000.0	-26.8660896369	-77.3031119386	10.7752778829	143.445194173	-55.874931028	-175.432107558	-21.2718901482	-49.0894594368
141937500.0	-26.2709086088	-77.509391495	10.8321012302	139.083354412	-55.4335226863	177.775871091	-21.2032523105	-49.7184098286
142625000.0	-25.4293338798	-77.8314259021	10.865882496	134.869538875	-56.0938061323	176.371345064	-21.1429512439	-50.381122776
143312500.0	-24.3297842317	-83.5472492351	10.8775563062	130.796952493	-55.7581480601	170.802593824	-21.0947259051	-51.1142065441
144000000.0	-23.5374326861	-89.7214217882	10.8752647467	126.87590379	-55.8259702281	169.795506187	-21.0578387317	-51.8289183901
144687500.0	-23.0827888892	-96.0432413751	10.8584504291	123.118801085	-55.890111897	164.392361372	-21.0357027547	-52.5761456652
145375000.0	-22.6712743655	-102.037237576	10.8294401982	119.498278573	-56.0642307355	164.152610594	-21.0197346569	-53.3880373859
146062500.0	-22.3535686818	-107.999587936	10.792079548	116.013743227	-56.0661380639	157.951891394	-21.0227279355	-54.1896698595
146750000.0	-22.0759643086	-113.624102687	10.7457434117	112.661080939	-56.5034943361	155.454309029	-21.039427101	-54.9487527012
147437500.0	-21.8609590974	-119.147021049	10.6933300937	109.441841062	-56.6637034203	150.625374198	-21.0451031549	-55.6829230382
148125000.0	-21.6718502251	-124.379072963	10.6381391331	106.335234503	-56.8184910748	150.479479542	-21.0626052661	-56.3972407327
148812500.0	-21.5287949955	-129.659687776	10.5781924395	103.335278459	-56.8221885806	150.747616113	-21.0818902315	-57.0313961846
149500000.0	-21.4031927347	-134.591449347	10.5184372171	100.447354625	-56.2208207942	143.124139053	-21.1125564789	-57.653083046
150187500.0	-21.2953528471	-139.528325965	10.4547197585	97.653605271	-55.9288865375	140.225689848	-21.1397765005	-58.2142434002
150875000.0	-21.2219350405	-144.202518801	10.3914739048	94.9588315812	-55.6125458012	143.268517812	-21.178970449	-58.7738373876
151562500.0	-21.1563658481	-148.994906712	10.328646811	92.3418571833	-55.9443608357	141.887522473	-21.2096142295	-59.2151830876
152250000.0	-21.1299330836	-153.460166926	10.2666146634	89.8040580448	-55.862304561	136.445228809	-21.2481342021	-59.6475089373
152937500.0	-21.0937756886	-157.911209072	10.2023111085	87.3347719956	-55.8762662709	135.645190766	-21.2860285222	-59.9468576276
153625000.0	-21.0855316203	-162.229795009	10.1421340623	84.9494692516	-55.8178184385	132.235709484	-21.3312121797	-60.2968015879
154312500.0	-21.0655841431	-166.443976589	10.0828683628	82.6169019361	-56.0699042874	130.082087025	-21.3634648084	-60.54026942
155000000.0	-21.0729076218	-170.622707492	10.0241265487	80.3426390908	-56.0967394684	126.403989083	-21.4020399395	-60.784330728
155687500.0	-21.068370241	-174.707748356	9.96706017205	78.1307355134	-56.3632523356	123.775295783	-21.4557311696	-60.9620635568
156375000.0	-21.0982638839	-178.85206453	9.91000647979	75.9748195896	-56.3487697609	123.247993994	-21.5030770734	-61.1010353228
157062500.0	-21.1067993686	177.22858868	9.85611789267	73.8568832695	-56.5340701976	120.829271793	-21.5545598072	-61.1774066519
157750000.0	-21.1344042491	173.212163259	9.80232266017	71.7881246319	-56.4677100291	118.862760193	-21.6003817254	-61.2175033933
158437500.0	-21.1490259505	169.39437507	9.75070052487	69.7657516644	-56.9845359631	116.590651094	-21.6592557209	-61.2645246688
159125000.0	-21.170989297	165.527764761	9.70139546449	67.7905346162	-57.0717236861	116.37936433	-21.7155894024	-61.2721674972
159812500.0	-21.1944845459	161.831615702	9.65304785966	65.8483965938	-56.6720946878	114.381822556	-21.7798333039	-61.2524970003
160500000.0	-21.2198484141	158.080670975	9.60689681556	63.9585200587	-56.5681912392	111.912951687	-21.8450154656	-61.2717071072
161187500.0	-21.2501599826	154.544113723	9.56188900472	62.0893569788	-56.6127633998	110.081500221	-21.9083893754	-61.1973101275
161875000.0	-21.2738532734	150.980425778	9.51767639308	60.2509625702	-56.5525822165	107.72374375	-21.9812801533	-61.1580749676
162562500.0	-21.3130406118	147.463170083	9.47568726838	58.452381688	-56.5006975642	105.766694202	-22.0511064705	-61.0721948148
163250000.0	-21.338990206	143.944301997	9.43486710658	56.6716352964	-56.7913618433	105.525097038	-22.126168267	-60.9969705619
163937500.0	-21.3838361843	140.489035827	9.39676697448	54.9243173241	-56.4435064564	100.540519091	-22.1931946608	-60.8979185592
164625000.0	-21.405327469	137.135493329	9.35945714951	53.199969163	-56.5488556861	99.9061866502	-22.2724604328	-60.818662722
165312500.0	-21.4544835086	133.780793048	9.32168472769	51.5076342211	-56.569771745	91.9527449377	-22.3523731373	-60.7641215231
166000000.0	-21.4821224356	130.559000988	9.28874558406	49.8411240429	-56.7623473482	91.4303680594	-22.4358898968	-60.720205944
166687500.0	-21.5314504219	127.257447406	9.25491056013	48.1966696408	-56.6646619092	92.459978165	-22.5174973133	-60.6798470996
167375000.0	-21.5824863108	124.13267193	9.22403581168	46.5811828686	-56.9739822449	90.5817715783	-22.6117180301	-60.7404186393
168062500.0	-21.6272642471	120.916270285	9.19493955171	44.9833889372	-56.7284008707	78.3214421111	-22.6934514123	-60.7833577008
168750000.0	-21.6678459755	117.913305394	9.16526311207	43.42544653	-56.4085972678	77.0671269746	-22.787955044	-60.8882355391
169437500.0	-21.6998749696	114.712772441	9.13755920261	41.8825796325	-56.2793782791	75.3765469122	-22.8891851025	-60.9888169721
170125000.0	-21.7409549145	111.676764263	9.11440194651	40.3539771149	-56.1646234483	75.1722361903	-22.9869237753	-61.1954936695
170812500.0	-21.7760523362	108.512958515	9.09099419673	38.8335327158	-56.2470630351	71.4528211395	-23.0857618125	-61.3690245717
171500000.0	-21.8307325155	105.575104973	9.06907428505	37.3543787644	-56.6066865354	71.3167012208	-23.190861791	-61.6124144114
172187500.0	-21.8683133154	102.458640486	9.0508701826	35.8880930634	-56.3993119177	71.7391238354	-23.2976245886	-61.896558144
172875000.0	-21.92538115	99.404571252	9.03286021211	34.4382212731	-56.4545817905	70.2656125384	-23.3896333728	-62.1118387214
173562500.0	-21.9497212979	96.3321416787	9.01760980204	32.9961050684	-56.377479987	66.9852593544	-23.5015662712	-62.4724910859
174250000.0	-22.0004325708	93.265367609	9.00516140559	31.5825272663	-56.1850536864	64.1011349436	-23.6012722334	-62.7312425844
174937500.0	-22.0193839585	90.2432616458	8.99563994745	30.1651391534	-56.1628800888	64.2880448749	-23.7015126965	-63.1304878296
175625000.0	-22.0645397273	87.1184462503	8.98675701903	28.7649290785	-55.5510508908	65.6436108852	-23.8063495753	-63.4057573226
176312500.0	-22.0840186253	83.964784315	8.97926028041	27.3742425164	-55.8380855197	63.9502954788	-23.9135822042	-63.8196359723
177000000.0	-22.1171286947	80.8385787417	8.97475675112	25.9951011739	-55.6852803247	61.6862179241	-24.0016556465	-64.2723569622
177687500.0	-22.1260084047	77.7191751658	8.97131857809	24.6041139067	-56.0015412472	61.9951665148	-24.1009328829	-64.7222988208
178375000.0	-22.1521581408	74.4909380476	8.96969189799	23.2358939192	-55.9804122522	59.3675411518	-24.2056874834	-65.1654159897
179062500.0	-22.1534285222	71.3839500906	8.97008063364	21.8695045597	-56.2089913106	60.2605192867	-24.2941099907	-65.6015001518
179750000.0	-22.1510081955	68.1237423494	8.97227516818	20.5114566385	-55.9379036611	54.5391362265	-24.3950221788	-66.0067482028
180437500.0	-22.1454256952	64.9757354715	8.97561354051	19.1514142813	-55.6787831894	54.0437735791	-24.4693027273	-66.3613448413
181125000.0	-22.1220003633	61.6832786388	8.97970122905	17.7979266986	-55.6451429052	55.0537130191	-24.5575914011	-66.7568043759
181812500.0	-22.1101393618	58.4847870445	8.98578367846	16.4469643348	-56.0138106242	56.1217067453	-24.648163028	-67.0999781027
182500000.0	-22.0809025962	55.1321047314	8.99492938276	15.1098221209	-56.0323308217	58.1539701172	-24.7414333927	-67.5039295164
183187500.0	-22.0490234049	51.9330693842	9.00259883845	13.7681640227	-56.224604591	57.498945745	-24.8332373864	-67.7170767642
183875000.0	-21.9990018278	48.6960970251	9.01279368938	12.4318151173	-56.3353661687	57.3877636606	-24.9164581458	-68.0729764236
184562500.0	-21.9535962632	45.4193276361	9.02360864482	11.0943572321	-56.3660453453	58.3261449815	-24.9898482628	-68.2167581423
185250000.0	-21.8892136544	42.1335153177	9.03432624249	9.76786609069	-56.4443515868	59.6113252726	-25.0739236968	-68.4481393199
185937500.0	-21.8415577014	38.8485595214	9.04591889438	8.42499309706	-56.5838094685	58.0420247807	-25.1552933274	-68.4623883339
186625000.0	-21.7908738521	35.6231265674	9.06039852515	7.08833461191	-56.6440101796	58.0329009659	-25.2289072455	-68.6480717394
187312500.0	-21.7299812256	32.3150241566	9.07394155313	5.75453429285	-56.7693520879	56.43429472	-25.3091985487	-68.6128589895
188000000.0	-21.6547775028	29.1343699178	9.08796459579	4.4260760196	-56.7042060701	55.6021642022	-25.3659748105	-68.620714459
188687500.0	-21.5895532372	25.747724413	9.10216136857	3.08786099141	-56.2699616409	49.507038623	-25.4394192647	-68.5877694657
189375000.0	-21.5231772709	22.5551811521	9.1169884642	1.76679539749	-56.4833425179	48.9404204218	-25.5239752012	-68.6032095772
190062500.0	-21.4484793955	19.2713222543	9.13337776717	0.439690918314	-56.3935817421	45.1499906936	-25.6071213131	-68.5102697128
190750000.0	-21.3771688865	16.0685191488	9.15070190268	-0.877174502241	-56.8046415111	45.9337590306	-25.6881324658	-68.378679257
191437500.0	-21.302950377	12.713468569	9.166213943	-2.19126838213	-56.7629853682	43.592561466	-25.771721766	-68.3158152399
192125000.0	-21.2381477739	9.53576796154	9.18179489246	-3.49561954394	-57.1046997147	43.3107233197	-25.847136731	-68.1665573775
192812500.0	-21.1581231281	6.24865910927	9.19944096223	-4.79958167456	-57.1544326769	35.6041596795	-25.9163447843	-68.0942105601
193500000.0	-21.0994463682	3.10507049925	9.21628371989	-6.11267538607	-58.4019475918	35.8283638466	-26.001865127	-67.8502920156
194187500.0	-21.0123839713	-0.190551381937	9.2332219545	-7.42214851293	-58.2964949764	32.2773858909	-26.090690769	-67.5199631803
194875000.0	-20.9464493399	-3.46175045852	9.25239967321	-8.71653596788	-58.5794769793	30.1543308592	-26.1720616395	-67.2492627219
195562500.0	-20.8498901453	-6.75466961635	9.27202184964	-10.0148154569	-58.6292000736	26.3492161417	-26.2504826081	-67.0225964522
196250000.0	-20.7801349287	-10.0182800083	9.29106739153	-11.3018523974	-58.7201752558	24.5204387342	-26.3283776899	-66.798404367
196937500.0	-20.691051531	-13.2313834335	9.31139710357	-12.5974525081	-58.7941807417	24.0312246036	-26.4110310856	-66.4549197279
197625000.0	-20.6109486221	-16.4914269174	9.33237861742	-13.8675689331	-59.2622668042	23.154646532	-26.4970885852	-66.2419290854
198312500.0	-20.5256397987	-19.6533011577	9.35402826525	-15.1399787919	-59.3048209403	22.7383846015	-26.5745318782	-66.1070093563
199000000.0	-20.4410471374	-22.9331855005	9.37697602123	-16.4180986279	-59.0088443577	18.504440959	-26.6537764428	-65.9671549121
199687500.0	-20.3374815922	-26.0166274655	9.39876783815	-17.6957672968	-58.7454403383	16.2694197049	-26.7248062253	-65.8994074809
200375000.0	-20.2463982787	-29.2175108989	9.42259238807	-18.9693174783	-58.5452171344	13.8867596428	-26.810177991	-65.9075256833
201062500.0	-20.1449745555	-32.3236184857	9.44569446065	-20.2383726043	-58.7174446397	12.4790927464	-26.8916262548	-65.8512597365
201750000.0	-20.0412685855	-35.4216430039	9.47039739465	-21.5093526927	-58.8086743539	9.63257256671	-26.9709824762	-65.820855714
202437500.0	-19.9427940219	-38.3546133137	9.49485982758	-22.7737461588	-58.8230637173	9.45810371991	-27.0409246072	-65.8823353972
203125000.0	-19.8318567927	-41.3521301588	9.52167857929	-24.0413574715	-58.4515137676	6.64609897827	-27.1114432682	-66.0157312376
203812500.0	-19.7111488317	-44.1981973155	9.54633848075	-25.2999426857	-58.577175465	4.68481026433	-27.162804749	-66.1924019953
204500000.0	-19.5975767732	-47.0996778287	9.57393021141	-26.5567104452	-58.2914254675	1.18887010647	-27.2153249399	-66.3197076138
205187500.0	-19.4854957154	-49.8674391314	9.60224207651	-27.796154425	-58.3808316131	-0.208388765364	-27.286215662	-66.572493706
205875000.0	-19.3516068993	-52.5884566498	9.63404427946	-29.0545218769	-58.2689528797	0.277859054422	-27.3427467994	-66.6729363729
