#Frequency	|S11|	<S11	|S21|	<S21	|S12|	<S12	|S22|	<S22
100000000.0	-15.1672922784	157.789678562	-15.5770693283	-124.15332568	-60.0569045016	-108.456079762	-18.7599146824	-69.2707897099
100687500.0	-15.1105697186	155.496357518	-15.1436783584	-125.430532869	-59.2414719176	-137.569732216	-18.8792325551	-68.7812733562
101375000.0	-15.1127909411	152.952270694	-14.7188667235	-126.774169416	-57.7334985892	159.817450754	-18.9880946067	-68.3216658976
102062500.0	-15.1304411614	150.350280361	-14.32941378	-128.153802963	-57.9918154166	94.3975468533	-19.1144006561	-67.9275078221
102750000.0	-15.1427169484	147.768061058	-13.9609940548	-129.548861222	-60.9976419288	121.260029476	-19.2446055396	-67.4629733128
103437500.0	-15.1622863524	145.167287516	-13.6183051379	-130.926207046	-60.2416959375	120.716079584	-19.3559275291	-67.0916473098
104125000.0	-15.1953272854	142.432478059	-13.2954462487	-132.387277408	-60.2773852839	122.724784679	-19.4975355648	-66.8182447756
104812500.0	-15.2373808843	139.652725611	-12.9967269076	-133.833588458	-59.9212934742	123.755497865	-19.6279680002	-66.6090047714
105500000.0	-15.2910475382	136.752420682	-12.7185314182	-135.285770425	-59.3919107994	128.045045052	-19.7659118533	-66.4549554832
106187500.0	-15.3524323722	133.729424892	-12.4730342344	-136.784586799	-59.7777992162	154.78803215	-19.9279645355	-66.369674608
106875000.0	-15.4226198284	130.60662292	-12.2546192069	-138.259636306	-60.3917732478	-155.75968855	-20.0907140175	-66.3182914157
107562500.0	-15.5093295834	127.338558459	-12.0687865574	-139.70704541	-60.4940085923	-124.023146449	-20.2657781049	-66.2970490268
108250000.0	-15.5958699871	123.890011621	-11.9195378438	-141.10460588	-60.3086948168	-103.009422208	-20.4266003261	-66.3954570594
108937500.0	-15.6629008404	120.678843573	-11.713011376	-142.475634903	-60.4464054299	-86.4959684177	-20.5828302665	-66.2950308566
109625000.0	-15.7397759622	117.364775042	-11.5305521378	-143.793139847	-60.5622422	-71.301529672	-20.7330535386	-66.2151730879
110312500.0	-15.8161453672	113.917928781	-11.3771198274	-145.102223183	-60.4297238659	-55.1521597569	-20.9052224323	-66.1930531573
111000000.0	-15.9045776722	110.394591317	-11.254928781	-146.285980868	-60.8673574374	-36.4655425895	-21.0677511873	-66.1621337392
111687500.0	-15.993940915	106.751179354	-11.1610455539	-147.378113052	-60.8399675198	-8.07981486979	-21.2332701372	-66.171569499
112375000.0	-16.094075911	103.013380751	-11.1002731892	-148.293029073	-60.912643701	28.583368422	-21.396312343	-66.2502389777
113062500.0	-16.1896548397	99.1235062018	-11.071257822	-149.00204189	-61.4289604574	56.363658642	-21.5717365376	-66.2921919098
113750000.0	-16.2981701194	95.1250291067	-11.0697810551	-149.384239918	-60.6102079021	72.1162227274	-21.7396357527	-66.405371262
114437500.0	-16.4100578549	90.9878499359	-11.0888439501	-149.410788208	-60.5587080871	75.1153667395	-21.9290435199	-66.4913949691
115125000.0	-16.5298872762	86.67797935	-11.10506396	-148.984294108	-60.6243262461	89.0294133074	-22.1165420151	-66.5814975431
115812500.0	-16.6496155588	82.2015735479	-11.1029505608	-148.107486096	-60.8833974192	103.336786648	-22.3061554946	-66.6737625406
116500000.0	-16.7753408129	77.6048011841	-11.0603262973	-146.833039662	-60.5992650732	118.727909287	-22.4823341183	-66.751098504
117187500.0	-16.9061462998	72.8760532442	-10.9710759726	-145.270331014	-60.3974786169	144.154957853	-22.6658965051	-66.9064812776
117875000.0	-17.0493518639	67.9607876663	-10.8239298844	-143.503123262	-60.7446750915	161.864629774	-22.8737885228	-66.8997215784
118562500.0	-17.2035165074	62.9149404915	-10.6209903367	-141.605031035	-60.5237211219	-178.794221545	-23.0596384308	-66.8787314824
119250000.0	-17.3613439602	57.6385471393	-10.3644815797	-139.648600404	-60.6589543545	-162.978976953	-23.2456826101	-66.7655704834
119937500.0	-17.5422966434	52.2375777077	-10.0547301273	-137.685969132	-60.9024456464	-145.113030509	-23.4248913811	-66.6241020628
120625000.0	-17.7325220562	46.6113488983	-9.69055453067	-135.729661816	-61.6358832727	-130.753717044	-23.6059375272	-66.4759124088
121312500.0	-17.9619481927	40.8866728778	-9.28181300986	-133.840557198	-61.400400957	-129.956425038	-23.7673703397	-66.2050028827
122000000.0	-18.2035169572	34.812120159	-8.82637032003	-132.047492697	-61.3737051077	-140.634531705	-23.9393776187	-65.9496690607
122687500.0	-18.4949809044	28.6872952931	-8.32744775799	-130.366697286	-60.8156047009	-153.416028497	-24.0905145483	-65.5954238821
123375000.0	-18.8175991369	22.2202712211	-7.78831242471	-128.82062021	-60.7339722452	-168.246670997	-24.2279125736	-65.1930595664
124062500.0	-19.1976653925	15.4345242657	-7.21069180075	-127.425233228	-60.9597594592	-178.902460322	-24.3676972575	-64.7222986051
124750000.0	-19.6532200395	8.33903253733	-6.59786305979	-126.194123859	-61.0552207162	177.244324113	-24.4947137584	-64.1196550114
125437500.0	-20.1612089494	0.808804053999	-5.94759048304	-125.142995629	-60.962947312	161.427423142	-24.6147404236	-63.389973806
126125000.0	-20.784109116	-7.41590340758	-5.26158642888	-124.288913553	-60.6872812967	145.004568813	-24.7149811547	-62.7885209724
126812500.0	-21.4480225738	-16.6161589855	-4.54489789179	-123.650078683	-60.4624042367	131.699170262	-24.795417669	-62.017078452
127500000.0	-22.2326998545	-26.9149105604	-3.79349963442	-123.228780934	-60.4462094415	106.494124949	-24.8452500029	-61.3483665002
128187500.0	-22.9326219267	-38.3770877244	-3.00990063868	-123.091437254	-60.3755132223	76.954122985	-24.8870922174	-60.6059370021
128875000.0	-23.5549487723	-50.6335923265	-2.19518528761	-123.223747817	-60.1542274376	44.2994257423	-24.9123097195	-59.8641486402
129562500.0	-24.1061024561	-63.4398881035	-1.3475975878	-123.709197683	-60.1428582472	7.7520936372	-24.9111655145	-59.129607028
130250000.0	-24.6183106827	-76.6912737311	-0.46938365606	-124.552156007	-59.3911839548	-31.8134297296	-24.9058349869	-58.4611768328
130937500.0	-25.0726632463	-90.335015697	0.432678794912	-125.888212269	-59.0839332313	-58.740157344	-24.8799978301	-57.773806866
131625000.0	-25.4861982858	-104.18525224	1.3493830203	-127.733408054	-58.9213781716	-80.0520877599	-24.8183547306	-57.2131842084
132312500.0	-25.8857571682	-118.257964494	2.26023899142	-130.189923996	-58.6140242206	-106.665576628	-24.7495054312	-56.6202087305
133000000.0	-26.2555911394	-132.552290167	3.14527729705	-133.236806194	-58.5393377758	-129.373614237	-24.6653128764	-56.1163139688
133687500.0	-26.6026611209	-146.971213425	3.98386016634	-136.807283356	-58.4012626807	-158.167220336	-24.5761469048	-55.6601866163
134375000.0	-26.9370461376	-161.634387023	4.76566831894	-140.789476976	-58.641403131	164.744883066	-24.467200068	-55.2536803992
135062500.0	-27.2545181741	-176.549544489	5.48442797995	-145.114848463	-58.2209446722	132.505151529	-24.329012052	-54.9830506398
135750000.0	-27.5574482704	168.476512277	6.13908540353	-149.653769785	-58.6010010369	103.438353994	-24.1778952216	-54.8300302671
136437500.0	-27.8215872088	153.336991659	6.73112658827	-154.384727742	-58.2393233272	74.7080067002	-24.0361980201	-54.8088452011
137125000.0	-28.0721969838	138.138567257	7.26237257463	-159.210545618	-58.1638826407	41.0671916597	-23.8832100439	-54.8650927785
137812500.0	-28.2614725844	122.825464282	7.73594952263	-164.11705855	-57.1211939611	6.2495644442	-23.7218695414	-54.9233425112
138500000.0	-28.4075882859	107.463648356	8.15785242386	-169.039832091	-56.8656514225	-21.2206575858	-23.5524861207	-55.1547846408
139187500.0	-28.5073066674	92.1684588403	8.52713388031	-173.972418301	-56.6354900475	-41.8139199283	-23.376701604	-55.4415556765
139875000.0	-28.5523222095	76.7985467827	8.85035733051	-178.853475762	-56.6747278739	-68.3115553758	-23.2012839187	-55.7759639925
140562500.0	-28.5294266542	61.5908722843	9.12932342029	176.306389867	-56.4414941214	-88.9843973835	-23.0353681142	-56.241510916
141250000.0	-28.4267981756	46.619083674	9.36890208305	171.547600553	-55.8922020901	-105.999874166	-22.8507644587	-56.7750504048
141937500.0	-28.2382699706	31.9289080456	9.56950410161	166.866764757	-55.9034275273	-126.463361544	-22.6759098499	-57.4430899047
142625000.0	-27.9727595701	17.5777582777	9.73824283298	162.287184086	-55.7657631613	-141.86685324	-22.5006020289	-58.1651380746
143312500.0	-27.5716504663	3.95646045592	9.87220794872	157.818249258	-55.7669375787	-162.725837723	-22.3344330054	-58.8703462769
144000000.0	-27.1123376017	-8.81605451619	9.9806993805	153.468540206	-55.5574515799	-178.107131044	-22.1811345559	-59.706749717
144687500.0	-26.5299607694	-20.4303439676	10.064284461	149.243093173	-56.0553653066	170.549687285	-22.0375919729	-60.4546880417
145375000.0	-25.9999959554	-30.8929024873	10.1257823573	145.151542145	-55.5967800626	167.548047895	-21.8957659559	-61.3104294272
146062500.0	-25.5387796842	-40.4737719913	10.1674660901	141.17291657	-55.8764419316	161.124847485	-21.7793102391	-62.1374412272
146750000.0	-25.1210850988	-49.5156219395	10.1920761778	137.330309646	-55.6365533918	157.539652012	-21.6837535923	-62.9454547942
147437500.0	-24.745719977	-57.9256834015	10.1992895141	133.615246089	-55.8049196514	159.657543162	-21.565272079	-63.6424761269
148125000.0	-24.4025136094	-65.9774512164	10.1973892893	130.018999701	-55.7401515785	155.901310096	-21.4697185793	-64.385537625
148812500.0	-24.0955681733	-73.6852825803	10.1818987643	126.535991896	-55.5449548171	152.687278031	-21.3728922465	-64.9876987996
149500000.0	-23.7862811464	-81.0471064964	10.1594196253	123.179823046	-55.6807406767	147.77509743	-21.3011659465	-65.6163326578
150187500.0	-23.5063807439	-88.0438316059	10.1271901937	119.935082833	-55.4635579139	145.8131334	-21.2298169848	-66.0912679398
150875000.0	-23.2320956361	-94.7859886341	10.0913818844	116.809486347	-55.4315231802	142.0913769	-21.1720003325	-66.5140966295
151562500.0	-22.9594873471	-101.193321546	10.0489026063	113.771234892	-55.2472527553	140.358713198	-21.1140054198	-66.8368545432
152250000.0	-22.6876372435	-107.121715431	10.0039598424	110.844543187	-55.3296809313	133.008632285	-21.0768443151	-67.1410446559
152937500.0	-22.4146506834	-112.847311426	9.95239268037	107.998776497	-54.7076336992	131.028376801	-21.0516003266	-67.3474980089
153625000.0	-22.1749244248	-118.127595481	9.90176543462	105.249080117	-55.0500484855	126.180455986	-21.034115793	-67.5011132583
154312500.0	-21.9129683659	-123.22627588	9.84738351525	102.573846391	-54.8205178823	127.223139114	-21.0027189544	-67.5502847577
155000000.0	-21.7060258286	-127.929373456	9.79175232105	99.9828180925	-54.996422882	123.986472821	-20.9935623056	-67.563074794
155687500.0	-21.4944192429	-132.455655	9.73491621898	97.4621330884	-55.1497505706	122.078391192	-20.9923322057	-67.5321859568
156375000.0	-21.3201318368	-136.670753815	9.67826521719	95.0220637316	-55.3086918514	117.029959358	-20.9888589699	-67.4213543999
157062500.0	-21.1373488977	-140.700339987	9.62016164531	92.6334054844	-54.9674517233	116.415060345	-20.9964793916	-67.2981331036
157750000.0	-20.9923894694	-144.491920961	9.56248662434	90.3215886615	-55.157114035	114.620728004	-21.007399077	-67.0929557413
158437500.0	-20.8574479647	-148.132420592	9.50430481379	88.0513446477	-55.0914137736	112.886455282	-21.0349381454	-66.8884092486
159125000.0	-20.7387768733	-151.670237712	9.4486743772	85.8606439725	-55.2378979002	109.731157798	-21.072189302	-66.6311810008
159812500.0	-20.6462970993	-154.981177782	9.39197609017	83.7082599847	-54.9531193468	108.61495174	-21.1074787429	-66.2929493446
160500000.0	-20.5706931589	-158.241663294	9.33756275459	81.6165194861	-55.3854602278	107.089923432	-21.1553271208	-66.0122475575
161187500.0	-20.5076481126	-161.296443602	9.28210948573	79.5536093743	-55.5234548943	105.15402688	-21.2023922275	-65.6730835993
161875000.0	-20.4518667567	-164.243306812	9.22743489964	77.5474739545	-55.0204642636	104.183159154	-21.2664404128	-65.367260011
162562500.0	-20.4263090046	-167.088527289	9.17484100958	75.5748048021	-55.3452451195	97.6294237373	-21.3362118666	-65.0072091641
163250000.0	-20.4023500315	-169.931418235	9.12273437672	73.6464169514	-55.3470580226	97.2250042804	-21.4118742922	-64.6059938361
163937500.0	-20.4110520004	-172.574686953	9.07150933622	71.7533296443	-55.6044891107	89.2142598069	-21.4834328716	-64.2111501183
164625000.0	-20.4171190378	-175.316085289	9.02396408249	69.9014670672	-55.2098039632	88.3387302194	-21.5791995754	-63.8582563569
165312500.0	-20.4562691856	-177.878298876	8.97392665387	68.0850960318	-55.2596982048	82.5682780165	-21.6767122873	-63.460917757
166000000.0	-20.5017005476	179.592021748	8.92804353209	66.313105966	-55.39317125	80.8333809062	-21.7930369932	-63.1299961052
166687500.0	-20.5767353748	177.142364017	8.88208318757	64.551157946	-55.4889573195	77.5701686239	-21.9117281453	-62.831510168
167375000.0	-20.6468767171	174.658098748	8.83853250908	62.8385817924	-55.4573888924	75.730540715	-22.0399653259	-62.6324554038
168062500.0	-20.7417140925	172.245400834	8.79472569059	61.1433550802	-55.723794034	72.7213459091	-22.173629409	-62.4346560489
168750000.0	-20.8442001763	169.778628939	8.75383090278	59.4902180451	-55.7197511228	70.0366915084	-22.3116372558	-62.2886621905
169437500.0	-20.9622491644	167.298624417	8.71249306931	57.8506534388	-55.8247622843	69.5831085662	-22.470663903	-62.1692801016
170125000.0	-21.0862356557	164.807684517	8.67577037904	56.235883485	-55.8985625716	71.5633932636	-22.6263136896	-62.1329376268
170812500.0	-21.2226372872	162.236180125	8.63800332696	54.6461057149	-55.7944770985	70.0831121507	-22.7910447039	-62.1431629798
171500000.0	-21.3792689195	159.617630831	8.60417678284	53.0868175158	-56.037860391	69.1615642761	-22.9578386062	-62.2614479746
172187500.0	-21.5377364411	156.892061241	8.57154506139	51.5465416256	-56.1393949443	69.4657193377	-23.1322969341	-62.391605401
172875000.0	-21.7117620709	154.100763055	8.53962755495	50.0245695557	-55.9096906747	66.0459743018	-23.2898042954	-62.4867770937
173562500.0	-21.873957239	151.13502241	8.50833466648	48.5219402808	-55.8555668609	66.2934137405	-23.4850023505	-62.7309203344
174250000.0	-22.0567680681	148.223676218	8.48064702938	47.0421121828	-56.022650226	63.8724048375	-23.6650361854	-63.0486393004
174937500.0	-22.2204418857	145.096506186	8.4545065181	45.5639191373	-55.7922069568	63.9880249908	-23.8426848543	-63.3984602281
175625000.0	-22.3924739041	141.869875128	8.43049307467	44.1168768843	-56.2767236186	64.3685336857	-24.0289959746	-63.7738247347
176312500.0	-22.5457608927	138.458274313	8.40561815568	42.6746435922	-56.2352610561	62.7109643464	-24.2167024322	-64.2634206625
177000000.0	-22.6828495996	134.982300915	8.38399571156	41.2500988897	-56.5573719566	56.1589256668	-24.402739659	-64.9298220704
177687500.0	-22.8004657711	131.339636631	8.362368992	39.8287714337	-55.998114294	56.3414577101	-24.5957309894	-65.4774691815
178375000.0	-22.9103637887	127.726827979	8.3448299641	38.4373567129	-56.0213962459	49.8389486033	-24.7955124566	-66.2009265974
179062500.0	-23.0035803315	123.960619912	8.32738215386	37.044869985	-56.1221988639	48.1813851544	-24.9626107026	-66.9612707227
179750000.0	-23.0809132011	120.115541562	8.31074704284	35.6751716802	-56.1381370829	46.6944036583	-25.1551460764	-67.8059314654
180437500.0	-23.1350859645	116.224668611	8.29563346952	34.3026357889	-55.9842468919	46.7897118117	-25.3185740037	-68.6308926659
181125000.0	-23.1718495765	112.210327459	8.2814526988	32.9436683338	-56.2400803092	49.8770549811	-25.5043143672	-69.4811509992
181812500.0	-23.190668123	108.293533801	8.26788665593	31.5838688586	-56.3185982663	49.7606179895	-25.6626240391	-70.3776583241
182500000.0	-23.1822675558	104.287549376	8.25729566394	30.2448509773	-56.6674995635	50.0525261251	-25.8425787412	-71.3444893496
183187500.0	-23.1523519827	100.315907269	8.24635526644	28.9004040238	-56.5667792919	49.5999795609	-25.9967505956	-72.246714931
183875000.0	-23.0891448022	96.3350082556	8.23746597655	27.5747296129	-56.515019788	47.5611428492	-26.1393713335	-73.2164614122
184562500.0	-23.0207511601	92.3717977157	8.22725081651	26.2499180122	-56.4781271957	48.5669405911	-26.2585522841	-74.2350807368
185250000.0	-22.9190944649	88.3537063629	8.21928044793	24.9443007447	-56.4320042517	47.804227727	-26.3811948689	-75.1436753718
185937500.0	-22.8116360776	84.5147679402	8.21022323942	23.6259988944	-56.4889785099	48.8626588775	-26.4874372674	-76.1126658109
186625000.0	-22.6836212163	80.660286331	8.20489459304	22.3323508517	-56.542645371	48.0037126943	-26.5865931371	-77.1130535321
187312500.0	-22.5468349534	76.8794622013	8.19903095244	21.0285341181	-56.5669717278	43.9573663431	-26.6812630609	-77.9934589686
188000000.0	-22.3775240473	73.1363984384	8.19519363485	19.7409221388	-56.5394764392	43.0377999209	-26.7507578862	-78.8325097858
188687500.0	-22.1987055673	69.5376852946	8.19015937785	18.4562318264	-56.210915777	41.4128280083	-26.830152567	-79.6915750148
189375000.0	-22.0035950513	66.0224026869	8.18739667509	17.1860360818	-56.4883985186	40.1422396809	-26.8953342629	-80.646525357
190062500.0	-21.7993949559	62.6793448231	8.18507819655	15.9187783397	-56.5697665656	42.4985000769	-26.9742856257	-81.5502190255
190750000.0	-21.5887953145	59.4419576491	8.18543203159	14.6638654213	-56.9122914637	43.2715489441	-27.0205800135	-82.428856635
191437500.0	-21.3687684728	56.2990372868	8.18489699026	13.4106694614	-56.6858005397	44.1556330537	-27.0615770387	-83.1793530097
192125000.0	-21.153914094	53.3507323581	8.18565039243	12.1736196006	-56.5736870198	43.6832992069	-27.0820920781	-83.8963547038
192812500.0	-20.9366853634	50.5192657247	8.18599281717	10.9344927149	-56.2606172391	37.2397395138	-27.0964163459	-84.7546036909
193500000.0	-20.7314139987	47.9469996771	8.188149404	9.698769596	-56.0440910698	37.0100477375	-27.0954412991	-85.5052790469
194187500.0	-20.5319310999	45.43411268	8.18890908407	8.4746300447	-57.2161745172	37.6701239691	-27.0912777076	-86.0658007278
194875000.0	-20.3504540345	43.0752006555	8.19381219389	7.25570600033	-57.2868375954	36.4883170072	-27.0602428728	-86.7422025984
195562500.0	-20.1711180303	40.7046639938	8.19725671666	6.03983717694	-57.2004915234	36.5426982462	-27.0273071287	-87.3409423407
196250000.0	-20.0096971343	38.4840393327	8.20155793534	4.83548713891	-57.0419389801	37.1570405338	-26.9880713012	-87.8981695662
196937500.0	-19.8512262571	36.3372559787	8.20701046873	3.6204254578	-56.8338353454	39.8941413807	-26.9515029439	-88.2570981846
197625000.0	-19.7212318653	34.3036480329	8.21320164196	2.42736412734	-56.8421037816	39.1785186376	-26.8942459946	-88.7201732602
198312500.0	-19.5882582982	32.3217885704	8.22160074749	1.24265932144	-56.6142762206	39.3506054883	-26.8262419116	-89.1628533866
199000000.0	-19.4895028839	30.3594802981	8.23103813505	0.053041711168	-56.8738207105	37.4910879165	-26.7457389259	-89.516623575
199687500.0	-19.3843689938	28.4033314948	8.2398040609	-1.14048755252	-56.8954066707	37.5798354498	-26.6573744383	-89.8749871467
200375000.0	-19.3090135338	26.480112725	8.25050309818	-2.32583694687	-56.8237359627	37.6209803151	-26.5590446176	-90.2436794777
201062500.0	-19.2390552576	24.499999844	8.26006626128	-3.50398282708	-56.5715919062	38.1501359121	-26.4682858051	-90.4808942223
201750000.0	-19.1862778418	22.6324559559	8.27163010461	-4.685164464	-56.5519809551	28.5389487763	-26.3789746011	-90.7257895563
202437500.0	-19.1428335705	20.7590057458	8.28399558753	-5.85972285511	-56.5096389093	27.7009496878	-26.2756499613	-90.9827476979
203125000.0	-19.1054754873	18.86335808	8.29910619387	-7.02329666695	-56.591980506	23.4064467751	-26.1817732465	-91.1339010049
203812500.0	-19.0643125863	16.9227370208	8.31218465597	-8.19630647148	-56.7368185954	23.9733960583	-26.0631277548	-91.2027020573
204500000.0	-19.0444623321	14.9952651951	8.32709603413	-9.35815494123	-57.0818373394	22.3876113853	-25.9427594818	-91.3104678042
205187500.0	-19.0348160034	13.1234682923	8.34265002888	-10.520974095	-57.0699156981	21.8161620701	-25.8408993232	-91.3716250653
205875000.0	-19.022811573	11.1431518759	8.36029596337	-11.6858525724	-57.318224052	16.3348976172	-25.7228630799	-91.342606739
