#Frequency	|S11|	<S11	|S21|	<S21	|S12|	<S12	|S22|	<S22
100000000.0	-18.7352094523	127.910802918	-28.1040358961	-126.785160484	-59.9215955167	12.6782605324	-21.7659030847	-40.3178810069
100687500.0	-18.7044206275	124.657834816	-27.3576006108	-127.758562761	-61.5139472074	-19.0298923806	-21.8491741922	-40.2939633509
101375000.0	-18.647948701	121.396846213	-26.9456600857	-129.095423321	-61.1509352056	11.1201547117	-21.8803430351	-40.2041539373
102062500.0	-18.5741579719	118.169526963	-26.5531699405	-130.382789582	-60.4071000031	7.99336023785	-21.9097834936	-40.0059680946
102750000.0	-18.5141721336	114.948543555	-26.1958366781	-131.95936529	-60.0263929173	39.4009289985	-21.9210255274	-39.8278565228
103437500.0	-18.4656412539	111.772123965	-25.8808124098	-133.286926933	-60.6416915597	41.5621714768	-21.9334537739	-39.6932632457
104125000.0	-18.430525839	108.446127974	-25.5869381937	-134.818452076	-60.4656019425	58.3192071422	-21.9724893606	-39.4026394863
104812500.0	-18.4051736285	105.072914104	-25.3189920348	-136.250045681	-60.6433093499	56.1686286436	-22.00491602	-39.2344240568
105500000.0	-18.3850804482	101.628494339	-25.084341296	-137.672695965	-60.9377726842	41.5259825204	-22.0295486647	-39.2396304934
106187500.0	-18.36542375	98.0328651501	-24.8766858836	-139.102563244	-60.5944014598	41.4062989835	-22.0626748044	-39.2244992575
106875000.0	-18.3528141723	94.2778736718	-24.696936352	-140.411932796	-60.7680136057	33.8535868005	-22.1001646522	-39.2833747393
107562500.0	-18.348336694	90.4301777067	-24.5587639927	-141.648868823	-60.5293299365	17.7009262419	-22.1375444082	-39.2078537086
108250000.0	-18.3392829396	86.4027853141	-24.4565652337	-142.743850143	-60.7987387035	-8.62140402368	-22.1684664702	-39.2589535344
108937500.0	-18.3197278523	82.5631075526	-24.2806219351	-143.830275167	-60.9355353807	-18.7568985956	-22.2020754093	-39.2239181192
109625000.0	-18.3044086067	78.6892559254	-24.1617975672	-144.786509862	-60.6132331914	-21.6939315942	-22.2283345467	-39.180826707
110312500.0	-18.2755289054	74.6799845182	-24.0703640909	-145.640015346	-60.4247817256	-34.2859704424	-22.2617012336	-39.178443752
111000000.0	-18.2618603184	70.5485858861	-24.007359893	-146.271436009	-60.375319276	-51.7129490064	-22.296154285	-39.192945567
111687500.0	-18.239386929	66.3469048958	-23.9598752846	-146.533364962	-60.2929345123	-70.8561694646	-22.3198688298	-39.2456938719
112375000.0	-18.2334824408	62.0103446177	-23.9233150597	-146.450361063	-60.5271791154	-86.5610156618	-22.3506063227	-39.2909226822
113062500.0	-18.2159532365	57.6005516248	-23.8919402121	-145.953846102	-60.218409416	-99.7745269258	-22.3738498046	-39.3549580763
113750000.0	-18.2113460056	53.0217238105	-23.8358502482	-144.973475009	-60.2071149852	-126.105940966	-22.40483519	-39.4152529093
114437500.0	-18.2014896151	48.3679679377	-23.7436086183	-143.673742435	-60.0934919049	-154.374064342	-22.4438817475	-39.4786752008
115125000.0	-18.1975040117	43.5398471228	-23.5824187652	-142.120724862	-60.1355929545	-175.468123315	-22.480300532	-39.521325345
115812500.0	-18.1866942716	38.6058454824	-23.3831863734	-140.377678928	-59.7617929547	157.578356519	-22.5048117619	-39.4967476403
116500000.0	-18.1842926503	33.5289746511	-23.1129261301	-138.496462277	-59.8669148519	121.970739243	-22.5336888601	-39.5271010925
117187500.0	-18.188758697	28.3648610488	-22.7966569398	-136.576611862	-59.7944230235	94.6857531879	-22.5594908486	-39.6524207492
117875000.0	-18.2024186992	23.0659855089	-22.4189496807	-134.695121296	-60.2088235158	76.4358511901	-22.5921444159	-39.641631909
118562500.0	-18.2340310203	17.6094579071	-22.0013881826	-132.891506867	-59.8398895369	54.4664872863	-22.6160184185	-39.6451910491
119250000.0	-18.2700176999	12.0316708573	-21.5282128657	-131.180441998	-59.7131882279	40.9625074105	-22.6347613173	-39.5596679179
119937500.0	-18.338779356	6.30627494857	-21.0093229073	-129.555664254	-59.6516244215	27.5771988614	-22.6497625369	-39.510986356
120625000.0	-18.4182288155	0.545971112969	-20.4449803982	-128.089036445	-59.7805232774	7.013530272	-22.6842825594	-39.4329960084
121312500.0	-18.546267266	-5.36436189535	-19.8508568154	-126.787372876	-59.7097465887	-17.1641369813	-22.700344406	-39.3321881617
122000000.0	-18.6917401673	-11.2444120102	-19.2166883637	-125.727121681	-59.5065041207	-42.3394453259	-22.7255335035	-39.2047142547
122687500.0	-18.9065228733	-17.2262276831	-18.5534149956	-124.818197997	-59.5157553233	-74.2894592261	-22.7459466476	-39.0208713749
123375000.0	-19.1524561676	-23.1252305269	-17.8559949411	-124.146208606	-59.7832051893	-106.72803343	-22.7615114547	-38.8811224824
124062500.0	-19.4698919972	-29.004218851	-17.1290555366	-123.683066126	-59.7307052977	-129.327085762	-22.7823484496	-38.6847300854
124750000.0	-19.8452549052	-34.4771282985	-16.3818648077	-123.492691359	-60.1669085981	-147.015026085	-22.8037288889	-38.4557749892
125437500.0	-20.2677717155	-39.5792296699	-15.6029693394	-123.500971052	-60.0044407076	-164.10923295	-22.818219056	-38.0831440992
126125000.0	-20.7319410272	-44.0408969144	-14.7965464786	-123.827639792	-59.5467763976	178.395587229	-22.8482292773	-37.7895231517
126812500.0	-21.1975243486	-47.8206782418	-13.9558996548	-124.437847903	-60.0280329319	165.427488916	-22.8641388198	-37.4423267283
127500000.0	-21.622754964	-50.9274139693	-13.0970526995	-125.429146705	-59.8435431971	155.221347116	-22.8782942061	-37.1239717105
128187500.0	-22.0033748756	-53.8084401698	-12.210341752	-126.74733242	-59.79689669	153.369251346	-22.8894085932	-36.6967814147
128875000.0	-22.3392171444	-56.342320308	-11.313942243	-128.610653971	-59.6456537137	147.652866573	-22.9043238155	-36.2687432546
129562500.0	-22.6232331621	-58.799279169	-10.4146775617	-130.945912301	-59.6198956843	147.017597413	-22.9180546273	-35.8389828068
130250000.0	-22.8749670642	-61.1330496627	-9.52587577581	-133.888194864	-59.8842397275	136.959818994	-22.9441083755	-35.3735346718
130937500.0	-23.0941803103	-63.3681718117	-8.66363185413	-137.337319659	-60.030646219	135.844252457	-22.9671816236	-34.8601210739
131625000.0	-23.3056089974	-65.5134268745	-7.85381842839	-141.333898236	-60.0609872031	138.044993725	-22.9713452294	-34.449545669
132312500.0	-23.4793258564	-67.5649164466	-7.10816208959	-145.673835554	-59.8133344453	137.372948134	-22.9910203969	-33.9489555195
133000000.0	-23.6495911344	-69.5782003872	-6.42509853998	-150.367103199	-59.7862299725	139.818559828	-23.0160469346	-33.5597240427
133687500.0	-23.7771942862	-71.4370489564	-5.8116748763	-155.225169301	-59.7462555116	149.358303068	-23.0337908397	-33.0997962138
134375000.0	-23.9018894213	-73.3367073455	-5.25982837225	-160.249738533	-59.9304294296	150.89393206	-23.050411985	-32.6553907368
135062500.0	-23.9874752223	-75.1415889745	-4.76760255015	-165.332721133	-59.7966663383	151.601100547	-23.0675918317	-32.2927543421
135750000.0	-24.0627662268	-76.8297351027	-4.33528958661	-170.435082207	-60.0693717653	152.241464065	-23.081727192	-31.9429988744
136437500.0	-24.110182306	-78.4218599417	-3.9580724299	-175.547988105	-59.9787325019	149.741437403	-23.1170524966	-31.6133681839
137125000.0	-24.1338515635	-79.9699640919	-3.63315297425	179.373674904	-59.8376559692	146.185555526	-23.1457241861	-31.2366627258
137812500.0	-24.1247110373	-81.4017614671	-3.35405843045	174.366787264	-59.7533059232	152.797907926	-23.1596358052	-30.8858052366
138500000.0	-24.0816838521	-82.7609643657	-3.12046252979	169.458697553	-59.7329034335	166.110322137	-23.1734017467	-30.6306435076
139187500.0	-23.99664239	-84.0855955434	-2.9241070636	164.64877883	-59.9674759304	-177.452259421	-23.1889235323	-30.3516984388
139875000.0	-23.8487106564	-85.3566069667	-2.76413935418	159.95953769	-59.7149501743	-150.98666524	-23.2111159796	-30.1230606065
140562500.0	-23.6685458715	-86.6805947737	-2.63371527242	155.392174762	-59.5554918511	-124.734634855	-23.2394353288	-29.9726492004
141250000.0	-23.4197156232	-88.0549787573	-2.53230159684	150.963609146	-59.7869922539	-104.39227269	-23.2605217297	-29.7750379215
141937500.0	-23.1132888306	-89.7369410983	-2.45460395428	146.680059027	-59.3971387661	-83.4416426701	-23.2827736879	-29.6770637553
142625000.0	-22.7538576165	-91.7515926636	-2.39665079168	142.537572754	-59.2347300628	-63.7725861188	-23.2980460691	-29.6269327764
143312500.0	-22.3607320528	-94.34110945	-2.35894244465	138.527884768	-59.3292661796	-45.2309083931	-23.3096353673	-29.5574982992
144000000.0	-21.9637948885	-97.6305300625	-2.33538324197	134.648284588	-58.8752427511	-30.2185553424	-23.3295299729	-29.5141892295
144687500.0	-21.6309194733	-101.474636241	-2.32452613684	130.916801121	-58.9960455566	-18.8093774376	-23.3461722651	-29.5181909245
145375000.0	-21.3263747046	-105.476762532	-2.32343800358	127.299986469	-58.9909292009	-6.30152769547	-23.3730371912	-29.5375517267
146062500.0	-21.0839318754	-109.754262956	-2.33335023695	123.808142919	-59.067222897	7.15086819012	-23.3961665738	-29.5764329512
146750000.0	-20.8833011436	-113.962376072	-2.348085047	120.416188805	-58.706432592	24.8932980605	-23.4269857583	-29.5271749816
147437500.0	-20.7385750406	-118.273995119	-2.37295796019	117.155305787	-58.6933189756	51.9230170591	-23.4243406002	-29.5662664348
148125000.0	-20.6182374996	-122.514625081	-2.40074284138	113.985870722	-58.8048568759	73.0558844247	-23.4384401997	-29.635771931
148812500.0	-20.519144809	-126.855112492	-2.43516454256	110.922454228	-59.3921215706	102.646365348	-23.4365019871	-29.6775045303
149500000.0	-20.4585358834	-131.071039816	-2.47122619133	107.956844188	-59.2168273735	127.401224264	-23.4497401439	-29.6847806816
150187500.0	-20.410904904	-135.327332073	-2.51148909549	105.077962823	-59.8062975023	155.654851389	-23.4460926612	-29.7077341228
150875000.0	-20.4033581	-139.526008981	-2.55183811249	102.274466554	-59.9407547413	-174.542286944	-23.4576157081	-29.7144271064
151562500.0	-20.3956504268	-143.699793203	-2.59699639883	99.5650339433	-59.9376961989	-146.560792508	-23.4479283282	-29.7010190788
152250000.0	-20.420235111	-147.764765467	-2.64238416607	96.9132675733	-59.4141893295	-126.036567346	-23.4464244902	-29.6330506703
152937500.0	-20.4484910011	-151.812253139	-2.69015396154	94.3340284174	-59.269760094	-109.226551805	-23.4414293394	-29.5365689391
153625000.0	-20.504336563	-155.85679967	-2.73452123562	91.817500837	-59.4701460905	-88.725315038	-23.4469970611	-29.4087942469
154312500.0	-20.5475473785	-159.79257602	-2.78287538408	89.3689926855	-59.4149747132	-65.4437852731	-23.432254293	-29.3163968698
155000000.0	-20.6204148924	-163.747824102	-2.83127091187	86.9656368361	-59.5918640415	-48.3966457215	-23.4285934545	-29.1758648762
155687500.0	-20.6771342412	-167.657426352	-2.87838464192	84.6218791131	-59.5000861114	-33.8427920482	-23.4259992326	-28.9947690662
156375000.0	-20.770708318	-171.603255513	-2.92624494197	82.3267305814	-59.2753588318	-20.2183375936	-23.4121661808	-28.8016643471
157062500.0	-20.850271859	-175.398761344	-2.97221498318	80.0963550653	-59.3820389424	-15.1671670603	-23.3921082705	-28.5057253168
157750000.0	-20.9432642235	-179.241421138	-3.01986774858	77.9052988398	-59.3574437514	-0.0660922951166	-23.3669284808	-28.2374829213
158437500.0	-21.0281681126	177.023968303	-3.06537681161	75.7562044848	-59.0703367657	7.7972498327	-23.3510577395	-27.9448040629
159125000.0	-21.1240692264	173.278685166	-3.11066886471	73.6542867363	-59.0362194681	9.38934814331	-23.3387398416	-27.6218200104
159812500.0	-21.2181551041	169.604703447	-3.15474732774	71.5923380337	-58.9254500782	10.2805780789	-23.3264324478	-27.2508409969
160500000.0	-21.3162053323	165.92488028	-3.19902709786	69.5698977597	-59.1282064773	13.99832788	-23.3091662114	-26.9692220503
161187500.0	-21.4133057641	162.319324104	-3.24261708909	67.577105438	-59.2035541938	19.377815459	-23.2954865529	-26.5659673523
161875000.0	-21.499991032	158.735026307	-3.28555946246	65.6173354619	-59.2767773717	36.4135019197	-23.288865074	-26.1791379866
162562500.0	-21.6087853229	155.184996524	-3.3278155588	63.7018812907	-59.1175264723	42.3895173565	-23.2771002653	-25.750294744
163250000.0	-21.6969167945	151.687713687	-3.36948037879	61.8089448465	-59.5289103717	56.2266659319	-23.2768494326	-25.3370226792
163937500.0	-21.8007410727	148.14445635	-3.41133561355	59.9671059614	-59.6650393363	56.9226534548	-23.2596809886	-24.9749022259
164625000.0	-21.878136321	144.757181125	-3.45101087593	58.1371454588	-59.7849849228	44.2806643284	-23.2703213456	-24.5952295357
165312500.0	-21.9766186568	141.256909172	-3.49078182314	56.3462354358	-59.6954959586	29.1088633073	-23.2721786566	-24.1610189689
166000000.0	-22.066637154	137.98629324	-3.52839645126	54.5776304484	-59.3606302911	15.7043472773	-23.2900174926	-23.7337119976
166687500.0	-22.170315041	134.60083577	-3.56563723621	52.831820491	-60.0838098188	12.4914655529	-23.299273176	-23.3811931407
167375000.0	-22.2603338633	131.390013087	-3.60155990763	51.1193986634	-60.5978567208	1.85600943191	-23.3272799218	-23.0358460937
168062500.0	-22.3613189543	128.060077719	-3.63761782605	49.4376954262	-60.1004950147	-20.0442826365	-23.3358716384	-22.6850691003
168750000.0	-22.462715525	124.895255322	-3.67042633907	47.7755057474	-59.9048954438	-34.6355750527	-23.3657330472	-22.3714184628
169437500.0	-22.5625038186	121.626244327	-3.70465526501	46.1413741927	-60.0850940564	-48.1939571338	-23.3982059898	-22.112595552
170125000.0	-22.6570101968	118.433327346	-3.7341954842	44.5259509695	-59.8383698579	-62.4138276764	-23.4353287401	-21.8478125387
170812500.0	-22.7490353597	115.143597876	-3.76664265476	42.9401406597	-59.6287670354	-79.5222560365	-23.4662990638	-21.5875657274
171500000.0	-22.8555854821	111.935082036	-3.79541554761	41.3820115777	-59.7899944028	-100.747081237	-23.5120168656	-21.3850259419
172187500.0	-22.9574997751	108.658003106	-3.82132658436	39.8524375454	-59.9399683159	-127.049039029	-23.5596515835	-21.2890098247
172875000.0	-23.0655195674	105.453478987	-3.84569111377	38.3333072182	-60.1016640873	-162.850878223	-23.6047523228	-21.1183612533
173562500.0	-23.1386274537	102.239958291	-3.86802207982	36.844133983	-60.5414388715	167.919931947	-23.6629985988	-21.0200170324
174250000.0	-23.2445704326	98.9571572692	-3.88865137734	35.358303069	-60.2135367889	139.458889496	-23.7179529106	-20.9461815382
174937500.0	-23.3070050527	95.6971812867	-3.90666784724	33.8917976416	-60.0569829127	99.1296453839	-23.7837701109	-20.9757381931
175625000.0	-23.3887383618	92.3441597923	-3.92191322134	32.4426749078	-59.8674300031	72.3829691191	-23.8381757107	-20.9049648819
176312500.0	-23.4514244644	88.9828906207	-3.93864682732	31.0153480773	-59.8651852282	44.6546444674	-23.8961557881	-20.9773082321
177000000.0	-23.5253213649	85.5549013826	-3.95243041855	29.5917789181	-60.0172485036	10.8263118106	-23.969676381	-21.0742061612
177687500.0	-23.5756339123	82.2137686329	-3.96423989615	28.1730060858	-59.9232605828	-24.513414356	-24.039472389	-21.1024736127
178375000.0	-23.6367501767	78.8331799177	-3.97293400377	26.769054635	-60.2956203304	-65.2591187277	-24.1135441126	-21.1509053126
179062500.0	-23.6761611627	75.4776319195	-3.98055865733	25.3811335808	-60.4072992138	-111.539774511	-24.1785454435	-21.3533211013
179750000.0	-23.706991431	71.9755542418	-3.98698465215	23.9981279859	-60.6748148315	-154.60317214	-24.2497365129	-21.5341241309
180437500.0	-23.7405523601	68.5087145433	-3.99304956217	22.6234902853	-60.5267425143	150.390666002	-24.3007651347	-21.691937228
181125000.0	-23.7551968699	64.9686247398	-3.99666115197	21.2443376206	-60.9921754332	94.7294801331	-24.3704809712	-21.7736218249
181812500.0	-23.7847047166	61.4640302584	-3.99910244369	19.8801642278	-60.8166163229	47.5157693902	-24.4255976504	-21.9444450387
182500000.0	-23.792311094	57.9676099739	-3.99942839701	18.5170573969	-60.5815047896	4.45791224122	-24.5041015664	-22.0689637936
183187500.0	-23.7866388177	54.43931678	-3.99721055807	17.1694574013	-60.7985358555	-51.8354017711	-24.5593170814	-22.1732307702
183875000.0	-23.764006446	50.9381569396	-3.99644397889	15.8142415058	-60.9345285643	-108.668754282	-24.6156522934	-22.3130545683
184562500.0	-23.7553493815	47.3380373583	-3.99339374838	14.4775511468	-60.1170796543	-162.925267366	-24.6488785241	-22.4284829461
185250000.0	-23.7155257447	43.8013780828	-3.98905192048	13.1360051802	-60.0904019361	143.590668566	-24.7047693097	-22.4888112781
185937500.0	-23.6897985935	40.2403674219	-3.98513700885	11.7954840735	-60.6783345648	89.9359129745	-24.7476972592	-22.4912446584
186625000.0	-23.6434769905	36.7643411703	-3.97708855981	10.4590962646	-60.7471132823	43.321869946	-24.7976478441	-22.4779085451
187312500.0	-23.6073971312	33.1354789142	-3.96950084956	9.12531226859	-60.6818737088	-1.80063584851	-24.8308739073	-22.415782457
188000000.0	-23.553105811	29.7146393422	-3.96093299882	7.78706985983	-60.6923723583	-55.9530828722	-24.855153255	-22.501816833
188687500.0	-23.5034548874	26.0993339751	-3.95176134205	6.45103265188	-60.4691966504	-112.238096983	-24.8937064174	-22.4034490948
189375000.0	-23.4328570631	22.6771835682	-3.94288089356	5.11039817614	-60.1755389361	-169.952673968	-24.9300738532	-22.311131088
190062500.0	-23.3811326638	19.1065699249	-3.93130011268	3.78095175459	-60.1849341366	138.770071949	-24.9585372357	-22.1245932137
190750000.0	-23.3210188543	15.6149027747	-3.92002070106	2.44895341845	-59.788031449	87.3170505332	-24.9916652418	-21.9313727724
191437500.0	-23.2515571465	12.0530620979	-3.90941170818	1.12833373362	-59.8681604425	44.3609305249	-25.0284363374	-21.7260966004
192125000.0	-23.196650812	8.59538175098	-3.89814906254	-0.189169072511	-59.9028194226	11.7464497079	-25.0493177413	-21.4937330115
192812500.0	-23.1212340476	5.10221154374	-3.88749533095	-1.49693762519	-60.2206753336	-31.4387270439	-25.0846344348	-21.2945015228
193500000.0	-23.0505673423	1.69003295193	-3.87400017351	-2.81546067583	-60.2466621284	-64.9137085846	-25.1119489818	-21.0343335747
194187500.0	-22.9685281467	-1.73209623292	-3.86290065085	-4.1330317767	-60.0414387681	-95.5323628857	-25.1203808415	-20.7416345815
194875000.0	-22.8997732539	-5.26790779034	-3.84963677953	-5.43155328195	-60.2293164576	-121.293424071	-25.1349403366	-20.4070278511
195562500.0	-22.7997308492	-8.73670829334	-3.83664775307	-6.73094716674	-59.7650995561	-153.350576911	-25.161225886	-20.086197726
196250000.0	-22.7258435875	-12.2523936379	-3.82401887527	-8.02605566269	-59.7261566565	174.489286805	-25.1920800407	-19.7083069799
196937500.0	-22.6201846118	-15.6100671674	-3.81093400215	-9.32024989963	-59.8203873817	146.670155046	-25.2098330192	-19.2754429016
197625000.0	-22.5300729526	-19.0339128046	-3.79542075727	-10.6010220047	-59.8771500349	120.747865098	-25.2309838824	-18.9407668025
198312500.0	-22.4289245272	-22.3051429511	-3.7799076648	-11.8737990613	-59.5615577143	107.03846245	-25.2577365015	-18.7290519203
199000000.0	-22.3287908221	-25.7195076527	-3.76240092875	-13.152941409	-59.3947793333	96.919394043	-25.2652987296	-18.4346527307
199687500.0	-22.206714791	-28.9704471223	-3.74677725364	-14.4095069447	-59.4122974951	85.5630949915	-25.2758545145	-18.2031982404
200375000.0	-22.1023545636	-32.3011400472	-3.73119217149	-15.6848249515	-58.9197270707	86.7804338943	-25.30282317	-17.910530787
201062500.0	-21.9807773767	-35.558982402	-3.71379499538	-16.9396278767	-58.2140721699	88.5287646945	-25.3381688342	-17.7224741655
201750000.0	-21.8596478368	-38.7744220018	-3.69462451686	-18.2070636994	-58.1532106052	86.4282052665	-25.375814581	-17.4140347017
202437500.0	-21.7342028882	-41.8763727872	-3.67579749762	-19.4617846106	-58.572929173	84.5965794775	-25.408720113	-17.4112828565
203125000.0	-21.5969571878	-44.945922214	-3.65506392557	-20.7203101174	-57.8475142219	84.4076705004	-25.4378268482	-17.2333461238
203812500.0	-21.4621719325	-47.9601857134	-3.63561876756	-21.9596647529	-57.7045560257	77.5024954634	-25.4637427466	-17.242842739
204500000.0	-21.3140990887	-50.8856249182	-3.61357086992	-23.2168355602	-57.9635880264	78.850009926	-25.4862479369	-17.137597173
205187500.0	-21.1785882192	-53.7438244088	-3.59061325156	-24.4444070012	-58.3486503648	86.255122646	-25.5168565453	-17.0617102282
