#Frequency	|S11|	<S11	|S21|	<S21	|S12|	<S12	|S22|	<S22
100000000.0	-18.3499718028	125.294471786	-20.2889757772	-125.675706646	-65.9945636304	-7.48752176097	-22.0882342566	-58.979081382
100687500.0	-18.2418781324	122.613046616	-19.8935446998	-127.068828183	-65.4041161429	-30.0414295119	-22.2095640061	-59.1638199206
101375000.0	-18.1399358461	119.617856505	-19.5197355015	-128.391063275	-69.8047907475	-14.3447411033	-22.2406327707	-58.8920624446
102062500.0	-18.0366695342	116.788724306	-19.1535278322	-129.681786625	-68.3479044749	-1.55215076927	-22.3201541649	-58.6383005786
102750000.0	-17.9411743303	113.918680049	-18.8188953809	-131.025904043	-66.0638164793	-5.25952302966	-22.410516097	-58.3881141725
103437500.0	-17.8680742771	111.072187021	-18.5161557348	-132.430476153	-64.2053656384	-23.2461961602	-22.4686809819	-58.283913504
104125000.0	-17.8091778962	108.006898444	-18.237764666	-133.852748508	-63.4449886234	-19.1622792144	-22.5798081709	-58.1891670249
104812500.0	-17.7520468271	104.979170406	-17.9762722754	-135.256351861	-64.2239500797	-35.6338476095	-22.6561417018	-58.2782274522
105500000.0	-17.701789363	101.816183749	-17.7503058976	-136.66644999	-64.7328051456	-27.8977099786	-22.7312979073	-58.4106317817
106187500.0	-17.6639734353	98.4805283566	-17.5539452484	-138.041226067	-64.5714934839	-16.8119870539	-22.8103623379	-58.4108870585
106875000.0	-17.6275525549	95.0955662786	-17.3921763395	-139.351814547	-63.9391198256	0.121699835896	-22.9044765174	-58.5746131802
107562500.0	-17.6042258941	91.6261987673	-17.2749058976	-140.567115726	-63.6267279025	22.2203120586	-23.0022846176	-58.6424330917
108250000.0	-17.578147242	87.9596508026	-17.2056027991	-141.595312198	-63.3182122104	17.8392954819	-23.0765782911	-58.7902949699
108937500.0	-17.533370853	84.4748777431	-17.0685878226	-142.647857302	-63.0011013203	11.7904464438	-23.1582303576	-58.8072399431
109625000.0	-17.4928928256	80.9296391909	-16.9601096504	-143.572312633	-62.4859899811	10.2541017967	-23.2225544093	-58.8461849623
110312500.0	-17.4487330715	77.2789834417	-16.8788894766	-144.327112089	-62.2454002144	-0.932614501306	-23.2977828248	-58.884119981
111000000.0	-17.416761569	73.5543816519	-16.8246907841	-144.837813378	-61.9445536874	-1.62001907774	-23.3728451449	-58.9875184034
111687500.0	-17.3807725312	69.748890118	-16.7971062336	-145.027222031	-61.2708821603	-3.78788005886	-23.4449915289	-59.1528909006
112375000.0	-17.3550599743	65.798913693	-16.7812167263	-144.864416125	-61.0540567465	-7.50733293537	-23.5130538334	-59.2841515568
113062500.0	-17.3254948348	61.8157890277	-16.7616918704	-144.284442337	-61.3627585423	-23.9641283483	-23.5871589442	-59.4062617931
113750000.0	-17.3113694359	57.6736873926	-16.7137122328	-143.28379633	-61.5373430754	-42.8890148131	-23.6522158968	-59.5271759831
114437500.0	-17.2940894607	53.4929776691	-16.6259044073	-141.934117246	-61.4282010719	-48.7556135638	-23.7194192478	-59.6560130231
115125000.0	-17.2891395013	49.0996910121	-16.4871727201	-140.320127308	-61.5352919178	-63.0574376213	-23.7898162329	-59.7612206624
115812500.0	-17.274909755	44.6547044605	-16.2952267008	-138.543137004	-61.8660066959	-63.2680731483	-23.8611628339	-59.8326341029
116500000.0	-17.27879667	40.0960222982	-16.0424558276	-136.661223207	-62.1443636373	-75.9273550649	-23.9117236829	-59.8795467645
117187500.0	-17.2807696431	35.4924107879	-15.739718472	-134.727129953	-62.4403258666	-87.4811620636	-23.964157049	-59.9019067333
117875000.0	-17.3125270447	30.6687836393	-15.3836408783	-132.833903144	-62.551947106	-98.7625993567	-24.0262813862	-59.8151264365
118562500.0	-17.3508507545	25.8322740464	-14.9822229427	-130.985517008	-61.7267766281	-113.028919532	-24.0843146049	-59.6538722097
119250000.0	-17.4132917798	20.8399512017	-14.5295590132	-129.22015832	-61.7656130335	-138.666687167	-24.1331592599	-59.3784131229
119937500.0	-17.4984232574	15.820008237	-14.0343774207	-127.558422755	-61.2200618533	-176.818732817	-24.1867561829	-59.0582745722
120625000.0	-17.6093778454	10.6670292985	-13.4954215713	-126.038498514	-61.035195102	154.803820673	-24.2342374369	-58.8121636521
121312500.0	-17.7648077734	5.53119844822	-12.921474909	-124.68348136	-61.0602179122	126.79016755	-24.2724659772	-58.533434075
122000000.0	-17.9601975913	0.349598934908	-12.3072047625	-123.490281746	-60.8119727605	107.884252232	-24.3075658417	-58.1750193271
122687500.0	-18.2125984572	-4.79828499697	-11.6630556766	-122.498760165	-61.1045238951	79.6362258266	-24.33512327	-57.7400948725
123375000.0	-18.5183016131	-9.83899703743	-10.97900176	-121.706591422	-61.4506922489	50.5277799599	-24.3519487373	-57.3016132755
124062500.0	-18.8977082567	-14.6978250257	-10.2710036786	-121.115506048	-61.2580999385	22.0510734954	-24.3658920722	-56.8335328837
124750000.0	-19.3381060666	-19.0404259542	-9.52635184254	-120.797607718	-60.8321243644	1.64505478901	-24.3850006984	-56.3117625242
125437500.0	-19.8349502741	-22.931495579	-8.76026680497	-120.681585103	-61.306727559	-11.8474764552	-24.3980460391	-55.6664239148
126125000.0	-20.3383308455	-26.0013272886	-7.95903620309	-120.865308829	-61.1296556474	-23.0550914671	-24.4189281015	-55.0884582717
126812500.0	-20.8319979251	-28.4460569667	-7.13467423332	-121.333330616	-61.4651089861	-34.280858599	-24.4407291798	-54.3932087674
127500000.0	-21.2420015132	-30.3518138861	-6.28149745454	-122.180008075	-61.6128748916	-46.9523822898	-24.4411268151	-53.7040110659
128187500.0	-21.6278826799	-32.0623323475	-5.40960132567	-123.404127692	-61.71196439	-62.8900551178	-24.4474179723	-52.9240972427
128875000.0	-21.9610063031	-33.5181035555	-4.51417626332	-125.1146295	-61.2020340984	-82.4906475105	-24.4485783415	-52.1147311766
129562500.0	-22.2667768726	-34.9449443679	-3.61881457384	-127.310499009	-61.2249135719	-94.4208820731	-24.4488071731	-51.340509315
130250000.0	-22.5384443705	-36.2336793523	-2.72972611087	-130.097714876	-60.5098012332	-104.950266678	-24.4537112398	-50.5671690967
130937500.0	-22.7793134886	-37.5678844668	-1.88131141896	-133.411400631	-60.6916557143	-107.070839973	-24.4500280126	-49.779096409
131625000.0	-23.000495844	-38.727180918	-1.0754824141	-137.21024839	-61.0152138221	-117.398946847	-24.4412433037	-49.0727015994
132312500.0	-23.2045947629	-39.9031150706	-0.330787069096	-141.362880429	-60.5929786741	-122.720006386	-24.4284053775	-48.2475682666
133000000.0	-23.3951344954	-41.0316444116	0.357599797224	-145.827054447	-60.3694940027	-135.712957271	-24.4182768148	-47.5245572135
133687500.0	-23.5701316374	-42.1701115038	0.973155622389	-150.483350426	-59.8989962779	-140.653535536	-24.4167935191	-46.7488898714
134375000.0	-23.7291832046	-43.2350751761	1.53289120989	-155.301339783	-59.5363631528	-152.635162854	-24.4107638003	-46.0760005764
135062500.0	-23.8566819134	-44.352804886	2.03121282347	-160.170135257	-59.4052381051	-154.75725777	-24.4043254388	-45.4013638281
135750000.0	-23.9751709029	-45.4364032986	2.47521967147	-165.090228266	-59.8270014935	-155.510821416	-24.3930083813	-44.8413950924
136437500.0	-24.0670407803	-46.4674137621	2.86566765584	-170.010253548	-59.3025310424	-149.706975039	-24.3869029994	-44.4492572545
137125000.0	-24.1368881935	-47.5054263733	3.2081649885	-174.911702678	-59.4801003637	-137.7823735	-24.3824484926	-44.039569448
137812500.0	-24.1655966866	-48.4378214469	3.50279126044	-179.748528461	-59.3006603538	-134.713458269	-24.3821057323	-43.5549023233
138500000.0	-24.1616330612	-49.4328621193	3.75713607277	175.481353671	-59.2501880147	-132.930820609	-24.3722535209	-43.2024608533
139187500.0	-24.1067788598	-50.4420800875	3.97124351764	170.805412154	-59.4626293843	-141.66179785	-24.3719182538	-42.8212704622
139875000.0	-24.0117431056	-51.590868087	4.15264312828	166.23086587	-59.0827306482	-139.16258042	-24.375693261	-42.5737687189
140562500.0	-23.846330273	-52.8198737926	4.30248016646	161.769102093	-58.717163307	-145.752463157	-24.3981018127	-42.3167324532
141250000.0	-23.6168532644	-54.3426443075	4.42513202728	157.424394656	-58.5666708019	-146.097890074	-24.4068689302	-42.0915677065
141937500.0	-23.3245909513	-56.2640444397	4.52152839083	153.219308275	-58.7132235546	-152.707388377	-24.4145718526	-41.918128182
142625000.0	-22.9863585695	-58.7035691889	4.60002193616	149.124384015	-58.0324238448	-166.924034897	-24.4266190466	-41.7516404942
143312500.0	-22.6388355488	-61.86779086	4.65706937651	145.156542406	-58.7435506799	172.821393074	-24.4352793074	-41.6231299628
144000000.0	-22.3097922152	-65.7534907792	4.69965472478	141.319786618	-58.3026692379	150.497728242	-24.453827117	-41.5617570425
144687500.0	-22.0629770573	-70.0622588526	4.72797106864	137.61098874	-58.5587670462	135.149665382	-24.5003698563	-41.5636674377
145375000.0	-21.8477545	-74.6050391356	4.7448418529	134.01535521	-58.1601931713	117.519726541	-24.5296145794	-41.6190912873
146062500.0	-21.6825993487	-79.341798155	4.75010150142	130.529700609	-58.5538130164	98.3881686903	-24.5738326048	-41.6465042089
146750000.0	-21.5397285079	-84.0780126511	4.74765909177	127.145135373	-58.17357513	83.9873539428	-24.619270119	-41.6628104063
147437500.0	-21.4507901549	-88.8762094295	4.73446378315	123.881982702	-58.4952426002	68.1494280904	-24.6522817851	-41.6694978196
148125000.0	-21.3747129374	-93.5612340486	4.72017853789	120.703251896	-58.0904200416	46.4438265854	-24.6896107616	-41.6768088695
148812500.0	-21.3371536177	-98.4566158993	4.69529910644	117.622643271	-58.1944961877	26.7577189315	-24.726036042	-41.7170620125
149500000.0	-21.3064005623	-103.114370983	4.66932950405	114.634247376	-58.4834856136	6.1371227594	-24.7803748412	-41.7608361577
150187500.0	-21.3002089514	-107.905343455	4.63573106673	111.738635108	-58.8053287175	-10.693298232	-24.8361835491	-41.7116535288
150875000.0	-21.2963921009	-112.526350671	4.60547929591	108.923405837	-58.9177331422	-32.0460879685	-24.8911911372	-41.6627428122
151562500.0	-21.3089081619	-117.244150587	4.56933788851	106.187660799	-59.2552701343	-48.4566303756	-24.9378065066	-41.7110824703
152250000.0	-21.3331218663	-121.668645331	4.53139595366	103.512494781	-59.3259824399	-70.8606742854	-25.0032609079	-41.6459286476
152937500.0	-21.3680945707	-126.144066139	4.48914123033	100.925934176	-59.1716068956	-89.6639413694	-25.0520868952	-41.6015557987
153625000.0	-21.4117726591	-130.439615153	4.45005476966	98.3943042584	-60.2437661625	-108.488950016	-25.1253924365	-41.3894200297
154312500.0	-21.4548741708	-134.77998254	4.40561966126	95.9222999101	-60.0959882574	-123.114999475	-25.173316508	-41.2917151244
155000000.0	-21.5091851406	-139.051024578	4.36355289558	93.5024569867	-60.6185153805	-138.635639456	-25.2434899764	-41.0883467448
155687500.0	-21.5611758166	-143.258072415	4.32046473972	91.1565994936	-60.2202760221	-152.856091458	-25.3234255471	-40.8788696907
156375000.0	-21.6321898987	-147.385398393	4.27786515286	88.8420319677	-60.6756043688	-167.080917264	-25.3821276161	-40.64024595
157062500.0	-21.6758425944	-151.40023226	4.23319487496	86.5906568238	-60.6190004755	177.838796871	-25.4509419617	-40.3179699787
157750000.0	-21.7477823729	-155.404178804	4.18975065663	84.3774985711	-60.6151424992	175.478075071	-25.5174522214	-40.0044991704
158437500.0	-21.8070332264	-159.251229089	4.14502041058	82.2235784499	-60.6298463741	168.466141771	-25.5886757208	-39.7217209058
159125000.0	-21.8772381917	-163.104642327	4.10350521469	80.1136368402	-60.5528412594	168.368557888	-25.6781556149	-39.4327906112
159812500.0	-21.9364937952	-166.802678284	4.05953977562	78.0495034986	-60.6962685052	171.815736657	-25.7605027805	-39.1490681362
160500000.0	-22.0131746955	-170.52264681	4.01877227016	76.0246192693	-60.4981122036	-173.981786321	-25.854336944	-38.8608794544
161187500.0	-22.0738689938	-174.058263015	3.97481478047	74.0286583943	-60.5085543431	-161.621098545	-25.9281204158	-38.6484012368
161875000.0	-22.1531474479	-177.65027479	3.93255141018	72.0684327686	-60.4141588072	-147.621748359	-26.0242185216	-38.305760108
162562500.0	-22.2247142088	178.949215391	3.88987083054	70.1463604255	-60.4764161249	-138.925304012	-26.1172231552	-38.0521038437
163250000.0	-22.3061465535	175.468428669	3.84925804881	68.2538166982	-60.1743105394	-125.624292066	-26.2343936627	-37.7550545056
163937500.0	-22.3970616463	172.201689759	3.80749968564	66.3994525134	-60.4031068974	-121.16083104	-26.3340502377	-37.5383896692
164625000.0	-22.4751965842	168.87977483	3.76952013843	64.571562982	-60.0818036055	-106.218052363	-26.457489897	-37.3049082642
165312500.0	-22.574400499	165.67027297	3.72823321864	62.7793501244	-60.1892337628	-94.2894347669	-26.5832492624	-37.1209244953
166000000.0	-22.6720335735	162.565970489	3.69158028499	61.0096622552	-59.6407813016	-86.4113950762	-26.7166404835	-36.9294045771
166687500.0	-22.7805784162	159.407007205	3.65278925559	59.269305929	-59.5493930654	-70.7135849312	-26.8579211468	-36.7031334508
167375000.0	-22.889038532	156.408091815	3.61823386974	57.5442990074	-59.3762465093	-56.33072687	-26.9888136424	-36.7323597806
168062500.0	-23.0079659258	153.364280174	3.58123545982	55.8590591534	-59.7011147706	-41.7642368089	-27.1170914925	-36.7167921205
168750000.0	-23.1287505445	150.404441571	3.54686525737	54.2026519705	-59.2782855937	-36.80875554	-27.2555271762	-36.7846304075
169437500.0	-23.2604354533	147.29734909	3.51198672263	52.5715571144	-59.2154459954	-34.0687908089	-27.4059451423	-36.9251775519
170125000.0	-23.3785333944	144.379572711	3.48164469997	50.949410331	-58.9464908593	-28.9465728059	-27.5440330031	-37.133400674
170812500.0	-23.5207854005	141.2526407	3.44761352256	49.3555161955	-58.201058458	-28.490001611	-27.6885005137	-37.4225925567
171500000.0	-23.657935542	138.280765369	3.41825179394	47.7893483194	-58.0731710308	-33.3833806242	-27.824396074	-37.8668501178
172187500.0	-23.8150194281	135.115988351	3.39076962501	46.2490288766	-57.9070962316	-31.7667523989	-27.9620523357	-38.3751188466
172875000.0	-23.9616075856	132.021939548	3.3632185638	44.7129823603	-58.0181427731	-31.9245442496	-28.0663287174	-38.9341858238
173562500.0	-24.1024740311	128.738047475	3.33675553125	43.2132825825	-57.586810261	-34.9893474531	-28.2190444122	-39.5121424801
174250000.0	-24.2518127681	125.560633106	3.31381489754	41.7237561127	-57.9020699625	-45.3460686799	-28.3286331935	-40.1574165295
174937500.0	-24.3918852081	122.172051745	3.29039504112	40.2554263806	-57.9245372617	-57.4968911254	-28.4511676115	-40.9521617293
175625000.0	-24.523642645	118.740494837	3.27070517752	38.7920626349	-58.0141938637	-71.0849810101	-28.56207504	-41.5692028509
176312500.0	-24.6447427077	115.221946474	3.24926795147	37.3533109737	-58.2708090223	-92.5169063708	-28.6737479315	-42.3743942156
177000000.0	-24.7600560549	111.651661953	3.23287503683	35.9195215328	-59.0842900453	-106.745126769	-28.7772755119	-43.1878634225
177687500.0	-24.8436390918	107.993051196	3.21442241415	34.4996692726	-58.9256408544	-119.850500321	-28.8782181588	-44.1065141846
178375000.0	-24.957536377	104.33539764	3.20213484337	33.0901114541	-59.150894462	-130.799220362	-28.9750479383	-44.768593984
179062500.0	-25.032254173	100.709433006	3.18766802103	31.6936792664	-58.8059947147	-151.62677961	-29.0188715548	-45.8219893263
179750000.0	-25.1045038358	96.8735373568	3.17731174979	30.29525623	-59.0806255189	-166.04023722	-29.0931163709	-46.6634487831
180437500.0	-25.1606128816	93.147698375	3.16585829439	28.9139470402	-59.0940009438	179.952888287	-29.1046832111	-47.5521735018
181125000.0	-25.2092967718	89.0989150389	3.15827149197	27.5339938169	-59.2000676929	166.477431957	-29.158989709	-48.2828258255
181812500.0	-25.2311483267	85.3452721281	3.14801626741	26.1639863937	-59.1496812579	155.931945448	-29.1682802771	-49.2410699515
182500000.0	-25.2471868189	81.3609472662	3.14342656203	24.8033329164	-59.6046820272	156.260798597	-29.2022711071	-49.8847442895
183187500.0	-25.2307921244	77.5071424486	3.13563324108	23.4556033669	-59.4958543658	160.88783937	-29.2075491485	-50.5813055719
183875000.0	-25.2164985311	73.5987850186	3.13215834836	22.1058502557	-59.3825227782	160.225522574	-29.1963780571	-51.294950344
184562500.0	-25.1795401134	69.7742465308	3.12603980935	20.7829844557	-59.4124326529	161.841430629	-29.1601434705	-51.9618377973
185250000.0	-25.1277776712	65.9255609446	3.12299640128	19.4435659589	-59.031551572	159.51955057	-29.1483791816	-52.4864461297
185937500.0	-25.0630324929	62.2137083815	3.11735288813	18.1154604914	-59.1627942017	161.467956335	-29.1048149775	-52.8586505449
186625000.0	-24.9965563961	58.5184027704	3.11773085899	16.7868760943	-59.0071917158	172.625908922	-29.0733601834	-53.1792400001
187312500.0	-24.9196224936	54.7587129424	3.11608177695	15.4750928366	-59.2970343885	177.784263585	-29.0289774238	-53.3909690059
188000000.0	-24.8189211921	51.1584533694	3.11805927512	14.1583858127	-59.1646111731	-167.748210098	-28.9772490939	-53.4399291576
188687500.0	-24.7259625229	47.494003194	3.11700085049	12.8551511785	-59.4111151998	-156.683986799	-28.9290013667	-53.4557645044
189375000.0	-24.6136937591	44.0912161574	3.11785795736	11.5490526287	-59.5898581326	-143.637217726	-28.8875898624	-53.4122218921
190062500.0	-24.5109112141	40.6226089371	3.11849321492	10.2540544707	-59.5715321551	-139.55438962	-28.8480659195	-53.1133399705
190750000.0	-24.4007069502	37.3302962692	3.12247293498	8.96396594586	-59.5705104831	-135.722052603	-28.8109040356	-52.8874603548
191437500.0	-24.3081828594	33.9162112504	3.12533403958	7.6825710844	-59.6124732497	-122.679863266	-28.7562339524	-52.506934253
192125000.0	-24.1912511867	30.8188896566	3.12926152225	6.39802071236	-59.962726578	-121.231305104	-28.6905766451	-52.0334899065
192812500.0	-24.0996133601	27.6071896324	3.13407840581	5.13573814077	-60.3951480339	-109.043281738	-28.6414379533	-51.6805276261
193500000.0	-24.0105770289	24.6031208401	3.14057481824	3.85275494944	-60.1877988378	-85.0515343639	-28.5864268729	-51.1831014807
194187500.0	-23.9362649775	21.4985945259	3.1434171588	2.58797909317	-59.5908061564	-71.8649722392	-28.5382589402	-50.5511638046
194875000.0	-23.8831076901	18.5273657575	3.15059668766	1.31851268153	-59.4084858146	-68.866983412	-28.4952379199	-49.8184173518
195562500.0	-23.8002308899	15.4202719773	3.15626422603	0.061218644573	-59.1741111159	-57.6426029403	-28.4574062508	-49.2120239419
196250000.0	-23.7464851082	12.4118774354	3.16317330064	-1.18646588541	-59.345935553	-46.4470639423	-28.4598569586	-48.4377487685
196937500.0	-23.6923896164	9.43705959945	3.16918281488	-2.42545015134	-59.3321240005	-34.0545825861	-28.4212099785	-47.4980472805
197625000.0	-23.6468431804	6.42672334395	3.17896523168	-3.66391489939	-59.4416272866	-29.7859381176	-28.4014012256	-46.6181090399
198312500.0	-23.5902113538	3.56696487964	3.18611305255	-4.88768662477	-59.9355450755	-15.4730917549	-28.3651261634	-45.875037579
199000000.0	-23.5651576125	0.436042415789	3.19871500317	-6.1219863567	-60.1319304569	-1.5183863112	-28.3311964385	-45.0305487473
199687500.0	-23.5204528455	-2.52884524088	3.20750580304	-7.3440492668	-59.5210581611	-0.479176549368	-28.3175452258	-44.3287370714
200375000.0	-23.5039750834	-5.57272871433	3.22065837901	-8.57296334946	-59.6551743309	-4.21273746225	-28.3081065081	-43.5841759351
201062500.0	-23.4627437461	-8.58231860765	3.23075532973	-9.78499353285	-59.6645971614	-6.97791530423	-28.3214441451	-42.8574874911
201750000.0	-23.4435293352	-11.7023477334	3.24478062427	-11.0160467148	-59.6962963684	-15.3109384275	-28.3412250584	-42.019875788
202437500.0	-23.4126647798	-14.7450759413	3.25710141744	-12.2236205105	-59.7262376836	-13.6409646667	-28.349136539	-41.3673787142
203125000.0	-23.3923997508	-17.9446502046	3.27463234148	-13.4413595155	-59.6374470889	-12.4911427218	-28.3624869014	-40.6552265872
203812500.0	-23.3347726306	-21.0233972707	3.28736329079	-14.6441107051	-59.8444462062	-12.665382003	-28.3758067229	-40.0453030499
204500000.0	-23.3086603576	-24.2700163344	3.30416389694	-15.8671855585	-59.919564411	-9.88630554693	-28.3984449253	-39.3855772333
205187500.0	-23.2686110969	-27.3937111271	3.3195236213	-17.0620150923	-59.6366409487	-10.5187449678	-28.4188214807	-38.7944144871
