#Frequency	|S11|	<S11	|S21|	<S21	|S12|	<S12	|S22|	<S22
100000000.0	-16.3303411095	137.006206422	-16.6100429519	-129.695216264	-64.6341032376	87.7404809591	-21.0238093586	-66.7605008972
100687500.0	-16.3313050813	133.675567265	-16.2426330882	-131.141542074	-61.87091121	26.4030569895	-21.0936314158	-66.2605234243
101375000.0	-16.3286824982	130.558268606	-15.8705211304	-132.483822044	-62.6543492943	55.9274633855	-21.183627854	-66.0924753617
102062500.0	-16.3205740558	127.464544861	-15.5074996579	-133.983288932	-62.5155848043	126.877915856	-21.2660331927	-65.8507695307
102750000.0	-16.3117749035	124.265529796	-15.17934694	-135.419515986	-61.5990065448	-147.905354929	-21.3319795825	-65.8348093687
103437500.0	-16.3165098112	121.068902609	-14.8642465529	-136.941438108	-61.6541180948	-128.745279408	-21.3899027588	-65.7049562684
104125000.0	-16.3367565837	117.744221611	-14.5742262394	-138.448182278	-62.1321251875	-117.583857889	-21.4829837668	-65.6168207995
104812500.0	-16.3598106965	114.38951628	-14.3124861535	-139.973311899	-62.1955820138	-126.395653216	-21.5611271981	-65.7019536993
105500000.0	-16.3888792357	110.870407219	-14.0771038512	-141.503696493	-61.9027314456	-138.859435338	-21.6284297503	-65.7390430611
106187500.0	-16.4199260839	107.25580339	-13.8786337094	-143.0422252	-61.9383214409	-140.031219832	-21.6998473554	-65.8194423078
106875000.0	-16.4695935397	103.509467668	-13.7168975492	-144.517273199	-61.4594511444	-126.464830762	-21.7689778504	-65.9091762285
107562500.0	-16.5374958613	99.5789998548	-13.5968691688	-145.901883309	-61.5567534204	-125.741459009	-21.8513085639	-66.0060192807
108250000.0	-16.605019045	95.4742923904	-13.5211556164	-147.125724216	-61.2910403899	-122.927782238	-21.9255841045	-66.1226290065
108937500.0	-16.6554387981	91.5740001638	-13.3833210344	-148.369649008	-60.9451202782	-108.218692972	-22.0017897998	-66.1259171878
109625000.0	-16.7093393733	87.6137035979	-13.2708289378	-149.474014666	-60.672692398	-94.6339376338	-22.0732300031	-66.1519345434
110312500.0	-16.7631744125	83.5136685316	-13.1920025155	-150.391846169	-60.8455181998	-87.9594843342	-22.1516962515	-66.2321258687
111000000.0	-16.8247571044	79.2990339111	-13.1405125141	-151.095758535	-60.6503367719	-75.1770528668	-22.2259057018	-66.2651681589
111687500.0	-16.8884285584	74.9378005164	-13.1198571724	-151.468041359	-60.6541438611	-75.1107562032	-22.3030727004	-66.3141467045
112375000.0	-16.961406235	70.4458617405	-13.1104895304	-151.449719876	-60.5901753298	-77.901932647	-22.3774300396	-66.3981063936
113062500.0	-17.0288661818	65.8380122286	-13.0989944982	-151.004173536	-60.6064551081	-81.3562619954	-22.4508945509	-66.4304524718
113750000.0	-17.1161975093	61.0822921384	-13.0580695637	-150.129095605	-61.0581306364	-85.1405884023	-22.5232747609	-66.454453385
114437500.0	-17.19346065	56.216634282	-12.9784238542	-148.885318586	-61.1981275032	-85.855645643	-22.6089784332	-66.4203178363
115125000.0	-17.285500937	51.0994065094	-12.8452840926	-147.374971082	-61.0406716313	-85.5172785255	-22.6966678219	-66.4127131626
115812500.0	-17.3670508373	45.9246107931	-12.6591902349	-145.672788244	-60.8702747841	-85.4486518037	-22.7821574682	-66.3543444919
116500000.0	-17.4724677613	40.5314545921	-12.4125936882	-143.883764574	-60.7018696142	-90.2364792691	-22.8606533248	-66.2897220486
117187500.0	-17.5748365291	35.0527494587	-12.1145610247	-142.039650667	-60.5537245309	-88.1069672473	-22.9378931311	-66.1729998957
117875000.0	-17.7038794175	29.3325863618	-11.7590758857	-140.220287228	-60.8226526985	-88.0124424716	-23.0290258929	-65.9565523376
118562500.0	-17.8389135899	23.4964574299	-11.3572571827	-138.447792146	-60.3843284396	-85.8414221689	-23.1122867768	-65.6160974623
119250000.0	-17.9992830006	17.4542790199	-10.9053435931	-136.755055868	-60.3516495845	-74.565470249	-23.196192445	-65.2694837404
119937500.0	-18.178565554	11.3038048119	-10.4115565059	-135.176431385	-60.860058086	-65.4057572244	-23.2780260857	-64.8416488283
120625000.0	-18.3814121446	4.95139346709	-9.87058598275	-133.715051578	-61.491072916	-47.0541665345	-23.3664094518	-64.4358100457
121312500.0	-18.6264369245	-1.51941782482	-9.2933351524	-132.421619144	-61.5420671121	-33.0268584995	-23.4300170697	-63.8597414808
122000000.0	-18.9090926956	-8.07060331544	-8.6751238331	-131.300401752	-61.3886945818	-29.0796382842	-23.5056435301	-63.2939718304
122687500.0	-19.2589288846	-14.8111704682	-8.02321652623	-130.374160401	-62.084942761	-14.2067768962	-23.5681278524	-62.6178666045
123375000.0	-19.6555209657	-21.5013097868	-7.33509083125	-129.642068523	-62.0139928657	4.08269813434	-23.617754246	-61.8611361176
124062500.0	-20.1647624368	-28.3222704293	-6.61986274054	-129.135925934	-61.7603910747	16.8001208663	-23.6604631995	-61.0540423752
124750000.0	-20.789794385	-34.6964945808	-5.87347310859	-128.851046242	-61.7920822622	30.3490858134	-23.6970833045	-60.2089525923
125437500.0	-21.519163459	-40.7806060325	-5.10052875428	-128.846609525	-61.4426131551	44.7195761624	-23.7323444979	-59.3068366601
126125000.0	-22.3863833608	-44.8899853429	-4.29195235838	-129.083501328	-61.5534513298	49.0478119754	-23.7598184171	-58.4858866647
126812500.0	-23.1416840469	-48.1062723517	-3.45955203944	-129.658479008	-61.6773054498	61.5769191907	-23.7821696006	-57.5485849539
127500000.0	-23.7158429612	-50.1906372778	-2.59852492256	-130.582255552	-61.3059904814	78.0931316008	-23.7853430174	-56.7077316642
128187500.0	-24.2242943834	-52.4190210621	-1.71609571125	-131.932412547	-61.0618541991	90.4574968718	-23.7895349058	-55.7931119826
128875000.0	-24.6320414361	-54.3477104114	-0.808693399206	-133.740350308	-60.7546360263	104.967764097	-23.7878727578	-54.8975375391
129562500.0	-24.9964715201	-56.41401153	0.0973838831744	-136.116074833	-60.4930396186	120.713702782	-23.7738728818	-54.0230495069
130250000.0	-25.3086504485	-58.355283867	0.995646181716	-139.040912655	-60.3937654695	136.126848136	-23.7602871445	-53.173436425
130937500.0	-25.5842513995	-60.4174265097	1.8535582397	-142.572415358	-59.8641699287	143.262018008	-23.7441126202	-52.3242063176
131625000.0	-25.8249719596	-62.3643586766	2.66543264455	-146.571514521	-59.680295581	145.584623397	-23.7121097172	-51.5619788266
132312500.0	-26.0305549408	-64.2279829591	3.41018302238	-150.968055336	-59.2150086181	152.157659673	-23.6767682874	-50.8209060056
133000000.0	-26.2159473117	-66.1055232584	4.09443053289	-155.654986195	-59.4782881069	163.714263266	-23.6329381592	-50.2020838101
133687500.0	-26.3605776158	-67.9730818506	4.70561774174	-160.560410417	-59.0672332294	174.52222997	-23.5948958826	-49.5891069999
134375000.0	-26.4831996912	-69.7501099793	5.25839435538	-165.601297798	-59.187450019	-174.109116126	-23.547804462	-49.0280300945
135062500.0	-26.5656401099	-71.5013776468	5.7441928247	-170.715412637	-58.7901445676	-159.742463818	-23.4923964428	-48.5577864442
135750000.0	-26.6379748944	-73.1350938343	6.17374604408	-175.859095513	-58.8313165846	-146.659561509	-23.4409555646	-48.2328467427
136437500.0	-26.666524344	-74.6618683394	6.5455067222	178.990386333	-58.8573396799	-139.737160495	-23.3902831678	-48.0088693059
137125000.0	-26.6715113538	-76.1572780312	6.86857045731	173.879067466	-57.9500243536	-131.925514219	-23.338340756	-47.8193166131
137812500.0	-26.6348926888	-77.446770702	7.13980084542	168.831845504	-56.8923012278	-135.499244678	-23.2967360478	-47.6735850801
138500000.0	-26.5617693981	-78.6760486863	7.37078551993	163.861646123	-56.9140349132	-138.152892111	-23.2464656163	-47.7061024741
139187500.0	-26.4268113051	-79.7947884608	7.55713201184	159.001941753	-56.9801929808	-141.276982451	-23.1979517869	-47.7495440214
139875000.0	-26.2272344662	-80.7735590804	7.70902064012	154.254129248	-56.3682266845	-147.610855848	-23.1534816282	-47.9169893286
140562500.0	-25.9584748646	-81.7447876697	7.82660974593	149.635712274	-56.3691955862	-151.470811768	-23.1250819774	-48.1977240213
141250000.0	-25.5856282401	-82.6640156646	7.91762389216	145.153521653	-56.2916197875	-156.947836481	-23.0881071795	-48.4957357686
141937500.0	-25.0886316021	-83.8914059794	7.98125033218	140.820715022	-56.7038721204	-160.534045142	-23.0580721023	-48.8644449533
142625000.0	-24.4863436524	-85.4270901773	8.02527110412	136.632632874	-56.5847374414	-168.493681562	-23.0327143071	-49.2495625076
143312500.0	-23.7348064103	-88.8189446281	8.04595537616	132.587183647	-57.1605943149	-168.275366328	-23.0093200983	-49.6666183407
144000000.0	-23.0933265296	-93.1218495581	8.05415003881	128.678826405	-57.0386958201	-175.872801707	-22.9974383755	-50.1340903035
144687500.0	-22.6400714258	-98.4573491209	8.04551602067	124.923377533	-57.6401406422	-178.869659515	-22.9982089279	-50.5604999443
145375000.0	-22.2411203062	-103.528681323	8.02786569342	121.311142842	-57.8199934534	174.28567486	-22.9877859175	-51.0833192465
146062500.0	-21.9444320781	-108.791322573	7.99841941174	117.831505878	-58.0508596425	174.348569025	-22.9905352565	-51.588451473
146750000.0	-21.6816122843	-113.850110862	7.96433162429	114.473108663	-58.2932116249	167.561633367	-23.0131215482	-52.1092950134
147437500.0	-21.4829876117	-118.904235786	7.92084424771	111.248007059	-58.5491117971	165.59185572	-23.0217802675	-52.5711755839
148125000.0	-21.3006193895	-123.760429305	7.87738725616	108.136988887	-58.5006572646	160.085716503	-23.0264032962	-53.0401855726
148812500.0	-21.1683480785	-128.673239294	7.82599737009	105.121406559	-58.8736137991	152.894104825	-23.0388695903	-53.4612877028
149500000.0	-21.0591061396	-133.39614347	7.77612587303	102.211019556	-59.1322442148	149.577289018	-23.0568126725	-53.871196573
150187500.0	-20.9807402214	-138.110962893	7.71920240763	99.3957798093	-59.0290916726	146.733985527	-23.0796066328	-54.1382850019
150875000.0	-20.9265898619	-142.566809016	7.66527643095	96.6804201933	-59.2778372989	145.298738236	-23.0970297838	-54.4202323809
151562500.0	-20.8885122805	-147.103877198	7.6072319426	94.0383851785	-59.1007791277	137.474181301	-23.1132324993	-54.701015304
152250000.0	-20.8701240796	-151.41556111	7.55345490237	91.4756735686	-59.2377011136	137.022514279	-23.1428216332	-54.8892335142
152937500.0	-20.8513901486	-155.705010068	7.49419529537	88.9826725713	-59.0459275144	128.622033142	-23.1669403552	-55.0276884091
153625000.0	-20.8554725616	-159.902965912	7.44066875676	86.5628948973	-58.9666988988	127.011227948	-23.2057674642	-55.1975304957
154312500.0	-20.8587615448	-164.009712922	7.38346964364	84.1934590524	-58.9062668091	116.8302588	-23.2315369538	-55.3594500692
155000000.0	-20.8893048621	-168.123564027	7.3311070777	81.8879628682	-59.0237533185	115.986361836	-23.2418696077	-55.3952665348
155687500.0	-20.9017371659	-172.148251006	7.27707197838	79.6341148427	-58.7292607403	107.631016752	-23.2828194079	-55.3941173658
156375000.0	-20.948717395	-176.230280727	7.22630290356	77.4403025541	-58.7544585228	109.279734074	-23.3133781911	-55.3255782151
157062500.0	-20.9730392362	179.901665606	7.17557947988	75.2925725742	-58.6384003573	107.309231615	-23.3444709586	-55.2618689618
157750000.0	-21.0262434864	175.958896086	7.12778452775	73.1938606861	-58.5611243019	105.744199788	-23.3746274284	-55.1550603938
158437500.0	-21.0543622898	172.217201983	7.07751598846	71.13710905	-58.669012012	101.883650766	-23.4117571235	-55.041044383
159125000.0	-21.1083712867	168.358773434	7.03195033654	69.1352058406	-58.3551333863	104.501558963	-23.4669134054	-54.8698010347
159812500.0	-21.1465720597	164.713644265	6.98495337407	67.1617698877	-58.5878482503	114.931379985	-23.5051622511	-54.6927237868
160500000.0	-21.2038585165	160.971763088	6.94262283614	65.2283023444	-58.0556616425	122.909148041	-23.5590837618	-54.4574992982
161187500.0	-21.2491420199	157.4633256	6.89647265132	63.3349915844	-58.9080264996	136.205413739	-23.6074045941	-54.2204914958
161875000.0	-21.2950673851	153.913776578	6.85615377896	61.4730541546	-58.623106296	149.738747941	-23.6690935357	-53.9828831791
162562500.0	-21.3512870271	150.383657266	6.81384894177	59.6376103479	-58.5104528363	161.79636555	-23.7364493348	-53.7989234414
163250000.0	-21.3967342654	146.859639847	6.77558015934	57.8308581069	-58.3954490723	169.077614881	-23.8064618273	-53.5544064181
163937500.0	-21.4566857111	143.507163728	6.7349597346	56.0602771417	-58.2834653823	-176.814483599	-23.8613987805	-53.2804417183
164625000.0	-21.504285338	140.120686043	6.6993489711	54.3062779401	-57.9305942977	-170.158263969	-23.93351892	-53.0790134205
165312500.0	-21.5680642809	136.795629165	6.66027370565	52.5794172823	-58.0237472473	-155.803730927	-24.010546985	-52.8528272937
166000000.0	-21.6256053829	133.580355466	6.6273448364	50.8808730146	-57.5252541314	-142.694562629	-24.0803000398	-52.6509792723
166687500.0	-21.6915385255	130.270726484	6.59172131089	49.2135802226	-57.9464977276	-128.087990546	-24.1625988083	-52.4344540588
167375000.0	-21.7530098794	127.107081346	6.56207269675	47.5633708972	-57.7034979419	-118.245412809	-24.2553911565	-52.3880625225
168062500.0	-21.811052058	123.883984595	6.5311479349	45.9358576249	-57.6750691623	-103.867708483	-24.3436281496	-52.3064014078
168750000.0	-21.8612444206	120.79073664	6.50286133411	44.3409297047	-57.5529315698	-85.2028771198	-24.4506622809	-52.252001915
169437500.0	-21.9220994078	117.605679379	6.47165972683	42.7661473694	-57.5880553975	-71.5637000631	-24.5416424109	-52.2577160131
170125000.0	-21.9906973507	114.557899802	6.44916897213	41.2045972079	-57.6429317812	-56.1119517488	-24.64431364	-52.3020624383
170812500.0	-22.0607834063	111.382094336	6.42287111332	39.6645569851	-58.1450379438	-42.7011566985	-24.7438181824	-52.2714908572
171500000.0	-22.1262776135	108.332236848	6.40239331966	38.1537717823	-58.1622838347	-24.6347136223	-24.8443691187	-52.3300482977
172187500.0	-22.190056569	105.160212628	6.38131988435	36.6599853479	-58.0815380481	-10.5357936201	-24.9600889224	-52.4500545635
172875000.0	-22.2678036753	102.089366747	6.36348156058	35.1894243616	-58.1349362784	5.12499285932	-25.0586444937	-52.5474257968
173562500.0	-22.3166115637	99.0241259664	6.34425968379	33.7201483462	-58.2240596211	10.2917200382	-25.1762570429	-52.7657063208
174250000.0	-22.3920821217	95.9361845301	6.33150612958	32.2736930147	-58.3804448423	24.178394253	-25.2766009158	-52.9110885821
174937500.0	-22.4402311077	92.7813702485	6.31758465646	30.835421816	-58.6589912546	43.4871137631	-25.3806958047	-53.1601012932
175625000.0	-22.5039785287	89.6250203084	6.3088028977	29.4104738812	-58.2981835617	72.3123629396	-25.4845787062	-53.3575565385
176312500.0	-22.5448181864	86.4633388742	6.29761482863	27.9882630949	-58.6859440116	90.9923095945	-25.5947028516	-53.6665594292
177000000.0	-22.5948650603	83.2356426872	6.29199448771	26.5911972629	-58.7007907126	109.074122817	-25.7110808579	-54.0682432903
177687500.0	-22.6123783838	80.0532569115	6.28389114178	25.1933321758	-58.7355168825	128.314626593	-25.8285282009	-54.4271509161
178375000.0	-22.6545140781	76.6855276645	6.2818687006	23.8041207467	-58.1896309965	143.094839924	-25.9288839305	-54.8511906372
179062500.0	-22.6810850471	73.4990153887	6.27764542748	22.4170352693	-57.9350590609	155.169172254	-26.0330362244	-55.2746746137
179750000.0	-22.7038869527	70.1585589277	6.27885170262	21.0488623942	-57.7921929671	169.893741624	-26.128282266	-55.599728612
180437500.0	-22.7157177927	66.8872263338	6.27851290581	19.6728091975	-57.6076705709	-176.111226467	-26.2092588525	-56.0044692097
181125000.0	-22.7155183847	63.3972283628	6.28389612546	18.3044389222	-57.8743259374	-162.95018377	-26.3015244915	-56.3906307682
181812500.0	-22.7175963184	60.0861433481	6.28735205617	16.9395922066	-58.1812650549	-148.528596974	-26.3999828622	-56.7548035473
182500000.0	-22.705888357	56.6564647418	6.29614961128	15.5873430247	-58.3749982322	-131.114663738	-26.4938413856	-57.1144821913
183187500.0	-22.6785035998	53.3291228362	6.30085006978	14.2312606385	-58.4239587947	-116.654102238	-26.5829336969	-57.4024471997
183875000.0	-22.6513963378	49.9420250505	6.31077857205	12.8800160348	-58.1007840022	-105.132732773	-26.6594918107	-57.7192855849
184562500.0	-22.6133561452	46.5507063096	6.31653146062	11.534914731	-58.6126871751	-89.3757388536	-26.7211245939	-57.8752081681
185250000.0	-22.5757263443	43.1523961715	6.32750677525	10.1917605433	-58.6578947843	-77.351652855	-26.7994067502	-58.0742304325
185937500.0	-22.5443594326	39.807202185	6.3352210278	8.84641657841	-58.7356753674	-66.322211292	-26.860399245	-58.1521851104
186625000.0	-22.5039280835	36.4890363931	6.35023933741	7.50299767295	-58.826519872	-54.0284119341	-26.9423330142	-58.3601333271
187312500.0	-22.4520187071	33.0221715887	6.3598232628	6.16738049245	-58.7741104967	-41.9655953301	-26.9995640252	-58.3189074607
188000000.0	-22.39202124	29.7196312054	6.37480230128	4.82900935457	-58.4220687457	-29.3288391974	-27.0565018486	-58.3237406808
188687500.0	-22.3357390618	26.2765637809	6.38511666106	3.49506403306	-58.5349405012	-18.1410186977	-27.1229328876	-58.3172373738
189375000.0	-22.2669855182	22.9778932718	6.40001635967	2.16594356983	-58.7497292339	-11.0644324106	-27.1855172698	-58.234388764
190062500.0	-22.2041306194	19.594727215	6.41277058629	0.835309667113	-58.7103408095	1.80319956229	-27.2466778783	-58.1350882614
190750000.0	-22.1310725407	16.2430481698	6.43133047172	-0.483024858418	-58.4066402037	23.5799765845	-27.3198394811	-58.0312487475
191437500.0	-22.0594085647	12.7503066858	6.44437071745	-1.80275316128	-58.3556106585	33.8222144288	-27.3910596236	-57.9453964713
192125000.0	-21.990521974	9.49811428571	6.46025869143	-3.11868585142	-58.2073724493	38.6683621907	-27.4557386758	-57.785724963
192812500.0	-21.9154763538	6.04344460759	6.47459958348	-4.42822147074	-58.9169354011	38.3747231137	-27.5371303013	-57.7343612156
193500000.0	-21.850807327	2.76145387527	6.49273842753	-5.74269421077	-58.2657128996	39.0462998509	-27.6042377486	-57.4507754358
194187500.0	-21.7776489898	-0.668373742147	6.50605615509	-7.05621534257	-58.3749142602	36.6901810741	-27.6633284797	-57.1594591471
194875000.0	-21.7166948196	-4.0108149816	6.52486959799	-8.36557076395	-58.3225340562	30.0624118411	-27.7248448857	-56.8735255312
195562500.0	-21.6275363892	-7.36197556977	6.54180612927	-9.66789490845	-58.2193191995	27.3891176279	-27.7975440821	-56.6079898953
196250000.0	-21.5470823151	-10.7644359397	6.56091003803	-10.9567449815	-58.3717619124	23.6637390213	-27.869882313	-56.3899357091
196937500.0	-21.4559021038	-14.0779324964	6.57697052162	-12.2607849942	-58.524834328	21.0501627971	-27.9406172537	-56.0218359126
197625000.0	-21.3721754425	-17.3681621947	6.59621112591	-13.5390094037	-58.5999529943	19.5819247209	-28.0198487325	-55.6960910059
198312500.0	-21.2801356607	-20.6148691178	6.61336748374	-14.8161770438	-58.4904376734	18.2880949813	-28.0843999081	-55.4862587381
199000000.0	-21.1926357639	-23.9463627698	6.63507136493	-16.0922071795	-57.9875482744	19.2283456022	-28.1380386168	-55.2505017364
199687500.0	-21.0860261666	-27.1133397023	6.65307075745	-17.3694287408	-57.9686191025	19.9362632829	-28.2091490395	-55.1274771781
200375000.0	-20.9985747192	-30.3671669678	6.6748183338	-18.6405988411	-57.9653995584	18.2013902971	-28.2789736628	-55.0680305745
201062500.0	-20.8882778351	-33.4872367672	6.69366119668	-19.9071653053	-57.8443870318	18.0649120316	-28.3614488717	-55.0749607624
201750000.0	-20.7866533192	-36.632971191	6.71785610249	-21.1742470699	-57.4663511611	16.6778044462	-28.4362909867	-55.1053999247
202437500.0	-20.6692347855	-39.6752875056	6.73756831079	-22.4391476445	-57.3659602966	11.8309000522	-28.5063837136	-55.110714096
203125000.0	-20.5600211377	-42.7748915445	6.76327234117	-23.7018814496	-57.7363360042	11.6115383305	-28.5625027304	-55.2418723117
203812500.0	-20.4291276808	-45.7457838099	6.78420758498	-24.9573654244	-58.1558054502	4.85545380837	-28.6202305113	-55.3841127587
204500000.0	-20.3035052994	-48.697629814	6.81098372039	-26.2190454359	-58.6039621566	-6.67412026684	-28.6757859608	-55.5975502962
205187500.0	-20.1752295065	-51.5392630437	6.83393531441	-27.4689487407	-58.4520978866	-13.7972480803	-28.744670706	-55.7495246103
