#Frequency	|S11|	<S11	|S21|	<S21	|S12|	<S12	|S22|	<S22
100000000.0	-16.5700576093	135.522371261	-14.3491671441	-127.716276733	-61.4978664592	138.285059671	-19.6565734917	-67.0720996209
100687500.0	-16.5195424166	132.21032233	-13.9833977155	-128.784522741	-61.2680213978	19.7513713952	-19.7968036478	-67.1887983461
101375000.0	-16.4842867235	129.272702414	-13.629504739	-130.194463979	-62.9197967429	0.0556864764375	-19.8659676593	-67.1599814372
102062500.0	-16.4370633909	126.203083572	-13.2804455725	-131.570545741	-61.7217436522	-3.55683987818	-19.9668152761	-66.9803626183
102750000.0	-16.3995525438	123.161129701	-12.9552596415	-133.015703519	-61.5483659994	-6.04272235736	-20.0603824729	-66.9252384519
103437500.0	-16.3663481446	120.191733147	-12.6545178915	-134.520423215	-60.8975789909	-2.98378766798	-20.1490985823	-66.7357124077
104125000.0	-16.3397120505	117.000848603	-12.3747973736	-136.039769454	-60.6140048237	24.8243131564	-20.2653101775	-66.6637953594
104812500.0	-16.325200695	113.872158428	-12.1323346912	-137.543174517	-60.237133391	55.7370289073	-20.3719634723	-66.6675782274
105500000.0	-16.3176952493	110.582290557	-11.9151637461	-139.044442069	-60.3117558983	83.5355749336	-20.4656799432	-66.7490627438
106187500.0	-16.3111304963	107.145970738	-11.7275369189	-140.51953712	-59.7811370931	97.9557394737	-20.5777000905	-66.8524798753
106875000.0	-16.3203463829	103.59135288	-11.5815579079	-141.917631154	-59.6435078608	130.71940486	-20.6804511725	-66.9709931855
107562500.0	-16.3450702207	99.9369367382	-11.4760568873	-143.236705943	-59.7688578998	158.750508025	-20.7961080691	-67.0338735336
108250000.0	-16.3710041519	96.1484345647	-11.4181039094	-144.374261245	-60.2227647266	-179.946289362	-20.8985433883	-67.2034132059
108937500.0	-16.377491414	92.5316820435	-11.2936784207	-145.516251544	-60.3351895389	-171.205117534	-21.0092730657	-67.2083349975
109625000.0	-16.3897619662	88.8531823544	-11.1948930726	-146.572760841	-60.3526398785	-150.650470467	-21.1108032123	-67.2202983522
110312500.0	-16.4032601099	85.1013938008	-11.1344978033	-147.431845763	-60.2901660582	-125.060382367	-21.2188255592	-67.2712305071
111000000.0	-16.424535013	81.2272652152	-11.0965166045	-148.046742561	-60.1050365966	-104.901356483	-21.3335760473	-67.268406506
111687500.0	-16.4479182747	77.2284595433	-11.0878671315	-148.31929702	-60.0956329429	-81.4776873947	-21.436971518	-67.3482487992
112375000.0	-16.4813193284	73.1764046686	-11.0891021574	-148.222101641	-60.1207915277	-66.1185298475	-21.5475575055	-67.4075647305
113062500.0	-16.5118971504	68.9930797972	-11.0844577095	-147.659977672	-60.1454649876	-52.3827676874	-21.6551704275	-67.415946341
113750000.0	-16.558351416	64.7036695652	-11.0532617406	-146.669799143	-60.0374050417	-48.9814036972	-21.7680372032	-67.3794840016
114437500.0	-16.6099058037	60.2914115282	-10.9822025148	-145.336105476	-60.3825822634	-48.8917242292	-21.880559877	-67.3310360162
115125000.0	-16.6654797766	55.7294294522	-10.8566311493	-143.73360949	-60.2983930444	-48.9798418175	-21.9959297118	-67.3219168644
115812500.0	-16.7284737789	51.0359716723	-10.6755534814	-141.954977917	-60.140092424	-47.8383655833	-22.116575176	-67.2195707153
116500000.0	-16.8096563758	46.2260467685	-10.4365423414	-140.072011317	-60.1841768599	-56.5663332261	-22.2306570403	-67.0328531772
117187500.0	-16.8945201989	41.4012169404	-10.1452986338	-138.148368907	-60.2741775706	-70.3243197192	-22.3337106355	-66.856982509
117875000.0	-17.0063885255	36.3012279501	-9.7969227081	-136.260093317	-60.2123660256	-87.4007950851	-22.459117171	-66.4703829115
118562500.0	-17.1279382533	31.126803965	-9.40339619579	-134.409956772	-60.2564286681	-111.905244292	-22.5618492975	-66.0856942589
119250000.0	-17.2788791546	25.8089067408	-8.96065348395	-132.650150823	-59.9719450755	-143.701154665	-22.6685630009	-65.5088555666
119937500.0	-17.4576719005	20.4458376278	-8.47623106338	-130.97465057	-60.6186424183	-171.837212482	-22.7634407436	-64.8872000102
120625000.0	-17.6778208039	14.9221268953	-7.94805316131	-129.436453263	-60.5889952777	163.402603426	-22.8592178595	-64.2324805435
121312500.0	-17.9415350706	9.37257345833	-7.3830315501	-128.042980282	-60.7809299987	134.973834404	-22.9325575129	-63.4465159843
122000000.0	-18.2576957104	3.67598070439	-6.77476969139	-126.83274276	-60.7320333794	100.402757148	-23.0145208855	-62.6126320019
122687500.0	-18.6483988159	-1.94969946913	-6.13520148982	-125.789099318	-60.6717270541	62.6721881465	-23.0724224864	-61.7208217533
123375000.0	-19.1212827884	-7.60077271393	-5.45847371876	-124.945260621	-60.8039483192	24.644503943	-23.1185831442	-60.6937021919
124062500.0	-19.7024771814	-12.9008538601	-4.75274223586	-124.296423962	-60.338521266	-10.135120288	-23.1494974467	-59.6483976827
124750000.0	-20.4573570294	-17.5091834931	-4.01424469642	-123.896069002	-59.9886010402	-48.350775948	-23.1823374949	-58.5097906031
125437500.0	-21.2305053421	-20.6946656193	-3.24619046385	-123.722724833	-59.747476408	-83.5131089317	-23.1915269117	-57.2848104899
126125000.0	-21.956851857	-22.6908917946	-2.44470343721	-123.839800295	-59.3998404744	-116.763993527	-23.2019478669	-56.112543218
126812500.0	-22.5612445869	-23.9263661312	-1.61735280977	-124.228702307	-59.1710956831	-156.435887902	-23.1951150883	-54.9207724668
127500000.0	-23.0516674012	-25.0165692664	-0.756125787547	-124.993887404	-58.9183666536	162.409754606	-23.1631765025	-53.7649774612
128187500.0	-23.4832718596	-25.9058035994	0.124779873057	-126.169344256	-58.7515871947	123.005432882	-23.1297009903	-52.5998861647
128875000.0	-23.8587373894	-26.7095051545	1.03006902122	-127.834601201	-59.2854153282	81.8121241985	-23.0830845503	-51.3938181453
129562500.0	-24.1768064044	-27.5414649883	1.93639111076	-130.033939363	-59.0035383095	44.3040533714	-23.027238941	-50.2091996944
130250000.0	-24.4748645579	-28.4932540476	2.83233908383	-132.82653319	-59.3889532608	13.2379123439	-22.9723503449	-49.0792909906
130937500.0	-24.7267439183	-29.4247574242	3.69192227252	-136.182634891	-59.0734136436	-12.1132312285	-22.9042518071	-47.9694392096
131625000.0	-24.9606409273	-30.323454469	4.50505538103	-140.016754578	-58.4715248281	-31.6338993879	-22.8175230223	-46.9629242255
132312500.0	-25.1756123403	-31.2333585915	5.25284402712	-144.219149548	-58.3926046753	-57.3063872836	-22.730094888	-45.9130360609
133000000.0	-25.3771763496	-32.1382165254	5.94063510128	-148.732172129	-58.251173494	-74.6705112574	-22.6345460672	-44.9956886151
133687500.0	-25.5541522862	-33.1253276953	6.55825302724	-153.433221614	-58.2028079484	-90.528151525	-22.5328156276	-44.146496316
134375000.0	-25.7173299268	-34.0780033607	7.11734843372	-158.28589161	-57.756155477	-108.575966499	-22.4300300747	-43.3537906799
135062500.0	-25.8480323027	-35.0634726601	7.61496663554	-163.199589619	-57.8256658769	-122.727088338	-22.3163749871	-42.7333766583
135750000.0	-25.9572994943	-35.9821696836	8.05918221762	-168.159913244	-57.5300027163	-131.18990401	-22.2061931187	-42.1832619689
136437500.0	-26.0429710221	-36.9436201871	8.4472105806	-173.11988237	-57.7953583744	-132.079096884	-22.1017566913	-41.8271817011
137125000.0	-26.0995581031	-37.8583165326	8.78883665797	-178.083444608	-56.75154326	-140.446878597	-22.0050398042	-41.5210067059
137812500.0	-26.1063040698	-38.7232155108	9.08115359104	177.03091322	-56.7916260876	-142.035573885	-21.9039186826	-41.2357744466
138500000.0	-26.069013898	-39.6489663924	9.3337582182	172.190788116	-56.4964656792	-147.843419416	-21.8144993733	-41.1298220996
139187500.0	-25.9750117973	-40.5251302741	9.54301170651	167.463430551	-56.5906836299	-149.325350958	-21.7262683495	-41.0594728589
139875000.0	-25.8078809547	-41.5046958896	9.71975977507	162.809324734	-56.275190455	-155.844720195	-21.6550864403	-41.1002043416
140562500.0	-25.5534690686	-42.5315357229	9.86140413435	158.28967707	-56.063012194	-157.281338289	-21.5919568372	-41.2907244768
141250000.0	-25.1918908442	-43.9557334116	9.97743148716	153.876539229	-56.2923866923	-162.528171547	-21.5379257115	-41.5359539641
141937500.0	-24.6535254135	-46.0270325075	10.064783657	149.607751148	-56.1344408135	-164.013917175	-21.4872665494	-41.8463273918
142625000.0	-24.0961899908	-49.6023715492	10.1332438982	145.452072353	-56.0894231312	-168.357932167	-21.4580183766	-42.1891248941
143312500.0	-23.579040799	-54.3172591136	10.1768286923	141.444547492	-56.3234849674	-171.622948765	-21.4174283038	-42.608861233
144000000.0	-23.1819750913	-59.8471657197	10.2068010811	137.546187441	-56.4802335599	-176.407183549	-21.4035068422	-43.0418640556
144687500.0	-22.9047081571	-65.5031210604	10.2194909895	133.805564059	-56.4224600333	-178.868653897	-21.4021503867	-43.4327745676
145375000.0	-22.6797052696	-71.3690211452	10.2224392388	130.182774186	-56.5086532657	178.713144026	-21.4018703858	-43.9157887367
146062500.0	-22.5042786719	-77.2046541297	10.2131183305	126.688571905	-55.3149095506	176.223274001	-21.4208342665	-44.3759863705
146750000.0	-22.3812232755	-83.0847198067	10.1958838022	123.296110752	-55.5044473954	172.483867662	-21.4572730259	-44.8613631505
147437500.0	-22.2814184678	-88.7185431455	10.1677819241	120.032920132	-54.6828974745	166.067168269	-21.4765036359	-45.3237530813
148125000.0	-22.2195665353	-94.372853557	10.1378040474	116.86225275	-54.9412761549	164.376806185	-21.5140065047	-45.8033383772
148812500.0	-22.1750860216	-99.9665014285	10.098839651	113.809141878	-54.9445302843	160.417344457	-21.5489657698	-46.2610873421
149500000.0	-22.143236481	-105.442739212	10.0605352789	110.845299357	-55.1726297463	158.06030637	-21.6069405004	-46.6599490915
150187500.0	-22.1117144158	-110.902331608	10.0141680515	107.986863185	-55.1908185041	152.386642129	-21.6574239647	-47.0336983838
150875000.0	-22.0939206909	-116.095536393	9.96933505431	105.201592237	-55.3987316819	150.97312766	-21.7252326532	-47.4009932081
151562500.0	-22.0838991561	-121.382738096	9.92038308234	102.503948056	-55.3819046815	147.569013339	-21.7867047927	-47.7752051966
152250000.0	-22.0790809446	-126.386740391	9.87276251707	99.8831713279	-55.3013037802	143.768665353	-21.8642041135	-48.0496118937
152937500.0	-22.0853627043	-131.377434405	9.81835789739	97.3370525522	-55.3024691612	140.033858186	-21.9340283764	-48.2912384743
153625000.0	-22.0930868421	-136.178294733	9.76976229132	94.8586639824	-55.5438528737	138.597590772	-22.0204388674	-48.4856712438
154312500.0	-22.0908651376	-140.969936656	9.71621741472	92.4560651256	-55.8841044784	137.263093454	-22.0864928484	-48.7203439955
155000000.0	-22.1001131283	-145.536660538	9.66516156936	90.0965054579	-55.9997943503	132.260443941	-22.1681036339	-48.853763328
155687500.0	-22.1086166934	-150.09733361	9.61182872563	87.8082400889	-56.0943629069	128.659206714	-22.2470307731	-49.0125702298
156375000.0	-22.1231668223	-154.515008628	9.56213336611	85.5599477622	-55.9640395577	123.552302719	-22.3241396284	-49.1235628764
157062500.0	-22.1322966465	-158.839317571	9.51068245457	83.3823638431	-56.3268977416	122.243124896	-22.4086440287	-49.198446014
157750000.0	-22.1450117744	-163.085237429	9.46148383493	81.2306797074	-56.2089990278	115.908490198	-22.4923359609	-49.2180525393
158437500.0	-22.1466278441	-167.168044442	9.40948477554	79.1412076658	-56.0909827759	113.817843497	-22.5772666255	-49.2536294259
159125000.0	-22.1510796328	-171.266207429	9.36298740385	77.090105003	-56.2740900343	107.686960033	-22.6759726828	-49.2785900367
159812500.0	-22.1626374195	-175.215766699	9.31287122014	75.0927235968	-56.1402492763	106.888894521	-22.7675536442	-49.2680504117
160500000.0	-22.1770880142	-179.089854833	9.26935505659	73.1164786752	-55.8297499563	100.270472732	-22.8663322256	-49.2642616963
161187500.0	-22.1833372487	177.21671535	9.22140782237	71.1918620577	-55.707063554	98.9124018965	-22.969308885	-49.2324407179
161875000.0	-22.2016217749	173.56672523	9.17785626139	69.2823672527	-55.7389832949	89.2298272715	-23.076355949	-49.2544915402
162562500.0	-22.2200902469	170.037417762	9.1318233149	67.4244246667	-55.8618998137	88.5338511352	-23.1821869626	-49.2927945576
163250000.0	-22.2289479363	166.482698756	9.08885505802	65.5836908209	-56.008205666	82.7144377195	-23.2971426975	-49.2954225685
163937500.0	-22.2493011406	163.168615815	9.04545151984	63.8009628304	-56.1544928263	82.6139556154	-23.4003980924	-49.2932862688
164625000.0	-22.2764336677	159.818126318	9.00569294667	62.0263511705	-56.3537646056	82.7130488322	-23.5224935281	-49.3520552364
165312500.0	-22.3005413695	156.650913068	8.96252303368	60.2918697982	-56.9031921474	82.1280891699	-23.6393125765	-49.3955019608
166000000.0	-22.3329365744	153.456856549	8.92581472283	58.5733713373	-56.8600218387	79.8278731299	-23.7588299661	-49.4721345554
166687500.0	-22.3689337231	150.333451344	8.88500224364	56.8923117825	-56.7653412904	78.444743931	-23.8833177178	-49.6642332543
167375000.0	-22.4265598208	147.340330166	8.84988959798	55.2269234161	-56.9637653811	76.9403741669	-24.0085073225	-49.9099734316
168062500.0	-22.4745089968	144.293807105	8.81230073109	53.6005084747	-56.9281769591	75.5097268935	-24.1241343886	-50.1287726214
168750000.0	-22.5291638534	141.338563613	8.77945852705	51.9966755184	-57.3164524383	75.2751329893	-24.2469424564	-50.4953588519
169437500.0	-22.5862129555	138.376781595	8.74436841458	50.4146764491	-57.2237508882	75.4086062181	-24.3741417689	-50.8700738211
170125000.0	-22.6472707971	135.427010463	8.71602900767	48.8475970412	-57.2813598433	73.8403216795	-24.4942601508	-51.3246641225
170812500.0	-22.7126195305	132.465848043	8.68286480327	47.3113629328	-56.9239754457	69.6797218159	-24.6128383179	-51.7390696586
171500000.0	-22.7880368525	129.564294304	8.65585595884	45.7918072773	-56.7156377177	69.5687710571	-24.7459163028	-52.2141888607
172187500.0	-22.8623447194	126.500147533	8.62939020646	44.2980464781	-56.4757767108	70.0664724314	-24.8593797679	-52.8119116377
172875000.0	-22.9434716279	123.508724601	8.60605210413	42.817035127	-57.0596640037	70.6244073028	-24.9691881927	-53.3629397015
173562500.0	-23.0129992124	120.423734636	8.58064997964	41.3649128492	-57.0437286282	70.6394001602	-25.0966378989	-53.9868670858
174250000.0	-23.0911381956	117.418087618	8.56116810011	39.9171677155	-56.9579537205	69.1796859947	-25.2071554004	-54.5854192705
174937500.0	-23.1573173436	114.259153691	8.54154419887	38.4903304136	-57.1072738808	68.0535400759	-25.2998080546	-55.3674253989
175625000.0	-23.2250678497	111.053045346	8.52663854333	37.0660617565	-57.2699387818	67.1303214578	-25.4045735969	-55.9957434139
176312500.0	-23.2866870807	107.825068022	8.50827958893	35.6703753004	-57.2239203375	66.6728318795	-25.4869667521	-56.7282098093
177000000.0	-23.3307657732	104.58288739	8.49471776334	34.2743346851	-57.4696637447	66.7390554897	-25.5783309922	-57.5340215349
177687500.0	-23.3679274454	101.255876029	8.47891041477	32.8983060258	-57.3860814708	66.6041366671	-25.6661148877	-58.3831078579
178375000.0	-23.411471817	97.9473600669	8.47022348206	31.5217227935	-57.6556116408	67.3232399444	-25.7477128282	-59.1184493235
179062500.0	-23.4294707788	94.6188814178	8.45933240946	30.1737800668	-57.6481270513	71.1956097927	-25.8098291712	-59.8944225719
179750000.0	-23.4419723992	91.2755725152	8.45274529641	28.8192648019	-57.7611265467	69.9409775352	-25.8898263257	-60.5609520425
180437500.0	-23.4642861403	87.8739280264	8.44435251181	27.472814622	-57.9288869818	70.7453840945	-25.9207581277	-61.2630923228
181125000.0	-23.46863249	84.3841489827	8.44077029524	26.114157318	-57.6614585033	69.4901113662	-25.9765530059	-61.8899792275
181812500.0	-23.4570645355	80.9847156722	8.43471919169	24.7786622495	-57.7080278649	67.3424762237	-26.0097279923	-62.5629198697
182500000.0	-23.4342407278	77.5130167274	8.43475920403	23.4478296284	-57.0316958464	60.257883324	-26.0530468383	-63.0587676589
183187500.0	-23.3899837042	74.157984711	8.43069077642	22.135094533	-57.6859151774	61.7577227639	-26.0858983414	-63.5982548943
183875000.0	-23.3458970332	70.7688684994	8.43163534974	20.8048223041	-57.6576687976	60.1100326745	-26.1076801318	-63.9604899123
184562500.0	-23.2809336813	67.4328296216	8.42981678518	19.4953562788	-57.7570745296	59.1455121048	-26.1094500522	-64.3372564296
185250000.0	-23.2128527241	64.0779690788	8.43256274126	18.1798621386	-57.3925563285	55.5486321045	-26.1225424017	-64.5889334326
185937500.0	-23.1355854185	60.7921813433	8.43027548373	16.8682420582	-57.2233308418	54.5792932174	-26.1320834881	-64.6512431356
186625000.0	-23.0678058229	57.4775443184	8.4344309897	15.5599146575	-57.2437725809	48.2500223268	-26.1301068915	-64.7344760565
187312500.0	-22.9825083017	54.2340771636	8.43686614532	14.2620213032	-57.8609295851	49.786382254	-26.1415637887	-64.7412011683
188000000.0	-22.8907395088	51.0321662101	8.44345342084	12.9556107572	-57.6444777142	47.0701520369	-26.1374303569	-64.7189064439
188687500.0	-22.7931139253	47.8639443092	8.44590294525	11.6697821213	-57.5643078665	46.2707074654	-26.1358066769	-64.6238660891
189375000.0	-22.698425611	44.7586107932	8.45193775494	10.3760092662	-57.5452123632	42.6112919895	-26.1316656562	-64.4267758888
190062500.0	-22.5991420878	41.7247181392	8.4555747029	9.09261505211	-57.2152002592	42.9320238261	-26.1323711587	-64.1168995669
190750000.0	-22.5056111039	38.7595928429	8.46485203133	7.80932511081	-57.1679182295	39.8109323166	-26.1253606795	-63.7356680126
191437500.0	-22.4048059334	35.7837856977	8.46958420992	6.54192997929	-57.7653958314	41.9283664559	-26.1268944856	-63.347974183
192125000.0	-22.3161027821	32.9663239477	8.47715481697	5.27084039574	-57.769188679	39.2245323533	-26.128367121	-62.8038993976
192812500.0	-22.2318000784	30.113767922	8.48399116696	4.0238928006	-57.5195180621	42.325199179	-26.133496153	-62.3731328281
193500000.0	-22.1617966755	27.3470900666	8.49466410501	2.75154326013	-57.6416799895	42.3069558601	-26.1382704847	-61.8575500116
194187500.0	-22.0959156704	24.6444493798	8.50165780194	1.49988408166	-58.1619996615	41.5007116003	-26.1384233351	-61.1858239588
194875000.0	-22.0485688527	21.8913388928	8.51345368414	0.241958990666	-58.3976510305	43.0532683145	-26.1375298404	-60.496684024
195562500.0	-21.9876578493	19.0550053651	8.52298999658	-0.99996884181	-58.0565942837	37.9368100168	-26.1405374729	-59.8531376765
196250000.0	-21.9506892967	16.2988481955	8.53548903769	-2.25466042667	-58.9970255374	38.0101028085	-26.162225022	-59.2190882858
196937500.0	-21.9090618997	13.4377380925	8.54516112285	-3.49231330001	-58.6021631455	34.1006131397	-26.1776687767	-58.3677506791
197625000.0	-21.8796204252	10.7013024428	8.55903151078	-4.72007361375	-58.7538397114	32.5170953724	-26.2070189491	-57.5719059333
198312500.0	-21.8545913134	7.94071866808	8.5708300278	-5.93504052944	-58.7959163542	24.9616184912	-26.2224426322	-56.8315044024
199000000.0	-21.8410630702	5.13553807714	8.58705738144	-7.17357699404	-58.8917555204	26.7899456245	-26.2399624803	-56.1259984914
199687500.0	-21.8216383667	2.26244917537	8.59948232517	-8.39094719003	-59.1521022322	27.6757062814	-26.2733234109	-55.4880431405
200375000.0	-21.8202142821	-0.611974093931	8.61593701495	-9.62762756862	-58.852432211	26.9335932613	-26.3147922184	-54.8201925082
201062500.0	-21.8152916718	-3.55185116478	8.62993022429	-10.8281714028	-58.7027300797	25.6402420484	-26.351600187	-54.1539648075
201750000.0	-21.8140885123	-6.52447520106	8.64831562659	-12.0427177425	-58.8201781475	25.1610607914	-26.4013650252	-53.4470599243
202437500.0	-21.8124899807	-9.44942249861	8.66360898352	-13.2498429713	-58.7641445649	24.3355348911	-26.4461886247	-52.8392866074
203125000.0	-21.8125783985	-12.4244031156	8.68490539983	-14.4628654481	-58.8150791201	22.3200526082	-26.4890406216	-52.3349214477
203812500.0	-21.790903016	-15.3960962293	8.70175911022	-15.6654681849	-58.8494734063	24.7501993175	-26.5306316662	-51.8199163019
204500000.0	-21.7843544609	-18.4594243875	8.72202713056	-16.8787431037	-58.6138478642	22.7102882415	-26.5770435672	-51.2340406015
205187500.0	-21.7744290585	-21.4478560952	8.74118904231	-18.0673773834	-58.5159731122	24.3943577499	-26.639947863	-50.6287803607
