#Frequency	|S11|	<S11	|S21|	<S21	|S12|	<S12	|S22|	<S22
100000000.0	-19.8643693884	138.057983516	-21.6143851911	-122.349216926	-63.4521324948	-46.1607524184	-20.7999208865	-50.0724843993
100687500.0	-19.8337912446	135.035326032	-21.1318747931	-123.455445261	-62.9254980113	121.386976608	-20.973839127	-50.2353798809
101375000.0	-19.7333992498	131.736043044	-20.6978653756	-124.641579053	-63.0097906624	164.036934231	-21.0439093299	-49.5509740578
102062500.0	-19.623236271	128.435960918	-20.3099820195	-125.792379638	-63.1571355248	-172.489819379	-21.1518999963	-49.0270164625
102750000.0	-19.5284363481	125.19133113	-19.9410947089	-127.13206393	-61.5072711635	-179.13675246	-21.2592419406	-48.5446098113
103437500.0	-19.4459087355	122.074675586	-19.5946186353	-128.398422217	-60.8189333101	167.209456713	-21.377081503	-47.877891757
104125000.0	-19.3572381255	118.810801834	-19.2754147636	-129.697685053	-60.2704370462	156.179821458	-21.5255733301	-47.1362094016
104812500.0	-19.2765807373	115.610142237	-18.9771092505	-131.00013388	-60.7416729343	129.770843458	-21.6611847263	-46.6143727188
105500000.0	-19.2061776892	112.352590429	-18.7037179492	-132.341223009	-60.926941281	116.509689642	-21.7967033789	-46.2579079019
106187500.0	-19.1429937135	109.087608297	-18.4609706293	-133.641991738	-60.9420135048	87.5511406052	-21.946362149	-45.872348113
106875000.0	-19.0865742156	105.715136526	-18.2429075729	-134.932304635	-61.3250863664	36.5914918408	-22.1091118817	-45.5959776271
107562500.0	-19.0425646136	102.277036502	-18.0641912609	-136.175440401	-60.9861697451	-7.33327806772	-22.2848453921	-45.2831374442
108250000.0	-18.9989196145	98.7215239311	-17.9163840063	-137.329678915	-61.2228142817	-30.2386184313	-22.4561631465	-45.13123697
108937500.0	-18.9458331119	95.2362152504	-17.709661335	-138.472082689	-61.3076532158	-30.4968668137	-22.609639419	-44.7768842731
109625000.0	-18.8923586523	91.673906702	-17.5362317501	-139.543820677	-61.4163263234	-30.6448619354	-22.7638919182	-44.4907996026
110312500.0	-18.8319679493	88.0809838632	-17.3796779511	-140.560013069	-61.8131991853	-30.5272425658	-22.9264743781	-44.1880319255
111000000.0	-18.7892166449	84.3818640895	-17.2602908197	-141.450192265	-62.3772221315	-21.0040234662	-23.1006788598	-44.00774045
111687500.0	-18.7426650687	80.6455555661	-17.1660218884	-142.17010647	-62.4634895721	-22.4733176091	-23.2766728285	-43.9704796672
112375000.0	-18.7107678713	76.8117083534	-17.1011121526	-142.661009815	-62.0984239447	-22.6975590432	-23.4559921563	-43.8644400861
113062500.0	-18.6688637544	72.9297758342	-17.051713594	-142.840910681	-62.080021022	-23.63823693	-23.6300554178	-43.7652704693
113750000.0	-18.640188869	68.9737923479	-17.0158381785	-142.637231505	-62.2073625626	-24.2479185982	-23.8039253001	-43.745121825
114437500.0	-18.6063144909	64.9070012911	-16.9773220531	-142.035694375	-62.3091933189	-11.8517481421	-23.9977346868	-43.8550270509
115125000.0	-18.581622063	60.6806232766	-16.9154639176	-141.049969666	-62.3099593203	-8.68569235862	-24.1820731952	-44.0279208686
115812500.0	-18.5488483076	56.3128787594	-16.8147802472	-139.69806724	-62.8941683835	2.13986503651	-24.3717531679	-44.1958358582
116500000.0	-18.5286467686	51.9112340661	-16.6610074493	-138.071831708	-62.8404226771	5.53926991819	-24.5426455128	-44.3998341516
117187500.0	-18.5059928997	47.3809099095	-16.4548742259	-136.272610113	-62.9900739132	10.0441944696	-24.7239914052	-44.7232309798
117875000.0	-18.498335355	42.713562137	-16.1860896502	-134.385467556	-62.6518986814	23.9737071019	-24.9004123325	-44.8947730398
118562500.0	-18.4985218744	37.8604182864	-15.8686061041	-132.449200272	-62.4921446134	38.9636414965	-25.0937205842	-45.199809324
119250000.0	-18.5063635877	32.9167386733	-15.4929927666	-130.52677012	-62.2729875367	51.5329712487	-25.2712551661	-45.2866184315
119937500.0	-18.5345805593	27.826007805	-15.0663792836	-128.6561814	-62.5191289234	61.7839531297	-25.4453284634	-45.5094683106
120625000.0	-18.5656168819	22.5620196427	-14.5890470662	-126.907758994	-62.7064068656	75.5120338383	-25.6210547847	-45.7671042946
121312500.0	-18.6437446516	17.1541730616	-14.06979172	-125.275829901	-62.926724785	101.002724357	-25.7834127256	-46.0700132412
122000000.0	-18.7254244851	11.6761054858	-13.5066479985	-123.79955594	-62.9024051006	131.108626079	-25.9469893484	-46.3566939132
122687500.0	-18.8642905994	6.0429194563	-12.9085088302	-122.50268927	-62.5657609018	159.374004954	-26.0868097253	-46.6395467366
123375000.0	-19.014889584	0.306440497561	-12.2683010701	-121.41480238	-62.5219324046	-172.824276007	-26.2133620709	-46.8904776661
124062500.0	-19.2352030056	-5.48084867695	-11.5987184818	-120.483857549	-62.8766943636	-147.154601076	-26.3364177925	-47.2516962246
124750000.0	-19.497504274	-11.2989048126	-10.9013363881	-119.819506157	-62.9579468822	-121.113727031	-26.4496056141	-47.4837537647
125437500.0	-19.828654419	-17.0167562662	-10.1737724273	-119.366733162	-62.4821316805	-102.993237864	-26.5448684818	-47.7745772517
126125000.0	-20.2320021348	-22.4859514451	-9.41818871957	-119.163260469	-62.2725099642	-86.7124310144	-26.6458724013	-48.2135166221
126812500.0	-20.7010189035	-27.4708510014	-8.63747712067	-119.200263124	-61.8934096437	-82.3651034609	-26.7248911043	-48.5666518974
127500000.0	-21.2112623902	-31.7064190244	-7.83389648324	-119.537908982	-61.4809242333	-84.6321831457	-26.7963754412	-48.9996111264
128187500.0	-21.7171090014	-35.3445504963	-7.00199640753	-120.146984813	-60.9688273092	-89.9534796146	-26.8357264266	-49.3157570617
128875000.0	-22.1617426182	-38.4440905726	-6.1504545401	-121.126409806	-60.7866446894	-85.4111060431	-26.8678435616	-49.6468172125
129562500.0	-22.5764625866	-41.2023742638	-5.27510939265	-122.478231495	-60.6192475028	-82.3810205172	-26.8741367603	-50.0075814548
130250000.0	-22.9411354867	-43.8089694505	-4.38808481668	-124.323983567	-60.5258060338	-90.3690703445	-26.8903313495	-50.5517756934
130937500.0	-23.2566495359	-46.2693943049	-3.4963802574	-126.648941284	-60.6035383537	-91.0801885477	-26.8914145121	-50.8926906233
131625000.0	-23.5419334155	-48.5595764007	-2.61891233921	-129.546404239	-60.5305049217	-104.384719393	-26.8597335948	-51.3113760201
132312500.0	-23.7980936369	-50.752999134	-1.76992680503	-132.960678967	-60.6356739916	-104.160056238	-26.8289020986	-51.5890764389
133000000.0	-24.0382850208	-52.8286863553	-0.970222707002	-136.860569218	-59.997001804	-113.335398999	-26.7873297783	-52.1125731456
133687500.0	-24.2410242587	-54.9495698845	-0.229249909269	-141.149187303	-60.1858776114	-115.697887616	-26.739930744	-52.5202224317
134375000.0	-24.4348803986	-56.9608837487	0.447615481476	-145.739169889	-60.081636785	-117.223654462	-26.667209774	-52.9576676298
135062500.0	-24.5855154467	-59.0093180885	1.0587220004	-150.521726303	-60.529282529	-119.871579913	-26.5941107449	-53.4688265344
135750000.0	-24.7357314283	-60.8612981658	1.60537090904	-155.433485524	-60.5998644325	-129.51215456	-26.4927017886	-53.9711102738
136437500.0	-24.8459043716	-62.6912114279	2.09218093532	-160.43454402	-60.6208847853	-132.425449791	-26.3774821006	-54.6095537612
137125000.0	-24.9481286739	-64.4590124589	2.51829630039	-165.467768954	-60.1751663394	-138.952736527	-26.2723911413	-55.2076584438
137812500.0	-25.0113848402	-66.1012325831	2.89303128722	-170.48174279	-59.865453643	-150.890803007	-26.1472268644	-55.756581634
138500000.0	-25.0427369122	-67.6165742051	3.21525061285	-175.457405022	-59.408028101	-175.122812806	-25.9984514619	-56.3635280741
139187500.0	-25.0485293485	-69.106342283	3.49244560415	179.637503804	-58.9452226779	161.8992874	-25.8534291608	-56.9069085387
139875000.0	-25.0018080566	-70.46965208	3.72603197312	174.828296165	-58.8276570737	143.568118406	-25.7150715508	-57.4320304025
140562500.0	-24.935146531	-71.7808596855	3.92291918462	170.121935931	-59.0832733902	124.741786032	-25.5747275613	-58.1376751103
141250000.0	-24.7994470331	-73.0583847782	4.08588562847	165.538117227	-58.6743776979	109.934011903	-25.4140023703	-58.6215829564
141937500.0	-24.6217783643	-74.259293392	4.22053801051	161.097958057	-58.2424737815	87.7310028882	-25.266502959	-59.2257443349
142625000.0	-24.3699494768	-75.5591881432	4.32846162819	156.781265749	-58.5254681039	70.2239302341	-25.1028551408	-59.6015080561
143312500.0	-24.044409206	-77.0611492431	4.41262370414	152.600360051	-58.2971018449	44.5217107987	-24.9411705681	-60.0146493832
144000000.0	-23.6569049448	-79.077636781	4.47756668355	148.548762805	-58.4737888724	29.2717432765	-24.7691680608	-60.3590230051
144687500.0	-23.240846177	-81.7947106058	4.52759806934	144.645778652	-58.1186580375	9.93169151034	-24.6036275528	-60.8018469164
145375000.0	-22.811726418	-85.0616883184	4.56415071094	140.864949571	-58.1621985145	-6.71916202228	-24.4402568355	-61.1357129386
146062500.0	-22.4584422862	-88.835706001	4.58802273196	137.2053602	-57.8070296056	-30.7329123956	-24.2951515504	-61.4114870228
146750000.0	-22.1284126264	-92.8732770981	4.60023023485	133.65241185	-58.2814537412	-47.9484352608	-24.1521618769	-61.5804126375
147437500.0	-21.8595299066	-97.0256277007	4.60290915777	130.231270238	-58.4508524959	-62.9350625681	-23.9982966674	-61.6711649493
148125000.0	-21.6361665692	-101.29878796	4.60031149472	126.897980226	-58.6449814541	-79.253928281	-23.8472222517	-61.7652727197
148812500.0	-21.4626681428	-105.689213479	4.59082447901	123.675711207	-58.7671826191	-91.7425237722	-23.7035395837	-61.7431312867
149500000.0	-21.306747016	-110.012550568	4.5762808589	120.543417561	-58.4852703538	-110.757952822	-23.5627967379	-61.6543769399
150187500.0	-21.1843588005	-114.383013609	4.55510767167	117.510571161	-58.5690783688	-125.106716089	-23.4185455206	-61.4163733642
150875000.0	-21.0972711376	-118.636705154	4.53368307099	114.559749013	-58.7706116585	-148.078772703	-23.2812823558	-61.1604351827
151562500.0	-21.0301820004	-122.936652886	4.50752813637	111.690466663	-59.0388228327	-161.438625914	-23.1544956229	-60.8735885536
152250000.0	-20.9982886325	-127.048920517	4.47829879531	108.89489294	-58.7081889783	-173.049286608	-23.0373877288	-60.4938460025
152937500.0	-20.9683684999	-131.207492624	4.44494752127	106.168706664	-58.6950126439	171.117886077	-22.9167148585	-60.0127695431
153625000.0	-20.9745394877	-135.320032921	4.41104073321	103.513195024	-58.8619354777	157.819367532	-22.8276334234	-59.4881973996
154312500.0	-20.9693784084	-139.37242333	4.37524352313	100.920896709	-58.9823120195	144.422588778	-22.7150141592	-58.8141188288
155000000.0	-21.0045026767	-143.420504843	4.33766597052	98.3729242677	-58.8803073343	132.476097822	-22.6205432845	-58.1140279117
155687500.0	-21.0340826838	-147.463284286	4.2995483178	95.9083454448	-59.6273109398	132.219244102	-22.5512623279	-57.3316063118
156375000.0	-21.0948788174	-151.438495169	4.25854637376	93.4815661218	-59.9169581558	130.655589893	-22.4695698736	-56.5860416453
157062500.0	-21.1438324341	-155.410134276	4.21889352921	91.114787442	-60.0092271877	131.399242997	-22.4005252422	-55.7333959879
157750000.0	-21.2128561611	-159.322124438	4.17739008244	88.795285192	-59.6607157847	129.79458774	-22.332476754	-54.8015417691
158437500.0	-21.2726557356	-163.173881134	4.13650846101	86.5228776192	-59.8462839536	128.1904801	-22.2845257128	-53.8432832742
159125000.0	-21.3390227191	-167.071776556	4.09362160013	84.30097292	-60.2689206464	125.290344912	-22.2462180586	-52.9038671874
159812500.0	-21.4059800626	-170.902250477	4.05221866771	82.1356709997	-60.2196547475	112.882979678	-22.2144850679	-51.9095346408
160500000.0	-21.4854783561	-174.757076561	4.01094030842	80.0100466992	-60.3985036255	98.5013052773	-22.1856595615	-50.8876979619
161187500.0	-21.5591129206	-178.51310565	3.97000368329	77.920924137	-60.3276108079	82.3993562649	-22.1707373462	-49.8175380973
161875000.0	-21.6264977699	177.755025425	3.92860223996	75.8579982361	-60.3159501178	66.4855145091	-22.1749217973	-48.7082058469
162562500.0	-21.7109198557	174.053119863	3.88650466772	73.8436074626	-60.0355783789	45.4602503099	-22.1854068248	-47.6180969874
163250000.0	-21.7696667675	170.400683953	3.84400045097	71.8595094541	-60.0515078938	28.3492135324	-22.205851149	-46.4480970054
163937500.0	-21.8488778044	166.712367663	3.80276540359	69.9176155665	-59.9972965698	5.14805692351	-22.22759607	-45.3161817739
164625000.0	-21.9111311804	163.113176037	3.76288814474	67.9941934025	-59.7918352066	-9.50825606722	-22.268129713	-44.167890543
165312500.0	-21.9946763083	159.521592671	3.72012466208	66.1227729844	-59.3149480915	-29.75173442	-22.3092499259	-43.0103155593
166000000.0	-22.0497363879	156.02629996	3.67970263762	64.2663086193	-59.5197381196	-47.702754558	-22.3635471882	-41.8826890586
166687500.0	-22.1329113997	152.44661329	3.63795536595	62.4514239868	-59.4135689935	-63.7037355626	-22.4258952319	-40.7332487397
167375000.0	-22.1918603447	149.011060242	3.59849987218	60.6590478929	-59.8070715064	-78.7821161688	-22.5114007151	-39.6030399085
168062500.0	-22.2572627231	145.493263136	3.55830038281	58.89575829	-59.3901837737	-90.0881510994	-22.5990047146	-38.5404775119
168750000.0	-22.307572219	142.114928468	3.51944547262	57.1751838677	-59.3874506639	-105.925390227	-22.7150963168	-37.5216482353
169437500.0	-22.3619108476	138.647221697	3.4832433559	55.4777629562	-59.1721747358	-128.238998201	-22.8185839424	-36.42037518
170125000.0	-22.399995795	135.264450722	3.44957327427	53.7955924173	-59.1455626209	-141.20809999	-22.9385016718	-35.4442632057
170812500.0	-22.4471606212	131.837983217	3.41504006117	52.148980698	-59.0441073582	-166.072321619	-23.0688775616	-34.4890784778
171500000.0	-22.4895822323	128.484987126	3.38142870288	50.5275739368	-59.1287208774	-179.663802302	-23.2171621902	-33.6050748013
172187500.0	-22.5272793042	125.166260186	3.35089684293	48.9405360374	-58.9233918236	166.799993984	-23.3707417448	-32.7621394031
172875000.0	-22.5740584335	121.821990013	3.32013158691	47.3563730103	-58.6315180707	152.027109724	-23.5312149443	-31.9320775762
173562500.0	-22.5832967176	118.571538249	3.29165058286	45.8115638302	-58.5760350695	134.689622049	-23.7222320311	-31.0564036037
174250000.0	-22.6170443196	115.371148522	3.26537826012	44.2793883923	-58.8239397797	119.575157161	-23.902134273	-30.3171059313
174937500.0	-22.618986068	112.139793222	3.24114311965	42.7663663412	-58.8150122362	102.80859861	-24.1104803786	-29.6863867205
175625000.0	-22.635101886	108.902419384	3.21762046202	41.2634094799	-58.5664054933	85.7250077095	-24.3178371676	-29.0006664435
176312500.0	-22.6355096279	105.710013266	3.19442199535	39.7859168514	-58.262738116	73.0938023918	-24.5404427905	-28.4832435208
177000000.0	-22.6364990227	102.56632412	3.17342259518	38.313969932	-58.2122413876	64.326687302	-24.7822857673	-28.0717304594
177687500.0	-22.6074883481	99.4162619989	3.15410746849	36.8516780819	-57.9167329641	63.464344417	-25.0462212717	-27.650494672
178375000.0	-22.5979187944	96.2529396053	3.13731555403	35.4039281191	-57.8856775517	66.203518154	-25.3181359629	-27.2191185027
179062500.0	-22.5659368954	93.1703449126	3.12078320638	33.9844257798	-57.9802486937	68.4724552402	-25.5952234261	-27.0965795914
179750000.0	-22.5359310434	90.0828360871	3.10631823157	32.5643974288	-58.2360026162	67.0839450393	-25.8625895965	-26.8600640643
180437500.0	-22.4988238101	86.9580242771	3.09383955987	31.1613929799	-58.4492998735	66.8822081173	-26.132786026	-26.8943562787
181125000.0	-22.4505456541	83.8949180173	3.08201853786	29.7601663897	-58.1331694222	68.2792052309	-26.4289846553	-26.8525840569
181812500.0	-22.4035449941	80.8739772286	3.07175031223	28.3744759415	-58.5809092768	65.223480912	-26.7371717511	-26.9359328238
182500000.0	-22.3340465695	77.8940339981	3.06454362158	26.9863975115	-58.4922008719	66.4030463448	-27.0573750996	-27.0286029101
183187500.0	-22.2717523267	74.9321733909	3.05795304092	25.6239054411	-58.3795001084	69.9557688728	-27.3554767204	-27.2847634847
183875000.0	-22.1928648941	72.0755533704	3.05446890017	24.2528061956	-58.4379873159	65.7385540917	-27.6508821971	-27.6777237155
184562500.0	-22.1219734061	69.1711062284	3.05022932679	22.8978315684	-58.1585936728	67.1878718581	-27.9515046039	-28.3187444606
185250000.0	-22.0369500728	66.3514631302	3.04686578181	21.5482380853	-57.986897183	64.282247733	-28.2467566093	-28.8705959019
185937500.0	-21.9658434346	63.5416211424	3.04228599811	20.1959518772	-57.7065326873	67.1347544225	-28.5223405794	-29.5136798584
186625000.0	-21.8847991037	60.8547792057	3.04016710102	18.8523272766	-58.0892535036	66.0132108737	-28.8466844127	-30.4597345676
187312500.0	-21.8139259391	58.0814614392	3.03940700324	17.5201655397	-58.0733359138	63.4690002693	-29.1477770791	-31.2046534552
188000000.0	-21.7241822534	55.5040157602	3.03970308645	16.180437075	-57.97912801	64.8301630735	-29.4100978399	-32.2802317202
188687500.0	-21.6638795176	52.8857973098	3.04035250894	14.8538510175	-57.8404866286	56.8776409019	-29.6718418491	-33.3741045783
189375000.0	-21.5815409584	50.3166063966	3.04023834233	13.5295469397	-58.0210783351	54.7716540717	-29.9521463327	-34.6444527351
190062500.0	-21.5080265277	47.8438106792	3.04272774859	12.2093850955	-57.7793075095	48.0987888858	-30.175704504	-35.860989036
190750000.0	-21.4446928285	45.2589477547	3.04688075433	10.8895577132	-58.2208960914	49.5765126723	-30.4272662635	-37.4302624979
191437500.0	-21.3944194625	42.7287644121	3.049913712	9.58501062726	-58.2600461541	42.0609905359	-30.6202393198	-38.9264032089
192125000.0	-21.3463686068	40.2891280556	3.05304960206	8.28562642843	-58.6157808711	30.7458896726	-30.7868062877	-40.5145762119
192812500.0	-21.3035233183	37.8681092017	3.05747989651	7.00504181525	-58.770786096	11.6796310462	-30.9322602143	-42.2506901896
193500000.0	-21.27293719	35.4248393777	3.06389803357	5.71082797308	-58.8578622966	-2.25438552266	-31.0605791138	-44.0866786549
194187500.0	-21.2544004819	32.9621847511	3.06936596254	4.42917304917	-58.6626959969	-17.4477151942	-31.1346536792	-45.7111730885
194875000.0	-21.2618017193	30.534502394	3.07594133757	3.15499204071	-59.2262110263	-31.8880216763	-31.192929989	-47.6232679274
195562500.0	-21.2530019563	28.0565215488	3.08288526761	1.88660442493	-59.1753936539	-57.1078280923	-31.2204417878	-49.5904577963
196250000.0	-21.2761481106	25.5168822292	3.09068168878	0.609952335418	-59.9172521757	-84.7719539899	-31.2112070589	-51.4391493705
196937500.0	-21.2866202715	23.0336160535	3.09893049022	-0.652663127973	-59.5089067664	-114.309785957	-31.2262063106	-53.0543196586
197625000.0	-21.3208178731	20.5224572956	3.10860160595	-1.91286898025	-59.2244605439	-142.203342182	-31.1761801372	-54.7995140235
198312500.0	-21.3525167804	18.0054861819	3.11800734784	-3.1629455446	-59.076268454	-169.672217556	-31.1014758731	-56.623200008
199000000.0	-21.4073766121	15.4230845573	3.12973942612	-4.42252466187	-59.0529876036	163.247453698	-30.9747558186	-58.3111331193
199687500.0	-21.4471825683	12.7935225189	3.14130157033	-5.66867221581	-59.0906768457	133.548498148	-30.8403447446	-60.1014934442
200375000.0	-21.5103016036	10.1271960963	3.15306559888	-6.92023417569	-59.9061961393	107.443800377	-30.7016169154	-61.847546924
201062500.0	-21.5546393027	7.43140401445	3.16359893528	-8.15833628905	-60.2838897624	93.6137279573	-30.5580587819	-63.6273265689
201750000.0	-21.6164385512	4.72112389193	3.1764352905	-9.3994010604	-60.0875094157	70.7433010091	-30.3667068043	-65.0294033323
202437500.0	-21.6638906007	2.0268611383	3.19019262344	-10.629874295	-60.515470016	58.2257413418	-30.181644187	-66.6135276383
203125000.0	-21.7201145973	-0.71711710991	3.206672009	-11.8734034777	-60.4884301461	46.7483092857	-29.9567889926	-67.8077418935
203812500.0	-21.7572623474	-3.5122818278	3.22101265945	-13.1002052134	-60.2451231926	46.4754627989	-29.7010139892	-69.050632776
204500000.0	-21.8158964194	-6.26468488545	3.23553534611	-14.3398254094	-60.2373601034	43.0803283445	-29.42798797	-70.1738014465
205187500.0	-21.8696744302	-9.08611397599	3.25123636766	-15.5586698446	-60.5473999969	40.8052345893	-29.1919196297	-71.1335330222
205875000.0	-21.8909428973	-11.8351816861	3.26921398301	-16.8000538282	-60.3932514486	38.499562918	-28.9095186295	-71.9290730067
