#Frequency	|S11|	<S11	|S21|	<S21	|S12|	<S12	|S22|	<S22
100000000.0	-19.830768365	138.132826411	-29.1999426409	-121.896367719	-52.8674677393	50.1100008464	-20.2661878575	-33.6241067657
100687500.0	-19.73015772	134.847254081	-28.5511573264	-122.355838787	-58.7645383315	-164.527057059	-20.3352162535	-32.5902031681
101375000.0	-19.6412343165	131.613219126	-28.1560836331	-123.777976694	-59.6241708479	-172.26256829	-20.3438363614	-32.0010123086
102062500.0	-19.5475943891	128.332896403	-27.7947930729	-124.767005179	-61.1157693732	178.23999159	-20.3763099809	-31.1532687151
102750000.0	-19.4693885578	125.106193779	-27.4290980451	-126.121295083	-62.0719115962	132.520650545	-20.4202201583	-30.4286353758
103437500.0	-19.3856073091	122.008778531	-27.0782688188	-127.555324548	-62.4748758605	111.807486747	-20.4717002238	-29.6566084956
104125000.0	-19.3113664462	118.764049579	-26.7455745543	-128.922675967	-61.9484816316	139.731402772	-20.5343364354	-28.7907445549
104812500.0	-19.2434654394	115.638431008	-26.4380759171	-130.298470893	-62.5715108138	151.625168986	-20.6049311233	-28.1216743491
105500000.0	-19.1751993996	112.411147551	-26.1700349238	-131.617381124	-62.4782504254	158.694697604	-20.674498344	-27.6194640093
106187500.0	-19.1102801071	109.173051281	-25.925993282	-132.920304446	-63.1236122563	151.678145291	-20.7623758024	-27.0684030391
106875000.0	-19.0524391281	105.810627457	-25.7143980303	-134.202317796	-62.6525157974	133.008494457	-20.8649301729	-26.6666368092
107562500.0	-19.0099499575	102.383693299	-25.5271506561	-135.450581281	-62.2183951281	115.029422214	-20.9717395024	-26.1806078889
108250000.0	-18.9637550237	98.8326863351	-25.379446265	-136.596897285	-62.4128493213	101.745246701	-21.0850377962	-25.851333534
108937500.0	-18.9155383893	95.3377540062	-25.1789010258	-137.71990413	-62.6105168975	93.1725225802	-21.1782613931	-25.3529202007
109625000.0	-18.8722338173	91.8008293818	-25.017143055	-138.850573268	-62.926105117	72.3450578782	-21.2755292038	-24.9133322492
110312500.0	-18.8243732039	88.1757634096	-24.8605748094	-139.859364574	-62.6904134631	49.9271592253	-21.3748919944	-24.5172331318
111000000.0	-18.7798483293	84.5197336743	-24.7444309336	-140.761470974	-62.9157639005	33.108355975	-21.4778622213	-24.13814298
111687500.0	-18.7361091642	80.7381509943	-24.6471907896	-141.418054392	-62.7840360083	16.4238043767	-21.5894663171	-23.8552455022
112375000.0	-18.701651417	76.9361321296	-24.5829197834	-141.956054462	-62.7404245822	-10.1738737039	-21.7027872414	-23.6055089069
113062500.0	-18.6627249296	73.0145664266	-24.5237300652	-142.168946509	-62.6139127659	-23.4262128913	-21.8187337477	-23.3534363206
113750000.0	-18.6292644354	69.0408845625	-24.4827126056	-141.975384386	-62.301280283	-35.551505158	-21.9472230014	-23.1849441541
114437500.0	-18.5966391616	64.9713631725	-24.4415270721	-141.363715498	-62.24799284	-47.647004836	-22.0782288334	-23.0162168865
115125000.0	-18.5799026522	60.7341493187	-24.3776445993	-140.349837498	-61.8790467575	-63.0775782124	-22.2126397346	-22.9401421602
115812500.0	-18.5448147796	56.3840402656	-24.2750577456	-138.94345316	-61.711119445	-78.1244171709	-22.3532952312	-22.8174109912
116500000.0	-18.5271548903	51.9475107962	-24.1244883437	-137.289684589	-61.6841194645	-102.717182234	-22.4868899618	-22.8455091125
117187500.0	-18.5044516589	47.4292041226	-23.9182837022	-135.484822746	-61.9458062622	-127.886983328	-22.6198746706	-22.8861672302
117875000.0	-18.4993192672	42.7105708837	-23.6536123237	-133.556486243	-62.5621729034	-154.504299574	-22.7692874731	-22.8812003146
118562500.0	-18.4952826619	37.8896284921	-23.3367991615	-131.597356487	-62.357151778	-179.128959479	-22.9056981176	-22.9216099033
119250000.0	-18.5045319734	32.8698126104	-22.953144221	-129.658997914	-62.7557600723	151.826728997	-23.0483826373	-22.945874195
119937500.0	-18.5290834732	27.7974330725	-22.5297131856	-127.819949559	-62.6058418753	123.222293998	-23.1807892468	-22.9788611337
120625000.0	-18.5662929266	22.4973317827	-22.0508187566	-126.048648893	-62.1908056138	93.0890419544	-23.3335308576	-23.121248966
121312500.0	-18.6398995642	17.119354305	-21.5325033087	-124.425222905	-61.7247709299	53.731019566	-23.4634207815	-23.2742901701
122000000.0	-18.7237025578	11.5212304974	-20.9671215882	-122.908811554	-61.972450587	24.2128170577	-23.6139157475	-23.481759205
122687500.0	-18.8576750697	5.95685680074	-20.3630785846	-121.641708258	-61.8470673985	-4.1164665326	-23.7420841885	-23.6978536904
123375000.0	-19.0103517973	0.202489008721	-19.7196413161	-120.537156997	-62.3755169127	-30.6473057794	-23.8727909539	-23.9575878745
124062500.0	-19.2234647631	-5.57930194754	-19.057454387	-119.610767288	-62.1625188006	-56.1778592953	-23.9954424619	-24.2143504042
124750000.0	-19.4946623261	-11.3667008167	-18.3553690453	-118.939681629	-62.2211263096	-84.8152852027	-24.1211550292	-24.5120450475
125437500.0	-19.8213247455	-17.0352900547	-17.6316023031	-118.482625465	-62.1915229444	-110.888548385	-24.2371471588	-24.7640321707
126125000.0	-20.2274514657	-22.4660115526	-16.8638523349	-118.284571176	-62.976880182	-129.108130364	-24.3668312869	-25.1392502732
126812500.0	-20.7044155951	-27.4330610275	-16.0849512647	-118.310325026	-62.8020914583	-135.83423771	-24.4673363735	-25.4704800754
127500000.0	-21.2054309101	-31.5714346031	-15.276213129	-118.64826261	-63.2083648421	-151.744709089	-24.5659089891	-25.8525568329
128187500.0	-21.7114215584	-35.3350764399	-14.4426539055	-119.270339218	-63.1406197197	-166.951543593	-24.6558932875	-26.2078067855
128875000.0	-22.166529857	-38.4906116002	-13.5851125043	-120.254243166	-63.1470084952	-178.369514039	-24.739525911	-26.5368170412
129562500.0	-22.5966589764	-41.3251689787	-12.7097528069	-121.574343254	-62.8302416535	179.699892669	-24.8201901931	-26.9920563343
130250000.0	-22.9621602729	-43.8479504305	-11.8228887958	-123.412696149	-62.7375109143	165.75610175	-24.9089877094	-27.453743967
130937500.0	-23.2869451277	-46.3288678442	-10.938967791	-125.737097832	-62.684482466	164.451179343	-24.9664937651	-27.8403086368
131625000.0	-23.5729772893	-48.5703565782	-10.0558464392	-128.639343652	-62.4301464297	154.903181649	-25.0159726468	-28.3630532045
132312500.0	-23.8250969849	-50.7635852404	-9.21339828701	-132.032041161	-62.4453034772	158.100594242	-25.0590226042	-28.8025216954
133000000.0	-24.0625872834	-52.8059378768	-8.4092805027	-135.963380409	-62.7217139299	162.361201905	-25.0879795108	-29.3452389472
133687500.0	-24.2709890297	-54.9266131531	-7.67418996406	-140.23450746	-62.8196467925	175.296974926	-25.1227889995	-29.8449044265
134375000.0	-24.456992909	-56.919967306	-6.99127235462	-144.833771679	-62.451641198	176.561375418	-25.1455294516	-30.3676875325
135062500.0	-24.6072932272	-58.9180087841	-6.38195712565	-149.596729466	-61.7392961709	178.975030826	-25.1478880581	-30.9354957563
135750000.0	-24.7500312904	-60.8095289076	-5.83249744086	-154.534703282	-61.5667709163	-168.847924692	-25.143347933	-31.5643099835
136437500.0	-24.8703579974	-62.6457261852	-5.34863534246	-159.510560327	-61.2857551179	-161.232301839	-25.1349670892	-32.2415860992
137125000.0	-24.9652035792	-64.4137245386	-4.92053049998	-164.562282812	-61.0034818401	-146.065083101	-25.1254303404	-32.8754105627
137812500.0	-25.0298585191	-66.0332309742	-4.54894691445	-169.561941113	-60.8405418823	-128.616432266	-25.0871134172	-33.4803890276
138500000.0	-25.0706373521	-67.5989516337	-4.2250888319	-174.557083152	-61.0985783317	-103.263526241	-25.0376905189	-34.1764463501
139187500.0	-25.077211595	-68.9752830896	-3.94871809998	-179.455260116	-61.4044331038	-85.2833232954	-24.9734532372	-34.7706625181
139875000.0	-25.0454956421	-70.4247987166	-3.71541195583	175.724301769	-61.3916986093	-58.8738790043	-24.9147752838	-35.290906243
140562500.0	-24.9776564449	-71.6969892445	-3.52050874502	171.029018037	-61.0235989402	-40.9099703716	-24.8603224259	-35.9004309432
141250000.0	-24.8524011081	-73.008267601	-3.35711694037	166.448097708	-61.1545654608	-18.0314954009	-24.780144292	-36.5054207965
141937500.0	-24.6660713768	-74.2457918107	-3.22440678843	162.019566438	-61.0639297131	1.40116024122	-24.6917210778	-37.0695219272
142625000.0	-24.4240502392	-75.6071573683	-3.11541737042	157.702506714	-60.7784955232	30.2272820181	-24.5947954992	-37.6322446021
143312500.0	-24.0943526468	-77.1481058664	-3.03050844904	153.532274863	-60.3931157665	46.014863357	-24.4762057606	-38.1021067531
144000000.0	-23.6986886968	-79.1898144912	-2.96465752222	149.47883472	-60.2614401598	61.5949253828	-24.3763789591	-38.6236002166
144687500.0	-23.2830558725	-81.9800049923	-2.91397144199	145.586928211	-60.1052450815	75.8697614036	-24.2656796143	-39.0424864848
145375000.0	-22.8588381671	-85.1788647807	-2.87871814322	141.811207643	-60.1573783188	83.4999513191	-24.1581416016	-39.49830175
146062500.0	-22.4912341494	-88.8735232124	-2.85629880051	138.165877469	-59.9970574395	98.7808111741	-24.044829307	-39.8118950348
146750000.0	-22.1503169057	-92.8806789121	-2.84315366087	134.616473829	-59.983290972	104.205928892	-23.9276673583	-40.0592354061
147437500.0	-21.884677484	-97.0664075524	-2.8423747908	131.198110805	-60.2674468252	119.953034258	-23.7792195198	-40.2600692901
148125000.0	-21.6582832601	-101.30091896	-2.84457502961	127.872353102	-60.5246565706	129.415179468	-23.6566343819	-40.5017521345
148812500.0	-21.4843371247	-105.717348875	-2.85591195719	124.650379668	-60.4840932008	139.36741823	-23.5157059198	-40.5902393583
149500000.0	-21.3368816089	-110.044281861	-2.8698305643	121.519160386	-60.2958143132	149.4090055	-23.3862180709	-40.6814832104
150187500.0	-21.2245658369	-114.458186138	-2.89219443347	118.490374144	-60.3180810977	148.570460779	-23.2423772709	-40.6171063865
150875000.0	-21.1273749524	-118.678158552	-2.9138685462	115.553525253	-61.3075351444	148.764998778	-23.1082962503	-40.5153726018
151562500.0	-21.0645366164	-123.020125451	-2.94240852787	112.690542076	-61.3033311624	150.032618944	-22.9610874512	-40.368502951
152250000.0	-21.0257113064	-127.169050683	-2.97015251518	109.89574137	-61.2625769026	147.430038725	-22.8328414841	-40.1225020934
152937500.0	-21.0046208348	-131.329268826	-3.00543772957	107.178371871	-61.1108875829	133.200213741	-22.6973968374	-39.8015854184
153625000.0	-20.9940066015	-135.385998323	-3.03664449913	104.528552791	-61.4120384518	117.602965957	-22.5755690827	-39.4206897145
154312500.0	-21.0014201298	-139.478815451	-3.07335794147	101.94924005	-61.3234722591	93.1393773035	-22.4403718002	-39.0152796137
155000000.0	-21.0279421508	-143.479115199	-3.10780349979	99.411009989	-61.2185301984	79.9064008301	-22.3184260806	-38.498988194
155687500.0	-21.0511261165	-147.521438044	-3.14815039584	96.9589854859	-60.9460608456	67.868631047	-22.2125678063	-37.8249864995
156375000.0	-21.1109209786	-151.500449948	-3.1867061424	94.5360216517	-60.5234089126	52.4661555587	-22.097873824	-37.2000944491
157062500.0	-21.1490054252	-155.444299246	-3.22757422987	92.1827293656	-60.5027016089	29.4889577587	-21.9795167854	-36.5188210354
157750000.0	-21.2147935257	-159.369590545	-3.26709926776	89.8643642197	-61.0281998756	13.4520748058	-21.8597706692	-35.8009448813
158437500.0	-21.2615405183	-163.237388794	-3.31036674924	87.5983501733	-61.5048093509	-8.42086599002	-21.7610636582	-35.0205671062
159125000.0	-21.3306157665	-167.1044183	-3.35037526555	85.3749947736	-61.3150344383	-24.7149692905	-21.6702190639	-34.1639240267
159812500.0	-21.3988033829	-170.951331166	-3.39397278285	83.2027073351	-61.4373840149	-52.241711676	-21.5846194175	-33.2247524367
160500000.0	-21.4701463018	-174.757236503	-3.43555777227	81.0705670832	-60.907770766	-67.2148396372	-21.5075558177	-32.3190904539
161187500.0	-21.5353114946	-178.467466985	-3.47885437607	78.9886110094	-61.0545218818	-81.8934642877	-21.433477581	-31.3620481052
161875000.0	-21.6070055766	177.809520812	-3.52217504427	76.9191966053	-61.1286735804	-95.0436325669	-21.3693986291	-30.3496872822
162562500.0	-21.6887975444	174.171178045	-3.56597687937	74.9062399123	-60.8303318984	-108.367307011	-21.3080798049	-29.3254697322
163250000.0	-21.7594302719	170.461674895	-3.6080483782	72.9160255246	-61.3503059328	-123.046759994	-21.2598878207	-28.3225301301
163937500.0	-21.8347157138	166.853625063	-3.6506828622	70.9846177268	-61.2430591727	-136.770813294	-21.209708977	-27.3167597071
164625000.0	-21.900911951	163.191661907	-3.69040231316	69.0620036179	-60.8718849677	-148.71899219	-21.1832277204	-26.2434913349
165312500.0	-21.9761019863	159.671379629	-3.73413480759	67.195468947	-60.6924837996	-154.241908347	-21.1577152737	-25.1607697358
166000000.0	-22.0390928849	156.13190896	-3.7733796388	65.3464022106	-60.9431139233	-151.208581527	-21.1370561566	-24.0996515898
166687500.0	-22.1042882038	152.556069571	-3.81505160434	63.5409909534	-61.3442377402	-161.085734232	-21.1243079333	-23.027127304
167375000.0	-22.1656855618	149.121071614	-3.85407181445	61.7512298814	-60.9072044896	-167.95398495	-21.1306154008	-22.0006835894
168062500.0	-22.2368410272	145.667298345	-3.89405767057	59.9969467968	-59.5387098382	-176.509446195	-21.1322887001	-20.9746431293
168750000.0	-22.2907661416	142.232815187	-3.93279349194	58.2743011762	-59.9501835051	177.657116579	-21.1659282796	-19.9386714145
169437500.0	-22.3502272949	138.807980473	-3.97236770294	56.5824939062	-59.4759668716	-179.354459688	-21.1908407538	-18.9271547861
170125000.0	-22.4001822757	135.429778555	-4.00590534996	54.9038831766	-59.7771031859	-177.451974839	-21.2320287239	-17.9179554421
170812500.0	-22.4571315803	132.060194641	-4.04180290554	53.2659879186	-59.2519709553	-174.943301646	-21.2760314859	-16.8550868471
171500000.0	-22.4994841457	128.793294922	-4.0750869529	51.6465861929	-59.5442987449	-174.10277444	-21.3332208243	-15.8651895126
172187500.0	-22.5412506056	125.357965107	-4.10963674398	50.0659756174	-59.8597003251	-174.293546203	-21.399325414	-14.9921138683
172875000.0	-22.5825739204	122.095308166	-4.13945099168	48.4892842776	-59.937765638	174.931742022	-21.4708440605	-14.1579754305
173562500.0	-22.6024966798	118.738966244	-4.17075676814	46.9470852092	-59.8572312656	174.427433413	-21.5637100524	-13.2803486674
174250000.0	-22.6366799266	115.604282609	-4.19791470125	45.4211539643	-59.9596924111	173.994840816	-21.662370983	-12.3988459373
174937500.0	-22.647996521	112.341769192	-4.22393515137	43.9165144296	-59.4682353391	171.652718604	-21.7650494103	-11.534565349
175625000.0	-22.6617920564	109.165810542	-4.24613021203	42.4291835108	-58.8039199621	170.684246632	-21.8739054898	-10.7563383919
176312500.0	-22.6650574637	105.901394188	-4.27083583741	40.9660643596	-59.2258268299	158.578214737	-21.995598677	-10.0743582556
177000000.0	-22.6588849934	102.745713135	-4.28963632715	39.5154061094	-58.9732606972	146.285556782	-22.1302103121	-9.42680131215
177687500.0	-22.6375506578	99.5247882513	-4.31101385268	38.0755471318	-59.2052532492	127.850160336	-22.2846038815	-8.77866997005
178375000.0	-22.6319315393	96.3484200422	-4.3264201455	36.6427587462	-59.6349987058	103.62300001	-22.4369267027	-8.13091949722
179062500.0	-22.6024023028	93.2393602026	-4.34247436458	35.2355045512	-59.4101763201	88.9346239323	-22.6078389096	-7.6190433989
179750000.0	-22.5732432015	90.1154718456	-4.35476423808	33.8290231408	-59.5883113953	73.9294392917	-22.7805399561	-7.09538372561
180437500.0	-22.5324133683	87.036555762	-4.36951134991	32.4370652889	-59.447918324	61.2255775736	-22.9535954501	-6.6419708768
181125000.0	-22.4875790553	83.9284051896	-4.37924580116	31.0413795347	-59.3751862006	48.3347610548	-23.1374437303	-6.14102444154
181812500.0	-22.4290473687	80.9794247818	-4.39010697702	29.6740244406	-60.527450869	34.7741767145	-23.3267708917	-5.78163206514
182500000.0	-22.3655710991	77.8751460275	-4.3952955213	28.2984114452	-60.5868165465	9.16738453659	-23.5365779752	-5.37943426551
183187500.0	-22.2846357289	74.9863482318	-4.4047840739	26.9565609795	-60.4422825734	-27.9326536858	-23.7404189774	-4.97851082008
183875000.0	-22.2164096698	72.0931713554	-4.40834015052	25.5861377456	-60.0597632269	-55.5850660969	-23.9471776688	-4.76587994019
184562500.0	-22.1380137606	69.1874468625	-4.41337746705	24.2543426462	-60.4401987954	-84.4680801069	-24.1492707837	-4.62591590369
185250000.0	-22.0505296066	66.2733004427	-4.41562998923	22.9001943262	-60.9414413123	-115.566602565	-24.3676047306	-4.5408083227
185937500.0	-21.9717663857	63.5612457533	-4.41984608905	21.5582945388	-60.6545724615	-150.866871588	-24.5735238879	-4.38536905486
186625000.0	-21.9009004173	60.8416520122	-4.41802286264	20.2238865716	-60.9817689845	166.304056287	-24.8028777223	-4.42864294695
187312500.0	-21.8126427321	58.0929507614	-4.41835796948	18.9003663345	-60.9217250172	124.471600098	-25.0133922997	-4.45463584094
188000000.0	-21.7285874948	55.439861549	-4.41759033259	17.5654906691	-61.0757826309	93.1335146989	-25.2250599208	-4.59864212241
188687500.0	-21.6548217083	52.7895442254	-4.41819124152	16.2579339327	-61.552593371	63.2676125783	-25.444801046	-4.76940294961
189375000.0	-21.5785573622	50.268534146	-4.41517022193	14.93475544	-61.3877646592	20.9659818809	-25.6694917371	-4.92408261864
190062500.0	-21.5077121382	47.7300994826	-4.41224982326	13.62690248	-61.5686064962	-22.883864713	-25.8726867613	-5.08937151587
190750000.0	-21.4400289194	45.2466102159	-4.40644613591	12.3149771292	-62.3481561671	-66.4656285891	-26.090960929	-5.40914690122
191437500.0	-21.3795641759	42.6950209171	-4.40181472182	11.0193364131	-62.2530688395	-109.348896042	-26.2931877146	-5.90667679093
192125000.0	-21.3269321804	40.3073008866	-4.39785898061	9.71973688503	-62.3150843191	-161.992886433	-26.4862548339	-6.41462752788
192812500.0	-21.2976234111	37.8388873771	-4.39358303589	8.43383626876	-62.3118556723	154.948073777	-26.6844353406	-7.10070341783
193500000.0	-21.2684701658	35.4636613432	-4.38665026225	7.13600511574	-62.9218828417	112.811823175	-26.8624675899	-7.71593991233
194187500.0	-21.2524017847	33.0341786058	-4.38243260938	5.85100697303	-62.9621849143	70.2800956459	-27.0326228019	-8.55161837048
194875000.0	-21.2543699374	30.6539506128	-4.37437313695	4.56753400222	-62.7920690673	35.428601101	-27.1802840026	-9.31982153448
195562500.0	-21.24803845	28.2190442364	-4.3678155356	3.29942275561	-62.2164694895	7.80904153296	-27.3366623254	-10.3894999503
196250000.0	-21.2610984007	25.7602404698	-4.36040949493	2.02493627802	-62.1959211545	-29.1613055643	-27.4558803231	-11.4241784186
196937500.0	-21.2761445443	23.2209213743	-4.35325786651	0.757093828766	-62.0226523802	-58.7644862064	-27.585334576	-12.4457404727
197625000.0	-21.3048400924	20.7263680515	-4.34166683568	-0.497255451276	-62.0056414738	-95.6160244478	-27.6710600792	-13.5456534711
198312500.0	-21.3253536813	18.1879852502	-4.33298495687	-1.74673526279	-62.2593663392	-125.74736683	-27.7591883085	-14.9445416218
199000000.0	-21.3822249579	15.6040499263	-4.32055002173	-2.99857195405	-61.3998808917	-158.516642474	-27.802217911	-16.2640696618
199687500.0	-21.4232227357	13.005287961	-4.31158106635	-4.24100593811	-61.2089556936	170.985262516	-27.8335663908	-17.7091882089
200375000.0	-21.4855040872	10.3720421353	-4.29827146456	-5.50203330853	-61.8283409258	138.143382845	-27.8546164002	-19.2828191166
201062500.0	-21.5339099166	7.70975003922	-4.2883805786	-6.73646502188	-62.1913249738	102.956540175	-27.8741650641	-20.6907056334
201750000.0	-21.5890368433	5.03170116833	-4.27549240409	-7.99166798164	-62.0110717957	70.5041796187	-27.8618454028	-22.1322961033
202437500.0	-21.6449475073	2.39300880729	-4.26429502643	-9.22407818587	-61.7979401505	30.8435453791	-27.8293101966	-23.6265818458
203125000.0	-21.7072247684	-0.341109004135	-4.24787327602	-10.457835423	-61.8932311978	2.5816399814	-27.7677200597	-25.2066800504
203812500.0	-21.7349217991	-3.11246580595	-4.23586795786	-11.687380401	-61.8443350604	-23.0143011936	-27.6883371773	-26.6290485199
204500000.0	-21.7984055587	-5.91976154492	-4.22001836159	-12.920335614	-61.4266391436	-36.377983167	-27.6052928195	-28.0875678752
205187500.0	-21.8406490066	-8.70060517251	-4.20678536853	-14.1324059812	-61.8220444537	-49.5435078895	-27.4936637315	-29.449454348
