#Frequency	|S11|	<S11	|S21|	<S21	|S12|	<S12	|S22|	<S22
100000000.0	-19.9811711359	138.541126228	-16.4352685877	-122.646217596	-58.9437425362	118.861416199	-19.338850381	-63.0931242521
100687500.0	-19.8068741156	135.084565296	-16.0793934324	-123.586021386	-62.0271730227	-9.34396253073	-19.4652826114	-63.1047252961
101375000.0	-19.7052028744	131.679085224	-15.6730032593	-124.712513138	-61.1608750317	-61.9923968607	-19.5623273997	-62.7009196095
102062500.0	-19.612394042	128.515843957	-15.2827499633	-125.962422229	-63.7746510655	-24.1466389737	-19.6835417307	-62.3008041049
102750000.0	-19.5261603742	125.288344711	-14.9231422704	-127.244228097	-63.7695795295	-36.6767153201	-19.8264147737	-61.9694101032
103437500.0	-19.4455948572	122.199992649	-14.5802904425	-128.57749834	-62.9908638633	-40.5667926384	-19.9630379468	-61.6032267733
104125000.0	-19.3652647122	118.980765833	-14.2592906932	-129.897708036	-62.5044451283	-70.1842593925	-20.1259003118	-61.3041233774
104812500.0	-19.2952364654	115.795227135	-13.9619470266	-131.212001927	-62.3114443598	-88.2763051982	-20.2935330759	-61.0404015311
105500000.0	-19.2279289694	112.546760167	-13.6886237495	-132.548584262	-62.1877212975	-99.2516694746	-20.4464960898	-60.8832957547
106187500.0	-19.1597459121	109.26317064	-13.4450273712	-133.876412235	-61.9502943295	-90.1111316875	-20.6283282836	-60.6740615899
106875000.0	-19.1083656522	105.894695496	-13.2311678958	-135.144034692	-62.1872365572	-94.6993457656	-20.8129375444	-60.6442821674
107562500.0	-19.0697165995	102.47457573	-13.048537311	-136.378918096	-62.0357615923	-86.3410347708	-21.008853089	-60.6739348854
108250000.0	-19.0281760039	98.8770579154	-12.9031552078	-137.537877019	-62.1129748061	-62.3347092192	-21.2122603637	-60.7458636142
108937500.0	-18.9710344135	95.3493019135	-12.7037189961	-138.685042349	-62.4094785123	-50.4267321511	-21.3989183784	-60.6440200625
109625000.0	-18.9262781211	91.8484422544	-12.5244005011	-139.77425466	-62.1456509689	-33.5176689855	-21.5818435572	-60.5676214736
110312500.0	-18.8725633282	88.2215927574	-12.3737411196	-140.801402572	-61.7964565223	-9.43242466552	-21.7738425084	-60.5089465567
111000000.0	-18.8367363085	84.5690775693	-12.2477103594	-141.69286779	-61.8988106077	10.4390961595	-21.9694631599	-60.458194038
111687500.0	-18.7894624678	80.7907203754	-12.1556647924	-142.403490331	-61.8465018108	36.2522377577	-22.1655422009	-60.5830939437
112375000.0	-18.7530814398	76.9424534222	-12.0834287589	-142.882403484	-60.8030528505	49.6879241533	-22.3624143761	-60.6677952521
113062500.0	-18.7136750458	73.0289871338	-12.0403357265	-143.073654168	-60.9995109055	53.6154111526	-22.5700629115	-60.7606928621
113750000.0	-18.6856502404	69.0209609828	-12.0043860915	-142.892934822	-61.3354031098	66.7131481307	-22.7765006575	-60.8701684837
114437500.0	-18.6520509751	64.962103811	-11.9651099108	-142.289679928	-60.8204243271	80.7900147651	-22.9919302682	-61.0357322755
115125000.0	-18.62477733	60.6903628986	-11.9005671083	-141.286858262	-60.8942008111	94.776904941	-23.2111121971	-61.2042970097
115812500.0	-18.5913365617	56.3612696792	-11.8004509335	-139.93469752	-60.9384976766	118.334481668	-23.4421967508	-61.3670180547
116500000.0	-18.5738636459	51.8834540816	-11.6482130402	-138.317745992	-61.0216686927	146.032112078	-23.6608137514	-61.4761960037
117187500.0	-18.55298338	47.3586668859	-11.440632619	-136.508646024	-60.9876303278	165.412597568	-23.8799575036	-61.6742083171
117875000.0	-18.5463959324	42.6032623646	-11.1745298225	-134.606816247	-60.9734975119	-168.573528826	-24.117272783	-61.638521282
118562500.0	-18.5474636041	37.8075924936	-10.8549277103	-132.68942865	-60.5449440892	-152.628205814	-24.3459762024	-61.7131497467
119250000.0	-18.5477486215	32.8024745746	-10.479264161	-130.759267633	-61.199704902	-125.173644064	-24.5698435196	-61.5577702798
119937500.0	-18.5775720484	27.7222249141	-10.0540643463	-128.906030887	-61.1722027237	-108.913782342	-24.7774361768	-61.4980520295
120625000.0	-18.6110693956	22.4353635858	-9.57800087846	-127.13701031	-61.1965856074	-95.5419052769	-24.9847145821	-61.3522856753
121312500.0	-18.6861953549	17.0453874915	-9.05953469265	-125.516489611	-60.983292619	-80.5667615519	-25.1817587361	-61.1924197741
122000000.0	-18.7642944043	11.5290023617	-8.49485867329	-124.054486526	-60.9721262912	-56.6225138836	-25.3750108111	-60.8729368466
122687500.0	-18.8896773759	5.91211777919	-7.89514175515	-122.767471512	-60.4407544858	-43.7062839337	-25.5424074132	-60.5661669905
123375000.0	-19.037913601	0.190745134299	-7.25705727077	-121.661124181	-60.4537167007	-41.3434082853	-25.6790220136	-60.1533344419
124062500.0	-19.256405523	-5.62750067099	-6.58937369025	-120.783275731	-60.6384416989	-28.670902119	-25.8039820751	-59.754217044
124750000.0	-19.522552257	-11.358578266	-5.88914847567	-120.1044557	-60.7434441622	-25.7827473454	-25.9131260577	-59.2668998654
125437500.0	-19.8606094169	-17.1390766089	-5.16450848915	-119.660457325	-60.4742744466	-25.1880590738	-25.9940570797	-58.7179112736
126125000.0	-20.2748797173	-22.4926919282	-4.40783914538	-119.452119813	-60.6874363901	-33.223373003	-26.0632378222	-58.2864406461
126812500.0	-20.7430375625	-27.6150095089	-3.62740616235	-119.504886176	-60.6700963038	-36.8694373278	-26.1053359355	-57.8133918702
127500000.0	-21.2491819137	-31.7742605262	-2.82248609403	-119.821514036	-60.6264024266	-48.3193643979	-26.1214968774	-57.4370296022
128187500.0	-21.7441977961	-35.5423075617	-1.99537023176	-120.46324914	-60.1031562967	-51.3762558726	-26.1196218841	-57.0540416091
128875000.0	-22.1965023077	-38.499888225	-1.13995404844	-121.443279057	-60.1775062041	-62.4621499681	-26.0977086277	-56.5986461503
129562500.0	-22.6114457577	-41.2796726401	-0.271422652031	-122.824342174	-60.2231820673	-60.9942816506	-26.0577195465	-56.2387478958
130250000.0	-22.9767387051	-43.8745047967	0.619301337705	-124.640658698	-59.9231406773	-62.4115568187	-26.0055836835	-55.9433510759
130937500.0	-23.282263288	-46.4164610204	1.50937586025	-127.004384398	-59.6387725662	-70.0584517032	-25.9273243089	-55.6033173107
131625000.0	-23.5694123263	-48.6981307634	2.39010182686	-129.885703992	-59.3420006434	-70.3333757728	-25.8211309641	-55.3627642357
132312500.0	-23.8225903545	-50.9237659728	3.23411067708	-133.312190281	-59.4319282198	-77.0584659695	-25.7074187139	-55.0955560169
133000000.0	-24.0603794512	-53.0298863878	4.03682895597	-137.204644646	-59.2490734642	-87.1097877969	-25.5692044964	-54.9755660911
133687500.0	-24.257052921	-55.1607457061	4.7741876066	-141.504789912	-59.4349648915	-97.6959473852	-25.4287033663	-54.8424776348
134375000.0	-24.4462435533	-57.1533196907	5.45206164922	-146.086814298	-58.9814646333	-101.115646268	-25.2574651225	-54.7523213333
135062500.0	-24.5939120956	-59.1205614473	6.06138766199	-150.876537304	-59.3936493133	-109.562456727	-25.0648898183	-54.85579724
135750000.0	-24.7358825118	-61.0335920436	6.6097160741	-155.783449338	-59.2352756773	-111.436156289	-24.8512553514	-54.9899184306
136437500.0	-24.8526962373	-62.8896312943	7.09221876049	-160.794372181	-58.3381653875	-123.647851319	-24.6508464261	-55.3534800921
137125000.0	-24.9533613925	-64.680390305	7.52093159311	-165.833849145	-57.9396530739	-128.673163119	-24.4412157277	-55.6278767124
137812500.0	-25.0174577639	-66.3037158409	7.89216924719	-170.852339117	-57.9582827065	-137.495922137	-24.2181234442	-56.0047013404
138500000.0	-25.0556769178	-67.8705169603	8.21725785884	-175.832903268	-58.0286258593	-142.925320913	-23.9827474828	-56.4560684538
139187500.0	-25.0623928648	-69.3173140724	8.49063160855	179.262042697	-57.8881230994	-151.75654004	-23.7548491076	-56.9829298157
139875000.0	-25.0250980246	-70.779310794	8.72567987529	174.444855679	-57.7618659377	-157.898333263	-23.5215234328	-57.5513652041
140562500.0	-24.9586238813	-72.1029666153	8.92013639724	169.740895216	-57.51584694	-155.891161434	-23.3189416831	-58.2503084826
141250000.0	-24.8206042331	-73.3689649676	9.08426432255	165.169095775	-57.0313616563	-159.796044666	-23.1015519636	-58.8101686824
141937500.0	-24.6384915528	-74.6441979221	9.21625352443	160.721432173	-56.7486599126	-161.893403192	-22.8901176128	-59.5512352839
142625000.0	-24.3822281702	-75.9307858756	9.32647926885	156.409186569	-56.8689366719	-170.839941632	-22.6888332921	-60.19472671
143312500.0	-24.0487287903	-77.5576889051	9.40887990997	152.224477944	-56.078041235	-173.399336485	-22.4920593422	-60.864193907
144000000.0	-23.6569285981	-79.5032614961	9.47529019121	148.174976467	-56.3859913388	179.966665453	-22.3104637754	-61.4985787426
144687500.0	-23.2404489283	-82.3052284784	9.52383026706	144.271217265	-56.2935482	179.014269252	-22.1351989734	-62.1118692896
145375000.0	-22.8180781677	-85.4796617664	9.56056457733	140.49556509	-56.8604337971	171.728011632	-21.9690351262	-62.6417169194
146062500.0	-22.4583452081	-89.3642688557	9.58153118942	136.838525635	-56.6214664695	168.867416266	-21.8158554164	-63.1677293254
146750000.0	-22.1232382694	-93.4065447393	9.59585759003	133.291767858	-56.5189741618	158.112871955	-21.6761192419	-63.54572974
147437500.0	-21.857849	-97.5554926739	9.59666329777	129.863998227	-56.5631320647	157.270635915	-21.5191132128	-63.9518794841
148125000.0	-21.6443695022	-101.70507974	9.59546597269	126.542926338	-56.5044860372	155.557268778	-21.3887266439	-64.2846768041
148812500.0	-21.4655402372	-106.112663514	9.58320762613	123.318307097	-56.5008648994	151.684432217	-21.260734183	-64.5230138243
149500000.0	-21.3142161659	-110.356007224	9.56995825234	120.194352307	-56.1574111412	148.65608725	-21.1463422375	-64.7255942668
150187500.0	-21.1946659602	-114.761807098	9.54748837099	117.146819678	-56.1579752135	149.761313164	-21.0258847068	-64.7892181425
150875000.0	-21.107870241	-118.932567764	9.52611290732	114.200979931	-55.7974894722	148.407005624	-20.9198046861	-64.8164049147
151562500.0	-21.037975518	-123.289852332	9.49856943319	111.326982504	-55.9405208171	146.443370672	-20.824063117	-64.7786428017
152250000.0	-21.0021865119	-127.419694791	9.47102634807	108.53306576	-55.5176617783	143.619346817	-20.7432255963	-64.6761957658
152937500.0	-20.9685728408	-131.596526242	9.43610171383	105.800992576	-55.7640211816	139.828478839	-20.6637370059	-64.4960416452
153625000.0	-20.9726800777	-135.60044518	9.40523742735	103.144527484	-55.6204161527	140.59882699	-20.5976213746	-64.228695771
154312500.0	-20.9624393576	-139.666831137	9.36789802683	100.548536855	-55.7225688484	135.682494399	-20.5224090909	-63.9379412301
155000000.0	-20.9969974122	-143.69310806	9.33147920466	98.0153380085	-55.7846558578	135.228068179	-20.4725647589	-63.6025900019
155687500.0	-21.0233408404	-147.680510279	9.29164833506	95.5422305478	-55.6363477535	131.839166601	-20.4290534675	-63.2067950457
156375000.0	-21.0790900638	-151.648719096	9.2534298178	93.1209169002	-55.4977367215	129.451909278	-20.3864856808	-62.7686369708
157062500.0	-21.1204312829	-155.528771367	9.21143347159	90.7488447503	-56.1158150968	128.433184303	-20.3563354062	-62.2175413658
157750000.0	-21.1873492606	-159.426872327	9.17133152393	88.4229202186	-56.1744910486	127.654893884	-20.3276129614	-61.6413916433
158437500.0	-21.2404036961	-163.254646927	9.12814676909	86.1443328391	-56.2804157451	121.970267678	-20.3162551491	-61.0500943461
159125000.0	-21.3010297787	-167.123503245	9.08817609933	83.9239900718	-55.9823454791	120.988700245	-20.3140074314	-60.3956807704
159812500.0	-21.3630797512	-170.87055626	9.04587029837	81.7451369268	-55.9698332419	120.390180419	-20.3236367447	-59.7485819001
160500000.0	-21.4318652858	-174.731716873	9.00610935056	79.6187422808	-55.9091417094	117.702294989	-20.3384650365	-59.0984942012
161187500.0	-21.4994503357	-178.399130025	8.9625255548	77.5182185625	-55.6052626735	114.415798014	-20.3548200307	-58.3619167058
161875000.0	-21.5659284735	177.859779568	8.92229701295	75.4626231029	-55.5406750405	112.397027781	-20.39697401	-57.6780943732
162562500.0	-21.648269928	174.20496477	8.87810559527	73.443467877	-55.1271758313	110.399513042	-20.436969504	-56.9468264548
163250000.0	-21.706150073	170.507168132	8.83742952878	71.4581643341	-55.1933825458	109.90390204	-20.4947478514	-56.2258888559
163937500.0	-21.7921446634	166.954322333	8.79286651524	69.5129433696	-55.3154888426	107.427271149	-20.5512380228	-55.4705677331
164625000.0	-21.8462681844	163.315847321	8.75393771343	67.59895813	-55.5147285724	103.186619488	-20.636094491	-54.6838390292
165312500.0	-21.9241788477	159.730758462	8.71019730648	65.7251405155	-55.3830232444	101.636709032	-20.7225129733	-53.9409694778
166000000.0	-21.9838217265	156.245712386	8.67164468908	63.8778394332	-55.6207099026	99.7067762434	-20.8140251997	-53.2121630328
166687500.0	-22.0612802576	152.663729338	8.62952473416	62.0526087162	-55.5361301429	97.7884893511	-20.9165363688	-52.5198352556
167375000.0	-22.1230335922	149.277102838	8.59225888968	60.267963628	-56.0246028702	89.5913514203	-21.0268560331	-51.8557603242
168062500.0	-22.1891951603	145.782775265	8.55239755085	58.5143624642	-56.0199827476	86.8186633152	-21.1499520547	-51.2264589555
168750000.0	-22.2436758948	142.430114327	8.51600461445	56.7948841324	-56.5138816999	82.1338914924	-21.2847405891	-50.6739258457
169437500.0	-22.3007695941	138.952783102	8.47720757128	55.0986524114	-56.528226847	85.7647197944	-21.425130537	-50.0920845178
170125000.0	-22.3535029294	135.661770335	8.44456845297	53.4182790162	-56.5726342681	82.6319675752	-21.5806583995	-49.5675590466
170812500.0	-22.3994776554	132.227415062	8.40886629358	51.7733540111	-56.5080082009	81.6037738168	-21.7510956029	-49.0452413898
171500000.0	-22.4582290317	129.003477608	8.37767389991	50.1556432598	-56.5885957974	81.1353010677	-21.9293027586	-48.586463563
172187500.0	-22.4999677832	125.638783489	8.34688509674	48.5552961257	-56.3647950753	79.8075594232	-22.1058490603	-48.2016430008
172875000.0	-22.5405997096	122.374436035	8.31816160748	46.9771109158	-56.3124606244	78.1671754617	-22.2862770941	-47.818344199
173562500.0	-22.567241524	119.016899682	8.28885063907	45.4262432216	-56.6543749522	76.6156438997	-22.4986542176	-47.5009887094
174250000.0	-22.607993098	115.85363352	8.26532236047	43.8924937442	-56.0797140336	73.6361831661	-22.7041462993	-47.2072913544
174937500.0	-22.6107762172	112.561010955	8.24090216911	42.3820059525	-55.7663573266	71.6427305094	-22.9262080858	-47.0848761936
175625000.0	-22.6346845633	109.346685764	8.22004027485	40.882565345	-55.6839242248	71.2282467895	-23.1533884706	-46.8818946148
176312500.0	-22.6405726409	106.177160415	8.19645360577	39.3945561981	-55.9435198024	69.7141419891	-23.384282428	-46.9446975036
177000000.0	-22.6454134282	102.986836852	8.17740833391	37.9220277506	-55.8939224046	68.2709215972	-23.6374614783	-47.0270890496
177687500.0	-22.6261297631	99.8647256957	8.15682199933	36.4578986271	-56.0898624818	66.3681929926	-23.8941248961	-47.2604135847
178375000.0	-22.6246715855	96.6842225942	8.14193227915	35.0170513584	-56.0653444764	64.7279756655	-24.162263846	-47.4406563367
179062500.0	-22.5990255904	93.6581920724	8.12521928268	33.5811278381	-56.2201590966	57.0723353479	-24.4145984459	-47.8636183448
179750000.0	-22.5733238046	90.5068743244	8.1130284801	32.1517061913	-56.0055567516	57.4803319855	-24.6850773692	-48.1890770981
180437500.0	-22.5428703898	87.473684716	8.09916467533	30.7277824683	-56.4953019921	51.91510367	-24.923705868	-48.7777594035
181125000.0	-22.4935655953	84.2638543643	8.09085225888	29.3186451288	-56.3717756529	52.4658480998	-25.2032315031	-49.2336421238
181812500.0	-22.4560861026	81.2819049865	8.07909217706	27.9154493995	-56.3325200405	49.5609638451	-25.4548310774	-49.9899972467
182500000.0	-22.3912952067	78.274268447	8.07325149913	26.5259956923	-56.3009941977	50.99674274	-25.7422347746	-50.6345252957
183187500.0	-22.3254484857	75.3543918005	8.06421106107	25.1479391618	-56.6074782547	49.2140751062	-26.0095832004	-51.4460442996
183875000.0	-22.2470197432	72.468459533	8.06067278731	23.776445957	-56.482657077	48.380333726	-26.264603567	-52.2323226003
184562500.0	-22.174356581	69.5690000753	8.05408089132	22.4115664547	-56.0791690808	48.273103867	-26.483794129	-53.2561345598
185250000.0	-22.0944030821	66.6803393148	8.05200921602	21.0486924714	-56.3308360946	50.2446168969	-26.7336246061	-54.2346032985
185937500.0	-22.0178420922	63.8879827882	8.04586679692	19.6875924622	-55.8769232413	49.8895727679	-26.9518489833	-55.2313093411
186625000.0	-21.9323816895	61.1644197617	8.04618633562	18.340446176	-55.9801550313	45.3402109249	-27.1843429793	-56.5365670688
187312500.0	-21.8574739838	58.3749240199	8.0430737012	17.0013686089	-55.8752538803	44.5938494014	-27.3886188129	-57.6373013677
188000000.0	-21.7674273622	55.7531893704	8.04482585581	15.6605087691	-56.2383281502	39.4451378455	-27.564402554	-58.906567713
188687500.0	-21.691027332	53.047460259	8.0430780563	14.328721957	-56.157845307	37.917348576	-27.7250149315	-60.1435416185
189375000.0	-21.6087296616	50.4870516682	8.04426746593	13.0043443184	-56.1871620324	31.3665502337	-27.9032195396	-61.5352948703
190062500.0	-21.5421981196	47.9222101691	8.04435251893	11.6879818489	-56.2011397475	29.4408651706	-28.046577208	-62.7702224694
190750000.0	-21.4760560795	45.4473474276	8.04991477957	10.3694323032	-56.0088760721	32.3990849135	-28.1655897597	-64.356701766
191437500.0	-21.4208076916	42.8727424991	8.05082747506	9.06628521971	-55.9646871598	31.7310148976	-28.2748523069	-65.6370244122
192125000.0	-21.3719581467	40.5243825277	8.05493182639	7.76191075341	-56.2370898351	27.8393981674	-28.3569411323	-67.0435017717
192812500.0	-21.3285451252	38.005591488	8.05719539373	6.47283534427	-56.2162042372	26.7861078015	-28.4236145253	-68.5053241194
193500000.0	-21.2961821656	35.6105887021	8.06365441942	5.17915461923	-56.1506976534	23.1038134426	-28.4568092952	-69.991814969
194187500.0	-21.2722283203	33.1431115165	8.06601034231	3.89400055571	-55.9962200725	24.6498097891	-28.4668817484	-71.324862128
194875000.0	-21.2767320639	30.8110577673	8.07429255517	2.61497510114	-56.4308285333	21.6213204129	-28.4492285768	-72.6516033212
195562500.0	-21.2672923064	28.3002017028	8.08060877128	1.33933255615	-56.1881859155	21.3087556436	-28.4171146547	-74.0087109893
196250000.0	-21.2867239464	25.8278410369	8.08808793995	0.070455384873	-56.5006034582	22.9778703353	-28.3648325227	-75.2753323382
196937500.0	-21.2959826857	23.3299780583	8.09474943799	-1.19459494462	-56.6148602587	22.1651348444	-28.311098456	-76.4840623164
197625000.0	-21.3315226892	20.8569513781	8.10511592848	-2.44440664387	-56.3176944322	22.802501939	-28.2410864189	-77.5823448655
198312500.0	-21.3558270724	18.3854236668	8.11332711187	-3.6868597428	-56.0791201083	22.3555759531	-28.1430393598	-78.8325449586
199000000.0	-21.4123672967	15.7998400233	8.12671769161	-4.9365602395	-55.861422595	20.7887941191	-28.0152249672	-79.7998947495
199687500.0	-21.4501145885	13.2022512699	8.13626200416	-6.18378570348	-56.1142107002	19.68625131	-27.8644096916	-80.9719113006
200375000.0	-21.5103254291	10.5619533557	8.14999840529	-7.43556002007	-56.388029422	19.5776882146	-27.7078536569	-81.9065031451
201062500.0	-21.5600165821	7.89514084837	8.15981708489	-8.67347408709	-56.3636000955	18.6557496446	-27.5540445355	-82.9564535098
201750000.0	-21.618131736	5.15141712126	8.17451569783	-9.91209109936	-56.2806406575	18.1697589639	-27.412742656	-83.623341747
202437500.0	-21.6678695635	2.51382518948	8.18665332905	-11.1474838065	-56.1336231958	14.8159722027	-27.2268639403	-84.4526857514
203125000.0	-21.7283428819	-0.255129836441	8.20405092547	-12.3842599024	-55.9356607841	14.1734572668	-27.0400019833	-85.0139169169
203812500.0	-21.7762834623	-2.96560250286	8.21703014733	-13.6180446974	-55.8590850889	10.27935841	-26.8319016416	-85.4738670938
204500000.0	-21.8410297423	-5.75360593621	8.23509751667	-14.8539728704	-55.7584177086	9.02332618032	-26.6333036902	-85.8476348366
205187500.0	-21.8995797335	-8.4951750618	8.24934839591	-16.0723732541	-55.7189567298	6.73729717216	-26.443042872	-86.1746207139
205875000.0	-21.9424913016	-11.2868955536	8.26896665977	-17.2967210251	-55.7513629373	7.12403759208	-26.254774447	-86.3422087804
