#Frequency	|S11|	<S11	|S21|	<S21	|S12|	<S12	|S22|	<S22
100000000.0	-18.7993210351	142.729315728	-36.499009253	-118.298127557	-58.5673347482	140.92110299	-20.0622396748	-30.272652557
100687500.0	-18.6754185875	139.124224703	-35.9125334912	-121.328087946	-60.9256098796	-33.4429461842	-20.1285095597	-29.5052271282
101375000.0	-18.6370042364	135.76456649	-35.5362328211	-123.336148852	-60.9197209712	-19.1128279981	-20.1593844234	-28.6702979853
102062500.0	-18.5931529555	132.529907718	-35.1488098163	-124.696455183	-62.5381204806	-50.6721837553	-20.2024837599	-27.8488581247
102750000.0	-18.5310328251	129.318481205	-34.6774941844	-126.060999548	-63.2962097911	-65.4500626194	-20.2238468561	-27.1123295897
103437500.0	-18.4874676456	126.194291455	-34.3502135769	-127.549938523	-61.9240178725	-98.1417284594	-20.2689122584	-26.3470439358
104125000.0	-18.4509616266	122.932742079	-34.0713305747	-129.042449711	-61.1148791176	-137.906709245	-20.3312351277	-25.6134549415
104812500.0	-18.4143213282	119.753890011	-33.7720351268	-130.547734132	-61.0685274329	170.956201241	-20.4006652641	-24.9456454916
105500000.0	-18.3780658464	116.494255649	-33.498358228	-131.820920381	-60.7993992555	137.818534956	-20.4712716937	-24.3123774017
106187500.0	-18.3545764594	113.146972561	-33.263794532	-133.186301722	-61.0357443364	81.5902642173	-20.5481040914	-23.7404005268
106875000.0	-18.3341025459	109.769813487	-33.0506367995	-134.45696352	-60.9103098691	35.7390124826	-20.6415223255	-23.2980336903
107562500.0	-18.3228913903	106.332581209	-32.8603201026	-135.746235051	-60.9639671904	-27.5744187639	-20.7395830893	-22.7963520572
108250000.0	-18.3156604572	102.693617025	-32.7156684453	-136.884569588	-60.6811814225	-106.345860748	-20.8460704835	-22.4361748177
108937500.0	-18.2974499418	99.1373910093	-32.5074873622	-138.057548598	-61.3835936878	-164.629971935	-20.9284966928	-21.8916398272
109625000.0	-18.2884072967	95.5755835069	-32.3602191234	-139.076163071	-61.6067008505	140.625504083	-21.0103388085	-21.4426404679
110312500.0	-18.2717954558	91.9205949648	-32.2075635604	-140.190389193	-61.5060946448	96.8255109196	-21.1061420457	-20.9677817846
111000000.0	-18.2673911046	88.2076930935	-32.1158946675	-141.019403114	-61.3006967948	41.4224329426	-21.2031226824	-20.5804885747
111687500.0	-18.257922843	84.3718102158	-32.0036089714	-141.740985438	-61.0046744729	-12.5875946433	-21.3106977318	-20.2499997433
112375000.0	-18.2661730972	80.5052169757	-31.945399921	-142.269911688	-60.5225684957	-65.9050791533	-21.4143938591	-19.992734403
113062500.0	-18.2643418649	76.5066296421	-31.9104504284	-142.461140317	-60.5683138302	-107.568192178	-21.5239535092	-19.7375383891
113750000.0	-18.2716937868	72.4509113566	-31.9082667181	-142.239334785	-60.7053919619	-151.982269795	-21.6373424812	-19.5698487409
114437500.0	-18.2854128517	68.2931392638	-31.8839613806	-141.581956648	-60.1508943485	168.634448452	-21.763126902	-19.3449914931
115125000.0	-18.2992087609	63.983926925	-31.8427125888	-140.519732819	-60.2523652948	138.998849091	-21.8881966835	-19.2511313679
115812500.0	-18.3079845537	59.5148947397	-31.7369972669	-139.111258905	-60.3708275517	108.92821541	-22.0218704232	-19.0891247576
116500000.0	-18.3250308952	54.9495458268	-31.5761540057	-137.541439008	-60.2778187184	79.9340120248	-22.1447815644	-19.0756367648
117187500.0	-18.3458592959	50.3070269531	-31.3777837334	-135.588533898	-60.2035583715	63.124242121	-22.2835670016	-19.0615765754
117875000.0	-18.3792925577	45.4607431702	-31.1089236046	-133.641923853	-59.9433769051	44.7540773828	-22.417276913	-18.9859799782
118562500.0	-18.4224447596	40.486941295	-30.7978906343	-131.58697541	-60.0970651053	16.1481100831	-22.5538124899	-18.9683323661
119250000.0	-18.4746214188	35.3329806642	-30.4256111849	-129.676377208	-60.0437900641	-21.1531883926	-22.6818667153	-19.0218102371
119937500.0	-18.5496157192	30.1116636579	-30.0078775242	-127.765818244	-60.2270889145	-61.2639108769	-22.816435141	-19.1030388421
120625000.0	-18.6265904805	24.6621342804	-29.5216377537	-125.955108866	-60.0838578987	-102.096422778	-22.9586942026	-19.2182484738
121312500.0	-18.7394502531	19.1506629649	-29.0078622	-124.225915137	-60.0091903704	-130.308730948	-23.088238928	-19.3915898191
122000000.0	-18.868282641	13.4049163412	-28.4400110719	-122.702178352	-60.0380784095	-165.775242535	-23.2258497817	-19.5058117616
122687500.0	-19.0395620557	7.58071609225	-27.8458413526	-121.336203318	-59.9861699338	167.934419809	-23.3655464983	-19.6909800335
123375000.0	-19.2511442414	1.56923510913	-27.2053334212	-120.199725867	-60.1815296144	152.087405759	-23.4978771018	-19.9001060577
124062500.0	-19.518727688	-4.50096033764	-26.5496117715	-119.155951065	-60.4320505487	137.592860073	-23.6200483708	-20.137478734
124750000.0	-19.8513415096	-10.5307903614	-25.8578387968	-118.514128959	-60.5997912991	125.045625864	-23.7502296662	-20.3657095294
125437500.0	-20.244110603	-16.5037943809	-25.1225198634	-117.918963877	-60.4644257748	123.32013702	-23.8559163432	-20.615842238
126125000.0	-20.7434547622	-22.423208342	-24.3638978466	-117.766854839	-60.1396955545	109.959504176	-23.9882635981	-20.9532516085
126812500.0	-21.3195674353	-27.7833632476	-23.5636467941	-117.700343863	-59.8756720135	95.5734894342	-24.105316418	-21.2038516321
127500000.0	-21.9458192676	-31.8948493839	-22.7508908423	-118.035210208	-60.2508610375	81.2850976888	-24.2133648176	-21.5962775812
128187500.0	-22.5567147541	-35.3843551249	-21.8979942181	-118.588404656	-60.4495173603	67.2233579249	-24.3156400338	-21.9382679943
128875000.0	-23.1054948901	-38.189749201	-21.0427277056	-119.538711841	-61.1894710019	46.8431967595	-24.4047315569	-22.2751954063
129562500.0	-23.5570940802	-40.7058127384	-20.1479039861	-120.81017129	-61.5099643426	31.8230736676	-24.4888972343	-22.6232421578
130250000.0	-23.9647667827	-43.0542702425	-19.249870691	-122.594399609	-61.2534384828	6.28157304344	-24.5911549335	-23.0265793774
130937500.0	-24.3185038118	-45.3683058141	-18.3399548667	-124.886079798	-60.8202787849	-27.1760187477	-24.6643424275	-23.3553436979
131625000.0	-24.6388994746	-47.5311852196	-17.4584602439	-127.845608501	-61.1275599457	-55.4467956632	-24.7393100891	-23.811836318
132312500.0	-24.9190732747	-49.6390481815	-16.586505837	-131.228320057	-61.4413077676	-81.8939007077	-24.7976313563	-24.2515758425
133000000.0	-25.181572805	-51.6756802662	-15.7885942311	-135.155522092	-62.0491515498	-119.572281753	-24.8500349515	-24.7408886594
133687500.0	-25.3963376827	-53.7421768597	-15.0311079408	-139.370326368	-62.4382653561	-150.051374187	-24.8979276762	-25.1974912475
134375000.0	-25.6011415918	-55.6965552037	-14.3528213512	-143.974095723	-62.9807816739	171.080147881	-24.9249315893	-25.6703202103
135062500.0	-25.7608019133	-57.710872018	-13.7350021985	-148.718587998	-63.0606073948	134.009009672	-24.9464754893	-26.3006803587
135750000.0	-25.9020869513	-59.5418887276	-13.1879770669	-153.657677547	-62.8882507408	106.681343433	-24.9522015947	-26.8873684182
136437500.0	-26.0184823603	-61.4140319507	-12.688793367	-158.637155089	-62.912671645	79.2610951051	-24.9642726561	-27.4911311295
137125000.0	-26.1101573988	-63.1939547182	-12.2652548335	-163.689927208	-62.662183928	51.6838000883	-24.9656941408	-28.0710704714
137812500.0	-26.1724267381	-64.8309685936	-11.8883343889	-168.717897337	-62.6285486801	37.7568215339	-24.9508615569	-28.6170572308
138500000.0	-26.1985583671	-66.3340525898	-11.5707375566	-173.72317062	-63.1383875153	13.7095394301	-24.9158519267	-29.2313873671
139187500.0	-26.200686168	-67.7926157699	-11.2932705872	-178.662830402	-63.3143952643	-2.69934143933	-24.8800080793	-29.8493417816
139875000.0	-26.1510367282	-69.1696215795	-11.05928036	176.532094979	-63.3752014594	-21.2277871363	-24.8265419355	-30.3983964463
140562500.0	-26.0518085364	-70.4155185359	-10.8605727783	171.812071873	-63.677240364	-38.8013962268	-24.7813624142	-31.0407183299
141250000.0	-25.8982663176	-71.6022725873	-10.6996366612	167.225493472	-63.1849244063	-49.9524923157	-24.7094690161	-31.6449483734
141937500.0	-25.6798772201	-72.7979335039	-10.56754818	162.757049938	-63.1463519734	-49.5898158019	-24.6386597596	-32.182082218
142625000.0	-25.3911332482	-74.0746772274	-10.4620785523	158.435019342	-63.2281046833	-50.2303866415	-24.5597458063	-32.7524425816
143312500.0	-24.9891568196	-75.3171929172	-10.3807433759	154.246464931	-63.0815826477	-45.9743057078	-24.4634035154	-33.2506297968
144000000.0	-24.5092194161	-77.1921546097	-10.3175887148	150.206550215	-62.9402707478	-31.3306158421	-24.3643843119	-33.776942877
144687500.0	-23.9877230736	-80.2085742314	-10.2728522925	146.295801746	-62.3786607123	-16.0111570883	-24.2601416946	-34.2316928658
145375000.0	-23.4650229173	-83.8559363356	-10.242744849	142.535365975	-62.3947698856	-0.925458430592	-24.1499630867	-34.669261431
146062500.0	-23.0165549572	-88.0777345486	-10.2250342611	138.897091517	-61.6939631066	11.9092582831	-24.0495312367	-34.9955192189
146750000.0	-22.6491307279	-92.6399149167	-10.2170977423	135.36406296	-61.5364211561	25.8316944396	-23.9404571378	-35.3142017637
147437500.0	-22.3457559464	-97.1820982322	-10.2217089422	131.951676506	-61.9998567288	38.9644070004	-23.7973563292	-35.5501949788
148125000.0	-22.0941876364	-101.795742055	-10.232042729	128.648630456	-62.0148606864	48.5864949932	-23.6728712689	-35.8232432798
148812500.0	-21.8738792416	-106.503955123	-10.2508960845	125.452458064	-61.8235324934	47.5438202789	-23.5286426306	-35.976691338
149500000.0	-21.6928558508	-111.100151677	-10.267612438	122.343755777	-61.388352542	34.9214056325	-23.4001177784	-36.0525544398
150187500.0	-21.5423038284	-115.661251988	-10.2942228193	119.354854367	-61.1592616053	33.4735535914	-23.2552471885	-36.068221728
150875000.0	-21.4278602557	-120.079421835	-10.3215076911	116.443035886	-60.8194670304	28.8222270357	-23.1146237221	-36.0004800868
151562500.0	-21.3287691268	-124.632546613	-10.3505060725	113.609522516	-60.4756461197	19.7956434183	-22.9716892907	-35.8773471322
152250000.0	-21.2703119231	-128.946857816	-10.3852159871	110.841118578	-60.8559452849	18.7583083569	-22.8421354468	-35.6084338927
152937500.0	-21.2185379706	-133.327043015	-10.4211370301	108.164764314	-60.7171290974	15.0025131061	-22.6992690781	-35.3627706278
153625000.0	-21.1917539523	-137.515198797	-10.4589570105	105.547420947	-60.7135079439	16.9432862852	-22.5660147432	-34.9943701081
154312500.0	-21.1638764786	-141.72467246	-10.497348121	103.018914279	-60.7204165208	21.0066021323	-22.4242098073	-34.6064527979
155000000.0	-21.1598411261	-145.88375694	-10.5374791949	100.530384758	-60.6192239614	21.9790944156	-22.295832668	-34.1475901604
155687500.0	-21.1617169101	-150.052726064	-10.576468651	98.1254448985	-60.0600688687	21.5234216103	-22.1770762628	-33.5445923132
156375000.0	-21.1816512584	-154.101347433	-10.6179442257	95.7401843483	-60.1007966878	8.81124885283	-22.0543757524	-32.9340025044
157062500.0	-21.1988103116	-158.129134366	-10.659988176	93.4114647924	-59.8676480101	0.714171623841	-21.9273568744	-32.2260419037
157750000.0	-21.2321018013	-162.112936497	-10.7035830667	91.1270091382	-59.6733718449	-8.70839309627	-21.802267115	-31.4760332833
158437500.0	-21.26043304	-166.060510785	-10.7433622192	88.8971549179	-60.026003313	-19.7566043537	-21.6969321316	-30.6786615513
159125000.0	-21.2869671973	-169.942845537	-10.7869088636	86.7161144258	-60.0216032738	-41.4810292235	-21.5968192612	-29.8769701728
159812500.0	-21.3243180039	-173.768297231	-10.8280177036	84.5947423615	-59.7987523479	-67.3372586369	-21.4962343453	-28.9632935677
160500000.0	-21.3647778013	-177.650136958	-10.8722692217	82.510857796	-59.5097315171	-97.5169461723	-21.4054408559	-28.0841453386
161187500.0	-21.4068576727	178.592792547	-10.9157246302	80.4582470199	-60.0181082198	-126.299031931	-21.3208311336	-27.1411962421
161875000.0	-21.4435543771	174.803678315	-10.9598717779	78.4449870103	-60.1356870124	-154.140998607	-21.2521226753	-26.180653732
162562500.0	-21.4997717363	171.101960623	-10.9996887212	76.448204368	-60.0682170853	178.749159393	-21.1830137327	-25.2211902915
163250000.0	-21.5343142847	167.388657488	-11.0416767871	74.4827856106	-60.4033069928	159.310449225	-21.1235727439	-24.2166831795
163937500.0	-21.5713426685	163.860616373	-11.0820366151	72.5802328283	-60.252699322	133.501654641	-21.0650912812	-23.1770662709
164625000.0	-21.5983882913	160.204324693	-11.1243643689	70.7094225142	-59.8873719682	110.004265602	-21.0227308408	-22.1345174362
165312500.0	-21.6320992758	156.730596822	-11.1646409588	68.873429208	-60.4953853616	96.073580548	-20.9867414908	-21.0693909975
166000000.0	-21.663415407	153.254725196	-11.203711364	67.0661516091	-60.3970149975	84.6597051114	-20.9568307902	-20.0350458805
166687500.0	-21.7026356493	149.757067471	-11.2450182406	65.2837892794	-60.6744865549	81.9918964573	-20.9298327676	-18.9566557651
167375000.0	-21.7347599196	146.330849252	-11.2836458996	63.5349054894	-60.2150698681	81.0047154195	-20.9191781464	-17.9246593246
168062500.0	-21.7739933374	142.900716507	-11.3206142546	61.7946681995	-60.1917491878	72.7460603748	-20.9080295061	-16.9056459499
168750000.0	-21.8060701286	139.594769333	-11.3593151657	60.1252372775	-60.4105993061	73.2968016017	-20.9208163432	-15.8955835421
169437500.0	-21.8247592941	136.2832518	-11.3977510078	58.4762340128	-60.4429993827	72.3060936709	-20.9352952803	-14.9257821291
170125000.0	-21.8535560428	133.023223822	-11.4321915306	56.8364116753	-60.8870805837	66.9884292637	-20.9640011239	-13.9269385354
170812500.0	-21.8713775994	129.756171953	-11.4661712361	55.2154493764	-60.7378327056	65.6371006999	-20.9981632392	-12.9235063048
171500000.0	-21.9072478804	126.53120525	-11.4974616693	53.6258971497	-60.9874932274	69.7751442831	-21.050343251	-11.9599133849
172187500.0	-21.9261248194	123.334052133	-11.5280648849	52.0629590523	-60.8625229075	71.9173944066	-21.1086288013	-11.0118240615
172875000.0	-21.9586358325	120.185826149	-11.5557553446	50.5022771601	-60.8563373142	73.731812906	-21.1730431547	-10.1504559712
173562500.0	-21.959890675	117.029096169	-11.5841272958	48.9855005967	-60.7341863887	75.7488397229	-21.2536040221	-9.29557502498
174250000.0	-21.9807244038	114.039073434	-11.6075179495	47.4834900382	-60.7457541015	65.4380168686	-21.3281581368	-8.51300443292
174937500.0	-21.9739266153	110.910940166	-11.6337238691	46.0118200974	-60.4394621233	54.0755366681	-21.4348869524	-7.74228293857
175625000.0	-21.9754745022	107.867529298	-11.6571283506	44.5415816425	-60.1590738772	49.7672153935	-21.5330387789	-6.98496353163
176312500.0	-21.9684086045	104.774910711	-11.6802438863	43.1167125223	-60.3877203479	47.4615605616	-21.6459209111	-6.27827358168
177000000.0	-21.9499266425	101.754583142	-11.698923004	41.6773128942	-60.5467805868	51.2340363398	-21.7706104197	-5.62522291877
177687500.0	-21.9204640207	98.7496359149	-11.7168229911	40.2705030348	-60.6086756579	63.3912462249	-21.9097934134	-4.93138453547
178375000.0	-21.9006510102	95.7986770111	-11.7329915579	38.8526714983	-60.9678934906	64.4968579783	-22.0434340366	-4.27520851519
179062500.0	-21.8686742276	92.8794844642	-11.7449390157	37.475726685	-60.6604150483	66.6587816387	-22.191684721	-3.64052639589
179750000.0	-21.8287779613	89.9586319276	-11.757618883	36.0896434537	-60.531497144	68.798125889	-22.3431117058	-3.0759479823
180437500.0	-21.7946893417	87.0012965579	-11.7693669314	34.7258654702	-60.2552064929	66.9064332315	-22.4951704478	-2.60575012617
181125000.0	-21.7561598841	84.0048424316	-11.7788719277	33.3481591482	-59.9383601621	66.1278032447	-22.6655913216	-2.16042191824
181812500.0	-21.7120889366	81.1517394818	-11.7849915501	31.9931734426	-60.4484320191	66.6815469945	-22.8395517212	-1.77171097113
182500000.0	-21.6544009761	78.2197718097	-11.7926467134	30.6247355567	-59.9468989802	71.5925573741	-23.0207952204	-1.346526717
183187500.0	-21.5945560391	75.4206305954	-11.7962689625	29.2850577317	-59.9811300469	81.6983824894	-23.2105117239	-0.965880507605
183875000.0	-21.5215910018	72.6650439288	-11.7998647397	27.9339020267	-60.041698143	80.8832385139	-23.4070644589	-0.684834024416
184562500.0	-21.4547532981	69.9095582102	-11.7997118876	26.6108333209	-60.4527447248	73.423331411	-23.600883991	-0.472100909789
185250000.0	-21.3698032783	67.1719320348	-11.8036728499	25.3002321156	-60.4770772511	75.6062437432	-23.8156953881	-0.291868338647
185937500.0	-21.2939323585	64.5346078317	-11.8034269363	23.9667556988	-60.2899170151	71.5102965765	-24.0144185529	-0.119597004396
186625000.0	-21.2181933576	61.8988072907	-11.8009813053	22.6527843253	-59.8847592795	73.3968093604	-24.2302440583	0.0623387492183
187312500.0	-21.1458961284	59.3010825071	-11.7956079094	21.3436225677	-59.3937363978	72.4272392842	-24.4199181464	0.16967555856
188000000.0	-21.0685173925	56.7705427298	-11.7936518087	20.036037448	-59.2014923283	73.5471079867	-24.6215670859	0.158922903317
188687500.0	-20.983834287	54.3160816237	-11.7913578945	18.7304250239	-59.3303943467	78.9602009261	-24.8145806577	0.0884753773933
189375000.0	-20.9175712255	51.8164210186	-11.7869627333	17.4279765006	-59.4776517229	78.5942365723	-25.0193772715	0.00904489076738
190062500.0	-20.8408597526	49.3625090441	-11.7812272481	16.1264593287	-59.3133809511	85.0971367949	-25.2065706329	-0.136455474178
190750000.0	-20.7806663335	46.8966004475	-11.7759104873	14.8452035456	-59.3735807249	100.202898024	-25.4162189755	-0.296762221047
191437500.0	-20.7216619684	44.3899582355	-11.7727815059	13.5614539037	-59.8376872968	126.694434063	-25.6150167038	-0.633747293686
192125000.0	-20.681273512	42.0723588036	-11.7671257164	12.2862928634	-59.8305915346	143.797580699	-25.7968036302	-0.949246826229
192812500.0	-20.6377503331	39.660150824	-11.7591487309	11.0128251558	-59.7226758359	160.691733703	-25.9754649508	-1.4071674219
193500000.0	-20.6181695235	37.3334928263	-11.7491640426	9.73116453275	-59.4459393278	173.647001908	-26.1513496575	-1.93757742273
194187500.0	-20.6021284431	34.9797234667	-11.7425476473	8.45673107375	-59.7022132785	-173.172250761	-26.3038412767	-2.59857055616
194875000.0	-20.615366015	32.6435294988	-11.7327200314	7.18415607397	-59.5627949255	-155.551135883	-26.4568854445	-3.28834713555
195562500.0	-20.6098468938	30.192590071	-11.7218625412	5.91587346495	-58.9914570597	-139.823960421	-26.6165249322	-4.09697344868
196250000.0	-20.6388490332	27.7839064241	-11.7112518026	4.64476993983	-59.4475851312	-124.226763745	-26.7569988988	-5.01012231017
196937500.0	-20.6516882599	25.3126329043	-11.7019668494	3.3984681406	-59.6447416972	-110.050357374	-26.8694059018	-5.86776769896
197625000.0	-20.6856936371	22.9388419498	-11.6892184536	2.17382092378	-59.7700566115	-100.994318506	-26.971467963	-6.81744669191
198312500.0	-20.7222969935	20.4754769067	-11.6778642681	0.935469081055	-60.0744664567	-88.7040408809	-27.0568876155	-8.01691756337
199000000.0	-20.7839486021	17.9738982703	-11.661813804	-0.312813249702	-59.4186047515	-73.904855117	-27.1135294235	-9.16317590642
199687500.0	-20.831505387	15.4676038472	-11.6483599736	-1.55004961706	-59.3869239985	-60.4475718818	-27.1880819623	-10.42428604
200375000.0	-20.8941488686	12.9102240772	-11.6338971878	-2.79485866743	-59.4197698385	-53.0270449926	-27.2212955164	-11.7732745228
201062500.0	-20.9537446702	10.2857291879	-11.6223713641	-4.01777631231	-58.9264055109	-43.8801459893	-27.2578333059	-13.2035398674
201750000.0	-21.0169910521	7.64404682436	-11.607999535	-5.25067621535	-58.4942738234	-29.5511117897	-27.2598551857	-14.5208440314
202437500.0	-21.0952840863	4.99655762918	-11.5929063671	-6.46707384639	-58.9801140408	-19.4211388385	-27.2554481606	-15.9291586529
203125000.0	-21.1671417202	2.33048357931	-11.576004967	-7.69671191838	-58.8800181069	-8.91118620626	-27.2146093598	-17.362435401
203812500.0	-21.2262804103	-0.331338417341	-11.5608543899	-8.92065622914	-59.2248272674	1.08462994275	-27.1643835036	-18.8495106046
204500000.0	-21.2916830092	-3.06695541398	-11.5468158296	-10.1525832078	-59.6486788878	13.2592600731	-27.1079265021	-20.2770517491
