#Frequency	|S11|	<S11	|S21|	<S21	|S12|	<S12	|S22|	<S22
100000000.0	-15.6196253174	153.99692757	-28.5960409666	-122.550694886	-59.5076690731	77.4032742894	-20.6074901593	-41.3177078059
100687500.0	-15.5952576776	151.835839444	-27.9928345461	-124.439782473	-61.246105169	74.2163360907	-20.6739695043	-40.7030375954
101375000.0	-15.6077820847	149.430439798	-27.5475815978	-125.93795309	-60.897127555	86.1539120038	-20.6864291498	-40.107514988
102062500.0	-15.6270810722	146.935006512	-27.1239511354	-127.405397807	-60.7674583481	136.07416765	-20.7549050354	-39.3051169875
102750000.0	-15.6441219429	144.358138066	-26.7727344062	-128.797304835	-60.6932443663	-123.868335689	-20.7990138635	-38.7040522602
103437500.0	-15.6474480555	141.758757263	-26.4156366988	-130.2544823	-60.2795254085	-32.0147559232	-20.8613966677	-37.9817830071
104125000.0	-15.6811805754	139.009242476	-26.0904417793	-131.730251477	-60.7127359103	11.7808067311	-20.9355980788	-37.1789228347
104812500.0	-15.714152442	136.255062868	-25.7820591616	-133.171504882	-62.4937309833	52.5072621541	-21.0083568582	-36.594672945
105500000.0	-15.7647638781	133.351605146	-25.5109336896	-134.640432155	-63.3521885277	107.806189375	-21.0958067802	-36.1033316539
106187500.0	-15.8190701601	130.351908232	-25.2569048509	-136.029386185	-63.6202022633	173.469742173	-21.1909097921	-35.6301398434
106875000.0	-15.8752696416	127.184197133	-25.04214474	-137.446325712	-62.9678681272	-117.808450079	-21.297230707	-35.1961352738
107562500.0	-15.9492596912	123.888021309	-24.8652550648	-138.852966583	-62.6288628559	-77.53946971	-21.404488269	-34.7476013659
108250000.0	-16.021693038	120.442488793	-24.7098738972	-140.184032151	-62.9668655663	-56.1387244848	-21.5157241765	-34.4443248824
108937500.0	-16.0803514839	117.212486214	-24.4923485999	-141.517374005	-63.1478726046	-30.8611862488	-21.6093296828	-33.9707014325
109625000.0	-16.1424068199	113.908699041	-24.3136988487	-142.81252708	-63.4657724828	2.82568659234	-21.7021157296	-33.5409033919
110312500.0	-16.2075573644	110.511406276	-24.1602720143	-144.05936857	-63.3401363289	28.9789101322	-21.8068575243	-33.1823688284
111000000.0	-16.2815577669	106.971043732	-24.0321009809	-145.189150884	-63.3388423775	57.5531164405	-21.9115628052	-32.8331399535
111687500.0	-16.353547977	103.349346599	-23.9421776848	-146.228339886	-63.4540667855	96.3861671027	-22.0287755806	-32.5474416434
112375000.0	-16.4347966145	99.6024096075	-23.873693801	-147.130628722	-63.3168581733	128.953022552	-22.1411794739	-32.2960675508
113062500.0	-16.5140477722	95.7271061518	-23.8461273358	-147.798232972	-63.7670860437	158.145276336	-22.2505755429	-32.0280934342
113750000.0	-16.5990207178	91.7467073919	-23.827474738	-148.151820689	-63.5163504954	-174.286833572	-22.3702918896	-31.8570070759
114437500.0	-16.6868543978	87.6724216758	-23.8335946423	-148.160365172	-63.6215567881	-157.336190564	-22.4961492218	-31.630755805
115125000.0	-16.7840513833	83.3940870349	-23.8483431388	-147.678716397	-63.6517816939	-140.387466181	-22.6203565888	-31.4704992554
115812500.0	-16.8774754986	79.0027093878	-23.8464886634	-146.777335922	-63.7629333323	-117.924459694	-22.7422852925	-31.3348720804
116500000.0	-16.9809702156	74.4826389552	-23.8025229027	-145.472467211	-63.8280147915	-85.0562606863	-22.8640050273	-31.3367649465
117187500.0	-17.0786829998	69.8555159342	-23.7113636167	-143.883537601	-63.3407318745	-52.2602265779	-22.9914213653	-31.3157514843
117875000.0	-17.1934536334	65.0265101524	-23.5642799568	-142.11389463	-62.7158006015	-19.9172297745	-23.1276935487	-31.1994904398
118562500.0	-17.3118654477	60.0637601811	-23.3632461958	-140.187125403	-62.5781432842	12.2833447288	-23.254970316	-31.1633260783
119250000.0	-17.4446636958	54.998424232	-23.1052782354	-138.187638153	-62.1968391753	43.4294174551	-23.3689921457	-31.0348504985
119937500.0	-17.5829733427	49.7785728666	-22.7944660263	-136.170685116	-61.9637769812	83.8347299793	-23.4821593164	-30.9386127368
120625000.0	-17.7404907133	44.3659485753	-22.4355565492	-134.242282391	-62.092612947	116.330301744	-23.6113557677	-30.9476938589
121312500.0	-17.9242552617	38.7826306676	-22.0246338745	-132.325037899	-61.8800215936	138.027673696	-23.7222826217	-30.9695542247
122000000.0	-18.1388111873	33.0409135933	-21.5648312402	-130.526985689	-61.9126708598	157.055593749	-23.8449044798	-31.0048152467
122687500.0	-18.3856681472	27.0975701166	-21.0638224273	-128.824262513	-62.1294264245	-172.719648494	-23.9484703423	-31.0941692556
123375000.0	-18.6648252334	21.0360726486	-20.5224344923	-127.275446575	-62.4955232184	-134.502003446	-24.0574663694	-31.1670729225
124062500.0	-18.9985202398	14.66441917	-19.9333069968	-125.839890329	-62.7872493132	-95.2110697846	-24.1691287203	-31.297522574
124750000.0	-19.4133626218	8.15543157268	-19.3256836788	-124.628285974	-62.9454099256	-49.2143221438	-24.2792287584	-31.3216506542
125437500.0	-19.8742363023	1.24139662937	-18.6707372595	-123.549528574	-62.6958871276	-2.87401995998	-24.3735690945	-31.3638434991
126125000.0	-20.4568307045	-5.9839271198	-17.9839087917	-122.727167616	-62.4409796139	55.066708998	-24.4949842635	-31.408887823
126812500.0	-21.1851737444	-13.833441836	-17.2629872889	-122.036190047	-61.8945283479	101.082502883	-24.5992729049	-31.4269067778
127500000.0	-22.1556956684	-23.0378957844	-16.5099798381	-121.672518992	-62.1353795783	155.323630245	-24.6892636148	-31.4933521129
128187500.0	-23.0661055623	-33.8194212088	-15.7220521175	-121.502677601	-62.245602869	-160.152467646	-24.7763117359	-31.5524566728
128875000.0	-23.8521149839	-46.5806981942	-14.9076071727	-121.683917797	-62.1469186693	-127.619110313	-24.8524099198	-31.5999977881
129562500.0	-24.4857740572	-59.9294964106	-14.0635111305	-122.118347758	-62.1961537104	-101.28133431	-24.9312515251	-31.7124503935
130250000.0	-25.087746818	-73.5673257098	-13.1895519555	-122.964644054	-61.9319812564	-82.000618495	-25.013632736	-31.8555722255
130937500.0	-25.5929585707	-87.6600464298	-12.2958278487	-124.248607547	-62.2477684266	-61.991532461	-25.0837515859	-31.8883693255
131625000.0	-26.0616070069	-101.802688893	-11.3885075533	-126.110122025	-61.9411794006	-32.2400288107	-25.1410270956	-32.050017766
132312500.0	-26.4674659061	-116.204159137	-10.4780071199	-128.521651969	-61.9212502268	-14.2939149975	-25.1961020375	-32.1548532326
133000000.0	-26.8609545582	-130.717330144	-9.59275829851	-131.56039533	-61.8611509239	-2.48994866024	-25.2509902192	-32.3442284095
133687500.0	-27.2132977764	-145.414390033	-8.75272941679	-135.07058851	-62.2052307225	11.0807785718	-25.2966144794	-32.4504268932
134375000.0	-27.5441703946	-160.267896828	-7.97060713568	-139.047366756	-62.4124615575	24.6398028725	-25.3240474966	-32.6507105135
135062500.0	-27.856170036	-175.350755688	-7.24973800669	-143.294792925	-61.888888475	38.611226168	-25.3533521892	-32.8842659432
135750000.0	-28.1379937673	169.546142488	-6.59306788167	-147.823110633	-61.6686170579	48.6684864322	-25.3727846522	-33.187727151
136437500.0	-28.386554727	154.242989236	-5.9938378869	-152.531703045	-61.3698332871	53.9997657592	-25.4117385702	-33.5382303861
137125000.0	-28.6237194993	138.848603129	-5.45866761999	-157.350643563	-61.3720644101	56.6500771021	-25.4401969164	-33.9050728834
137812500.0	-28.8107387166	123.502401013	-4.98105799107	-162.21637195	-60.9622140901	57.3354083857	-25.4598739699	-34.1645551795
138500000.0	-28.9536550276	108.102372524	-4.55657329905	-167.136207764	-60.5862455674	65.1305290529	-25.4517957006	-34.5431257348
139187500.0	-29.0483793626	92.714261649	-4.18452273222	-172.046411689	-60.8655300456	76.7412749399	-25.455544422	-34.8600054311
139875000.0	-29.0958547098	77.3288276622	-3.85937656296	-176.912538468	-60.5228987723	76.8833581429	-25.449870099	-35.2528148991
140562500.0	-29.0893652937	61.9966702438	-3.57901627036	178.272175789	-60.4341584043	77.0573314023	-25.4456202613	-35.6570501666
141250000.0	-29.0094186442	46.8286338488	-3.33659649633	173.527503316	-60.1344120473	76.5580806884	-25.416131421	-36.0212742146
141937500.0	-28.8333500412	31.7474229272	-3.1330598945	168.862453274	-60.4143505975	65.9885769632	-25.3817392107	-36.4156271668
142625000.0	-28.5931075683	17.0158428558	-2.96108156757	164.307303348	-60.3401747315	64.4126081863	-25.350722431	-36.7995524235
143312500.0	-28.2115779958	2.62804264102	-2.82367842002	159.864332094	-60.2270088662	51.1704967374	-25.3015968417	-37.1772934853
144000000.0	-27.6726157432	-11.2555637934	-2.71077004525	155.533156195	-60.5119857073	36.1219128065	-25.2518663432	-37.6299270516
144687500.0	-26.8822544395	-23.7787076723	-2.62373929379	151.332505384	-60.0865201283	12.0214163103	-25.2037634415	-37.9499404438
145375000.0	-26.1282003054	-34.6598239632	-2.55855253476	147.259375177	-59.7180580115	-2.49441124936	-25.1448918629	-38.3082762887
146062500.0	-25.4842192751	-43.541361501	-2.51356307707	143.299611406	-59.636888023	-18.4431474754	-25.0894925168	-38.5853327962
146750000.0	-24.9824047791	-51.7485976014	-2.48378305109	139.475083168	-59.7902919316	-33.7508061589	-25.0171046036	-38.804266077
147437500.0	-24.5099047471	-59.5752960558	-2.47119890074	135.783582642	-59.3669090135	-49.5820461798	-24.9341145115	-39.0724841652
148125000.0	-24.1243171559	-66.8775258042	-2.46893052599	132.19803094	-60.0749175281	-70.7936451918	-24.8515417847	-39.3245238788
148812500.0	-23.7626896111	-74.1313238388	-2.47977935522	128.735759965	-60.0968089714	-98.3679980095	-24.7689711902	-39.516098353
149500000.0	-23.453723815	-80.9157237367	-2.49679969209	125.387303211	-59.8914905359	-125.654154587	-24.7002009632	-39.6673833674
150187500.0	-23.154927879	-87.528394819	-2.52388840083	122.156389886	-59.9226958173	-141.38101343	-24.6144623891	-39.7344235433
150875000.0	-22.8802454355	-93.7637871326	-2.55383816342	119.023510977	-59.5597554947	-158.079373286	-24.5330324519	-39.6863051086
151562500.0	-22.6186616685	-99.828716335	-2.58992590922	116.005199348	-59.7412545245	175.684651378	-24.4515969883	-39.6115556736
152250000.0	-22.3646184701	-105.39916781	-2.63062887347	113.061129358	-59.8086546959	146.900812468	-24.3719753433	-39.4696756159
152937500.0	-22.1331558729	-110.81553871	-2.67710726907	110.227365	-60.0435923432	123.124794885	-24.2903562719	-39.243188999
153625000.0	-21.9165725797	-115.838972779	-2.72287381078	107.469064238	-60.0101467984	94.7844605293	-24.2083974431	-38.959471442
154312500.0	-21.7027422854	-120.674928381	-2.77257968838	104.803075834	-59.8767454055	67.3003852124	-24.1059061649	-38.6994785256
155000000.0	-21.5205815334	-125.287601818	-2.8241754814	102.191967568	-60.0354434331	36.6642504117	-24.0047262934	-38.3724962127
155687500.0	-21.3512816202	-129.668880308	-2.87704146558	99.6856225722	-60.641614882	8.70090345445	-23.9373475599	-37.9234604814
156375000.0	-21.2037586106	-133.809353605	-2.93026896558	97.2291468991	-60.4226008946	-30.9193085224	-23.84728162	-37.4294161874
157062500.0	-21.063652784	-137.751626772	-2.98252461012	94.8458605997	-60.6493857254	-60.7261528768	-23.7622485109	-36.8079240221
157750000.0	-20.9428302723	-141.512970657	-3.03687417322	92.5041556804	-60.132796164	-101.511735581	-23.6740282662	-36.1633445873
158437500.0	-20.8338384005	-145.087704847	-3.09140619627	90.2300522889	-60.0182369222	-129.883133869	-23.6012515561	-35.4754427696
159125000.0	-20.7456131356	-148.5147572	-3.14351918039	88.0152022445	-59.4831404252	-157.626634483	-23.5350599872	-34.7488832489
159812500.0	-20.6714887653	-151.763979805	-3.19578744761	85.8490521039	-59.3232519971	176.135784009	-23.4664227281	-33.9885124695
160500000.0	-20.6173834956	-154.978537091	-3.24668836342	83.7303281114	-59.3724663984	162.572602387	-23.4039243141	-33.2678444395
161187500.0	-20.5757054148	-157.998833736	-3.29889850189	81.6592063366	-59.3255567109	150.685599386	-23.3501575316	-32.4079688019
161875000.0	-20.5466845676	-160.921731983	-3.34904065881	79.6303266297	-59.5137923119	151.321625747	-23.3170550079	-31.564267987
162562500.0	-20.5416433325	-163.737459287	-3.39934511219	77.6471814331	-59.7416130862	148.746200332	-23.28256065	-30.7035962684
163250000.0	-20.556605746	-166.536105412	-3.44780607985	75.7051699055	-59.8442138526	148.68276818	-23.2612516451	-29.7630855659
163937500.0	-20.579301063	-169.212163011	-3.49827191777	73.7935200606	-59.7482584579	153.692499336	-23.2405439333	-28.9106353655
164625000.0	-20.6097388003	-171.91806155	-3.54460980612	71.9142794051	-60.619331131	170.109469187	-23.2419914275	-27.9601655837
165312500.0	-20.6568557064	-174.523907787	-3.59293241081	70.0932725883	-60.2837939952	-171.388481027	-23.2415377371	-26.9948705161
166000000.0	-20.7170652266	-176.99550341	-3.63693770977	68.2917930978	-60.5625335786	-156.417565582	-23.2492565638	-26.0750703353
166687500.0	-20.80010832	-179.510687514	-3.68293310288	66.5149642113	-60.5738948236	-139.850608163	-23.2510872705	-25.1005213453
167375000.0	-20.8966951495	178.070604467	-3.72659003007	64.7810000361	-61.206156685	-124.409992596	-23.2897703781	-24.1885187512
168062500.0	-21.0073304071	175.519144926	-3.77205228859	63.0692077033	-61.2706404269	-118.327991368	-23.320350606	-23.3740162899
168750000.0	-21.1420315608	173.093680405	-3.8139656999	61.3872626045	-61.5051346886	-102.340930698	-23.3645221491	-22.4893493891
169437500.0	-21.2809192834	170.528368521	-3.85603141055	59.7420893217	-61.5604530277	-86.2072487843	-23.411091107	-21.6473739296
170125000.0	-21.4301565875	168.051859512	-3.89361224631	58.1039831978	-61.8451193466	-72.6462281904	-23.4674026877	-20.7962663821
170812500.0	-21.5910450434	165.348739608	-3.93367496556	56.5056545475	-62.0414773912	-59.7623557914	-23.5329263793	-19.9797500513
171500000.0	-21.7604362358	162.77767791	-3.96964226288	54.9279402335	-62.6275569739	-46.5229597099	-23.6188349317	-19.2046506715
172187500.0	-21.9449831621	159.95362669	-4.00330382693	53.380419087	-62.7464105247	-28.8455238865	-23.7210640233	-18.4816472298
172875000.0	-22.1370723334	157.126854867	-4.03708563031	51.8385440144	-62.3121500258	-10.8933268806	-23.8020034242	-17.7979171348
173562500.0	-22.323044581	154.085473009	-4.06889072386	50.3321294444	-62.1812763705	8.95450884537	-23.9228355469	-17.1627902458
174250000.0	-22.5192004826	151.06222433	-4.09828012346	48.8340684842	-62.4671417615	26.0222340564	-24.0358630474	-16.5621818631
174937500.0	-22.7143113105	147.790236139	-4.12596134767	47.3710968081	-62.5802548015	42.3183471698	-24.1780264281	-16.0492386614
175625000.0	-22.8972522353	144.426012948	-4.15129750904	45.9049827682	-62.7071935726	46.5387779743	-24.3007536128	-15.4999826967
176312500.0	-23.0720835255	140.816319918	-4.1770751082	44.4775059247	-62.7834402934	60.5490042992	-24.4614385221	-15.0406253905
177000000.0	-23.2322007077	137.095849853	-4.20058272126	43.0556929999	-62.5873664021	65.4843430885	-24.6262042178	-14.6958763689
177687500.0	-23.3778102899	133.312054482	-4.22323496007	41.6490440338	-62.6247084664	67.0331246139	-24.7923256942	-14.2871999787
178375000.0	-23.516556538	129.457205024	-4.24419923432	40.2502401252	-62.2813543272	68.8736080029	-24.9484023751	-13.9607424705
179062500.0	-23.635399234	125.583616061	-4.26366949367	38.8732652076	-62.2761302688	70.088488657	-25.1253577652	-13.8757068169
179750000.0	-23.7186290593	121.462870877	-4.28111686007	37.496577925	-62.2262531425	64.3416408997	-25.3007314338	-13.6977441872
180437500.0	-23.783812655	117.388043012	-4.29826651323	36.1312201393	-62.2787543999	67.7619305793	-25.4830839999	-13.6747716741
181125000.0	-23.8346093109	113.114370279	-4.3131824953	34.7711921168	-62.0812238927	66.687534356	-25.669522045	-13.548359129
181812500.0	-23.8584794666	109.014199763	-4.32633814812	33.4260513712	-61.6463440364	64.6437396361	-25.8504215072	-13.5462132569
182500000.0	-23.8624265071	104.791799186	-4.33783521476	32.0755145572	-60.9553077581	57.1687790172	-26.0518726165	-13.5943330097
183187500.0	-23.8409088092	100.580963092	-4.34897020422	30.7576206679	-60.6490716819	59.6185288361	-26.231901124	-13.5395670979
183875000.0	-23.7899915093	96.3685641073	-4.35741157026	29.4389163914	-60.574162949	62.2575146179	-26.4302641398	-13.7264561939
184562500.0	-23.7218988756	92.1956825503	-4.36671267719	28.1249058449	-60.6783219693	64.213601427	-26.5786998256	-13.8861805545
185250000.0	-23.6317959129	88.072060866	-4.37269207999	26.8186722922	-60.4811399621	65.2531740973	-26.7631523368	-14.0702084331
185937500.0	-23.5109845443	83.9835403059	-4.38203544838	25.5237499401	-60.299605283	66.170504574	-26.936164238	-14.3744250443
186625000.0	-23.3794446568	80.0505316119	-4.38636413574	24.2192626318	-60.0552062212	68.0159964549	-27.1207456993	-14.5823921068
187312500.0	-23.2299777578	76.0078203568	-4.39073648734	22.9345764073	-59.6439635635	71.2803912982	-27.2741661013	-14.9553789027
188000000.0	-23.0596027168	72.2083210991	-4.3914846328	21.6476913024	-59.2763336686	82.3514514799	-27.439349665	-15.4210650951
188687500.0	-22.876697133	68.369360637	-4.39526934264	20.3706038783	-58.8147028194	81.5080448009	-27.5905914647	-15.8934638616
189375000.0	-22.6674373952	64.7963548295	-4.39690790118	19.0923063978	-58.5118232659	78.25589333	-27.7472094373	-16.3562627033
190062500.0	-22.4516966944	61.2563797676	-4.39671467736	17.8199965298	-59.5023424299	64.5020070308	-27.9043099842	-16.7833959495
190750000.0	-22.2340096485	57.9425695508	-4.39402418408	16.5623553141	-59.9235939814	49.264468934	-28.0521673573	-17.2057398995
191437500.0	-22.0066527192	54.6705066351	-4.39449257067	15.3148519156	-60.4380293263	31.6390470974	-28.1719951499	-17.8461132461
192125000.0	-21.7745259218	51.6994645148	-4.39299024906	14.0717384946	-60.6764261913	15.5799493526	-28.2780699334	-18.3878712706
192812500.0	-21.5455199894	48.7369256202	-4.39210956325	12.8439091743	-60.462591932	-1.86805132948	-28.409131166	-19.0448633336
193500000.0	-21.3249604214	46.1265230673	-4.38946284347	11.5976951616	-60.3148320412	-30.7908951644	-28.4986903858	-19.7210591249
194187500.0	-21.1099903862	43.5514940109	-4.38821531599	10.3589528047	-60.3907740359	-64.0739789654	-28.5697847631	-20.3216670726
194875000.0	-20.9099753213	41.1694290064	-4.38302174397	9.12353331932	-60.8562031296	-107.069518225	-28.650565546	-21.127494833
195562500.0	-20.7098372236	38.7865647979	-4.37805561609	7.89818894685	-60.9824112074	-149.668777896	-28.731515909	-21.9124592607
196250000.0	-20.5299986238	36.5134522658	-4.37253401621	6.67741676351	-61.0058231217	166.322234411	-28.7671714361	-22.7160584503
196937500.0	-20.369639642	34.3958838025	-4.36804675533	5.4614300427	-61.1707421187	122.366279383	-28.8078764864	-23.3649166684
197625000.0	-20.2291985078	32.3095548343	-4.3600430379	4.25622903551	-61.0765205197	70.0364308417	-28.8043710563	-24.1457603145
198312500.0	-20.0954022859	30.3513836958	-4.35230266551	3.0601376909	-60.9557506488	29.3567516812	-28.8161191463	-25.0236765552
199000000.0	-19.9876070235	28.3611444301	-4.34507598439	1.85818475771	-60.7503004957	-10.1068309818	-28.7967804821	-26.0219608128
199687500.0	-19.8796109445	26.3659356853	-4.33626254844	0.66994801799	-61.0868659196	-47.7383412507	-28.775528877	-26.8271474834
200375000.0	-19.7972802134	24.4357280101	-4.32817751565	-0.536313282146	-61.1051774047	-91.339695959	-28.7608421069	-27.9592867144
201062500.0	-19.7268628205	22.5284417033	-4.32102094969	-1.71957985161	-61.2524620481	-135.444176144	-28.7247556562	-28.9120732017
201750000.0	-19.6628721836	20.5467084024	-4.31074125089	-2.91386280476	-60.797606452	168.902964428	-28.681316607	-29.9937356284
202437500.0	-19.6064821416	18.681593012	-4.30039036408	-4.09188155683	-60.8374695463	125.512195985	-28.6246098712	-30.9823103155
203125000.0	-19.5680353921	16.7484079745	-4.28665524892	-5.27832300692	-60.4561378476	76.3181547014	-28.5278296024	-31.8942243452
203812500.0	-19.5255593323	14.7243561399	-4.2751509681	-6.44531870774	-60.7542254694	33.9812306827	-28.4460940737	-32.9756042797
204500000.0	-19.5062532175	12.7560783457	-4.2621005273	-7.62946996656	-60.721146715	-11.2595982449	-28.3456621372	-33.9087664875
205187500.0	-19.491092064	10.7899051466	-4.2498498391	-8.78876462019	-60.8677875291	-64.2907947325	-28.25010475	-34.7400097721
