#Frequency	|S11|	<S11	|S21|	<S21	|S12|	<S12	|S22|	<S22
100000000.0	-16.561648478	134.860235055	-41.2006632518	-120.919373361	-65.1127196372	132.466115104	-21.7175095262	-34.4414917283
100687500.0	-16.50640661	132.371803678	-41.2299923653	-122.381790395	-60.1462659123	4.8970934513	-21.8733949738	-34.3198159193
101375000.0	-16.4014802307	129.31633088	-41.1363777843	-123.875060164	-60.4377320099	-142.094192611	-21.888811924	-34.1812930052
102062500.0	-16.3110511764	126.440577655	-40.8350676213	-125.663088456	-62.1361496793	140.535608676	-21.9224474274	-33.7367214631
102750000.0	-16.2469417207	123.803274872	-40.5453677116	-126.689813826	-62.7168276152	136.242202227	-21.9527923942	-33.3342405316
103437500.0	-16.1949096771	121.241022918	-40.282366173	-128.040465452	-63.4867865403	109.413156369	-21.9846262646	-33.0020641336
104125000.0	-16.1589663371	118.37422116	-39.9992249153	-129.290294079	-63.8661051333	94.9880855323	-22.0354444726	-32.6725137828
104812500.0	-16.1424488218	115.382072517	-39.8007641325	-130.521354236	-64.1695068481	82.0382389722	-22.0749005904	-32.4228392568
105500000.0	-16.1559664978	112.283891304	-39.5840462296	-132.285389264	-64.0570718642	93.2242770599	-22.1183472584	-32.2425666672
106187500.0	-16.1756393768	108.692712802	-39.3471957296	-133.822234501	-64.2640972742	103.666806264	-22.177168619	-32.1638809208
106875000.0	-16.2004796177	105.011911458	-39.1951385584	-135.489000182	-63.5502518259	100.796624952	-22.2270292576	-32.0916109542
107562500.0	-16.2330112884	101.246953771	-39.0841124524	-136.831528132	-63.4493782626	102.32843589	-22.2934988736	-31.9314981382
108250000.0	-16.2652643813	97.3355549898	-39.0433167495	-137.884828187	-63.2464064145	102.348675567	-22.3355660873	-31.9694017313
108937500.0	-16.277879907	93.7444594476	-38.9694411281	-139.103508733	-63.7032588662	77.6007690376	-22.3830654817	-31.8429167382
109625000.0	-16.2931821894	90.0309930218	-38.8862594114	-140.161995786	-63.7868520657	50.4433506355	-22.4237138839	-31.7236863335
110312500.0	-16.3035789278	86.2311390904	-38.8527613419	-140.99588264	-63.8746182058	36.2702186096	-22.4677050435	-31.6664940751
111000000.0	-16.3284576653	82.3511891027	-38.7865549415	-141.768193861	-63.7737293399	21.4152531067	-22.504638319	-31.5812509126
111687500.0	-16.3602470645	78.3496653017	-38.7506681488	-141.935702998	-63.5349833594	16.180976129	-22.5492157346	-31.59860816
112375000.0	-16.4071202692	74.2325694146	-38.7285076871	-141.735469161	-62.9861909238	5.36999111615	-22.5943136495	-31.6341146348
113062500.0	-16.4487078052	70.0310965957	-38.728764441	-141.068673476	-63.0175463306	-8.42981095877	-22.6310148339	-31.6776887339
113750000.0	-16.5081958238	65.7201260443	-38.6958328896	-139.931550372	-63.2283497115	-34.5478229215	-22.6763040687	-31.7317300738
114437500.0	-16.5630916854	61.1639487813	-38.6112688248	-138.663301265	-62.9235811463	-60.2818102751	-22.7197684139	-31.8086483139
115125000.0	-16.6375198882	56.5012850273	-38.4678308576	-137.271180682	-62.7566498592	-86.3811193488	-22.7686761391	-31.8241733819
115812500.0	-16.7062043727	51.6742602651	-38.3071826743	-135.353043125	-62.2858136152	-103.053959281	-22.8043624557	-31.8930418695
116500000.0	-16.7961696604	46.7637566327	-38.0810700241	-133.484550756	-61.8812215913	-130.343815769	-22.8383922494	-31.9727456557
117187500.0	-16.88877488	41.7310757985	-37.7665161208	-131.536302275	-61.8043373986	-158.743393708	-22.8647233623	-32.0382573669
117875000.0	-17.0096493948	36.5559309976	-37.4114001843	-129.654649463	-61.464284959	165.165964548	-22.9039003115	-32.037932434
118562500.0	-17.1394896895	31.2432680245	-36.9814901662	-127.742769693	-61.198997191	131.489388888	-22.9291929303	-32.0322219129
119250000.0	-17.2941718651	25.8064511496	-36.5597010095	-125.681248508	-61.2743361858	86.739375847	-22.9510755504	-31.9915523822
119937500.0	-17.4682770185	20.2788927244	-36.0314766003	-123.955915702	-61.1499802517	34.5624400118	-22.9698900731	-31.9604640761
120625000.0	-17.6796346462	14.7588164205	-35.5181526154	-122.191814249	-60.542142156	-21.0128906019	-22.994966247	-31.9267096586
121312500.0	-17.9428511816	9.14507930615	-34.959121946	-120.824594135	-60.3347573219	-76.6455973908	-22.9970924121	-31.8506166056
122000000.0	-18.2517330386	3.50461936503	-34.3565861708	-119.288626525	-60.2538517817	-133.248745945	-23.0179763477	-31.8060608713
122687500.0	-18.6436514095	-2.19462546195	-33.7087204565	-118.201748846	-60.224091266	-179.588042648	-23.028689254	-31.6818444917
123375000.0	-19.1084978479	-7.81436639415	-33.0451094862	-117.152892856	-60.3883362249	125.463475307	-23.025100008	-31.6022241487
124062500.0	-19.6978429603	-13.1999791046	-32.3247602041	-116.554491175	-60.219230255	66.1431692835	-23.0344671859	-31.4594989068
124750000.0	-20.4287834945	-17.942551879	-31.5662763158	-115.886824988	-60.3280006239	-3.34713543226	-23.0458647949	-31.2308222694
125437500.0	-21.2295143893	-21.4704981733	-30.7950619286	-115.94673305	-60.2511085952	-74.761824169	-23.0538174044	-30.9270103389
126125000.0	-21.9396962418	-23.4579270707	-29.9687908696	-115.912906328	-59.3998322951	-132.500724059	-23.0729680826	-30.6673399795
126812500.0	-22.5362828287	-24.8626177641	-29.1071420213	-116.409635006	-59.5635959182	172.187745584	-23.0822615216	-30.2759354306
127500000.0	-23.0262427123	-25.8455342108	-28.2408569969	-116.903993841	-59.9259450964	104.580141213	-23.0802219265	-29.9759940701
128187500.0	-23.4587566264	-26.748461681	-27.3623374243	-117.940179092	-60.2295561181	41.7552950621	-23.0846326635	-29.5516293707
128875000.0	-23.8255209801	-27.5919284863	-26.4808227319	-119.451789576	-60.2112124608	-24.2844595811	-23.0898478987	-29.0873221244
129562500.0	-24.1391108213	-28.4885030119	-25.5865309455	-121.756874384	-61.0027847405	-92.3716792263	-23.0916011774	-28.5766128225
130250000.0	-24.4266778269	-29.4355022252	-24.6851496702	-124.321642589	-60.8600692723	-150.940582292	-23.1056636873	-28.0868651706
130937500.0	-24.6773306381	-30.3253380187	-23.8178518323	-127.880944587	-61.3134424477	153.986389307	-23.1120037929	-27.5106464549
131625000.0	-24.9100849948	-31.2478458506	-23.0104019295	-131.517907214	-61.2987274529	97.2343260408	-23.1069835191	-26.9944878227
132312500.0	-25.1270612145	-32.1462920087	-22.2523939988	-135.626202436	-61.2434263978	43.1828185474	-23.1112394041	-26.3901745128
133000000.0	-25.3229327846	-33.0668080632	-21.5458571488	-140.012239146	-61.1959600909	-11.2321452995	-23.1187078201	-25.8467779405
133687500.0	-25.5038802611	-33.9911225447	-20.9327975429	-144.763631043	-61.2476576731	-68.0115537532	-23.1267869174	-25.1924997723
134375000.0	-25.6685819737	-34.9008371069	-20.3756987858	-149.53358538	-61.3640521473	-114.536937432	-23.1356809756	-24.6034525935
135062500.0	-25.8051321146	-35.8312841032	-19.8792961994	-154.511495812	-61.9621356763	-156.657447872	-23.1453166368	-24.0952579465
135750000.0	-25.9180336362	-36.6823424639	-19.4388096367	-159.450484966	-62.1922292941	159.998917314	-23.1529760414	-23.5635344994
136437500.0	-26.0017927968	-37.6186658749	-19.0620209407	-164.420606297	-62.2032398196	123.314345605	-23.1712716111	-23.0369335388
137125000.0	-26.0706838158	-38.5350947377	-18.721415233	-169.378558788	-61.812384329	96.633854439	-23.1958445395	-22.4554105407
137812500.0	-26.0810694462	-39.39235801	-18.4408460084	-174.27471013	-62.0262958814	69.851738014	-23.2083880702	-21.8425550053
138500000.0	-26.055389631	-40.1905628096	-18.1829460291	-179.071324813	-62.0916601693	46.3866213472	-23.2259698241	-21.3192181263
139187500.0	-25.9644830811	-41.1066170969	-17.9735974268	176.234216239	-62.4665668126	33.0713453406	-23.2454426509	-20.758326605
139875000.0	-25.7955241883	-42.0315942158	-17.7918769833	171.61692111	-62.4586189753	9.59454493292	-23.2571537888	-20.201284611
140562500.0	-25.547010933	-43.0942650174	-17.6529581754	167.158647533	-62.6380723864	-9.15027394136	-23.2842224474	-19.6877760381
141250000.0	-25.1772077358	-44.4170478478	-17.5332472346	162.798954356	-62.6083048803	-27.3643533874	-23.2949075217	-19.187753451
141937500.0	-24.6605323797	-46.413744456	-17.4465952472	158.614904463	-62.6620978635	-35.9509931314	-23.3195629573	-18.7231381131
142625000.0	-24.078180545	-49.6144183564	-17.3782182223	154.517555458	-62.7465773256	-39.3618976904	-23.3327821993	-18.2514888184
143312500.0	-23.5711592343	-54.3993312194	-17.3352622703	150.562657245	-63.113491404	-52.0968343313	-23.3436566217	-17.846354674
144000000.0	-23.1898213903	-59.7629664653	-17.3069157256	146.681176286	-62.9555410082	-66.2256039309	-23.3653036278	-17.4487030302
144687500.0	-22.9199739517	-65.530631902	-17.2935264397	143.007154707	-62.5677955443	-67.7527706347	-23.3952148781	-17.0785128166
145375000.0	-22.6955344997	-71.3665276855	-17.2908266453	139.394779027	-62.6429297089	-67.6433553944	-23.4215516287	-16.7374174261
146062500.0	-22.5340879913	-77.2173833191	-17.2988261986	135.928318053	-62.9118188469	-66.730409767	-23.4540561543	-16.3598065501
146750000.0	-22.4116256795	-82.9734391546	-17.3197311694	132.583858245	-61.953219341	-52.789531609	-23.479108915	-15.9883120968
147437500.0	-22.3216641371	-88.6271935414	-17.344006891	129.364351539	-61.8676866493	-37.6005509767	-23.4975601597	-15.6847073897
148125000.0	-22.2570362831	-94.245824535	-17.3736717599	126.230084569	-60.9980745032	-13.983544285	-23.5196770117	-15.3556995533
148812500.0	-22.222260252	-99.8347713095	-17.4162190449	123.232848653	-61.0484702464	0.283071757511	-23.5437617014	-15.0576587356
149500000.0	-22.1777166422	-105.321968158	-17.4629512529	120.324939136	-60.9482632524	24.7706415598	-23.5730417339	-14.7786504262
150187500.0	-22.1548182839	-110.716354133	-17.5087017487	117.487166912	-60.6002947835	47.8523396533	-23.5882527666	-14.4578692749
150875000.0	-22.1369604089	-115.972554624	-17.5581137837	114.76287543	-60.3805462357	72.2189502612	-23.6084408283	-14.1157767317
151562500.0	-22.1270615038	-121.235730428	-17.6010110804	112.07887151	-60.3936874973	93.2651332557	-23.6215435973	-13.8492108816
152250000.0	-22.1131614813	-126.310936376	-17.6511227482	109.529736518	-60.0976900694	117.598877291	-23.6433319532	-13.4465772115
152937500.0	-22.1166086605	-131.331629465	-17.7043231061	106.987775075	-59.8987073162	137.513906679	-23.6576150259	-13.0538937726
153625000.0	-22.1229342842	-136.154734949	-17.7504078306	104.565507422	-59.7407224885	152.86240262	-23.6774003457	-12.6094964903
154312500.0	-22.1123556913	-140.896118103	-17.800408197	102.185049838	-59.9077650347	156.561796277	-23.6782731047	-12.2980610454
155000000.0	-22.1260979967	-145.526946361	-17.8482744608	99.8965958459	-60.0584180287	160.889631504	-23.6889510051	-11.9247794887
155687500.0	-22.1130087396	-150.117717375	-17.8988274891	97.6093321344	-60.0593097049	162.535919664	-23.7104819729	-11.4705562134
156375000.0	-22.1239076846	-154.587856979	-17.9503790113	95.3993972543	-60.2569508534	157.011896257	-23.7174389863	-11.0521540828
157062500.0	-22.1220299541	-158.918056706	-18.0092386962	93.2168330509	-60.4639505004	156.552446847	-23.7368870117	-10.5576730737
157750000.0	-22.1370379075	-163.176234505	-18.053334699	91.1031538135	-60.1075998992	150.139331035	-23.7471976338	-10.105657661
158437500.0	-22.1326080859	-167.246249273	-18.1050314624	89.0153063194	-61.0733203455	157.468800597	-23.7677561212	-9.6318243927
159125000.0	-22.1432138711	-171.244789095	-18.1504730811	86.9815093347	-60.8780200383	156.056099015	-23.7853841492	-9.11592682179
159812500.0	-22.145302162	-175.182246747	-18.2013457194	85.0163649079	-60.4738648127	162.820890487	-23.8094943126	-8.62837219183
160500000.0	-22.1644089977	-178.987219966	-18.247430848	83.0817402631	-60.5139840829	169.846648767	-23.8416289756	-8.14693661819
161187500.0	-22.1643198824	177.258746659	-18.2945006935	81.2332383846	-60.4867675261	-176.847322745	-23.8525342299	-7.67483644796
161875000.0	-22.1716884766	173.678165447	-18.3319577441	79.3487726675	-60.322779862	-174.261649232	-23.8754379393	-7.11700835347
162562500.0	-22.1857143749	170.150431419	-18.3817525498	77.5387741941	-60.1950121886	-166.453090161	-23.8964785573	-6.61928819834
163250000.0	-22.1950305644	166.717425079	-18.4214391057	75.7177527025	-60.005560589	-159.186553637	-23.930257496	-6.08382136728
163937500.0	-22.2162667951	163.353252756	-18.4677499739	73.9411334631	-60.0366060556	-158.752637935	-23.9651270326	-5.60008831179
164625000.0	-22.2300446493	160.037684052	-18.5058346053	72.1930019227	-60.4139411649	-169.486130654	-23.9999354491	-5.09839677598
165312500.0	-22.2538516888	156.727547576	-18.5519201896	70.5283310804	-60.5173403368	-179.507109091	-24.0416001659	-4.626964792
166000000.0	-22.2807293812	153.625063371	-18.5850177139	68.8179190673	-60.6159604889	168.901711111	-24.0899731961	-4.1960311878
166687500.0	-22.3242134195	150.414380988	-18.6209007857	67.1838354667	-60.9595810377	146.051572798	-24.1393503108	-3.73093959556
167375000.0	-22.3720878631	147.433943625	-18.65543947	65.5495209347	-61.3791462723	126.687791805	-24.2068020788	-3.26507925575
168062500.0	-22.4151141344	144.347418854	-18.6882700931	63.9764067746	-61.0673836435	105.47427962	-24.2674255191	-2.91792949457
168750000.0	-22.4697541942	141.426031825	-18.7255551746	62.417695257	-61.1258809206	77.0677110511	-24.3469525553	-2.59141989198
169437500.0	-22.5305020367	138.463268608	-18.7629679056	60.8818172649	-60.7520610829	41.0241778609	-24.4143997763	-2.30060099322
170125000.0	-22.5888713013	135.555398767	-18.7922800651	59.3874725917	-61.0552028635	0.398325741987	-24.4867497123	-2.05943803176
170812500.0	-22.6543507264	132.587662531	-18.8260924482	57.882358464	-61.6993198594	-31.9300955604	-24.5748676314	-1.84409140546
171500000.0	-22.7270848836	129.652276495	-18.8599276056	56.3967047855	-61.7923785205	-59.8413054751	-24.6636116448	-1.6932764106
172187500.0	-22.7934948272	126.579501927	-18.8887097098	54.967386078	-61.5465528453	-79.0281591579	-24.7574922135	-1.6432396062
172875000.0	-22.8743266646	123.52212451	-18.916807388	53.5429549136	-61.4406370501	-106.765755769	-24.8392229281	-1.65675310919
173562500.0	-22.9449109913	120.499203838	-18.9404628499	52.1158963247	-61.0314178733	-127.260444971	-24.9416311445	-1.69123148976
174250000.0	-23.0349805153	117.461164403	-18.9586009129	50.7410110235	-61.0683628334	-150.273981363	-25.0257910489	-1.76944580767
174937500.0	-23.0956265723	114.360783122	-18.9774874233	49.3815163467	-61.0899292495	-164.568936251	-25.1218327653	-2.01046866938
175625000.0	-23.1632306442	111.133029345	-19.0036444021	48.018377422	-60.5004152196	169.510284273	-25.2046238241	-2.13596295926
176312500.0	-23.2207274439	107.867282015	-19.0174360581	46.677282023	-60.893928008	155.06865412	-25.2969846932	-2.4191867738
177000000.0	-23.2742262327	104.606407056	-19.0353230122	45.3400556961	-61.3662852548	135.033912469	-25.4031217728	-2.71596041349
177687500.0	-23.3065505857	101.275641416	-19.0484525978	43.9859976723	-60.9767018158	118.256207665	-25.4939082483	-3.01306684991
178375000.0	-23.3553355928	98.0142432958	-19.0621477303	42.6766029336	-60.8823068005	107.162342571	-25.5973447599	-3.29028684235
179062500.0	-23.37944772	94.6487826161	-19.0784359874	41.3374176991	-60.9601120105	105.008328651	-25.6842280359	-3.84755422619
179750000.0	-23.407075303	91.2667511991	-19.0850444123	40.0503600123	-61.2275116493	92.6575038686	-25.7792127319	-4.27168061606
180437500.0	-23.4223660606	87.8062185427	-19.0948426297	38.7325049733	-61.5092994974	72.0994072948	-25.8348649046	-4.86336158775
181125000.0	-23.4259437602	84.3206294858	-19.0955602442	37.4593666072	-62.1790860487	55.4500198895	-25.9094267574	-5.29836109428
181812500.0	-23.4220794802	80.9196437622	-19.1001606662	36.1475674256	-62.2703284362	41.9996335693	-25.9704800901	-5.7514526764
182500000.0	-23.4110490287	77.4821185445	-19.0993066028	34.8862635107	-62.2316065945	29.9402283401	-26.0447866217	-6.2556297016
183187500.0	-23.3680349906	73.9805102592	-19.1053531074	33.629275227	-61.921231316	18.1744825128	-26.0876591651	-6.62446301566
183875000.0	-23.3280955501	70.6371409918	-19.1062916126	32.3368212117	-61.6849726394	17.7864289616	-26.1321736747	-7.21232967209
184562500.0	-23.2695247347	67.1834080818	-19.1124441922	31.0596643365	-61.4506024507	15.0204910339	-26.1525169287	-7.75749556712
185250000.0	-23.2108035427	63.8450254861	-19.1114851869	29.7954189302	-61.7345179636	16.7086519013	-26.1828252672	-8.24030671527
185937500.0	-23.1371683883	60.5172251378	-19.1138712122	28.5324170052	-61.7770442944	31.9082824263	-26.1809875824	-8.60049402354
186625000.0	-23.0658581948	57.2575383036	-19.1061833987	27.266052498	-61.7497418542	46.5180263312	-26.2110621523	-9.01083877708
187312500.0	-22.9852506256	53.9369295963	-19.1024185017	26.0110065808	-61.4800646849	61.6856145434	-26.2145457267	-9.2488242535
188000000.0	-22.8876713278	50.7599568818	-19.091283742	24.7872216381	-61.0576841545	66.2756617266	-26.2041893384	-9.69387316824
188687500.0	-22.7955213696	47.551659477	-19.087779052	23.5448772006	-61.0193732627	66.3916119733	-26.1855086272	-9.90495436086
189375000.0	-22.7061804404	44.5062822652	-19.0755199538	22.2588442215	-61.0259992128	69.0455490682	-26.167917328	-10.1040303835
190062500.0	-22.6239187185	41.516527378	-19.0690916224	21.0511368138	-61.3773107703	71.0021269646	-26.1450680768	-10.153589693
190750000.0	-22.5285369672	38.4996758815	-19.0579720405	19.8203507805	-61.1242502368	73.9628655036	-26.1114850352	-10.1786608282
191437500.0	-22.4359623472	35.5208132161	-19.054910026	18.5803151677	-61.4664412376	85.4744808872	-26.0812494714	-10.1936275253
192125000.0	-22.3562599727	32.6822571818	-19.0469479443	17.3465522702	-61.6974234986	85.1766799133	-26.0361220109	-10.0926197868
192812500.0	-22.2857740128	29.798145283	-19.0329418412	16.1703523083	-62.0761095247	84.7014228695	-26.01076876	-10.0481627881
193500000.0	-22.2180299201	27.0516808862	-19.0289075934	14.9276573474	-61.8471047425	85.2295547033	-25.9541856517	-9.90551670604
194187500.0	-22.1524420368	24.2788941143	-19.0158530201	13.7138091576	-61.5042233649	79.8993329079	-25.8855783568	-9.69775408707
194875000.0	-22.1042625723	21.5942769981	-19.0036751814	12.5010867936	-61.5864975898	79.7007598408	-25.8161322245	-9.47545305599
195562500.0	-22.0419485287	18.8283816543	-18.9933719003	11.287543799	-61.504759683	67.6992972559	-25.7599976442	-9.27129966509
196250000.0	-22.0035784215	16.0725903745	-18.9795560819	10.0832554745	-61.5991427064	55.7948891827	-25.7019639639	-8.83989370883
196937500.0	-21.9583283301	13.3387273147	-18.9659478339	8.86187908368	-61.3030067033	56.0377588122	-25.6328159436	-8.39314722414
197625000.0	-21.9317506132	10.5697494282	-18.9545058373	7.69880226308	-60.8444164554	58.5291439634	-25.5713247777	-7.93205966606
198312500.0	-21.9084181176	7.86914071696	-18.9373500801	6.5128690951	-61.3230851059	63.1502741013	-25.5204587709	-7.61689904956
199000000.0	-21.9066624874	5.06078069369	-18.923390977	5.31059926557	-60.9680720628	63.6518324118	-25.4633471848	-7.25540459462
199687500.0	-21.8793937023	2.30096021592	-18.9092468387	4.09164544023	-61.1642767681	62.2232594745	-25.39947521	-6.78373558809
200375000.0	-21.8788966061	-0.521973147554	-18.8931535601	2.8817793414	-61.4766668334	61.0053151884	-25.3509581801	-6.35638219956
201062500.0	-21.8669361549	-3.3974261931	-18.8749922362	1.71955122274	-61.7174944328	59.2096923635	-25.301909932	-5.8608494738
201750000.0	-21.8697128924	-6.27784545283	-18.858805014	0.562754721893	-62.1767173843	48.6945473038	-25.2551563654	-5.338032762
202437500.0	-21.8553384785	-9.18118703915	-18.8370179918	-0.617791311427	-62.491977829	34.7761310436	-25.2173712895	-4.92848234463
203125000.0	-21.8527645655	-12.128577567	-18.8136694479	-1.76623889145	-62.4507339569	9.73811060331	-25.1846571211	-4.44189117799
203812500.0	-21.8313134549	-15.1358787338	-18.7976399623	-2.96506512992	-62.4464215832	-12.1786647969	-25.1398517132	-4.01743305597
204500000.0	-21.8249720452	-18.0976827394	-18.7811332093	-4.11573651425	-62.5377908969	-26.7518257559	-25.106148338	-3.65856759984
205187500.0	-21.8188231177	-21.131504038	-18.7637187537	-5.28336903882	-62.7588382674	-40.4440070901	-25.0808011421	-3.15936368577
