#Frequency	|S11|	<S11	|S21|	<S21	|S12|	<S12	|S22|	<S22
100000000.0	-15.1477977715	157.595150448	-35.4548239546	-124.177304171	-67.0786395576	-24.8515551648	-20.4076836073	-38.4566918699
100687500.0	-15.1029835869	155.349713178	-35.3322633084	-123.330445765	-67.3906832319	111.849340207	-20.5577937943	-37.5056401295
101375000.0	-15.1068320659	152.862416252	-34.7832866645	-124.895149708	-64.9335919191	-134.076507982	-20.5755256289	-36.914737378
102062500.0	-15.1220592843	150.281288902	-34.406277464	-125.712526217	-63.4664823264	-79.3933128448	-20.6272062918	-36.0900146009
102750000.0	-15.135195808	147.722879904	-34.0222357966	-127.24893861	-61.9374160448	-112.997229934	-20.6833135301	-35.2605386397
103437500.0	-15.1568009721	145.105930751	-33.702725569	-128.524976178	-61.7625771224	-133.279433504	-20.7451135639	-34.5046608354
104125000.0	-15.1964372754	142.366431269	-33.3654468103	-130.040043096	-61.7422628247	-144.022357198	-20.802683366	-33.6294503686
104812500.0	-15.2393283649	139.587168074	-33.0909387836	-131.555112425	-61.1590067292	-155.773101236	-20.8803269692	-33.0732961341
105500000.0	-15.2920865655	136.662362833	-32.8127479894	-132.963269968	-61.1652240909	-167.219951709	-20.9522975336	-32.5551072826
106187500.0	-15.34854018	133.636264931	-32.5549321615	-134.324720556	-60.5048082379	-168.874917426	-21.0387509573	-32.009210131
106875000.0	-15.4174282052	130.484287879	-32.3215301815	-135.762788783	-60.7506300692	-154.043977005	-21.122409782	-31.5513950847
107562500.0	-15.5052313253	127.237502321	-32.1223359058	-137.294550753	-61.2559341218	-136.651483726	-21.2193541842	-31.0272268852
108250000.0	-15.5941802667	123.821850196	-31.9717087647	-138.756519509	-61.2985805674	-110.30650158	-21.3157450572	-30.6839341843
108937500.0	-15.6599491279	120.608650542	-31.7763702484	-140.023767798	-61.5973004268	-95.8377969294	-21.3960283822	-30.185966245
109625000.0	-15.7381632456	117.292011983	-31.5794230864	-141.349361287	-61.2293512224	-81.0546087905	-21.4762808778	-29.703592239
110312500.0	-15.8113088339	113.853670588	-31.4262623024	-142.513926956	-61.0394828933	-71.1484913018	-21.5674323632	-29.2758721324
111000000.0	-15.9022910775	110.325170109	-31.2944269748	-143.585378366	-60.944065877	-69.3738069222	-21.6604350399	-28.8380303942
111687500.0	-15.989140004	106.652728446	-31.2307165816	-144.546166547	-60.9209173353	-67.9683941379	-21.7573191975	-28.4831136511
112375000.0	-16.088359784	102.913065641	-31.1626707714	-145.565458119	-60.8963619261	-78.0008404257	-21.8598756832	-28.224824072
113062500.0	-16.1857139172	99.0117189391	-31.1431155275	-146.330168709	-60.9920112716	-88.5826558888	-21.9671402019	-27.8879061108
113750000.0	-16.2951407892	95.0287329133	-31.1324333659	-146.780964746	-61.063821595	-91.6212187097	-22.06602637	-27.7269682275
114437500.0	-16.4042991204	90.8917687188	-31.1593737226	-146.536277994	-61.8288743849	-93.0459703321	-22.1809700931	-27.5410610454
115125000.0	-16.5229346188	86.601734261	-31.1799916346	-146.130213569	-61.7555701856	-105.556099083	-22.2920593498	-27.3567495139
115812500.0	-16.639458546	82.128118541	-31.1840040006	-145.187854462	-61.536558454	-106.489827167	-22.404926231	-27.1702905747
116500000.0	-16.7681425618	77.5396800405	-31.1394333134	-143.817407867	-61.7187616875	-118.240588253	-22.5209785506	-27.1074453571
117187500.0	-16.8945017142	72.8076887858	-31.0594259127	-142.245148179	-61.6896805637	-122.288067649	-22.6385965388	-27.0634296224
117875000.0	-17.038038044	67.8878349777	-30.89531462	-140.450132094	-61.8646852421	-136.421235127	-22.7475740935	-26.9191763293
118562500.0	-17.1910099913	62.8472472146	-30.6849852376	-138.441877816	-61.9198861305	-149.508831832	-22.8633223533	-26.7882472688
119250000.0	-17.3555589886	57.5843116951	-30.4141765508	-136.499112799	-61.5849324033	-169.099443356	-22.964794845	-26.6242918111
119937500.0	-17.536344152	52.2582377	-30.1130924325	-134.446687675	-61.6266849989	179.469081362	-23.0813961487	-26.5556126747
120625000.0	-17.7300000265	46.6472687667	-29.7565872728	-132.476560446	-62.2489496116	166.189657284	-23.2022247052	-26.5510015999
121312500.0	-17.9545295693	40.8670706402	-29.34024738	-130.610843328	-62.4415422617	164.165622616	-23.2993142675	-26.5965705321
122000000.0	-18.1956592701	34.8576446421	-28.8825540551	-128.776981615	-62.1558261061	152.058974658	-23.4134639969	-26.6176557847
122687500.0	-18.484232584	28.7065379616	-28.3917518488	-127.070425041	-61.8741697801	140.237698626	-23.5177620247	-26.6703668581
123375000.0	-18.8058398576	22.2125983929	-27.8539350208	-125.458625281	-62.0453499124	137.197981166	-23.6222108211	-26.7452268124
124062500.0	-19.1898549213	15.4926248004	-27.2817506045	-123.965598384	-61.8792915649	125.784405105	-23.726745434	-26.7848066291
124750000.0	-19.6426290595	8.33270294243	-26.6690129719	-122.66382395	-61.6393851965	113.147764594	-23.8356554449	-26.822702117
125437500.0	-20.1535851686	0.781741967602	-26.0154134405	-121.523858907	-61.9162563833	101.139834258	-23.9293660563	-26.8006945381
126125000.0	-20.7712250568	-7.38978881455	-25.324248612	-120.61773065	-61.2018430926	89.1671627382	-24.0404009177	-26.8657686895
126812500.0	-21.4463246652	-16.5511915007	-24.6057715618	-119.958497757	-61.1068253123	65.9038289095	-24.1423152859	-26.8861189762
127500000.0	-22.2022458742	-27.0345729458	-23.8452338876	-119.668825055	-61.3472700825	43.8285531116	-24.2332156139	-26.9144811839
128187500.0	-22.9188845907	-38.4649050086	-23.0648062194	-119.562029087	-61.2814352486	22.3389720094	-24.3280673089	-26.9212291073
128875000.0	-23.5609542847	-50.8449149755	-22.2345486263	-119.739881409	-61.3560799587	6.42740607871	-24.4223611355	-26.9660623334
129562500.0	-24.1228865205	-63.6858476441	-21.390666389	-120.041910055	-61.132555863	-7.92222369089	-24.498099075	-26.9912330304
130250000.0	-24.6345259171	-76.9735213387	-20.4978343051	-120.921989665	-61.3520492475	-10.3865752305	-24.5801023687	-27.0879931348
130937500.0	-25.1112387154	-90.5401997007	-19.6051382226	-122.157273379	-61.3310642517	-21.7134106631	-24.657657596	-27.1034583381
131625000.0	-25.5355899658	-104.336899513	-18.6761695063	-124.16112014	-60.9255249314	-34.1064323174	-24.7201609197	-27.2301021269
132312500.0	-25.9331085393	-118.327534519	-17.764577402	-126.513810946	-60.8625029781	-35.0247473378	-24.786972705	-27.2743222633
133000000.0	-26.3138588089	-132.619407121	-16.8538667804	-129.650203986	-61.2391350045	-41.9409448053	-24.8492018005	-27.4202460604
133687500.0	-26.6658986923	-147.022016269	-16.0212236104	-133.140818599	-60.9512473056	-43.5287052134	-24.9025528531	-27.4519211733
134375000.0	-27.007253872	-161.621156431	-15.2242593873	-137.171122447	-60.8449611522	-57.4287491897	-24.9491204654	-27.6371768159
135062500.0	-27.3303215921	-176.513280974	-14.5163121289	-141.395071458	-60.6671501788	-68.2313393311	-24.9914496853	-27.8539125418
135750000.0	-27.6230148655	168.545878849	-13.8516767822	-146.010771693	-60.4296428918	-75.7994496558	-25.0310158147	-28.1185199583
136437500.0	-27.8785668647	153.401608328	-13.2716337951	-150.688858761	-60.6028258015	-78.7184669851	-25.072506269	-28.4489557649
137125000.0	-28.1172337195	138.20967582	-12.7227004844	-155.567514661	-60.5464490941	-92.748136674	-25.1074542347	-28.7149152588
137812500.0	-28.2998645464	122.937224638	-12.2514389858	-160.416696352	-59.8218455763	-104.223342124	-25.1300347182	-28.9775518344
138500000.0	-28.4527961347	107.639015276	-11.8253578009	-165.371733473	-59.7380406266	-128.411032553	-25.150671959	-29.2346440616
139187500.0	-28.5486524673	92.2757604512	-11.4599013319	-170.280810727	-59.9930501476	-152.949007862	-25.1648204691	-29.5146894983
139875000.0	-28.5943991942	76.9323514116	-11.1314271407	-175.180052239	-60.0197270175	178.577844841	-25.1742702946	-29.7619531368
140562500.0	-28.577944597	61.806082702	-10.8525095833	-179.999592477	-59.5080384617	139.505376741	-25.1812033728	-30.0840465326
141250000.0	-28.4802767385	46.7721855447	-10.6106806082	175.229580998	-59.7281624622	109.045842923	-25.1710150026	-30.3986489404
141937500.0	-28.2974555049	32.1243374439	-10.4101437284	170.565054912	-59.8811080619	69.126714561	-25.1547901285	-30.726702431
142625000.0	-28.0255925348	17.7716186163	-10.2403691735	165.974294652	-59.4655274723	40.2912656168	-25.1268755317	-31.0724004027
143312500.0	-27.6347145044	4.06571521467	-10.1058058382	161.510969933	-59.6802452074	10.7479473945	-25.090302555	-31.417875733
144000000.0	-27.1662658302	-8.77217681863	-9.9943387923	157.165933983	-59.6242345651	-15.0677610449	-25.0501639801	-31.7830288084
144687500.0	-26.6121190638	-20.2129066172	-9.9108708723	152.964205724	-59.4651265717	-40.0386867678	-25.0166829738	-32.1674129672
145375000.0	-26.0601685335	-30.7257861309	-9.84835379344	148.881328503	-59.5205823132	-57.7168561343	-24.962505297	-32.5548782337
146062500.0	-25.5764394862	-40.1628264961	-9.80691993341	144.912266408	-59.3296426554	-83.4893111453	-24.9091017731	-32.8040772192
146750000.0	-25.1507369057	-49.1924695816	-9.7826065545	141.074134825	-59.3010523002	-102.688130383	-24.8576591786	-33.0372970013
147437500.0	-24.7722081401	-57.6027453356	-9.77379905556	137.376613096	-58.8759768536	-134.635902951	-24.7870597533	-33.239084256
148125000.0	-24.4078374021	-65.7370385455	-9.77686062503	133.802130788	-59.374879913	-162.495249241	-24.7066464671	-33.4542343047
148812500.0	-24.0965753955	-73.5028455988	-9.79349529001	130.337099412	-59.4633230772	170.261506882	-24.6314963874	-33.5438264629
149500000.0	-23.7868274512	-80.9210636061	-9.81643025035	126.999095581	-59.6077093077	130.32444708	-24.5509097877	-33.7010272797
150187500.0	-23.4986971677	-87.9040498298	-9.84932012086	123.778378086	-59.5544922226	91.0619468513	-24.4689860533	-33.7586228401
150875000.0	-23.2139423731	-94.6642126756	-9.88701595508	120.658509055	-59.5680831517	52.5806710232	-24.3830143639	-33.8318439998
151562500.0	-22.9349356161	-101.122033941	-9.92943837956	117.648240692	-59.3947992305	17.4318216673	-24.2922504475	-33.727393401
152250000.0	-22.6577174749	-107.052450184	-9.97377502068	114.726215205	-59.9349959885	-12.0595829101	-24.2069917339	-33.5867739387
152937500.0	-22.3915047372	-112.796241558	-10.0268582416	111.896292541	-59.9588784034	-33.0606167337	-24.1130745829	-33.3797161894
153625000.0	-22.1527973773	-118.109776108	-10.0757689994	109.17471409	-59.9302385871	-59.0230610169	-24.0315544076	-33.125524254
154312500.0	-21.9061759142	-123.277806373	-10.1328803439	106.527058708	-60.0199854687	-85.7688671239	-23.9314137287	-32.8462593775
155000000.0	-21.7058085792	-128.010254729	-10.185478311	103.943567362	-60.6640954712	-113.378630103	-23.8359178528	-32.522629588
155687500.0	-21.492693104	-132.569576284	-10.2431020939	101.450296298	-60.9244101005	-141.196731202	-23.7512037188	-32.0510463109
156375000.0	-21.3294521838	-136.744282595	-10.2995622958	99.0080575245	-60.8603242088	-159.445089171	-23.6574007919	-31.5709184743
157062500.0	-21.1503078305	-140.765971399	-10.3600832002	96.6569012301	-60.8456321595	175.246594515	-23.5649665872	-31.0454910822
157750000.0	-21.0085668839	-144.592949141	-10.4170149299	94.3541669948	-60.9527236861	162.301717489	-23.4669122509	-30.4447147606
158437500.0	-20.8692794322	-148.250040726	-10.4785971851	92.1150306319	-60.4602289033	140.19771016	-23.3812742952	-29.843826821
159125000.0	-20.7531753174	-151.78061583	-10.5333509128	89.9203132693	-60.0177734787	125.29108174	-23.3095450576	-29.1650162836
159812500.0	-20.6583272261	-155.100031636	-10.5907642627	87.8073300995	-60.1804159929	110.714048834	-23.2398618387	-28.4819896709
160500000.0	-20.5767641242	-158.323851667	-10.641237253	85.7089783174	-60.0716107437	96.0000955415	-23.1764881646	-27.7482711503
161187500.0	-20.5086807558	-161.323330094	-10.697764869	83.6897567121	-59.944355628	78.6010739164	-23.1086995826	-26.9570316631
161875000.0	-20.4584545522	-164.242434788	-10.7498249834	81.6863640945	-60.0634610506	52.3114949751	-23.060395503	-26.1450183996
162562500.0	-20.4442242996	-167.091731877	-10.8061960115	79.7411929266	-59.8176812847	15.7503939607	-23.0047234914	-25.3230307819
163250000.0	-20.4255458219	-169.930166073	-10.8575750305	77.8248951769	-60.1068530195	-11.9897690959	-22.9670989067	-24.4297593646
163937500.0	-20.4354688736	-172.589843164	-10.911148371	75.9674310252	-61.0782845531	-48.4853973122	-22.9258029962	-23.6103086162
164625000.0	-20.4433558012	-175.293855975	-10.9588504639	74.1175317407	-60.9543947283	-72.6264255878	-22.8960451151	-22.7396814179
165312500.0	-20.4839467149	-177.818013015	-11.0109679712	72.3217738714	-60.3472512329	-100.080304063	-22.8848514364	-21.8389508011
166000000.0	-20.5196323873	179.611770902	-11.0554234898	70.5262913193	-59.8682254662	-125.224402925	-22.8796741749	-20.9204829983
166687500.0	-20.5874021873	177.086688307	-11.1034787497	68.7826172696	-59.7143825151	-139.323112355	-22.870080905	-20.003629323
167375000.0	-20.6552900337	174.641869705	-11.1474916938	67.0564039256	-59.235997141	-147.382021901	-22.8725443315	-19.1501924227
168062500.0	-20.751267514	172.233920063	-11.1923926198	65.3940800952	-59.2707731141	-162.09524302	-22.8843550172	-18.3178020713
168750000.0	-20.8559625392	169.785102756	-11.2344902951	63.738015939	-59.3672509078	179.901564802	-22.923529173	-17.4962227056
169437500.0	-20.9747079704	167.288150669	-11.278267558	62.1197001924	-59.2553049718	154.981150284	-22.9553632687	-16.6271749902
170125000.0	-21.100817851	164.805884497	-11.3196423504	60.5119167811	-59.4860949979	118.931406368	-23.0008286682	-15.8490846341
170812500.0	-21.2430559366	162.272067136	-11.3594382035	58.9330793676	-59.474802322	92.5713922036	-23.0447455068	-15.0344604651
171500000.0	-21.3944237979	159.642008661	-11.3973199543	57.386024893	-59.9311784715	64.2522782013	-23.1097493666	-14.3055271404
172187500.0	-21.5420856957	156.851376669	-11.4334752149	55.8547712135	-59.314482179	35.1581740291	-23.1871894242	-13.6242327308
172875000.0	-21.7153843422	154.099945868	-11.4693931402	54.3434735832	-59.3890942468	6.88594086001	-23.2541311498	-12.9897658577
173562500.0	-21.8658546062	151.084462448	-11.5009114057	52.8739082401	-59.7806236397	-20.6609896683	-23.3499529609	-12.3014233492
174250000.0	-22.049291055	148.116337316	-11.5295675897	51.4087949408	-59.7666090925	-48.6653845631	-23.4497016967	-11.7129638419
174937500.0	-22.1985405712	144.912579052	-11.5581690195	49.9640196016	-59.6028799963	-76.2995093301	-23.5621623396	-11.234170867
175625000.0	-22.3611141559	141.693044857	-11.5827247209	48.5348444563	-60.1181855005	-94.6176814116	-23.6689760359	-10.7119336092
176312500.0	-22.510524776	138.323147738	-11.6085874935	47.1392471479	-60.764677049	-121.922948946	-23.7867331468	-10.2388896361
177000000.0	-22.6531308024	134.877415539	-11.631778364	45.7371279759	-60.5173493823	-149.235000458	-23.9212204574	-9.8923141724
177687500.0	-22.7755811503	131.250115125	-11.6552993178	44.3547049525	-60.6504242846	-163.554368957	-24.0629705561	-9.46156174457
178375000.0	-22.8947337702	127.598521102	-11.6761528943	42.9687531481	-61.301929461	-175.471018244	-24.2088403804	-9.08575844892
179062500.0	-22.9813378207	123.845924191	-11.6965819302	41.6134077126	-61.0185444293	-177.500344636	-24.3587514811	-8.83224941634
179750000.0	-23.0440969721	120.039249613	-11.7128642558	40.2611544749	-61.053327527	-179.303648987	-24.5190304336	-8.57486740668
180437500.0	-23.1042723764	116.15936342	-11.7288877332	38.925659483	-61.0874782073	-178.155414494	-24.6712006129	-8.44069453265
181125000.0	-23.1369482203	112.21368065	-11.7423687168	37.5932586008	-60.2739237551	-168.545071	-24.8324871882	-8.2721184228
181812500.0	-23.158056061	108.333882716	-11.7591800906	36.2779032936	-60.5136869085	-167.216981907	-25.019122614	-8.15452850317
182500000.0	-23.1474246912	104.244605048	-11.769699464	34.9544395434	-60.5643618642	-160.77153193	-25.1850436956	-8.03341862834
183187500.0	-23.1202401518	100.258451577	-11.7832450425	33.6899760552	-60.7154349106	-150.044000551	-25.3625641588	-7.97291074009
183875000.0	-23.065761722	96.2834187951	-11.7893473782	32.3957546314	-60.6732071547	-148.23389501	-25.528462634	-8.05008512298
184562500.0	-23.0006893615	92.2967717293	-11.798896811	31.1414405885	-60.8105827652	-146.729284898	-25.69528848	-8.08368172932
185250000.0	-22.899196682	88.2710821812	-11.8031739944	29.8463098357	-60.8972806827	-144.607486588	-25.8572015627	-8.15240894895
185937500.0	-22.792323441	84.4324055605	-11.8116148307	28.5905979847	-60.8526135747	-128.465943736	-26.0140286693	-8.25960397271
186625000.0	-22.6588957039	80.5997652116	-11.8129877605	27.3141181499	-60.7526313949	-100.854016133	-26.1982523935	-8.52201081745
187312500.0	-22.5242530152	76.8042057988	-11.8154974154	26.0673956143	-60.7692524457	-68.1813900309	-26.3509602236	-8.58458332638
188000000.0	-22.348781391	73.048061493	-11.8157549824	24.7897131632	-60.4264390672	-44.6773292131	-26.5066049761	-8.91599036465
188687500.0	-22.1780547711	69.5000278871	-11.8201374951	23.5545774006	-59.8358629373	-21.4560662508	-26.6419638343	-9.11009562386
189375000.0	-21.9895216149	66.0577451269	-11.8201405527	22.3024654477	-60.076805128	-2.61911810671	-26.7963371486	-9.29790596981
190062500.0	-21.7888294204	62.6760982561	-11.8225812471	21.0764245266	-59.7986796023	20.6169813286	-26.9480887558	-9.54915944037
190750000.0	-21.5839037506	59.4919405456	-11.8190950844	19.8351283349	-59.6223086396	38.0430664452	-27.0914882399	-9.9546357453
191437500.0	-21.3609985575	56.419225974	-11.8171182022	18.6148673058	-60.119359585	53.2205240335	-27.2244427896	-10.3821385775
192125000.0	-21.1498742309	53.5553650772	-11.814706843	17.3875042648	-60.0262441686	67.9017443178	-27.3507348443	-10.7815282047
192812500.0	-20.9385213804	50.7145580014	-11.8132908141	16.1808466767	-59.7595441513	71.479700548	-27.4839208276	-11.2868428621
193500000.0	-20.7293038989	48.0932085129	-11.8106162434	14.9451971202	-59.6244147611	76.9003724646	-27.6067391079	-11.7981289186
194187500.0	-20.5264204343	45.5306116972	-11.8091314188	13.7274508239	-59.8942228727	79.3597538453	-27.6894326496	-12.2792680764
194875000.0	-20.3484117039	43.1770927157	-11.8081022747	12.5175777853	-59.7352005374	71.6146464248	-27.7850563281	-12.8296219067
195562500.0	-20.1657438983	40.8308615344	-11.8022915088	11.3306122372	-59.4669825338	72.3298797064	-27.8720179069	-13.4650245948
196250000.0	-20.0059084081	38.5734337692	-11.7942797314	10.138122724	-59.526334204	74.6367019189	-27.9433805652	-14.1038907282
196937500.0	-19.8542035712	36.4353725239	-11.7881835825	8.93810748147	-59.9967797753	87.0693141236	-27.994508941	-14.6982525852
197625000.0	-19.7239634555	34.3847880661	-11.7802568788	7.7534281325	-59.8000305358	88.5178990693	-28.0304984664	-15.3447026041
198312500.0	-19.5939572107	32.3434238325	-11.7716383384	6.56130999173	-59.523659055	85.8807977495	-28.0663508561	-16.1772508602
199000000.0	-19.4948380114	30.3689100097	-11.7600024554	5.38524147228	-59.6609864867	87.8750824361	-28.0592913741	-17.0157167073
199687500.0	-19.3932246772	28.4369593504	-11.7481297055	4.21836693823	-59.6694544805	84.1018805792	-28.0801253035	-17.921665341
200375000.0	-19.3243572498	26.5736950334	-11.7381900219	3.02076534034	-59.8326464711	83.6479077151	-28.083791631	-18.8635297219
201062500.0	-19.2589601678	24.6486550979	-11.7278374561	1.84207003859	-60.1645557896	83.9735403271	-28.0894263547	-19.8195867295
201750000.0	-19.199022983	22.7227493551	-11.7141415887	0.665474526861	-60.255029436	82.8220090853	-28.0706738424	-20.6927323873
202437500.0	-19.1552945734	20.8139017051	-11.7026048859	-0.514532250713	-60.5053065579	81.7273897734	-28.044902954	-21.7358778224
203125000.0	-19.1196269461	18.8724643834	-11.6909945828	-1.69060331474	-60.8684434723	78.6608784226	-27.9976941133	-22.6693524265
203812500.0	-19.0806483054	16.9017845101	-11.6809583692	-2.85875410946	-61.2506027993	68.6360391067	-27.9352549838	-23.6444626706
204500000.0	-19.0601521168	14.9248959864	-11.6678087825	-4.02307849682	-61.5125649058	63.5189230736	-27.8684226118	-24.7253642416
205187500.0	-19.0576276665	13.0266055856	-11.6563332754	-5.14833888824	-62.0363082875	55.3656781331	-27.7996061684	-25.5712621789
