#Frequency	|S11|	<S11	|S21|	<S21	|S12|	<S12	|S22|	<S22
100000000.0	-15.7261566929	140.973040762	-18.834419595	-129.010665994	-63.3994693931	-70.9364181609	-21.8435453567	-61.5290479322
100687500.0	-15.6789488499	137.68948548	-18.4439407938	-130.509323312	-59.1339227448	177.331590286	-21.8971732616	-61.5527843222
101375000.0	-15.6731785022	134.506139831	-18.0182098997	-131.822099681	-59.4103454102	175.503511912	-21.9534489537	-61.6730324544
102062500.0	-15.654421154	131.410244402	-17.663432622	-133.378637733	-59.535370181	-166.764062975	-22.03697803	-61.4278134024
102750000.0	-15.66699911	128.2272964	-17.3250289447	-134.916726762	-59.161566434	166.840084967	-22.0892066659	-61.2850746695
103437500.0	-15.6629707711	125.042570898	-17.0005901152	-136.51333939	-58.4767550892	94.0920507842	-22.1359588422	-61.1874174786
104125000.0	-15.6799598031	121.678165636	-16.7089131441	-138.073533031	-58.2000732855	39.9703446874	-22.1947970326	-61.0067190505
104812500.0	-15.7119646706	118.356220254	-16.4426222555	-139.67153306	-58.5727241386	-22.8015263797	-22.2474243013	-61.0750731996
105500000.0	-15.7458986467	114.854934552	-16.2028144854	-141.236716956	-58.8950560518	-88.1095510689	-22.296983576	-61.1747546503
106187500.0	-15.8002375522	111.233886038	-16.0016423059	-142.793703226	-59.0411593274	-139.637794458	-22.3667960323	-61.2517830773
106875000.0	-15.8564672741	107.461141056	-15.8392969286	-144.338889845	-58.6954514518	178.580971837	-22.4305570921	-61.3366901618
107562500.0	-15.9340813771	103.512222657	-15.7204324438	-145.794582425	-58.9028426691	119.968246942	-22.4981363285	-61.3840816299
108250000.0	-16.0183229425	99.3512720348	-15.6532882392	-147.081020303	-58.9041614621	78.4741756679	-22.5654349954	-61.5480190755
108937500.0	-16.0800207532	95.4470673453	-15.5126360557	-148.352405233	-58.7264826885	36.9149346859	-22.6298218648	-61.5895980779
109625000.0	-16.153003093	91.4460831363	-15.401438348	-149.503600654	-59.0322904083	5.87219351404	-22.6843761341	-61.5721458816
110312500.0	-16.2178864434	87.3285170435	-15.323428341	-150.474304531	-59.1737057874	-27.6359168089	-22.740057312	-61.6333576119
111000000.0	-16.3035676971	83.0693644209	-15.2812248961	-151.22908638	-59.3803069776	-67.062436954	-22.8050783983	-61.6773742659
111687500.0	-16.3836835996	78.6892192233	-15.2667558246	-151.660614703	-59.5905829888	-105.100099002	-22.8579889378	-61.7377825697
112375000.0	-16.4841579562	74.1614547756	-15.2624925977	-151.677199396	-59.669014327	-147.651783175	-22.9153614755	-61.7977593105
113062500.0	-16.5787905235	69.4869454402	-15.2482760758	-151.247374076	-59.6615154562	169.812676678	-22.9751900363	-61.8922063296
113750000.0	-16.6867874123	64.7024058372	-15.2123123499	-150.405564555	-59.9998867878	130.82119156	-23.0411576786	-61.9575740079
114437500.0	-16.7964983531	59.7129824522	-15.1351552925	-149.149822539	-59.9028128071	103.880381524	-23.1055525071	-62.0404530608
115125000.0	-16.9214108045	54.5571782454	-15.0036167233	-147.650797628	-60.1910413614	76.383878782	-23.1761808071	-62.031909832
115812500.0	-17.0492203831	49.2084660964	-14.8201357594	-145.979872912	-60.2051427722	61.0875301791	-23.2405590186	-62.0483531779
116500000.0	-17.1903047509	43.7246961656	-14.5748173747	-144.219700286	-60.1416300308	34.8059105887	-23.3076288456	-62.0717081295
117187500.0	-17.3345327089	38.0796574747	-14.2771611547	-142.414078081	-60.5359713891	6.35640616909	-23.3675090416	-62.0885792318
117875000.0	-17.5004025889	32.2079307914	-13.9235721279	-140.619227487	-60.0854419108	-22.3942153167	-23.4401231451	-61.8760153203
118562500.0	-17.6838815496	26.1296901058	-13.5236897966	-138.868302789	-60.1366385156	-60.0777744348	-23.5038923531	-61.7026677579
119250000.0	-17.8875307909	19.8844864629	-13.0767599258	-137.218542195	-59.7519906941	-87.6288211135	-23.5702403153	-61.3962934134
119937500.0	-18.1283076535	13.4277249879	-12.5848707464	-135.663807499	-59.7919478377	-107.382412408	-23.6283036831	-61.0988050918
120625000.0	-18.3746686791	6.80977912108	-12.0475962833	-134.258070082	-60.0793575973	-132.657504538	-23.6831075339	-60.83253823
121312500.0	-18.6822824936	0.0175363770034	-11.4735815473	-132.983018926	-59.6703828416	-159.658678333	-23.7259156449	-60.441188691
122000000.0	-19.0211600927	-6.99145567355	-10.858996	-131.87923565	-59.7349858944	174.001913012	-23.7854479293	-60.063111709
122687500.0	-19.4438120384	-14.2130999688	-10.2106803151	-130.950138331	-59.7883231606	152.10040792	-23.8276364552	-59.6043050009
123375000.0	-19.9336780751	-21.5660582098	-9.52604618027	-130.244491978	-59.7042850113	138.824149887	-23.8665619146	-59.1209170869
124062500.0	-20.5329699459	-29.0921901224	-8.81173874335	-129.725538459	-59.3743409144	124.853820814	-23.9071490363	-58.5220035287
124750000.0	-21.3002406901	-36.8305760627	-8.06427671666	-129.459842613	-59.1621234551	111.475794253	-23.9399829439	-57.9123195112
125437500.0	-22.318865018	-43.9779113995	-7.28667592724	-129.438269905	-59.0622754284	89.6454354883	-23.9665447914	-57.1899601376
126125000.0	-23.5171177076	-46.313461951	-6.47837084255	-129.714343546	-59.1243850092	72.8260572754	-24.0024805756	-56.5953283399
126812500.0	-24.3917424159	-47.9729599426	-5.6443610542	-130.274647189	-58.9170453641	47.0956779567	-24.0423789575	-55.9173778022
127500000.0	-25.0055970667	-49.3459746727	-4.77962774167	-131.221513936	-59.0619073452	33.6984840836	-24.0722367566	-55.2237564217
128187500.0	-25.5561598609	-50.8094526475	-3.89065477986	-132.557255256	-58.8215210842	19.8833173047	-24.0885643022	-54.4492997104
128875000.0	-25.9991549157	-52.3767885143	-2.98097777531	-134.398478658	-58.324489642	-7.70315179439	-24.1014219916	-53.6931802
129562500.0	-26.3842308683	-54.0647520454	-2.06747723966	-136.781724805	-58.2228659686	-22.3254834373	-24.1032465238	-52.9556808621
130250000.0	-26.7200588788	-55.9060666143	-1.17285326503	-139.776517589	-57.7409763988	-41.8893628247	-24.1121380398	-52.2695381457
130937500.0	-27.0036951043	-57.7057472711	-0.309917877264	-143.331772132	-57.8102493176	-57.2735031577	-24.1159686053	-51.5436459599
131625000.0	-27.2668084493	-59.5166439484	0.500445263263	-147.396929305	-57.6886490049	-81.3733698232	-24.1066021039	-50.8393254355
132312500.0	-27.4822738789	-61.3076064461	1.24665216033	-151.821639424	-58.0702708105	-97.8975218487	-24.0998581086	-50.200031682
133000000.0	-27.6786354043	-63.1405473142	1.92646827804	-156.555358992	-58.0477476817	-121.927728945	-24.0888838048	-49.6172919048
133687500.0	-27.8317907436	-64.9176045102	2.53806415854	-161.48620585	-58.2212771204	-136.186739203	-24.0805224199	-48.9953890586
134375000.0	-27.9688465153	-66.5842357122	3.08458155645	-166.561033251	-57.6792482453	-145.701667671	-24.0713164661	-48.4208108474
135062500.0	-28.0517440878	-68.2546474829	3.57012986838	-171.706564358	-57.8652425732	-146.120650127	-24.0588249107	-48.0417218624
135750000.0	-28.1162385393	-69.7613575987	3.99285929353	-176.877349446	-57.6041617416	-145.057715156	-24.0411300163	-47.6685181581
136437500.0	-28.1428446978	-71.2081788366	4.36413943485	177.951018097	-58.3394766035	-146.723048099	-24.0332920114	-47.4565704398
137125000.0	-28.1382227932	-72.5700537356	4.68129028308	172.802582157	-57.9845797506	-152.037011675	-24.0321458817	-47.2384521902
137812500.0	-28.0882785275	-73.7444643362	4.95133012801	167.727166878	-57.9349160792	-155.514679642	-24.0277485283	-47.0303061325
138500000.0	-27.9893966664	-74.7964996405	5.17588336543	162.724982598	-57.9534629511	-154.620457631	-24.0204327071	-46.9369099078
139187500.0	-27.8353968148	-75.6733098099	5.36115096199	157.831957279	-57.9023444741	-163.163152147	-24.0109382444	-46.8610948823
139875000.0	-27.5947150972	-76.3584278421	5.50788141523	153.050608091	-57.8838908514	-167.130744685	-24.0106255706	-46.7635160007
140562500.0	-27.279800171	-76.9307122213	5.62153890171	148.403880323	-57.6925352681	-174.600769316	-24.0200269058	-46.8994889949
141250000.0	-26.8448015437	-77.3036427179	5.70553035953	143.894520772	-57.8977467684	-175.981737414	-24.0093697165	-47.0555460193
141937500.0	-26.2395794001	-77.4184006021	5.76366534646	139.530485362	-57.8100155824	177.084700128	-24.0115072349	-47.2977694222
142625000.0	-25.3749368109	-78.0919269536	5.79837635455	135.313439616	-58.0394088611	177.449538075	-24.0137748043	-47.4720619725
143312500.0	-24.3235770839	-83.5024871852	5.81227224448	131.254871452	-57.6786390702	170.572546409	-24.0088576849	-47.7031012153
144000000.0	-23.5872813379	-89.5671714234	5.80921077168	127.329948489	-57.7990072697	167.703539383	-24.0146221876	-47.9992180537
144687500.0	-23.1225992693	-95.8437701736	5.7938704057	123.562957934	-57.2818735447	156.617249046	-24.0159417228	-48.3720601764
145375000.0	-22.6948915291	-101.902333716	5.76513252942	119.942282527	-57.5580489412	155.373961066	-24.030123185	-48.7683661888
146062500.0	-22.3910682044	-107.749259306	5.72783253575	116.458267643	-57.613771072	159.378671537	-24.054783319	-49.1202091081
146750000.0	-22.1147938783	-113.405956105	5.68328949685	113.09748847	-57.8709085657	157.469588259	-24.0875485303	-49.4642534108
147437500.0	-21.902127223	-118.80671323	5.63211869241	109.879401665	-57.9488331772	153.442554336	-24.0985252611	-49.7773050687
148125000.0	-21.7229289239	-124.177423596	5.5777268527	106.767951672	-57.8776206853	151.602718	-24.1237088109	-50.134639193
148812500.0	-21.5651034979	-129.368643976	5.51839375221	103.771348423	-58.0540549866	148.639317423	-24.1416694304	-50.4813132073
149500000.0	-21.4472738665	-134.425353069	5.4579348291	100.874253399	-57.812069121	144.83756413	-24.1726764726	-50.7916508542
150187500.0	-21.3406502952	-139.288142848	5.39430543896	98.0804676836	-57.6217174025	143.830748578	-24.2016360714	-50.9448454182
150875000.0	-21.2708604328	-144.030062973	5.33099367333	95.3811239888	-57.8716058507	139.050959658	-24.2218128009	-51.133429576
151562500.0	-21.2030499358	-148.782624445	5.26831528749	92.768862138	-57.9279505531	134.803398839	-24.2410869462	-51.3594109401
152250000.0	-21.1724027758	-153.324618164	5.20461216207	90.2294640977	-57.938874395	132.795093275	-24.2730755142	-51.4530456857
152937500.0	-21.1392068741	-157.814189036	5.14100175237	87.7636174964	-58.0738758141	132.170264307	-24.2971618024	-51.5353789725
153625000.0	-21.1291209317	-162.14646759	5.08003168539	85.373446047	-57.4836244413	135.131377778	-24.3345697529	-51.5711921033
154312500.0	-21.1029068562	-166.39959814	5.01935527966	83.0437007477	-57.8792534286	134.466918535	-24.3355270204	-51.5578154298
155000000.0	-21.1155396543	-170.627482224	4.95919012271	80.7659832361	-58.0188145229	126.950105039	-24.3627375592	-51.515067892
155687500.0	-21.1080661282	-174.767294773	4.90215779781	78.5627360233	-58.3044314953	125.258579253	-24.395103628	-51.4306131567
156375000.0	-21.1295211334	-178.868855409	4.84499358873	76.4030369741	-58.4421031862	124.407567221	-24.4182833459	-51.3687855611
157062500.0	-21.1444938946	177.128695869	4.79073846814	74.2942424216	-59.0953337679	124.472617405	-24.4432112148	-51.2110269252
157750000.0	-21.1645077815	173.191227856	4.7372050366	72.2300982054	-59.0678457936	123.503053432	-24.4675613328	-50.9839826666
158437500.0	-21.1863463565	169.336417058	4.6857186227	70.2141678718	-59.1177256494	128.535204409	-24.4965133381	-50.7325951508
159125000.0	-21.2078503603	165.566127857	4.63526417005	68.2404234393	-59.1315642995	140.093258605	-24.52857778	-50.4513856966
159812500.0	-21.2323948526	161.832379645	4.58763660798	66.3089802741	-58.8997959568	152.470410372	-24.5637699659	-50.2096452887
160500000.0	-21.2583599076	158.056092722	4.5405856305	64.4052140351	-59.2548126691	165.623305137	-24.6065221361	-49.8872903016
161187500.0	-21.2841476747	154.425116507	4.49671994316	62.540177829	-58.986682748	-175.64186729	-24.6526283969	-49.4863970874
161875000.0	-21.3037346253	150.890857613	4.45255753046	60.7041922301	-58.9868787749	-160.538813204	-24.7065740481	-49.1629907993
162562500.0	-21.3405602272	147.320103528	4.41144027801	58.895959357	-58.560991892	-143.977454447	-24.7507505261	-48.8006756375
163250000.0	-21.348925882	143.829043152	4.36986950774	57.117039919	-58.5913842086	-132.285429008	-24.8125220544	-48.4214544596
163937500.0	-21.390083327	140.451595259	4.33113173455	55.3804203522	-58.4085880924	-127.472538366	-24.8635070525	-48.0636311972
164625000.0	-21.4046544191	137.125828594	4.29484793581	53.6599506236	-58.7030393742	-112.026398587	-24.92703425	-47.7335178918
165312500.0	-21.4451405917	133.828044924	4.25680351584	51.970870004	-58.7686182424	-101.63115414	-24.9804538432	-47.28090978
166000000.0	-21.4779705512	130.607969623	4.22261457736	50.2994793133	-59.0721320112	-90.3627885639	-25.0377378307	-46.9427755406
166687500.0	-21.5144609378	127.36124951	4.18819995521	48.6567006728	-58.8053924101	-83.5873532236	-25.1126442671	-46.5604285253
167375000.0	-21.5535203457	124.217462393	4.15541929033	47.0377995309	-59.2046852649	-70.9277084482	-25.1881548206	-46.3328964302
168062500.0	-21.5974864846	121.038916382	4.12514052657	45.4434229329	-58.7224974575	-60.1392928356	-25.2680143802	-46.1190931083
168750000.0	-21.635619891	117.972478819	4.09524149439	43.8780406595	-59.0138713435	-44.9444816603	-25.3464835088	-45.9898089944
169437500.0	-21.6727379175	114.878852401	4.06775790317	42.3326677652	-59.1388808465	-38.1008363716	-25.4284874965	-45.8737201938
170125000.0	-21.7261499741	111.823440361	4.04403312925	40.7965524468	-59.3585826896	-24.827794167	-25.5153908811	-45.6783640362
170812500.0	-21.7699247999	108.74967688	4.01932436137	39.2822752299	-59.2520959701	-20.693959642	-25.6015833133	-45.5975143915
171500000.0	-21.8249577751	105.735103501	3.99647974384	37.7949422782	-59.2080846414	-9.0018103914	-25.7097352756	-45.6150426801
172187500.0	-21.8598112148	102.622854705	3.97765144875	36.3297860116	-59.1569875859	5.72679820485	-25.8039218269	-45.6881986919
172875000.0	-21.9213806773	99.5702687683	3.95883779579	34.8715496566	-59.2976268924	21.5472741841	-25.8918966285	-45.6906981454
173562500.0	-21.9538592134	96.5320812274	3.9423071779	33.4310590796	-59.516611662	35.2279173349	-26.0023441959	-45.7919439867
174250000.0	-22.0087369205	93.4750419393	3.92889176671	32.0038377049	-59.0454299037	46.854905455	-26.1050086752	-45.9304898029
174937500.0	-22.0320597273	90.4331357488	3.9185518487	30.5914000349	-59.1428967433	57.6373797937	-26.2011128739	-46.1472742156
175625000.0	-22.0668379346	87.3262283255	3.90970588106	29.18142915	-59.0729494733	63.3425411796	-26.3066184374	-46.2442121398
176312500.0	-22.0956936742	84.1339618448	3.90215173863	27.798746142	-59.5209339887	62.6345370197	-26.4121706603	-46.4965469882
177000000.0	-22.1212087763	81.0114603296	3.89560434468	26.4152929505	-59.4534736195	54.0407193574	-26.5251572577	-46.8270327996
177687500.0	-22.1244866363	77.9071459071	3.89062346937	25.0452932771	-59.4143615029	53.6911663994	-26.6333478388	-47.1674231735
178375000.0	-22.1500891769	74.7499747917	3.88861239385	23.6745767658	-59.4083839692	45.8305078333	-26.735168525	-47.4494344825
179062500.0	-22.1624162315	71.5453812513	3.88823589846	22.3244072564	-59.7481737665	47.9515730525	-26.8057710928	-47.8447089388
179750000.0	-22.1671577616	68.3548252656	3.88974708333	20.9709923577	-59.7604782047	39.3733217501	-26.9141485818	-48.1548741847
180437500.0	-22.1676404747	65.0668869381	3.89342712744	19.6226211397	-60.0363805972	41.2582923913	-26.9818128944	-48.5402791931
181125000.0	-22.1513038833	61.7387449856	3.89755253719	18.2687489733	-59.9599694644	43.8162434788	-27.0809363808	-48.8190361531
181812500.0	-22.1430073829	58.4827801657	3.90193165205	16.9293170396	-60.146865993	43.0019290124	-27.1575288395	-49.0876592613
182500000.0	-22.1154213201	55.2212440947	3.91056213235	15.5892790928	-59.7670048125	40.8904639699	-27.257313403	-49.5007993281
183187500.0	-22.0842653845	51.9343605161	3.9189948112	14.2604963695	-59.4633179338	42.047785031	-27.3467137769	-49.6810369259
183875000.0	-22.0459979011	48.7021211059	3.92930667263	12.9270209344	-59.3698465024	46.297562272	-27.4201684981	-50.0310940962
184562500.0	-22.0100879745	45.3942813197	3.94107846193	11.6034170337	-59.5091437718	48.467993382	-27.4646752479	-50.1782600123
185250000.0	-21.9485286144	42.1196823117	3.95328124873	10.2736331221	-59.6697365437	49.3363304035	-27.526358947	-50.3946558927
185937500.0	-21.9044266481	38.7957764956	3.96402653101	8.94836133388	-59.7760998562	46.0068128824	-27.5971681766	-50.4059301209
186625000.0	-21.846654616	35.5307689825	3.97843767298	7.61988959069	-59.5437740812	47.6731469603	-27.6595982795	-50.5180324886
187312500.0	-21.7780148194	32.2268880225	3.99241889921	6.29534269901	-59.5628552026	51.7799892157	-27.7247502007	-50.4711629533
188000000.0	-21.6998088796	28.967829556	4.00790854825	4.96846073003	-59.7373100433	52.232938222	-27.7590349159	-50.4238143407
188687500.0	-21.6331152258	25.6734698934	4.02323074393	3.64842706714	-59.6454610536	52.2408961262	-27.8144290891	-50.2190429451
189375000.0	-21.5606882055	22.472698483	4.03942846773	2.32790593415	-60.1559639876	53.2861688632	-27.8761693559	-50.1702954546
190062500.0	-21.4769064158	19.1856334724	4.0563072544	1.01534835019	-60.0315214482	44.493125335	-27.9412778182	-49.8750978843
190750000.0	-21.4019077304	15.9086244362	4.07496242872	-0.291583406635	-60.1560719939	45.4731069786	-28.0129329356	-49.7315872565
191437500.0	-21.321230717	12.6462268432	4.09158280316	-1.59729975119	-59.8881218703	37.5885067304	-28.0677277803	-49.4895326827
192125000.0	-21.2530714903	9.39484971292	4.1083370083	-2.9056468596	-59.8494524252	39.0245513641	-28.1172860279	-49.2064174193
192812500.0	-21.1712552328	6.14919341765	4.12628097044	-4.19854060786	-59.8588197089	45.8360715839	-28.1942396722	-49.0701887483
193500000.0	-21.0965490548	2.9726693337	4.14476696497	-5.51086140915	-59.5656318942	47.1749465949	-28.2478386128	-48.7353967888
194187500.0	-21.0092937112	-0.286010606059	4.16297134933	-6.80983208242	-59.6883787318	48.0646284926	-28.3011968797	-48.2064559654
194875000.0	-20.9440517863	-3.52996087032	4.18305360606	-8.11078383963	-60.016629153	45.5967583619	-28.3551293436	-47.8707292388
195562500.0	-20.8486418721	-6.78228018132	4.2026422547	-9.40477667381	-60.2321982255	43.471662686	-28.4315345648	-47.5822487016
196250000.0	-20.770723448	-10.0311052913	4.22190549433	-10.6959409306	-59.9517568832	42.3019889237	-28.5056140838	-47.254806004
196937500.0	-20.6725583147	-13.2312286199	4.24191375968	-11.9804176302	-59.9368757407	40.5037966461	-28.5652384518	-46.7369829388
197625000.0	-20.5904117079	-16.4084439884	4.26217838478	-13.2617034519	-60.3231380261	33.9073537754	-28.632112014	-46.3273133967
198312500.0	-20.4959843129	-19.5665110593	4.28381016149	-14.532863427	-60.3886011124	33.2959011476	-28.6912437546	-46.1921243124
199000000.0	-20.4141895782	-22.819601885	4.30749368197	-15.819448199	-60.0877281641	33.1778717306	-28.7416020243	-45.8832168157
199687500.0	-20.3118406589	-25.9446450217	4.32861026208	-17.0922776002	-60.0504347673	32.01506607	-28.8244561641	-45.6284671448
200375000.0	-20.2205209439	-29.06707459	4.35136992999	-18.3753094367	-59.887161876	24.3240758027	-28.9031266714	-45.472377247
201062500.0	-20.1175831293	-32.1645236633	4.37416376934	-19.6410468959	-59.8895024681	22.9872798859	-28.9787085551	-45.3840601303
201750000.0	-20.0109404702	-35.2098979933	4.3975015124	-20.9133237486	-59.5131345078	20.8473509471	-29.066093086	-45.2502727495
202437500.0	-19.9077306031	-38.2139069649	4.42084317987	-22.1729384244	-59.7401800804	20.422003182	-29.1354019043	-45.2802850058
203125000.0	-19.7928906572	-41.1231333699	4.44774783137	-23.4442162815	-59.5453162186	19.2476798204	-29.2094010216	-45.2835132929
203812500.0	-19.6758062202	-44.0010578165	4.47167518388	-24.700549795	-59.6088028165	18.7134314818	-29.2603110942	-45.4453203269
204500000.0	-19.5561291625	-46.8788160999	4.49804922036	-25.9626254759	-59.6440126687	6.89788211657	-29.3159324889	-45.6668409304
205187500.0	-19.4453831689	-49.7006749416	4.52539263072	-27.2097473463	-60.1780894732	5.63715449162	-29.3855301773	-45.9899493516
