#Frequency	|S11|	<S11	|S21|	<S21	|S12|	<S12	|S22|	<S22
100000000.0	-17.6761506983	145.258131833	-15.8519672429	-125.780131963	-58.8786027811	-77.6434706192	-18.9999582278	-62.9452237336
100687500.0	-17.6534837927	142.135179961	-15.4694921262	-126.890307783	-64.6828057116	-7.82054892094	-19.1451393181	-62.6264598577
101375000.0	-17.6338265408	138.963656441	-15.049978399	-128.137418207	-64.4306396389	5.96527015077	-19.2882664241	-62.0929364797
102062500.0	-17.6135695622	135.709635064	-14.6739076109	-129.468966719	-64.1479518726	-31.5704699003	-19.4098839483	-61.7056143848
102750000.0	-17.573796705	132.48699194	-14.3168635389	-130.812222405	-62.9480461471	-33.3037577975	-19.5359167197	-61.3666161715
103437500.0	-17.5559129749	129.401126995	-13.9827984487	-132.162276324	-61.9350964378	-39.0183093927	-19.6625917924	-60.920205248
104125000.0	-17.5415251474	126.21202383	-13.6746131672	-133.519994366	-62.3687683161	-67.2505818379	-19.8270735958	-60.5039275767
104812500.0	-17.5272611061	123.039472963	-13.3869436862	-134.847858626	-62.6237030447	-131.636439501	-19.9809932512	-60.2896198421
105500000.0	-17.5208034332	119.834405703	-13.1216828495	-136.231666882	-62.6498603214	171.246685064	-20.1429957488	-60.0935423253
106187500.0	-17.5244974077	116.49479322	-12.8886789585	-137.626430061	-62.7708411203	117.176601573	-20.3203611393	-59.9151720615
106875000.0	-17.5245276162	113.095038206	-12.6854080858	-138.985432555	-62.0474788945	99.4324843953	-20.4955895157	-59.8496234271
107562500.0	-17.5471563306	109.602854889	-12.5136544554	-140.295967651	-62.1490314478	75.2678279082	-20.6942984897	-59.753465645
108250000.0	-17.5657520006	105.98246816	-12.3800953699	-141.508256334	-62.1185699932	52.9777320239	-20.88783852	-59.8797416044
108937500.0	-17.5772493321	102.455199636	-12.1903740774	-142.707498472	-62.3896281293	40.8470143325	-21.0689001156	-59.7867441511
109625000.0	-17.5936875907	98.8900917001	-12.0227535073	-143.870999443	-62.722832864	28.4546704903	-21.2514884977	-59.7084041949
110312500.0	-17.6072391823	95.2028188622	-11.885512686	-144.925246464	-62.5329916267	17.5536835178	-21.4480227676	-59.6610556534
111000000.0	-17.6316610357	91.4662976069	-11.776374983	-145.873865904	-62.4496959309	7.21943336591	-21.6408217027	-59.6642674364
111687500.0	-17.6619532966	87.6201459278	-11.7029373663	-146.616770531	-62.2793075495	9.15654647249	-21.8371660005	-59.7064421526
112375000.0	-17.6966769948	83.7233223361	-11.6507844713	-147.149510998	-62.4094909861	10.0252557758	-22.0351302276	-59.7155875486
113062500.0	-17.724699222	79.7309019322	-11.627306578	-147.357876625	-62.0275591725	12.4623401814	-22.2358199958	-59.8132109376
113750000.0	-17.765980076	75.6633821446	-11.6114886618	-147.173351402	-62.3853595199	10.3464725608	-22.4401915428	-59.9748682349
114437500.0	-17.8167250155	71.4683117569	-11.5942957997	-146.560810201	-62.3680592324	9.73933957747	-22.6649456497	-60.14172515
115125000.0	-17.8657184883	67.0723384033	-11.5481643845	-145.537844108	-62.2999271066	12.58045812	-22.8797761475	-60.3046218505
115812500.0	-17.9161055195	62.5776726546	-11.4661337051	-144.149313449	-62.2822982195	14.0958721047	-23.1082245336	-60.4861695851
116500000.0	-17.9767574762	57.9133050963	-11.3272855075	-142.479231359	-62.5605872561	26.7982889202	-23.3229693511	-60.6952398283
117187500.0	-18.0444356397	53.1873309174	-11.1350376327	-140.627820574	-62.2231510861	39.5806429341	-23.5509241734	-60.8894090924
117875000.0	-18.1233200172	48.1891999733	-10.8824946575	-138.705221653	-62.257468009	53.9340191437	-23.7808325739	-61.003467424
118562500.0	-18.2106743884	43.1305898317	-10.5745542276	-136.733301405	-62.0470590099	80.4589136112	-24.0195917642	-61.0498313814
119250000.0	-18.3144618355	37.8447017154	-10.2118950575	-134.759693373	-62.1553791712	101.083297719	-24.2386723302	-60.9969850917
119937500.0	-18.4284862571	32.4517410189	-9.79785280507	-132.849793367	-62.0300375369	130.778854523	-24.4416519858	-60.932969806
120625000.0	-18.5569800103	26.8190260502	-9.33317151347	-131.03481536	-61.752211976	158.051276948	-24.6509293483	-60.8877950929
121312500.0	-18.7172435243	21.0520665759	-8.82419426741	-129.322646144	-62.4949651016	-175.689099425	-24.8388096328	-60.722172749
122000000.0	-18.9080765815	15.0729476196	-8.270355563	-127.772036122	-62.6077711874	-160.028574982	-25.0304298443	-60.5035054743
122687500.0	-19.1435893227	8.9940851287	-7.67625576036	-126.396718007	-62.7985440814	-153.611608904	-25.2110090169	-60.2195831922
123375000.0	-19.4157248001	2.6853219288	-7.04557889313	-125.20225422	-62.7606953322	-137.843472041	-25.3562478744	-59.7815571136
124062500.0	-19.7392356407	-3.77955973578	-6.38224160907	-124.212010582	-62.9592262366	-120.077977623	-25.4881121418	-59.326739625
124750000.0	-20.1512024691	-10.3196358977	-5.6866544128	-123.449242555	-63.2892014659	-100.914461722	-25.6037716776	-58.8734222423
125437500.0	-20.6378264938	-16.9887548872	-4.96214333896	-122.925391138	-63.2019580708	-84.1062977161	-25.6849283656	-58.2856674659
126125000.0	-21.2625966305	-23.3027335621	-4.20445376566	-122.649118518	-62.7711143229	-71.0433279197	-25.7536405772	-57.8172314631
126812500.0	-22.0118335029	-29.4835733956	-3.4237177233	-122.598465538	-62.7601781878	-67.6144320941	-25.799425627	-57.312246387
127500000.0	-22.8980794244	-33.1546526998	-2.61354471575	-122.857071874	-62.5058045424	-60.8833493449	-25.8091457925	-56.8891885298
128187500.0	-23.6429763883	-36.1418590915	-1.78009013336	-123.410637598	-62.545141133	-60.0540465854	-25.8025207977	-56.4303576782
128875000.0	-24.2714589235	-38.2524863676	-0.916418552336	-124.34144692	-62.0289806621	-66.6430891066	-25.7696034305	-55.9644549553
129562500.0	-24.791789939	-40.4168225493	-0.0354644061628	-125.645107599	-61.6794464126	-67.6628593448	-25.7189244852	-55.6393800892
130250000.0	-25.245480995	-42.454079577	0.867516855617	-127.431148838	-61.5585861927	-70.0367921383	-25.6698093528	-55.2911096827
130937500.0	-25.6282461065	-44.5943614323	1.76921369026	-129.757492647	-61.1238476631	-69.1061811593	-25.5925365402	-54.9237705491
131625000.0	-25.9663448803	-46.5333628764	2.6636644913	-132.658225669	-61.3859757736	-77.5536119948	-25.4851455221	-54.5837284942
132312500.0	-26.2726056425	-48.5605330587	3.5189401676	-136.103477643	-61.2650106299	-81.3858222567	-25.36735269	-54.3196166843
133000000.0	-26.5460470409	-50.4911774372	4.32953771189	-140.035067569	-61.2559192181	-92.6460773537	-25.223392655	-54.1376790157
133687500.0	-26.7827891021	-52.5315737909	5.07381783519	-144.363695147	-61.1475845917	-105.510426446	-25.0746638097	-53.9655646345
134375000.0	-26.9810267668	-54.4537468186	5.75753411162	-149.001931303	-60.7778590394	-114.340130221	-24.9049167275	-53.875492205
135062500.0	-27.1467683835	-56.4392768894	6.37040174061	-153.813231442	-60.3417961813	-115.895003744	-24.7145153446	-53.8394435257
135750000.0	-27.2898679893	-58.3165920453	6.92103732773	-158.774122767	-60.2265641216	-125.415924538	-24.5042884974	-53.905856051
136437500.0	-27.4050880115	-60.171646136	7.40627344498	-163.806580247	-59.6788745308	-130.43639584	-24.3040456595	-54.1462376435
137125000.0	-27.490489951	-61.9711846453	7.83550039204	-168.888699092	-59.4713459406	-141.505742307	-24.1023074982	-54.4162404737
137812500.0	-27.5448365211	-63.5962766939	8.20710324743	-173.942898945	-59.3304301744	-144.831086153	-23.8834956653	-54.7134171313
138500000.0	-27.5620922713	-65.13955101	8.53128045162	-178.978683369	-58.2783683387	-152.74396468	-23.6511321295	-55.1569483606
139187500.0	-27.5390181201	-66.5036908218	8.80369918266	176.07510773	-58.2208548765	-159.165536346	-23.4243843831	-55.622902019
139875000.0	-27.4576866837	-67.8743061581	9.03467157771	171.203716965	-57.9962506083	-158.569666567	-23.1942915938	-56.1287826766
140562500.0	-27.3309760964	-69.0341951545	9.22463571589	166.448368335	-58.016763187	-159.755801718	-22.9810785619	-56.8792505833
141250000.0	-27.1411142002	-70.0554104107	9.38254658364	161.817872536	-57.0972410479	-161.331840387	-22.758772487	-57.6461233814
141937500.0	-26.8676392253	-70.9629126413	9.50795691181	157.340281124	-56.4523646461	-167.775042065	-22.5532715073	-58.3461634973
142625000.0	-26.5092916421	-71.8153109772	9.60992557064	152.98100484	-56.0845194482	-172.244859697	-22.3584655293	-59.0816162536
143312500.0	-26.0016162414	-72.9030864656	9.68266676696	148.782730952	-56.5937625863	-178.694347359	-22.1655662578	-59.7831866271
144000000.0	-25.3690437126	-74.1811367822	9.73947557592	144.70279527	-55.7295376863	178.411486678	-21.9794102049	-60.4877083033
144687500.0	-24.5999227774	-77.9087316256	9.77750402818	140.783994249	-56.2556256535	172.638456708	-21.8128749901	-61.1315537926
145375000.0	-23.9602610521	-82.317990134	9.80245516347	136.990037408	-55.9713921367	170.804195752	-21.6527485446	-61.8071119726
146062500.0	-23.4323781408	-87.496452357	9.81195334732	133.341321674	-56.1625289351	167.107787225	-21.5216457058	-62.4045195712
146750000.0	-23.0135737328	-92.6039162664	9.81362324149	129.796629638	-56.1430459531	164.923427595	-21.3951436644	-62.886919309
147437500.0	-22.6664229654	-97.7734302953	9.80362911024	126.396964746	-56.2071413674	159.326035968	-21.2568121899	-63.3161939705
148125000.0	-22.3846954967	-102.784490428	9.7897889714	123.087516657	-55.9300319752	158.318664081	-21.1301968197	-63.6906543449
148812500.0	-22.1494723657	-107.930083675	9.76606386011	119.895796994	-55.6203605868	155.225984393	-21.010269254	-64.0078870249
149500000.0	-21.939414403	-112.829649812	9.74217127834	116.804365827	-55.9752501212	151.128900061	-20.9094589546	-64.2387338577
150187500.0	-21.7637945069	-117.799592619	9.71005505714	113.811928096	-55.8256428917	150.701847041	-20.816345301	-64.3612290067
150875000.0	-21.6221912157	-122.429995899	9.6802505418	110.903722213	-55.5762280675	145.394813648	-20.721783104	-64.4252796442
151562500.0	-21.5056742242	-127.244927365	9.64380920858	108.082650363	-55.5594561194	144.421648649	-20.6284031999	-64.4120880017
152250000.0	-21.4156565796	-131.697465055	9.60837769398	105.328869064	-55.6388022012	139.663892099	-20.5583305999	-64.3742325494
152937500.0	-21.3409104729	-136.23238559	9.56639413586	102.66415513	-55.5868732287	138.552425156	-20.4866873806	-64.2418006432
153625000.0	-21.2862555983	-140.570371946	9.5285216715	100.064153852	-55.7746237111	136.496970641	-20.4320834619	-64.0558187452
154312500.0	-21.2407341802	-144.893526934	9.48542478335	97.5279557934	-55.7974547882	135.181389162	-20.369430397	-63.8144247898
155000000.0	-21.210012218	-149.125173156	9.44523155428	95.0526689672	-56.0549190838	131.915616252	-20.3258815628	-63.5230331383
155687500.0	-21.1867344102	-153.295814867	9.40201484979	92.6510748925	-55.8525039036	130.64650371	-20.2983905515	-63.1334386578
156375000.0	-21.1802887659	-157.475381964	9.3600979067	90.2814760541	-55.990342732	128.300372519	-20.2635663307	-62.738250626
157062500.0	-21.173355459	-161.518016422	9.31630495006	87.98664231	-55.9120639025	126.263518113	-20.2415564948	-62.2764751187
157750000.0	-21.175117596	-165.563481113	9.27442091404	85.7334208325	-56.1843494078	119.791635655	-20.2243624664	-61.7229891717
158437500.0	-21.1760529947	-169.505030779	9.2294639166	83.529313658	-56.3081204977	116.885867732	-20.2164945209	-61.1347147854
159125000.0	-21.1799770025	-173.450654786	9.18825203025	81.3651433066	-56.4673172888	116.589901974	-20.2211824442	-60.541987938
159812500.0	-21.1834627162	-177.262588934	9.14375407602	79.258991236	-56.5588762991	120.45208688	-20.2328210848	-59.8972519421
160500000.0	-21.202413649	178.805388467	9.10393880641	77.1824919111	-55.9239870572	117.115539661	-20.2559718849	-59.2163839744
161187500.0	-21.2137293665	175.098880398	9.05985625192	75.1536056166	-56.0994919737	117.07253722	-20.2850831474	-58.4994005728
161875000.0	-21.2334305217	171.355137971	9.01936135182	73.1428671064	-55.3750537856	118.078868904	-20.327216787	-57.7857187178
162562500.0	-21.2578583775	167.723809212	8.97675467715	71.1943634823	-55.4466333104	115.270931004	-20.3733830161	-57.0647719986
163250000.0	-21.2721459269	164.070238386	8.93730155661	69.2480005094	-55.4242248487	114.800810142	-20.4317214093	-56.3165729756
163937500.0	-21.2887060175	160.501033131	8.89546886461	67.3664985569	-55.5026681352	111.924437719	-20.4901642514	-55.5760320172
164625000.0	-21.3058534299	156.980757252	8.85684031595	65.4930065551	-55.4057623268	110.045193431	-20.5765495295	-54.8442975661
165312500.0	-21.3196277314	153.503352239	8.81566305159	63.6837582775	-55.6067376071	104.036130365	-20.6639565105	-54.0974109837
166000000.0	-21.3268749483	150.079391219	8.77954089557	61.8778469576	-55.3882714323	104.189359281	-20.758446263	-53.3561987292
166687500.0	-21.3368435296	146.630332526	8.74142729893	60.1170780986	-55.8506096695	103.2359198	-20.866997348	-52.6348745475
167375000.0	-21.3429254945	143.344306505	8.70631036508	58.3712037863	-56.0981673076	103.053866728	-20.9810865291	-52.0348810215
168062500.0	-21.3410098735	139.983542359	8.66866014664	56.6672203352	-56.4259870455	100.418778201	-21.1046308969	-51.3811735307
168750000.0	-21.3495115279	136.78179618	8.63547961001	54.9908582954	-56.2107875394	98.9891849206	-21.2446894691	-50.8167454904
169437500.0	-21.3492207671	133.522609125	8.59937220834	53.34457578	-56.3780220968	96.6376910178	-21.392808524	-50.2351567738
170125000.0	-21.3559085992	130.387513518	8.57010953759	51.6998423643	-56.5061019634	85.5446843043	-21.5542325896	-49.718650915
170812500.0	-21.3497115123	127.175302219	8.53726784257	50.0891415959	-56.6587232735	80.3850412329	-21.7213616101	-49.1397026801
171500000.0	-21.3581104607	124.12301809	8.50962533752	48.5117425558	-56.6133304855	79.1211589394	-21.8990803297	-48.7287345099
172187500.0	-21.3664297213	120.976714158	8.48218292737	46.9543406077	-56.5429026584	76.4456390271	-22.081775133	-48.3245014249
172875000.0	-21.3746539857	117.972882147	8.45737963494	45.4009857768	-56.7109049044	73.2888862804	-22.2676747967	-47.9626715074
173562500.0	-21.3664615076	114.952999858	8.4322203089	43.8931735087	-56.4554343896	73.1067332162	-22.4776537936	-47.7167009385
174250000.0	-21.3777255463	112.073643351	8.41176794984	42.3902219273	-56.4100955336	69.0638404033	-22.6879324237	-47.484169175
174937500.0	-21.3651767352	109.133072587	8.39054437003	40.9017378668	-56.300159766	67.4644374708	-22.913665594	-47.3892618488
175625000.0	-21.3602458738	106.246978492	8.37431819743	39.4209207666	-56.384092222	67.4767783999	-23.1478014051	-47.2582919323
176312500.0	-21.348099699	103.353374649	8.35525812152	37.9703217003	-56.4821521657	65.9045293793	-23.3928915806	-47.2911221873
177000000.0	-21.328388997	100.507611294	8.34146807485	36.5170060299	-56.5549186309	59.1734744527	-23.6415510171	-47.4378285439
177687500.0	-21.2943283938	97.7404903517	8.32420673842	35.0846113808	-56.7780587574	58.9824089806	-23.9112997784	-47.6453505055
178375000.0	-21.2702923018	94.8921308862	8.314466339	33.6638936445	-56.6545736279	53.0605933425	-24.1691501925	-47.8709341173
179062500.0	-21.2323325762	92.1881705716	8.30192718746	32.2612095689	-56.5250386508	52.2920652852	-24.4269083464	-48.2729801586
179750000.0	-21.1873825708	89.3898311041	8.29506281082	30.8532873423	-56.6243612893	48.5421593205	-24.6917703732	-48.626368012
180437500.0	-21.1511408281	86.6433884642	8.28597294145	29.4719281267	-56.6598100083	46.7757242301	-24.9569416904	-49.1318597933
181125000.0	-21.1058574389	83.8299840518	8.28063116558	28.0810939447	-57.2372287213	43.2442910052	-25.2391161302	-49.6494514351
181812500.0	-21.0486421211	81.1747200509	8.27409495369	26.7077795796	-57.1739276104	42.4529509796	-25.5039980255	-50.2713101924
182500000.0	-20.9976682276	78.4302174172	8.27334700927	25.3296631423	-57.3680185052	40.0187383397	-25.7868367237	-51.0711275241
183187500.0	-20.9309756215	75.805142699	8.26857947464	23.9803756361	-57.5155401054	38.8686351345	-26.0586636404	-51.9038264448
183875000.0	-20.8706743972	73.2065775719	8.26744992486	22.6132669691	-57.0598693093	36.4480824696	-26.312233648	-52.8729309615
184562500.0	-20.8119165233	70.6322666434	8.26432748769	21.2743768051	-57.0309178807	35.1983272715	-26.5530956044	-53.9507514696
185250000.0	-20.7476488673	68.0274708153	8.26587971337	19.9259035547	-56.6722032555	35.6764201513	-26.7897179874	-55.0649473186
185937500.0	-20.6798251948	65.5524755975	8.26345082672	18.5854214227	-56.698421144	33.3776128641	-27.0115879245	-56.0922129964
186625000.0	-20.6195573755	63.064913774	8.26970221942	17.2383284326	-56.7712738778	33.0727900571	-27.2252928513	-57.4369916272
187312500.0	-20.5440084449	60.5925564548	8.27174997806	15.9153269443	-56.617441016	41.1299360957	-27.4353703255	-58.5741901138
188000000.0	-20.4855120895	58.2048159298	8.27740889487	14.5812175149	-56.6315369917	40.5967502029	-27.6224677418	-59.8952848577
188687500.0	-20.419939658	55.7782506242	8.27962161335	13.2560003596	-56.5999586452	35.6450269118	-27.7714306096	-61.1379903764
189375000.0	-20.3550462185	53.4481793268	8.28524913877	11.9289939439	-56.4795906844	34.2234591107	-27.9345265754	-62.4968038142
190062500.0	-20.2922808238	51.0487519543	8.28928216533	10.6323099615	-56.4492396529	29.7545926599	-28.0616901313	-63.8273724216
190750000.0	-20.2502159055	48.7288726552	8.29810949521	9.32357769993	-56.4825094422	29.1424864607	-28.1992799915	-65.2990542553
191437500.0	-20.1968209028	46.3259541766	8.30257225099	8.03095783969	-56.8881488181	27.9586039701	-28.2838640868	-66.6624713089
192125000.0	-20.167934349	44.0685992153	8.31068013125	6.7358164229	-56.6907857081	29.5467736564	-28.3528537908	-67.9809619762
192812500.0	-20.1418434161	41.6558626458	8.31694304024	5.46561381742	-56.6993370547	26.0022333953	-28.3947435407	-69.5621850237
193500000.0	-20.1357873143	39.3745496871	8.32646153535	4.1720022467	-56.6309425843	26.9307553695	-28.4339392009	-70.9165999474
194187500.0	-20.133067251	36.9443662482	8.33247926483	2.90176305438	-56.8143987059	24.2026693753	-28.4403187251	-72.2662201265
194875000.0	-20.1476558378	34.6040745241	8.34481942632	1.62513864686	-56.6013627469	24.0685245348	-28.4152844205	-73.518287102
195562500.0	-20.1615498132	32.1609413589	8.35337888935	0.353103345283	-56.8141451697	24.5393361303	-28.3869517515	-74.9479882074
196250000.0	-20.1945838067	29.7659705543	8.36459230031	-0.909884838074	-56.9854221121	21.1617904842	-28.338757938	-76.1936609817
196937500.0	-20.2297506685	27.3558206134	8.37348939839	-2.16754708524	-57.0315266482	20.6266881004	-28.2971416293	-77.4037866806
197625000.0	-20.2734259334	24.9120790134	8.38752048354	-3.41743890292	-56.8110976404	23.2503846312	-28.2134455545	-78.5315510489
198312500.0	-20.312818341	22.4855960168	8.4007679601	-4.6557577643	-56.5225898268	23.47974444	-28.091631802	-79.6967175079
199000000.0	-20.378924978	19.9119786291	8.4177270378	-5.90288095827	-56.369386467	23.4930891579	-27.9461190149	-80.8155980256
199687500.0	-20.4360926302	17.3090036487	8.42967366574	-7.1399528237	-56.2915534125	23.6106683072	-27.7989424301	-81.762900876
200375000.0	-20.5074041711	14.774124273	8.44624286295	-8.39935200446	-56.2367420033	23.1920688434	-27.638269434	-82.7856522142
201062500.0	-20.579779159	12.1705742367	8.46023594909	-9.63451906149	-56.0760892176	22.4869748877	-27.4813261763	-83.6094807499
201750000.0	-20.652508625	9.47464318638	8.47898849741	-10.8814647262	-55.8035980137	18.3925758129	-27.3058814421	-84.2061204712
202437500.0	-20.729688408	6.89018022108	8.49527323259	-12.1156091	-55.6610742803	19.0022644805	-27.1314819327	-84.8352029554
203125000.0	-20.8034060693	4.11861814826	8.51553317591	-13.3625876428	-55.9032520878	14.3675239819	-26.9406515427	-85.4914064406
203812500.0	-20.8754661349	1.37529059071	8.53039005675	-14.5944657038	-55.3868906047	14.3535846548	-26.7485927457	-85.8110747004
204500000.0	-20.9607809391	-1.44784153081	8.55096094785	-15.8325294268	-55.4117888166	10.3493256962	-26.5317387744	-86.292369309
205187500.0	-21.0402896171	-4.19324559711	8.56943927638	-17.0524685769	-54.8889153682	10.978914641	-26.3296059386	-86.53889357
205875000.0	-21.1062687622	-7.0091697545	8.59246334831	-18.2891295771	-55.0453209771	9.09026176613	-26.1438943065	-86.7797700309
