#Frequency	|S11|	<S11	|S21|	<S21	|S12|	<S12	|S22|	<S22
100000000.0	-17.3338198024	131.723416797	-35.1139908973	-126.844573852	-58.9346880268	-138.568706223	-21.8651996846	-34.5483988146
100687500.0	-17.2626473198	128.577058509	-34.5221064398	-125.23876878	-60.8778008953	-113.225150106	-21.9377648805	-34.697310196
101375000.0	-17.2018874071	125.416866641	-34.1213247286	-126.106405566	-61.6707283861	-151.934414721	-21.9510284042	-34.5022173189
102062500.0	-17.1403917198	122.347666955	-33.7033864629	-128.301776045	-61.1237555227	-119.110008319	-21.9829801508	-34.078100963
102750000.0	-17.0712467615	119.342816919	-33.3307667497	-129.86779284	-62.6296607961	-135.844793721	-22.0160223171	-33.6555601555
103437500.0	-17.0222997136	116.351109353	-33.0033177618	-131.100102811	-62.1086693443	-89.4689276042	-22.0617974121	-33.1951113079
104125000.0	-16.9856763705	113.165071103	-32.7015668718	-132.468517383	-61.9677759949	-60.3457097177	-22.1131945762	-32.780808389
104812500.0	-16.9587522643	110.085265878	-32.4342098068	-133.886130841	-62.1449658377	-29.8373849179	-22.1795563332	-32.4873512086
105500000.0	-16.9337045803	106.80664338	-32.206313374	-135.430284341	-61.828248036	-17.0811573583	-22.2279601101	-32.3912547595
106187500.0	-16.9152325698	103.470129812	-32.0196481825	-136.972377632	-62.724412123	-6.73473208226	-22.284712583	-32.2686462424
106875000.0	-16.9004270344	100.02835734	-31.8674566179	-138.394932295	-62.0273788269	-18.7329837447	-22.3424468962	-32.1881865765
107562500.0	-16.9025139441	96.4245404867	-31.7609333366	-139.661952232	-61.9389844205	-40.1939190482	-22.3988002503	-32.0756136289
108250000.0	-16.9036512064	92.6905945022	-31.703806904	-140.795429199	-61.8561536329	-57.4314834654	-22.4548144886	-32.0782141326
108937500.0	-16.8926339563	89.1146303225	-31.5734445846	-141.927626836	-61.890913422	-57.8240853295	-22.4977322	-31.9450182368
109625000.0	-16.8896095428	85.4575933015	-31.4766467022	-143.132289286	-62.0945887553	-68.0444194306	-22.5388904834	-31.8632935012
110312500.0	-16.8761967956	81.7359164731	-31.4055031287	-143.885679236	-62.2613983309	-67.5634486246	-22.5839917568	-31.8234004108
111000000.0	-16.8806016128	77.9029828782	-31.3648744392	-144.455499438	-61.8575749498	-64.8147892029	-22.6279958065	-31.8007307372
111687500.0	-16.8768159812	74.0013642171	-31.3508098331	-144.776146318	-61.8399503703	-63.1209108189	-22.6771349951	-31.7731846143
112375000.0	-16.889190936	69.9712998863	-31.3432929648	-144.552191164	-61.9807389486	-73.0832672861	-22.7224052105	-31.7955572272
113062500.0	-16.8929698096	65.8404720288	-31.3308863622	-143.857064505	-61.8224977963	-77.2326100798	-22.7676900257	-31.7890746729
113750000.0	-16.9141952314	61.5988600061	-31.2963441775	-142.920600692	-61.420964778	-74.8847608287	-22.8155243472	-31.8484820514
114437500.0	-16.9346274443	57.280392251	-31.2155456064	-141.549889125	-61.1222827857	-72.4193123951	-22.8548360036	-31.9105123514
115125000.0	-16.9669545092	52.7825593343	-31.0806305218	-139.944203946	-60.9315227261	-82.2398705419	-22.8971300381	-32.0107954668
115812500.0	-16.9974098074	48.209844381	-30.8989463963	-138.198629949	-61.2755038606	-91.5888188763	-22.9279487194	-32.0820685315
116500000.0	-17.0413626268	43.4990502175	-30.662339352	-136.210724998	-61.0001221763	-93.4162989852	-22.9644139617	-32.1331937426
117187500.0	-17.092197101	38.749274016	-30.3718417639	-134.347074593	-61.6600656329	-97.1484761772	-22.9958377115	-32.2474575673
117875000.0	-17.1601308503	33.7855089999	-30.0274979816	-132.438679975	-61.438865807	-108.266841595	-23.0300954857	-32.2425363845
118562500.0	-17.2462571939	28.7518846574	-29.633205528	-130.641973604	-61.0811952031	-118.747446723	-23.0522446291	-32.2942008361
119250000.0	-17.3541127483	23.5589777777	-29.1854249176	-128.809842325	-61.2077002713	-129.577294825	-23.0789398442	-32.2363658519
119937500.0	-17.4983109802	18.3632956741	-28.7006392634	-127.111228216	-60.9247026359	-131.906254994	-23.0967658201	-32.1956739537
120625000.0	-17.6575609182	12.9866562265	-28.1612248966	-125.450442929	-60.2217434025	-144.816702911	-23.1191373008	-32.1379013707
121312500.0	-17.8782038199	7.54879694639	-27.5996213731	-124.088731832	-60.4656908213	-158.230255054	-23.1263938681	-32.085883627
122000000.0	-18.1316602242	2.09952207185	-26.9911706644	-122.80983115	-60.456412584	-157.959415695	-23.149195681	-32.0510172823
122687500.0	-18.4626354635	-3.40114073558	-26.3467694994	-121.764816418	-60.9737483484	-162.059508639	-23.1604063924	-31.9573529166
123375000.0	-18.8418696658	-8.72065776563	-25.6567627162	-120.863862481	-60.9804004563	-159.90235794	-23.166338712	-31.7915625884
124062500.0	-19.3370884855	-13.880045922	-24.9584652301	-120.271695099	-61.2440115793	-145.943753518	-23.1761688156	-31.7134245648
124750000.0	-19.9098649399	-18.3676269086	-24.201202743	-119.817093606	-60.8358028958	-138.006900872	-23.181593316	-31.5224332718
125437500.0	-20.5534047856	-22.2691331231	-23.4460555976	-119.673494079	-61.334633677	-126.279453205	-23.1865749622	-31.208981803
126125000.0	-21.1747180223	-24.981616465	-22.6290722049	-119.659173735	-61.5568416696	-121.429101968	-23.2032665767	-30.9792809323
126812500.0	-21.7620189078	-26.9378923521	-21.802808263	-119.997541373	-61.0607098584	-110.092930825	-23.2144726413	-30.5977909838
127500000.0	-22.2133096453	-28.3865329376	-20.9334803238	-120.811277781	-60.8197820781	-105.066974401	-23.2152962606	-30.2171882652
128187500.0	-22.6317270336	-29.7118305846	-20.062613968	-122.002370549	-61.1030556053	-94.742376884	-23.2258096697	-29.7972915503
128875000.0	-22.9828122922	-30.8932664729	-19.1395057096	-123.660936203	-60.8409080473	-94.1960647127	-23.2267266351	-29.3342867265
129562500.0	-23.2996700145	-32.0490333824	-18.2506632896	-125.855384737	-60.6407903195	-93.0088179287	-23.2334174332	-28.8466508151
130250000.0	-23.587697824	-33.1485197633	-17.3522117087	-128.624846984	-60.870652979	-92.8401164313	-23.2427418257	-28.3462038488
130937500.0	-23.8336686199	-34.3249144978	-16.514485622	-131.883720068	-61.0345175653	-92.3198908926	-23.2483652009	-27.7828188172
131625000.0	-24.0747928721	-35.3369050569	-15.6934472838	-135.629053811	-61.2035717838	-92.3032283202	-23.2439159297	-27.2428296164
132312500.0	-24.2848801362	-36.3829781086	-14.9592916734	-139.766635092	-61.4614792146	-93.329994443	-23.2527424922	-26.6438768659
133000000.0	-24.4781219519	-37.4088095123	-14.2666249683	-144.278597091	-61.4680642608	-94.6980086515	-23.2656920765	-26.0857864222
133687500.0	-24.6476465428	-38.4550211401	-13.6508698564	-148.970990843	-61.5634027717	-104.120557607	-23.2725623301	-25.4392594706
134375000.0	-24.8094000229	-39.445719239	-13.0845350218	-153.820528762	-60.7569641394	-103.840584543	-23.2814227521	-24.8457112563
135062500.0	-24.9400658171	-40.5120244505	-12.5854732592	-158.668468226	-61.2789312662	-103.034252453	-23.2893812638	-24.2849304974
135750000.0	-25.0573196452	-41.4982089986	-12.1405108896	-163.590244326	-61.4884479959	-100.431351958	-23.2906371199	-23.7445496261
136437500.0	-25.1391159393	-42.4693428944	-11.7525100589	-168.511549321	-61.4088187262	-98.4524623008	-23.3017684043	-23.197144553
137125000.0	-25.1996626997	-43.4793021062	-11.4119837625	-173.461740918	-61.3629336982	-102.194704045	-23.3239983907	-22.6388506261
137812500.0	-25.2204484583	-44.3401740171	-11.1161036993	-178.300778084	-61.1599498507	-100.269066492	-23.3326163919	-22.0130779742
138500000.0	-25.1994503336	-45.2683039941	-10.8624123043	176.905176027	-61.1605457952	-84.9478465253	-23.3527274072	-21.511097886
139187500.0	-25.1211762583	-46.2136871812	-10.6495457479	172.218826324	-61.1785921826	-80.4932414688	-23.3612736681	-20.9334140179
139875000.0	-24.9822293172	-47.214463468	-10.4724261493	167.607956819	-61.1236043865	-69.8347502808	-23.3814966195	-20.3317223199
140562500.0	-24.7857507496	-48.3962375644	-10.3242546881	163.140525649	-61.0553581152	-69.3043184882	-23.4127187979	-19.8546465122
141250000.0	-24.4807981337	-49.8269396386	-10.2066126891	158.760588118	-60.771694663	-78.2323341966	-23.4323861399	-19.3538209013
141937500.0	-24.0951772064	-51.8554739129	-10.1130766261	154.549421015	-61.1652781548	-78.9966072653	-23.4467982075	-18.9312893781
142625000.0	-23.6353695632	-54.5626271963	-10.0450793993	150.439312009	-61.3122068345	-86.8843900073	-23.4523108051	-18.5080686151
143312500.0	-23.1945591666	-58.3884014785	-9.99499126409	146.460057699	-61.4137397648	-89.3152473026	-23.4727704875	-18.0182657299
144000000.0	-22.7875129721	-63.0573280834	-9.96266579434	142.602862775	-61.5933974907	-99.4398341375	-23.4907770434	-17.6748636361
144687500.0	-22.5297289046	-68.1272975022	-9.9425590912	138.891727861	-61.6812914672	-102.901678809	-23.5227636595	-17.2776733723
145375000.0	-22.2882184772	-73.3504125113	-9.93448904784	135.300565727	-61.7584442841	-113.81164762	-23.5458972027	-16.9147981562
146062500.0	-22.1271199486	-78.5996059814	-9.93837395087	131.82299048	-61.9255351994	-126.694651748	-23.5722316073	-16.4999068581
146750000.0	-21.9820059159	-83.8611804147	-9.94899186224	128.44316862	-61.8080980577	-141.104529936	-23.6008522062	-16.1009002951
147437500.0	-21.8884447632	-89.0812352336	-9.97193939021	125.185924555	-61.8122104641	-149.971888274	-23.6157968909	-15.7739142838
148125000.0	-21.814610519	-94.208844372	-9.99539275223	122.035206302	-61.7640484444	-163.958192064	-23.6372715043	-15.471792275
148812500.0	-21.7628917038	-99.4704932853	-10.0277896777	118.98353306	-61.833006097	171.225448615	-23.6607670855	-15.1276485048
149500000.0	-21.7203159523	-104.535299454	-10.0603678417	116.03352241	-61.6882841939	155.859570886	-23.6796773287	-14.7656786714
150187500.0	-21.708031756	-109.642459456	-10.1014186566	113.170926803	-61.2985804455	131.547166589	-23.6975294933	-14.4601329358
150875000.0	-21.6985046231	-114.499274644	-10.1391916424	110.385055193	-61.3822793487	115.138729555	-23.7104007837	-14.1880180931
151562500.0	-21.6942772726	-119.508811331	-10.1844056009	107.684854489	-61.4571920875	87.6197207265	-23.732449158	-13.9018374349
152250000.0	-21.7048567286	-124.219394669	-10.2263569774	105.060221706	-61.0949644412	70.9748277374	-23.7480564694	-13.5254555296
152937500.0	-21.7152670583	-128.994665275	-10.2774021138	102.521100823	-60.8871651363	41.6427581264	-23.7715671697	-13.1573782168
153625000.0	-21.7389981223	-133.520310936	-10.3202653632	100.039242053	-61.2176259672	23.183813549	-23.7924033344	-12.7198497098
154312500.0	-21.751529564	-138.052765253	-10.3689845234	97.6319703775	-61.1978458679	1.02868176068	-23.7973816552	-12.403827471
155000000.0	-21.789562457	-142.542014824	-10.4148813361	95.2579226662	-61.259445553	-15.5522666665	-23.818268035	-12.0719884592
155687500.0	-21.8026568648	-146.898545616	-10.4640902296	92.9642590828	-60.8411310859	-44.8128655092	-23.8406094455	-11.6548462825
156375000.0	-21.8533517626	-151.194455787	-10.5103807979	90.7179435447	-61.5279694733	-69.5982011515	-23.8542381912	-11.2273896322
157062500.0	-21.8771617152	-155.367593095	-10.5600876484	88.5277976141	-61.1837291866	-96.5819552517	-23.8625390492	-10.788094495
157750000.0	-21.9195761194	-159.458004754	-10.6085166291	86.3586110577	-61.3918536221	-116.876197113	-23.8679768999	-10.3009542601
158437500.0	-21.9476312401	-163.406713655	-10.6563665463	84.2546674565	-61.5323138826	-132.879161695	-23.8806614814	-9.7879495431
159125000.0	-21.9864999522	-167.329633584	-10.6994461492	82.1884679176	-61.1031979336	-148.633985476	-23.8976838935	-9.2561283781
159812500.0	-22.0173529194	-171.095657456	-10.7445388632	80.1816800569	-60.6466876797	-166.334493206	-23.9281630596	-8.74486758272
160500000.0	-22.0635028401	-174.925746909	-10.7879497299	78.2023924068	-60.1630571263	166.620734952	-23.9438006371	-8.30161228525
161187500.0	-22.0994044067	-178.499816436	-10.8331939694	76.2690223033	-60.3286753501	141.80428417	-23.9641135445	-7.80765774159
161875000.0	-22.1397610582	177.883008776	-10.8746028838	74.3383081881	-60.0450438705	117.338642813	-23.9830504039	-7.26093655683
162562500.0	-22.1941894253	174.437640025	-10.916756863	72.4721649584	-59.6683785582	103.672244858	-24.006632179	-6.75771345277
163250000.0	-22.2258812126	170.931192095	-10.9590437674	70.6224394352	-59.654626186	91.2856004426	-24.0439807713	-6.21599214964
163937500.0	-22.2815189593	167.625384306	-10.9998269154	68.839104903	-59.9492052689	83.2422057225	-24.0751169571	-5.78877694673
164625000.0	-22.3205637193	164.265500651	-11.0390635576	67.0325389124	-60.0346819871	64.2553130017	-24.1182928703	-5.33010865365
165312500.0	-22.3855748625	161.063521638	-11.0807840202	65.2830526268	-60.1589580924	49.9007068979	-24.1563084462	-4.83080322266
166000000.0	-22.4334826321	157.926159387	-11.1193612769	63.5513395752	-59.6870056935	37.204305809	-24.2076903337	-4.37364767503
166687500.0	-22.5195498203	154.739224677	-11.1569052277	61.8608146113	-59.7443920454	15.0099487785	-24.2591965366	-3.95295100061
167375000.0	-22.5874972117	151.770220661	-11.1929839229	60.1806550801	-59.8380230539	2.5666889589	-24.3288215331	-3.49934188529
168062500.0	-22.6739850467	148.648250947	-11.2284271963	58.5353263311	-60.0070863851	-21.4388427983	-24.3912862511	-3.12817929588
168750000.0	-22.7563604255	145.739388893	-11.264041608	56.9287755034	-60.1637678784	-33.5248418302	-24.465644723	-2.75841549161
169437500.0	-22.850157966	142.648084067	-11.2996694796	55.328868082	-60.1621836729	-53.5019667023	-24.5318191289	-2.46167552803
170125000.0	-22.9405415733	139.739513766	-11.3297248299	53.7476262259	-60.1304306408	-67.5851578952	-24.6068930062	-2.22026313201
170812500.0	-23.045178448	136.679448453	-11.363578587	52.1923026131	-60.3695029219	-87.133871983	-24.6851543858	-1.99792678577
171500000.0	-23.1525870774	133.748117078	-11.3955512804	50.6658572745	-60.4183012844	-100.251622226	-24.7821297913	-1.88044618228
172187500.0	-23.2560829243	130.562801685	-11.4242958199	49.1612911654	-60.4948202003	-125.565869756	-24.8667892046	-1.78298681747
172875000.0	-23.3758578385	127.534985234	-11.4514410166	47.6788006297	-60.4399610763	-138.664230196	-24.9494816364	-1.74838887833
173562500.0	-23.4800768123	124.36449084	-11.4785468998	46.2066134919	-60.3038118174	-159.288354857	-25.051250867	-1.74252575574
174250000.0	-23.5989547503	121.219037341	-11.4998846837	44.7761211895	-60.2252747861	174.803882259	-25.1472228099	-1.81879572777
174937500.0	-23.6820250032	117.937900734	-11.5216432286	43.3601098906	-60.1128311436	155.489516388	-25.2406721085	-1.95747987847
175625000.0	-23.7844496136	114.696243387	-11.5408329055	41.9510562129	-59.9410042748	140.856901915	-25.3268749625	-2.19267017645
176312500.0	-23.8762853285	111.251857585	-11.5638027474	40.5566668596	-60.114231715	117.355418327	-25.4272247481	-2.42821029972
177000000.0	-23.9696011038	107.812136801	-11.5777104327	39.1659808775	-60.474438519	104.291040636	-25.531663461	-2.79582890811
177687500.0	-24.0230411661	104.394031728	-11.594529423	37.7908166915	-60.7804715257	90.7044912625	-25.6351593321	-3.08233038992
178375000.0	-24.0999157695	100.885401141	-11.6043806172	36.4291028338	-60.6901981712	75.2974745946	-25.7262625295	-3.42002147088
179062500.0	-24.1402134642	97.4345562613	-11.6190391965	35.0908039396	-61.1801991637	49.9287499873	-25.8250584861	-3.82516464637
179750000.0	-24.1841500981	93.8715365829	-11.6295062182	33.724556781	-61.0450682964	22.6408916241	-25.907553102	-4.2718169979
180437500.0	-24.2216461701	90.3370565801	-11.6412740403	32.3916149938	-61.1130819439	-2.70568776681	-25.9746076577	-4.90375396619
181125000.0	-24.241186929	86.6032053801	-11.6478434869	31.0452772194	-61.0474343836	-30.4910774197	-26.0457522506	-5.34590075751
181812500.0	-24.2438064795	83.099889249	-11.6542178597	29.7383906789	-60.6911133896	-50.4726221107	-26.1153862497	-5.84495319516
182500000.0	-24.2355186529	79.3396491502	-11.6579362252	28.4258925411	-60.488314797	-70.9176293669	-26.1824044426	-6.25645490639
183187500.0	-24.2195308245	75.7902419684	-11.664587219	27.1319720059	-60.8520165747	-89.5873140332	-26.2414146767	-6.76665058325
183875000.0	-24.1730086329	72.2038879939	-11.6669573389	25.796957952	-60.6943734724	-107.696658739	-26.2794747661	-7.20319535845
184562500.0	-24.1386392291	68.6022930414	-11.6710173472	24.5088399049	-60.7031884512	-137.660126796	-26.3016739719	-7.82732855467
185250000.0	-24.0756255788	65.0007721442	-11.6722892267	23.2132179787	-60.8266211976	-165.431240117	-26.3201288497	-8.26729291976
185937500.0	-24.0177502672	61.4703951148	-11.6730334943	21.9276674979	-61.0706882552	167.049813661	-26.3349874437	-8.72291322212
186625000.0	-23.938108896	58.0220992043	-11.6695753646	20.6293458497	-61.0331961161	145.722770412	-26.3570384701	-9.05595347109
187312500.0	-23.8650306708	54.5478990663	-11.6663376241	19.3575719112	-61.1711067581	120.289101017	-26.3547375066	-9.3515965044
188000000.0	-23.7625898669	51.1770994933	-11.6631949913	18.0684512274	-61.239837633	100.628760351	-26.3406595112	-9.68416214982
188687500.0	-23.6756866925	47.7543048513	-11.6588644488	16.8076342796	-61.3231859827	82.9891807017	-26.3129353275	-9.90463894639
189375000.0	-23.570945508	44.5905003774	-11.6556243567	15.5274567952	-61.4341987531	68.9934576864	-26.3005669783	-10.0694341066
190062500.0	-23.4845589729	41.3203572275	-11.6493213673	14.2699918315	-61.6355969414	43.6049804434	-26.2726623775	-10.1795483966
190750000.0	-23.3826415174	38.1645070116	-11.6420929683	12.9922887003	-61.1704640012	20.4296297123	-26.2303868559	-10.2087871973
191437500.0	-23.2934487424	35.02039051	-11.636407091	11.725742609	-61.3106815803	4.74976166479	-26.1902575817	-10.2376035461
192125000.0	-23.2070668628	32.0829055455	-11.6292308713	10.4554521194	-61.2404371762	-22.6801814008	-26.1399082991	-10.20104099
192812500.0	-23.1189949799	28.9581175481	-11.6218145547	9.21419243835	-61.8969062245	-62.11572658	-26.1024459382	-10.0867695313
193500000.0	-23.039728514	26.1581478436	-11.6116202492	7.95329351424	-62.3710633515	-92.4674130487	-26.0443360766	-9.93369651311
194187500.0	-22.9615376311	23.251803808	-11.6049155495	6.70780970383	-62.2812332791	-134.847574591	-25.9765997283	-9.69130102427
194875000.0	-22.9135469499	20.4318945094	-11.597361744	5.45712724296	-62.110223658	-173.109983333	-25.9086379338	-9.440860264
195562500.0	-22.8470138342	17.5358443043	-11.5895040784	4.21391425918	-62.0668755972	158.854246541	-25.8532221278	-9.0844861051
196250000.0	-22.8246060448	14.7046530368	-11.5795059893	2.96476873193	-62.2512217518	129.963205772	-25.791754424	-8.80188173474
196937500.0	-22.7734148968	11.7644447687	-11.5694729648	1.74384241083	-62.6745393949	101.561297192	-25.7221626158	-8.34823037498
197625000.0	-22.747012816	8.86418670852	-11.5557285689	0.519779350377	-62.6594707994	69.1794572715	-25.6528196774	-7.85769302548
198312500.0	-22.7136629165	6.04003409473	-11.5452816045	-0.702789105191	-62.6897466675	39.8362023588	-25.5872268669	-7.46029784118
199000000.0	-22.7118558896	3.0321346184	-11.5326726584	-1.91982921594	-62.8392187444	15.2253743084	-25.524547258	-7.11947846042
199687500.0	-22.6890045269	0.163816507456	-11.5201391042	-3.14351974261	-63.0385504576	-2.26062246932	-25.4691370908	-6.71767645809
200375000.0	-22.6918576338	-2.86341683994	-11.5045350235	-4.35579556634	-62.9049822558	-12.7874428688	-25.4071675057	-6.23351339914
201062500.0	-22.6745601456	-5.83296648905	-11.493159693	-5.55461203454	-62.9483631491	-10.0889931037	-25.365604502	-5.82201092926
201750000.0	-22.6644216114	-8.91005070989	-11.4766269378	-6.7602270613	-63.0487179829	5.49802404981	-25.3199236264	-5.27628607454
202437500.0	-22.6495000873	-11.8885188788	-11.463620335	-7.95286708733	-63.1642496952	20.1872464703	-25.283742802	-4.78773027455
203125000.0	-22.6413192679	-15.0233028673	-11.4459327152	-9.15969962717	-62.8898570501	33.5020088943	-25.2417549327	-4.34473995032
203812500.0	-22.616918173	-18.0514234908	-11.4351844522	-10.3443941516	-62.8964133609	40.5069550122	-25.205466807	-3.94141437534
204500000.0	-22.6025268978	-21.2569059655	-11.4169977093	-11.5454005482	-62.6901303678	54.3576845883	-25.172326912	-3.60046692147
