#Frequency	|S11|	<S11	|S21|	<S21	|S12|	<S12	|S22|	<S22
100000000.0	-17.6428528099	144.863005231	-28.3392519682	-123.807685567	-59.316179675	20.0433110636	-20.151422505	-32.8777581276
100687500.0	-17.6163022602	142.164428701	-27.8701841353	-125.256733718	-60.0237661637	-39.7570892683	-20.2853883116	-32.724460487
101375000.0	-17.5992862114	139.023638136	-27.4958028103	-126.892728203	-59.987208412	-98.4940019121	-20.346454296	-32.1585556367
102062500.0	-17.582086891	135.820472487	-27.180645438	-128.247159985	-60.890095501	-135.757105943	-20.4081308289	-31.4613371163
102750000.0	-17.559398148	132.664075803	-26.817956909	-129.731389099	-60.779208466	-154.731059039	-20.4769141598	-30.7994443512
103437500.0	-17.5478061531	129.508686343	-26.4838260428	-131.227962857	-60.9910552228	177.08255806	-20.5249202275	-30.1016305067
104125000.0	-17.5349931849	126.306786912	-26.1626989447	-132.660051941	-60.3998251073	163.924549177	-20.585786892	-29.3628490949
104812500.0	-17.5231241421	123.084542313	-25.8846667087	-134.059861988	-61.1895768793	142.449341531	-20.6709015943	-28.7986701623
105500000.0	-17.5151882144	119.831159421	-25.6137495437	-135.398861593	-61.4029588869	114.28490622	-20.7595490613	-28.2794200572
106187500.0	-17.5155706607	116.500108923	-25.3812016747	-136.883598045	-61.4400331079	74.2462890148	-20.8521911444	-27.8057885847
106875000.0	-17.5214122401	113.102320178	-25.1801721632	-138.192360393	-61.5054505556	56.3354853088	-20.9518424004	-27.351412255
107562500.0	-17.5421041078	109.615356863	-25.0113701714	-139.519560496	-61.5050036944	37.8939052911	-21.0698795526	-26.8612408328
108250000.0	-17.5638097793	105.986378251	-24.8805702372	-140.724576681	-61.1794098445	28.3151064103	-21.1797478259	-26.5091916879
108937500.0	-17.5777046816	102.478044	-24.690120831	-141.942880593	-61.3196583941	15.84658661	-21.2695271214	-26.0516966758
109625000.0	-17.596662385	98.883783796	-24.5279543272	-143.145565382	-61.7801152588	1.72250961359	-21.3630345176	-25.6275330502
110312500.0	-17.6111947724	95.2449755455	-24.396909221	-144.202547624	-61.3482438011	-8.55447069409	-21.4770497356	-25.1589517967
111000000.0	-17.6419153575	91.4858409748	-24.292896135	-145.108441025	-61.5052885516	-13.3687647191	-21.5818907358	-24.753915085
111687500.0	-17.6657289979	87.6468522789	-24.2231472262	-145.901918804	-61.4962182956	-14.7899344285	-21.6931183013	-24.432648155
112375000.0	-17.7020971148	83.7476639938	-24.1679103494	-146.423743074	-61.2166403634	-23.4755903181	-21.8040400562	-24.1608832846
113062500.0	-17.7338081551	79.7287524358	-24.1399357301	-146.596984309	-61.2249299376	-33.7907929363	-21.9177857189	-23.8721176298
113750000.0	-17.7802879842	75.6239539928	-24.1222488311	-146.374879724	-60.9642112729	-40.8089311281	-22.0351805816	-23.673279998
114437500.0	-17.8202262622	71.4176288107	-24.1070010355	-145.736216806	-61.0522018468	-43.7983056573	-22.1663709865	-23.510963732
115125000.0	-17.8744113551	67.0494785703	-24.0682306975	-144.651109944	-61.1651539504	-33.9770089985	-22.2996437708	-23.43827013
115812500.0	-17.9183913569	62.5433841367	-23.9807041241	-143.234275499	-61.1085540742	-32.8867662516	-22.4381045025	-23.3355951921
116500000.0	-17.982437376	57.8713464609	-23.8466336788	-141.546337673	-61.3056148317	-32.7401989508	-22.5713286167	-23.3166485164
117187500.0	-18.0467400473	53.1124013257	-23.6532428855	-139.673304754	-61.2364605058	-32.455369198	-22.710644144	-23.2771761266
117875000.0	-18.124254527	48.2094936602	-23.3997900513	-137.743905497	-61.3187228585	-34.2953733884	-22.8518471773	-23.2092836871
118562500.0	-18.2153851797	43.114364037	-23.0860793606	-135.6946114	-60.415595163	-39.5704880943	-22.9924153842	-23.1989351621
119250000.0	-18.3129835453	37.8762474929	-22.7296939454	-133.764473435	-60.6885401914	-38.8074998491	-23.1304371462	-23.1903190151
119937500.0	-18.4375896022	32.4638065342	-22.3146786334	-131.816157271	-60.5474749125	-26.3906658524	-23.2603728708	-23.2380502835
120625000.0	-18.5636497479	26.887593789	-21.8470068877	-129.95774811	-61.0863229409	-15.0593073883	-23.399793832	-23.3047940476
121312500.0	-18.7332267174	21.1133839879	-21.3389305997	-128.178376265	-60.9325640504	-11.9774571646	-23.526903711	-23.4329984521
122000000.0	-18.9136509204	15.1688988436	-20.78403886	-126.644215674	-61.100224524	-22.4268173477	-23.6714530333	-23.5983300476
122687500.0	-19.1560797974	9.02279670177	-20.1889510409	-125.248616756	-60.9111066115	-24.7888354179	-23.8022544903	-23.8295898796
123375000.0	-19.4168509673	2.73896772768	-19.5544529816	-124.066576018	-60.8794313255	-29.5948726763	-23.9284496998	-23.9918139394
124062500.0	-19.7511299837	-3.69115460598	-18.8924964686	-123.005850506	-60.6940971791	-33.2172328726	-24.0499721079	-24.2758244205
124750000.0	-20.1540133607	-10.2112629642	-18.1955265035	-122.258874885	-61.1552139512	-41.6845487166	-24.182664336	-24.4394192387
125437500.0	-20.6292807454	-16.7835407532	-17.4683272432	-121.670594618	-61.0739385109	-49.6587971156	-24.2872233367	-24.71743754
126125000.0	-21.2468030374	-23.1856515388	-16.7121592099	-121.392151847	-61.0185603654	-64.2747589486	-24.4222760545	-24.9978506748
126812500.0	-21.9922811344	-28.8791834302	-15.9291278903	-121.298314192	-60.9821666738	-79.2593377976	-24.5267767557	-25.3262435326
127500000.0	-22.8645444714	-32.9922009312	-15.1192851717	-121.572659509	-60.9150252925	-103.443772343	-24.6275356556	-25.6678133903
128187500.0	-23.6742711444	-35.844585603	-14.2805199398	-122.077003501	-60.8626556931	-125.011529626	-24.7238379866	-26.0179118901
128875000.0	-24.2858469287	-38.1900325587	-13.4108709928	-122.982803751	-60.5749893313	-136.453513968	-24.8061275803	-26.3447753914
129562500.0	-24.8176886668	-40.3366400173	-12.5263536447	-124.280826861	-60.816155144	-139.366530735	-24.8892862311	-26.7459213133
130250000.0	-25.2745540656	-42.443513831	-11.6198267727	-126.093477634	-61.2175772663	-140.935405836	-24.9787043374	-27.1642322151
130937500.0	-25.6650849079	-44.4508709056	-10.7205911427	-128.405390711	-61.3794157195	-141.467370794	-25.0443999985	-27.5257402532
131625000.0	-26.0122521561	-46.4635503946	-9.8236089671	-131.320921576	-61.7752090196	-152.332052775	-25.1065795603	-28.0297187387
132312500.0	-26.3121704971	-48.4431390764	-8.96464848717	-134.755787226	-61.8991714732	-164.33815877	-25.1497822244	-28.3577284815
133000000.0	-26.5923929482	-50.4292958712	-8.15264922692	-138.699797737	-61.9043016064	-179.187785483	-25.1849018347	-28.8857514855
133687500.0	-26.823933263	-52.4281173153	-7.40819128794	-143.016927001	-62.0278015635	176.831751397	-25.2210865506	-29.2661219216
134375000.0	-27.035660838	-54.3802003065	-6.72531277122	-147.633621169	-62.1740854195	164.508824983	-25.2406522576	-29.8884011931
135062500.0	-27.1998883988	-56.4003171598	-6.11547714799	-152.442400837	-62.2890834846	158.150551047	-25.2426295668	-30.4633150327
135750000.0	-27.3495106089	-58.2609422268	-5.56206186158	-157.415632338	-62.3223120195	159.294795164	-25.2305591175	-31.0483237342
136437500.0	-27.4578573496	-60.1319318971	-5.07652963772	-162.445473	-62.184383615	147.150321942	-25.2246468486	-31.6410301703
137125000.0	-27.5473818265	-61.93060123	-4.6437818821	-167.519340598	-61.9564016732	136.025558948	-25.2087952606	-32.2795231198
137812500.0	-27.603267592	-63.573322215	-4.2723154933	-172.5799287	-61.5941827608	126.09627674	-25.1819405249	-32.7966102308
138500000.0	-27.624221339	-65.0802899016	-3.94717325839	-177.613704252	-61.8650219198	127.10028141	-25.1468261477	-33.4595990102
139187500.0	-27.6044612702	-66.4732520329	-3.67566593664	177.4332404	-61.689941695	130.918481913	-25.0939257528	-33.9715028936
139875000.0	-27.5202893986	-67.7144460614	-3.44249791445	172.565509825	-61.5542610633	132.885498136	-25.0345079549	-34.5288460712
140562500.0	-27.4118581602	-68.9032779837	-3.25084289462	167.810226853	-61.6319426727	133.431319456	-24.9793466579	-35.1657845892
141250000.0	-27.2210103613	-69.9442010339	-3.0929761146	163.182064878	-61.6947679065	136.699853848	-24.8983346478	-35.7445070079
141937500.0	-26.9593291168	-70.8820338677	-2.96681915902	158.685065902	-61.5770472723	141.98483522	-24.8158821059	-36.3450528744
142625000.0	-26.6145854939	-71.7739859237	-2.86613337998	154.334070867	-61.4923565715	147.774777162	-24.7271222746	-36.822763281
143312500.0	-26.1219006403	-72.8145717993	-2.79285745988	150.131888517	-61.4656310271	161.938279395	-24.6258563373	-37.3276007373
144000000.0	-25.4902967948	-74.5664606047	-2.73599308814	146.065690249	-61.3740569412	175.333652784	-24.5207511361	-37.75927728
144687500.0	-24.7465443786	-77.9126901792	-2.69843367385	142.144569988	-62.0290602721	-164.199681081	-24.4127322412	-38.2134346138
145375000.0	-24.0402068654	-82.4023124351	-2.67374088796	138.356092788	-62.0716040057	-147.322218564	-24.3014930518	-38.6708688555
146062500.0	-23.5383333805	-87.3668565095	-2.66326477023	134.704641217	-62.0907832175	-130.89045634	-24.1932964755	-39.0309724356
146750000.0	-23.1035514333	-92.5010653515	-2.66373833132	131.167760341	-61.5779843715	-125.836834565	-24.0826638377	-39.2965952582
147437500.0	-22.7541702561	-97.5669303296	-2.67326963133	127.758592352	-61.3955133086	-111.07984566	-23.9435083207	-39.6107298952
148125000.0	-22.4555243274	-102.707443443	-2.68767180043	124.455636583	-61.3193735682	-98.8370416007	-23.8122996299	-39.82255952
148812500.0	-22.2195108526	-107.82026174	-2.71161819789	121.263897185	-60.9892670654	-87.2120518823	-23.666688964	-39.908836077
149500000.0	-22.006988614	-112.792052515	-2.73667845358	118.178443984	-60.6696061365	-77.3398309989	-23.5458603015	-39.9882094814
150187500.0	-21.8356729466	-117.683012812	-2.77051420584	115.187912448	-60.965944509	-58.9794098076	-23.412510116	-39.9666308885
150875000.0	-21.6946950204	-122.395533501	-2.80229025089	112.288980811	-60.7162481026	-40.5946114742	-23.2809402958	-39.932300728
151562500.0	-21.5687238648	-127.103512612	-2.83842324091	109.478893537	-60.4874141106	-10.3513998109	-23.1462153786	-39.7481799911
152250000.0	-21.4807816801	-131.623330459	-2.87346034737	106.740031006	-60.4542130638	15.4107310836	-23.0285261441	-39.4597808426
152937500.0	-21.3938146946	-136.126736119	-2.91602215912	104.077890774	-60.527935696	42.0080584199	-22.9026092097	-39.2166224078
153625000.0	-21.3467045969	-140.472186173	-2.95407640604	101.483298001	-60.386966558	70.7567994911	-22.7876122303	-38.8260734215
154312500.0	-21.2859780708	-144.760772644	-2.99791064063	98.9609059926	-60.3327804894	99.2338508005	-22.657687023	-38.3982898712
155000000.0	-21.2594701359	-149.060284603	-3.04023796699	96.4874667367	-60.1757091868	129.266640254	-22.5388283866	-37.8981416286
155687500.0	-21.2221178466	-153.24270381	-3.08530311491	94.0933762862	-59.7531458358	155.450593361	-22.4225116203	-37.2914810893
156375000.0	-21.2227279731	-157.4243679	-3.12644464717	91.7448226716	-59.5809013281	-177.978585312	-22.3102064866	-36.7025700388
157062500.0	-21.2096792694	-161.550949486	-3.17156846553	89.4598290064	-60.1094189678	-148.899654736	-22.1975097511	-36.0071114662
157750000.0	-21.2109325535	-165.5702402	-3.21380356881	87.2093965812	-60.0938875405	-116.725187544	-22.0785420711	-35.276962505
158437500.0	-21.2059442625	-169.501527572	-3.2587985601	85.0043776078	-59.8793465101	-89.4116667194	-21.9821432682	-34.4062255984
159125000.0	-21.2094494341	-173.412402622	-3.30024997382	82.8551203083	-60.04185598	-61.7340605285	-21.8924834417	-33.522839763
159812500.0	-21.2173866484	-177.306867972	-3.34422539564	80.7457353402	-60.1699942759	-42.2538800302	-21.8075856013	-32.6550863314
160500000.0	-21.2295817915	178.843728375	-3.38458366601	78.6691373532	-60.2245448165	-24.9298661252	-21.7272299622	-31.7650107886
161187500.0	-21.2437721062	175.088119017	-3.42951988156	76.6347936158	-60.092452839	-7.57738507397	-21.6563700612	-30.8180539305
161875000.0	-21.2503245302	171.431941631	-3.47013007088	74.6295058	-59.6844206549	-0.0365664991761	-21.5959402483	-29.8443967243
162562500.0	-21.2747665409	167.714573812	-3.51267937172	72.6710958403	-59.4164635482	11.603003507	-21.5375196175	-28.82427432
163250000.0	-21.2802671571	164.085595684	-3.5518845062	70.732621615	-59.8477036725	17.4510841458	-21.4939934832	-27.7576743769
163937500.0	-21.300757449	160.528462229	-3.59330905868	68.8421641465	-59.7139233468	31.6055239128	-21.4401543173	-26.693393446
164625000.0	-21.3031110368	156.981137194	-3.63169756474	66.9845935047	-59.4114801441	34.454593384	-21.4141976561	-25.5714287549
165312500.0	-21.3265148119	153.479969532	-3.67449121322	65.1659387563	-59.7118335204	25.9806634828	-21.3952691837	-24.4773732308
166000000.0	-21.3263173362	150.085824347	-3.71014501014	63.3729949091	-59.7982664126	27.7352532517	-21.3809217186	-23.4138217855
166687500.0	-21.3496872954	146.691083229	-3.74982852742	61.6026241731	-59.8680626061	22.1379241466	-21.3667320489	-22.3104171326
167375000.0	-21.3490525563	143.422481931	-3.7857211207	59.8634422116	-59.9651286995	8.30920321422	-21.3663974462	-21.2425866299
168062500.0	-21.3599273986	140.110319749	-3.82393221293	58.156920114	-60.2184387333	-7.65266336548	-21.3645264663	-20.23835757
168750000.0	-21.3649336805	136.86309453	-3.85822416431	56.4776381402	-60.291290906	-34.3042824507	-21.3890228024	-19.1646530244
169437500.0	-21.3687409491	133.635565398	-3.89462644662	54.829738679	-60.1295363623	-50.2560606248	-21.4099316234	-18.1812129607
170125000.0	-21.376284023	130.470278709	-3.92458109681	53.2011483252	-60.3766754644	-65.9311428545	-21.453514953	-17.121643026
170812500.0	-21.3797396262	127.30011834	-3.95684345062	51.5895966031	-60.5725996625	-75.6671173898	-21.4957623541	-16.1217203602
171500000.0	-21.388962661	124.200872868	-3.9858362079	50.0110199445	-61.2823233217	-96.3937305238	-21.555191532	-15.1047567708
172187500.0	-21.3918018072	121.150753294	-4.01422968293	48.466370039	-61.1795522925	-109.975202935	-21.6304266244	-14.203515382
172875000.0	-21.4027745289	118.059467724	-4.04107681266	46.9212678025	-61.4439910119	-118.893236962	-21.700051629	-13.3242085694
173562500.0	-21.3901951077	115.107799777	-4.06879690913	45.4126191463	-61.5755386799	-124.313627571	-21.7928151246	-12.4052940205
174250000.0	-21.4014449811	112.214194598	-4.09083701541	43.9118096318	-60.8452388557	-132.181978842	-21.8894264231	-11.5514815649
174937500.0	-21.3820840829	109.287512427	-4.11301107955	42.4403362198	-61.1712208439	-133.080273007	-22.0093112043	-10.7420788581
175625000.0	-21.3757783598	106.339213895	-4.13163542636	40.9792951409	-61.2124610519	-141.778126368	-22.1241818121	-9.98481755385
176312500.0	-21.3553930785	103.406968323	-4.15277098318	39.5379207731	-60.6087767191	-141.042984036	-22.2444663785	-9.24414704939
177000000.0	-21.3383471739	100.581786482	-4.16839212948	38.1134750554	-60.6938213079	-144.196939046	-22.3831433287	-8.58675233851
177687500.0	-21.2986523503	97.7231646743	-4.18561173668	36.7073030802	-61.1440776559	-156.851598959	-22.5412436604	-7.84976165352
178375000.0	-21.2769730743	94.8748444794	-4.19754059813	35.3046517412	-60.988660675	-157.44263625	-22.7005329681	-7.23218275453
179062500.0	-21.2356942531	92.0838922379	-4.21112126441	33.9211935003	-60.7337099658	-157.584422381	-22.8689942357	-6.70464353698
179750000.0	-21.1957805096	89.3158411041	-4.22024472374	32.5364037668	-61.0567910863	-168.521952299	-23.0369788762	-6.13134394538
180437500.0	-21.1588977083	86.5363302274	-4.23192324186	31.1711909131	-61.0545242862	175.435890999	-23.2111938463	-5.70116500891
181125000.0	-21.1083211655	83.7574860278	-4.23715773279	29.8026458484	-61.463309223	162.0961956	-23.4042503166	-5.2793908233
181812500.0	-21.0638274926	81.0465167436	-4.24514001501	28.4465715011	-61.7075732203	158.122517845	-23.597419604	-4.92530303709
182500000.0	-21.0032727119	78.3626540994	-4.2454667893	27.0983403163	-61.5844848962	156.377780239	-23.8006851526	-4.481773875
183187500.0	-20.940038335	75.6918928014	-4.25067688463	25.7660188446	-61.4380759875	152.000316849	-24.0054602813	-4.12065106353
183875000.0	-20.8668293778	73.1018413897	-4.25056029317	24.4319132737	-61.4119921785	152.490415353	-24.2142739281	-3.95360163303
184562500.0	-20.8056540116	70.4178962716	-4.25174981452	23.1105676253	-61.4544370361	151.546703322	-24.4203032167	-3.81253137631
185250000.0	-20.727445352	67.8474972871	-4.24764341771	21.7846775605	-62.069714587	151.6669112	-24.6502896677	-3.57067112783
185937500.0	-20.6690948569	65.334821542	-4.25042968024	20.4666193752	-62.031231205	150.679915498	-24.862802225	-3.46771965332
186625000.0	-20.6034173058	62.8912125886	-4.24421759834	19.1414342216	-62.2702144506	145.475773641	-25.1058490581	-3.34795994085
187312500.0	-20.5376345838	60.3647332801	-4.24241159758	17.8241254782	-62.1872163632	133.712187097	-25.3128735486	-3.34940143701
188000000.0	-20.4595100925	57.9213875695	-4.23678388727	16.5180053792	-62.2282617325	113.855919441	-25.5372306496	-3.40892651541
188687500.0	-20.4014659177	55.4993874434	-4.23432232902	15.2171923574	-61.5170987008	96.7638666313	-25.7588732857	-3.66494902243
189375000.0	-20.328862473	53.1218600431	-4.2266444301	13.913930798	-61.7355589743	81.4036679366	-25.9784552805	-3.75512007096
190062500.0	-20.2749762413	50.7598920464	-4.22037653895	12.6189585518	-61.6867415256	53.2825793604	-26.1877492017	-3.93843765632
190750000.0	-20.2224408091	48.3817043148	-4.2093046024	11.3223631127	-61.5640115832	31.5525425779	-26.4103159064	-4.19684712171
191437500.0	-20.1818218045	45.9972607132	-4.20256277493	10.043383338	-62.1128473852	1.99258087204	-26.6055190663	-4.60324841114
192125000.0	-20.1465472686	43.7055850959	-4.19284243737	8.75387805413	-62.1425544853	-37.6283560648	-26.8077274166	-4.99031222363
192812500.0	-20.1245510009	41.3516523475	-4.18377073271	7.48213304598	-62.0933785033	-66.2041039265	-26.9991308584	-5.55083030817
193500000.0	-20.1126556672	39.1074787927	-4.17155037647	6.19477396666	-62.2360112662	-96.2694595379	-27.2086636462	-6.22539906285
194187500.0	-20.1034176245	36.7358807042	-4.16427538309	4.91762787639	-62.118630388	-122.810581339	-27.3719031718	-6.99406116183
194875000.0	-20.124460387	34.4489611078	-4.15147456717	3.6307652927	-61.6918355532	-149.201380147	-27.5391511698	-7.88015092699
195562500.0	-20.1312594234	32.1008466251	-4.14021350045	2.36272352598	-62.189341464	-179.064102121	-27.6914034058	-8.74557054592
196250000.0	-20.1625054513	29.6811346151	-4.12800795255	1.09805288075	-62.3566848834	160.463029255	-27.8235782029	-9.81524578563
196937500.0	-20.1900163566	27.2519742023	-4.11711045591	-0.16275502158	-62.404678688	147.790576292	-27.9350683168	-10.792072978
197625000.0	-20.2376136188	24.8215636461	-4.10187274595	-1.41360589485	-61.9801353771	140.522649075	-28.0298733652	-11.947592014
198312500.0	-20.2852886761	22.3715750881	-4.08836759083	-2.66191717341	-61.7680642547	123.717163247	-28.1086645002	-13.1714858501
199000000.0	-20.3571963299	19.8479534615	-4.07088105523	-3.91680355744	-61.5195107658	103.152666996	-28.156332494	-14.4861179748
199687500.0	-20.4130369298	17.296118665	-4.05835677995	-5.16805500063	-61.3712694717	90.0418295747	-28.2166607225	-15.9609566494
200375000.0	-20.5034341932	14.7234165682	-4.04190751092	-6.42338212825	-61.2602493944	72.5647466259	-28.2508496971	-17.43283996
201062500.0	-20.5801655686	12.1137971696	-4.02797561339	-7.66717215024	-61.1414826634	57.5738434499	-28.2858257047	-18.7825123452
201750000.0	-20.6610358033	9.49640163792	-4.01027067229	-8.91768670573	-60.5791867497	43.7049576649	-28.2726455573	-20.2431321776
202437500.0	-20.7422430333	6.82660104979	-3.99644126361	-10.1543444298	-60.2077003775	26.653567084	-28.2544314232	-21.7264449582
203125000.0	-20.8215194613	4.15826127886	-3.9757400148	-11.3981768117	-60.8279769519	13.2647863952	-28.1937924978	-23.2248625057
203812500.0	-20.8901337885	1.37895042449	-3.96035017625	-12.6208185659	-60.9513638623	3.51137789254	-28.1159675999	-24.8113402131
204500000.0	-20.9755932552	-1.33356631982	-3.94038224289	-13.8583793306	-60.9664961118	-6.37716230142	-28.0283892333	-26.260887588
205187500.0	-21.0586924432	-4.02989991717	-3.92268870263	-15.0702361703	-61.3803096496	-8.70231826081	-27.9296284286	-27.6251803421
