#Frequency	|S11|	<S11	|S21|	<S21	|S12|	<S12	|S22|	<S22
100000000.0	-17.3786151684	146.660983265	-44.898638152	-125.924432689	-53.8675979017	4.13257871444	-20.4188590776	-36.6493239732
100687500.0	-17.3239656873	144.286120691	-44.0625003378	-123.237947819	-56.7937029423	140.155896863	-20.5417406191	-35.9298604951
101375000.0	-17.3328707598	141.864435079	-43.5435009464	-120.279305186	-57.4010383853	-121.34412317	-20.5893175178	-35.2682923175
102062500.0	-17.3050522627	139.421173918	-42.8259290772	-121.522383881	-59.2736043053	-30.0787445521	-20.6173031481	-34.6528791729
102750000.0	-17.3040942366	136.854435437	-42.4391368431	-123.418894825	-59.6638689168	40.0655363309	-20.6502830111	-33.981676156
103437500.0	-17.2931988215	134.20614486	-42.1668338921	-124.537903259	-60.3558183246	53.6298570709	-20.6873217267	-33.350498616
104125000.0	-17.3051710645	131.47870592	-41.9058086304	-125.623740715	-61.9101196262	86.8761489622	-20.7549051314	-32.6682958894
104812500.0	-17.3159877145	128.706199377	-41.6841712049	-126.223397073	-61.7293331111	116.287523483	-20.8159868108	-32.0847453181
105500000.0	-17.3383002654	125.783158358	-41.4127922538	-127.395613763	-62.3258096156	160.965889362	-20.8755801215	-31.5404608896
106187500.0	-17.3646276801	122.716025327	-41.104959071	-128.550809363	-62.4659077861	-159.382437836	-20.9502611988	-31.024286552
106875000.0	-17.3869560294	119.573339949	-40.9180958078	-129.444380763	-63.3139354421	-109.707500916	-21.0344285284	-30.6107578801
107562500.0	-17.4179866519	116.309898025	-40.696954212	-130.717046396	-63.4889941024	-62.9608676109	-21.1322302365	-30.1763532373
108250000.0	-17.4465377799	112.857555245	-40.540328014	-131.754649281	-63.1288806478	-24.1366489112	-21.2221021405	-29.8820202002
108937500.0	-17.4720056734	109.657394415	-40.2779091645	-132.587927505	-63.4095489808	20.0225672637	-21.2977919999	-29.4221598109
109625000.0	-17.4958224663	106.372332185	-40.1514980969	-133.640198108	-63.7990489339	62.9847773901	-21.3777307481	-29.0232598844
110312500.0	-17.5153108472	102.984131069	-39.9190815512	-134.477739123	-63.5870253763	93.0610306675	-21.4570936589	-28.6587415946
111000000.0	-17.5396895895	99.4913884016	-39.7748704599	-135.809290573	-63.9203199091	112.412093456	-21.5359833166	-28.3055365667
111687500.0	-17.5595498587	95.8987165585	-39.6536205593	-136.664705134	-64.0693582264	126.460075712	-21.6269040816	-28.0161968485
112375000.0	-17.5906219665	92.1834820937	-39.6501457427	-137.432585322	-63.7345742522	141.412564913	-21.7238883152	-27.7363718752
113062500.0	-17.6124735422	88.3832851962	-39.6581027448	-137.931249307	-63.9721413007	147.739987443	-21.8221939193	-27.5085621018
113750000.0	-17.6424953632	84.4794696081	-39.6334733046	-138.064922282	-63.7099440927	160.614091884	-21.9240880893	-27.3118210052
114437500.0	-17.6605837891	80.4753790886	-39.649796723	-137.673855231	-64.7815486832	177.283470197	-22.0350680111	-27.1437587295
115125000.0	-17.6965435329	76.3246009532	-39.6105239461	-137.106546133	-64.4059448655	-155.463306985	-22.1401997996	-26.9843372567
115812500.0	-17.7151945683	72.0517795632	-39.5931783626	-136.041410348	-64.5082157135	-126.771526547	-22.2510924652	-26.7960768463
116500000.0	-17.7418701929	67.6974144508	-39.4995968668	-134.755065734	-63.88241086	-107.855237845	-22.3542300093	-26.6817883414
117187500.0	-17.7589434873	63.2163983704	-39.3915504142	-133.027318234	-63.6850700755	-90.7742919869	-22.4600551312	-26.6449702477
117875000.0	-17.7947595643	58.6322765081	-39.1917540377	-131.063247112	-63.8006715279	-74.9196487067	-22.5746080866	-26.5491269833
118562500.0	-17.823440187	53.8937870203	-38.9756593713	-129.41076338	-63.4534183564	-61.8469082953	-22.6863840343	-26.4759097653
119250000.0	-17.8663151413	49.0631086052	-38.6828478938	-127.465055069	-62.9391350483	-58.7076922559	-22.7902416534	-26.4186106082
119937500.0	-17.9135929166	44.1154012367	-38.3609849396	-125.462177226	-63.2849534444	-44.8726112832	-22.8987084538	-26.4029980461
120625000.0	-17.9741597315	39.0258358069	-37.9912715971	-123.252544559	-62.9828952883	-39.8528756486	-23.0101350938	-26.4198889286
121312500.0	-18.0485175119	33.8643460064	-37.601081937	-121.57193186	-62.7308654374	-26.5466650202	-23.1120083782	-26.4926260457
122000000.0	-18.1465879624	28.5459391731	-37.1146557281	-119.7368526	-62.1583556725	-24.9793419205	-23.2278846308	-26.5459357073
122687500.0	-18.2810570722	23.0963280752	-36.5730646394	-118.313914377	-61.4286338781	-37.2256238101	-23.3356485699	-26.6252348071
123375000.0	-18.4435278925	17.5370374442	-36.0283882702	-116.605967409	-61.2522176095	-40.5047599766	-23.4290661257	-26.7122310337
124062500.0	-18.6550554393	11.8927256861	-35.4391112709	-115.350172698	-61.0343950216	-54.899274237	-23.5298726819	-26.7500246194
124750000.0	-18.9202160482	6.18334143266	-34.8110235502	-114.187412377	-61.3444776728	-69.3016448107	-23.635480965	-26.7886267681
125437500.0	-19.2494504908	0.330237818312	-34.1335591707	-113.311832402	-61.377430127	-83.2914616948	-23.7354326758	-26.7731258222
126125000.0	-19.65001999	-5.48178120954	-33.4527873576	-112.485919122	-61.3968141969	-97.5501100166	-23.8412184805	-26.8547650838
126812500.0	-20.178197282	-11.1629840001	-32.7033698408	-111.788029621	-61.0084510989	-111.280526411	-23.9406754125	-26.8622755761
127500000.0	-20.8313430879	-16.293233908	-31.9580433145	-111.620092174	-60.9338050651	-125.073496888	-24.0323657302	-27.0008095418
128187500.0	-21.7063918491	-20.7790119254	-31.1738556332	-111.472935144	-60.9463291154	-138.301032658	-24.1245076349	-27.0156531663
128875000.0	-22.5272272803	-23.4893320635	-30.364556524	-111.854886076	-60.7291707253	-150.977496099	-24.2091744389	-27.0976053273
129562500.0	-23.268058801	-24.7853583922	-29.4802921158	-112.265374551	-60.7774202459	-175.775299284	-24.2901366242	-27.1853112056
130250000.0	-23.8818360266	-25.8601531555	-28.5819218313	-113.201950854	-60.5611659915	160.903798111	-24.380176849	-27.2821951759
130937500.0	-24.4061584414	-26.8186305366	-27.6753031484	-114.457239718	-60.5338207752	135.291873132	-24.4522415925	-27.2931696758
131625000.0	-24.856240664	-27.6628323543	-26.7688658139	-116.485897459	-59.7791816721	106.6473714	-24.5131003427	-27.368917723
132312500.0	-25.2651317853	-28.4079854637	-25.8691256381	-118.704825297	-59.7664187923	67.4704460732	-24.5742855953	-27.4272491586
133000000.0	-25.6260283616	-29.1817593668	-24.9925769764	-121.978159852	-59.5667935999	31.3044937502	-24.633912747	-27.6268427811
133687500.0	-25.9594050927	-30.0797339024	-24.1424265911	-125.407633115	-59.5889756624	-2.81462963255	-24.6854217947	-27.7013948345
134375000.0	-26.2746099132	-30.9484843828	-23.3784944702	-129.436547923	-60.4169806911	-43.1920045784	-24.7407372784	-27.8863389557
135062500.0	-26.556470087	-32.0299448181	-22.6438589598	-133.702213374	-60.4097090778	-73.3327131178	-24.7786434685	-28.0570986353
135750000.0	-26.8160967015	-33.0338386583	-21.9843885185	-138.307298543	-60.7618472537	-113.603147815	-24.8133076616	-28.3071375927
136437500.0	-27.0504975193	-34.1423375517	-21.3778824985	-142.823819896	-60.7564818753	-154.218677927	-24.8551615345	-28.5932960502
137125000.0	-27.2671358331	-35.2850056072	-20.8510432001	-147.66954522	-60.4449389284	166.208564027	-24.8907105429	-28.8335547849
137812500.0	-27.4335530544	-36.372423955	-20.358997681	-152.450051408	-60.7283770432	122.854416507	-24.9090910655	-29.0704902522
138500000.0	-27.5877934973	-37.4929985176	-19.9324924157	-157.380488557	-60.8563059703	67.642123084	-24.9313580655	-29.364558804
139187500.0	-27.6920286352	-38.5923387862	-19.550268901	-162.197315853	-61.0432350955	23.0441494805	-24.9373740012	-29.6895085428
139875000.0	-27.7581755141	-39.7350443295	-19.2311722355	-167.077954818	-61.2292101683	-20.6777500256	-24.9399425358	-29.8992303047
140562500.0	-27.7720102751	-40.7301684744	-18.9409077967	-171.801687358	-61.2949000881	-75.1070766103	-24.9494471128	-30.2556650202
141250000.0	-27.7379448127	-41.7973031394	-18.700063154	-176.49919631	-60.8782695376	-130.017607859	-24.9242635194	-30.5754414526
141937500.0	-27.6301446837	-42.7931226894	-18.4931801745	178.950071145	-60.5496568479	173.708253814	-24.9033343518	-30.953531647
142625000.0	-27.4584591773	-43.6915074324	-18.3168950234	174.46252256	-60.4872937057	105.301421852	-24.8708941273	-31.2860583168
143312500.0	-27.184831603	-44.6344538966	-18.1730726617	170.097860185	-60.5871193515	37.117334133	-24.8343957189	-31.6376227461
144000000.0	-26.7921766795	-45.7794628745	-18.0541896491	165.834202682	-60.8347238789	-32.0451964163	-24.7929201611	-31.9782329496
144687500.0	-26.2642414153	-47.3921770089	-17.9596171142	161.710359265	-61.1876506517	-88.6543566133	-24.7635503976	-32.3332301153
145375000.0	-25.5045670473	-49.6628733767	-17.8845955618	157.707348663	-61.017942811	-143.861013096	-24.7150191799	-32.726152012
146062500.0	-24.7957206205	-53.6493586505	-17.8279079932	153.816349506	-60.9233960936	171.946878835	-24.6638373716	-32.9976537959
146750000.0	-24.1558446435	-58.9983424622	-17.7866282196	150.057016515	-60.9921499678	132.15952999	-24.6016499946	-33.1978398772
147437500.0	-23.6456840934	-64.4904789045	-17.7630338472	146.441147154	-61.2768592884	98.1788309935	-24.5324858637	-33.4406153257
148125000.0	-23.2136959861	-70.0746087049	-17.7459299453	142.939690064	-61.21968562	52.4008381649	-24.4587969582	-33.7001868608
148812500.0	-22.8681301009	-75.6800214651	-17.743507685	139.495175845	-60.8117770191	-2.22422924052	-24.3821428682	-33.9110295341
149500000.0	-22.5488389488	-81.2577483561	-17.7437107567	136.207531224	-60.939849924	-45.1944318091	-24.3037866298	-34.0860075719
150187500.0	-22.2888664735	-86.719734855	-17.7543959809	132.991769004	-60.9031117821	-88.5816502751	-24.2243111926	-34.1490065729
150875000.0	-22.0371473488	-91.9523084573	-17.7695726756	129.935636617	-61.1708481036	-126.289905792	-24.1460812366	-34.2383305396
151562500.0	-21.8205050178	-97.1484934459	-17.7936237344	126.901038607	-60.8270818242	-154.478046954	-24.050610947	-34.197842116
152250000.0	-21.6132614916	-101.995588349	-17.817125617	123.992221254	-60.6229612213	166.061407212	-23.9592804453	-34.0999058362
152937500.0	-21.4335635955	-106.735947911	-17.8499690434	121.163942461	-60.319882705	134.363511724	-23.8735562635	-33.9419878077
153625000.0	-21.2612074141	-111.237328919	-17.880935865	118.435492456	-60.3768547868	106.402103359	-23.7874806081	-33.780752275
154312500.0	-21.1074103262	-115.607824953	-17.9208166888	115.761369687	-60.6563169196	76.4568989649	-23.6882279949	-33.5700968146
155000000.0	-20.9885524828	-119.818939386	-17.959153784	113.121730589	-60.4091406606	59.9277084825	-23.6008214072	-33.2905101965
155687500.0	-20.8695576803	-123.878089875	-18.0015863712	110.588600746	-60.1129529479	46.0139439485	-23.5098766157	-32.8381150077
156375000.0	-20.7812224115	-127.761393941	-18.0472759658	108.117426803	-60.0581239704	21.6302571833	-23.4271364852	-32.4019279461
157062500.0	-20.6902664387	-131.443827771	-18.0896946737	105.740491319	-59.9761102114	9.24533789852	-23.3339800025	-31.9403924147
157750000.0	-20.6260509378	-135.099061204	-18.1378296097	103.371054537	-60.1682253527	8.1398587125	-23.2471863233	-31.4071303518
158437500.0	-20.5591990741	-138.55223546	-18.1833757562	101.099954114	-60.3180354928	11.5878806732	-23.1790424174	-30.8495914083
159125000.0	-20.5228955778	-141.868708731	-18.2306450311	98.8419085332	-60.3577950907	26.0027756729	-23.1105289499	-30.2087391683
159812500.0	-20.4806630691	-145.059358042	-18.2720948118	96.6882738202	-60.2376818526	39.0038640801	-23.0355691153	-29.5105695782
160500000.0	-20.4760628787	-148.112011358	-18.3173483855	94.5118020544	-59.8827562339	50.1543759892	-22.9699848523	-28.8521485919
161187500.0	-20.4663064163	-151.056344014	-18.3567441174	92.4674332466	-59.666518908	57.6338041973	-22.8993278434	-28.1146837583
161875000.0	-20.4826520277	-153.925927861	-18.4077187217	90.3809222889	-59.6324577179	60.9306676993	-22.8409611588	-27.3440348459
162562500.0	-20.5162583504	-156.695242147	-18.4507076257	88.4092595926	-59.6978885154	63.7114001252	-22.7868811879	-26.5458708907
163250000.0	-20.560565608	-159.429205728	-18.5012476199	86.4118080177	-59.8355348828	66.9813844578	-22.7516849099	-25.7376028329
163937500.0	-20.6162265811	-162.058737722	-18.5393395095	84.4733692749	-60.1802088341	77.6736680034	-22.7108421402	-24.9406793176
164625000.0	-20.6900324672	-164.66231692	-18.5861215619	82.5115971452	-59.8456928233	80.7655695625	-22.6791581934	-24.1077300435
165312500.0	-20.7775036703	-167.168307709	-18.6280081821	80.658386856	-59.8428554984	84.2395158697	-22.6622101675	-23.2896475017
166000000.0	-20.8725297414	-169.625635027	-18.6726856112	78.8352489095	-59.9511623873	99.1054505837	-22.6564522047	-22.5175294577
166687500.0	-20.9944193617	-172.06769423	-18.7182957648	77.0410501315	-59.7846588648	102.100675042	-22.6498541424	-21.6724596869
167375000.0	-21.1254866207	-174.358426216	-18.7588957959	75.2830317565	-60.816300296	99.7535155949	-22.6630307412	-20.855199128
168062500.0	-21.2841491024	-176.78200485	-18.7997057114	73.5209908288	-60.4491229208	85.494916303	-22.6715249141	-20.0113886018
168750000.0	-21.4435616283	-179.154190691	-18.8377403873	71.8336156071	-59.7208645133	57.998750333	-22.7065170341	-19.241288103
169437500.0	-21.6326907506	178.404734541	-18.882501679	70.1747553507	-59.9105169303	30.5272199011	-22.7385144133	-18.511364973
170125000.0	-21.8323031343	175.995704381	-18.919162738	68.5131393338	-60.1917902935	7.98779164627	-22.7761947486	-17.792523738
170812500.0	-22.0543737928	173.51332616	-18.9621298218	66.867082793	-60.9214103438	-9.55781762925	-22.8263697477	-17.0477163379
171500000.0	-22.2792642656	170.942434852	-18.9930061315	65.290235368	-60.9606885953	-32.615708313	-22.8898156505	-16.3445657652
172187500.0	-22.5411018781	168.265620521	-19.031534687	63.7309146096	-60.927793731	-57.406424574	-22.9635070436	-15.7372895357
172875000.0	-22.7993131978	165.45520445	-19.0600168761	62.1989942468	-61.1049924639	-72.1317621816	-23.0343070091	-15.1201957126
173562500.0	-23.071980256	162.462882584	-19.0925270113	60.6540410313	-61.4487062584	-83.9011556054	-23.124926102	-14.5674255419
174250000.0	-23.3471520594	159.300498664	-19.120872879	59.1783911931	-61.5317046085	-98.9969488057	-23.2154994271	-14.0247710955
174937500.0	-23.6381958749	155.950719333	-19.1508549141	57.7147851069	-61.2755353673	-123.664520768	-23.3225252788	-13.5317167597
175625000.0	-23.9143015592	152.417552385	-19.1753145762	56.2744361558	-61.1884633149	-151.991460908	-23.4218271348	-13.0332676855
176312500.0	-24.1851306611	148.671576864	-19.2033702741	54.8061628672	-61.1544360132	-179.771889912	-23.5405344345	-12.732876542
177000000.0	-24.4440578629	144.765528997	-19.2294918141	53.3773442159	-61.0806423046	165.750687676	-23.6687776098	-12.4445542477
177687500.0	-24.6666344053	140.572106837	-19.2526945762	51.9570631949	-61.2662198965	152.195998517	-23.8117872324	-12.1527406471
178375000.0	-24.8931294805	136.319450071	-19.2752809103	50.5368791519	-61.3627212474	131.971724115	-23.9518966249	-11.8670181332
179062500.0	-25.0769174237	132.014893754	-19.2953920786	49.1666758369	-61.1889904185	104.010519832	-24.0956009593	-11.6837240398
179750000.0	-25.2369734844	127.544916166	-19.3191911418	47.7666137442	-60.9306237731	85.1376067225	-24.2409664093	-11.5112506365
180437500.0	-25.3533599683	123.031139137	-19.3334822231	46.4125722957	-60.8832233075	66.65367499	-24.3805314082	-11.4266467152
181125000.0	-25.4657586397	118.339347732	-19.3539501286	45.0605044716	-60.2921630791	38.8847054557	-24.5342806999	-11.2340570887
181812500.0	-25.5276232259	113.685170082	-19.3696526109	43.7674825307	-60.1944228537	15.4130621159	-24.6913501944	-11.2746295117
182500000.0	-25.5835290433	108.916077607	-19.3847077706	42.4362216092	-60.4286002754	0.789089679949	-24.8501897734	-11.2171057526
183187500.0	-25.58152819	104.168699132	-19.3950677227	41.1350694394	-60.4721963852	-26.2234343785	-25.0047741383	-11.1216737788
183875000.0	-25.5680848533	99.4904872848	-19.4043258959	39.7992532089	-60.5750203936	-54.1336371555	-25.1649271578	-11.2438002361
184562500.0	-25.5132103524	94.6686670474	-19.4143278789	38.4988874877	-59.6674303376	-67.9657446039	-25.3111159196	-11.4346422719
185250000.0	-25.4326079127	89.9817308667	-19.4246621431	37.1950068968	-59.5526522169	-81.0634102354	-25.4579136798	-11.6336989775
185937500.0	-25.3301783577	85.3574502691	-19.4319138757	35.9135787541	-59.6207964664	-81.3014056506	-25.600459595	-11.8434824524
186625000.0	-25.2083357604	80.8445440083	-19.4412144265	34.5981504073	-59.775019753	-81.3090345529	-25.7597090135	-12.1144355679
187312500.0	-25.0570263532	76.2616934231	-19.4399394574	33.339146346	-59.8790862177	-81.7350846359	-25.8937146016	-12.3057728816
188000000.0	-24.8725535015	71.8201781472	-19.4474934778	32.0551282492	-59.3974136726	-92.9882814002	-26.0392734967	-12.586378091
188687500.0	-24.6784195538	67.4967848144	-19.4513577895	30.7954312141	-59.0160669639	-110.025683822	-26.1707299309	-12.8951650409
189375000.0	-24.4415522955	63.3007956073	-19.4557995232	29.512735886	-59.1615439352	-136.979363959	-26.302277794	-13.2059804649
190062500.0	-24.204521393	59.2687722329	-19.4595712999	28.2672068669	-59.7393061303	-164.304094316	-26.4186630929	-13.4953037219
190750000.0	-23.9445080512	55.442232755	-19.4600046165	27.0004900844	-59.5913996449	178.624962634	-26.5445908867	-13.8590729402
191437500.0	-23.6861048651	51.862276746	-19.4609093624	25.7533590409	-60.4330814007	165.527122022	-26.6626185705	-14.2755794298
192125000.0	-23.3940543856	48.5022285996	-19.4609846366	24.4867736274	-60.6079905534	151.916783572	-26.7552007224	-14.711021931
192812500.0	-23.1158227111	45.3143064685	-19.4582708935	23.2286136602	-60.6442659795	149.428383059	-26.8552195009	-15.2483507361
193500000.0	-22.8308122969	42.3597676783	-19.4593896991	22.0269649032	-60.8996048193	147.531900836	-26.955592546	-15.6709420605
194187500.0	-22.5635606542	39.5743732304	-19.4600464527	20.7771001228	-61.7762790145	136.633387967	-27.0275575232	-16.1495071782
194875000.0	-22.3184890816	37.0182381835	-19.4634160888	19.5941969572	-62.0562688232	125.781664106	-27.1008477802	-16.6431969557
195562500.0	-22.0681012191	34.6196105759	-19.4622643626	18.3638746684	-62.1416333383	126.347551385	-27.1518294273	-17.2252376046
196250000.0	-21.8453216988	32.2414375266	-19.4551568312	17.1700032241	-62.1962076186	140.362325136	-27.213939561	-17.8843351403
196937500.0	-21.6367289676	30.0337765584	-19.4489143501	15.9599681138	-62.4011891886	156.570501027	-27.2586672091	-18.3941678296
197625000.0	-21.4659594568	27.8776450604	-19.4392789464	14.7676055191	-62.5199667078	166.63898207	-27.2927920681	-18.9938697415
198312500.0	-21.2918378247	25.8702812897	-19.4368579264	13.5828700911	-62.5969798941	-178.740793184	-27.3110175207	-19.8761699887
199000000.0	-21.1613431245	23.8543446341	-19.4295209803	12.4119133301	-62.8511915982	-167.500306032	-27.3154835911	-20.5368471409
199687500.0	-21.0213612088	21.9265799901	-19.4257211817	11.2177271801	-62.6897412776	-151.602412647	-27.3100652422	-21.3767633041
200375000.0	-20.9324458166	19.9920911927	-19.419727528	10.0565191303	-62.6792237932	-124.469326548	-27.3100266766	-22.2163773256
201062500.0	-20.8350345845	18.0422118329	-19.4133993205	8.88765872486	-62.7472737456	-96.1555126386	-27.2960839854	-23.0820842124
201750000.0	-20.766512769	16.0820551576	-19.4065580955	7.75787605755	-62.8217947856	-81.6644741532	-27.2705801393	-23.7380328679
202437500.0	-20.7028084286	14.225358327	-19.4035592206	6.58658372128	-62.9593914561	-63.1821699931	-27.2496718755	-24.6643145184
203125000.0	-20.656132709	12.28441516	-19.3953386919	5.44785599731	-62.9850930036	-46.6555223739	-27.1941178744	-25.4394028215
203812500.0	-20.594686196	10.2728597722	-19.3843929962	4.31610350019	-62.5956595044	-28.7762398747	-27.1360812399	-26.4070298308
204500000.0	-20.5660841128	8.3207600743	-19.3786450649	3.15821041798	-62.1766194481	-13.6595506574	-27.0679741025	-27.2029549299
