#Frequency	|S11|	<S11	|S21|	<S21	|S12|	<S12	|S22|	<S22
100000000.0	-17.2408224536	132.143994362	-34.2570019492	-126.174642815	-57.8447410074	-25.7673640691	-21.717160322	-37.2302878877
100687500.0	-17.2536195255	129.374435691	-34.0911988737	-126.351793965	-61.599846204	85.5950032844	-21.6210687346	-36.5555412163
101375000.0	-17.2277946146	126.146814671	-33.7110450386	-128.127315922	-60.4616517426	169.190585637	-21.6260465095	-36.2003643161
102062500.0	-17.2096354767	123.0789841	-33.3989058837	-129.396577787	-60.4001958757	-128.90120685	-21.6610114957	-35.9190383175
102750000.0	-17.2092198274	119.839432238	-33.1490844448	-130.520204716	-61.2082715429	-67.9270333137	-21.6699595654	-35.6517136226
103437500.0	-17.1990884182	116.710585826	-32.8463828377	-132.306675272	-61.0263782428	-36.8260591949	-21.6875240088	-35.3647034685
104125000.0	-17.2023931585	113.369587488	-32.5601312653	-134.029792453	-60.3298641968	-29.4376793393	-21.7235635756	-35.046086539
104812500.0	-17.2131468227	110.041071574	-32.3010828574	-135.698938061	-61.0013333968	-62.5331598322	-21.7511367869	-34.9487250669
105500000.0	-17.2284047763	106.540718811	-32.0702421387	-137.303568382	-60.8546706704	-72.2137132026	-21.7637610704	-34.8968380194
106187500.0	-17.2491084775	102.908081633	-31.873942265	-138.786673786	-61.4319078308	-88.9188108241	-21.80397206	-34.8176762292
106875000.0	-17.2827106819	99.1705798267	-31.7043784087	-140.240863538	-60.9670117921	-106.480807278	-21.8249993995	-34.8184763801
107562500.0	-17.325659839	95.289052858	-31.5852012787	-141.684145487	-61.0897874577	-107.689802405	-21.8629110674	-34.747827771
108250000.0	-17.362785328	91.1979425393	-31.5063742655	-142.73727154	-60.6861054599	-108.428873799	-21.8909664873	-34.7819945997
108937500.0	-17.3887959865	87.3306531074	-31.3708408886	-143.92020094	-61.0786916337	-95.610673422	-21.916727162	-34.6845994176
109625000.0	-17.4181028148	83.3834869886	-31.2627998892	-145.050023976	-60.6176798773	-80.5974084426	-21.9399726432	-34.6111448713
110312500.0	-17.4424609517	79.3036692935	-31.1712621485	-145.976311407	-60.5921228402	-66.1627929301	-21.9725215437	-34.6280427514
111000000.0	-17.4793801646	75.1081207738	-31.1197958296	-146.547149976	-60.9762962163	-57.8255884098	-22.0026298414	-34.6279049128
111687500.0	-17.5130046292	70.8088905905	-31.10187911	-146.976075406	-60.8637113596	-41.7913285112	-22.0330773412	-34.6692048207
112375000.0	-17.555545626	66.3711979721	-31.0800776986	-147.111807152	-61.1572027935	-27.4334374402	-22.0581021724	-34.7203341226
113062500.0	-17.5918868757	61.8394269755	-31.0477842618	-146.708438789	-60.9030301339	-17.7398478137	-22.0841209584	-34.7539595663
113750000.0	-17.6335155716	57.1784265805	-30.9973588666	-145.831284274	-60.6753249899	-16.1675050004	-22.1134081835	-34.7837044214
114437500.0	-17.6802995056	52.3940165833	-30.9029881457	-144.75231759	-60.5176768401	-24.5865338715	-22.1425772085	-34.8778874391
115125000.0	-17.7291809588	47.3730828681	-30.7478097467	-143.229530321	-60.2829541992	-25.1780482445	-22.1771461043	-34.9565341934
115812500.0	-17.7782037066	42.3050096348	-30.5635031126	-141.462942565	-60.4646236811	-19.9618259725	-22.2001138396	-35.0028840547
116500000.0	-17.8357980923	37.0233437704	-30.3111685022	-139.721827656	-60.5733732884	-16.4413303853	-22.2229270537	-35.0907999267
117187500.0	-17.889677418	31.7034152655	-30.0059366091	-137.704165059	-60.671288157	-1.9122694188	-22.241102518	-35.201143702
117875000.0	-17.9681337597	26.1051121866	-29.6502595564	-135.904960231	-60.435621755	12.6928498299	-22.2669222031	-35.1930646545
118562500.0	-18.051277132	20.4593910753	-29.2360993605	-134.01062124	-60.1378247858	27.8906879321	-22.2925137133	-35.2158136537
119250000.0	-18.1513008831	14.6455031455	-28.7837403156	-132.241835736	-59.9179270406	30.6989494071	-22.3151456251	-35.1329589877
119937500.0	-18.2702271072	8.70958312187	-28.2755704483	-130.63363104	-60.092054849	32.0263378702	-22.3309562283	-35.0749818562
120625000.0	-18.4156733365	2.64926451725	-27.7365825304	-129.160840684	-60.4989964995	32.0647940187	-22.3581929737	-35.031228708
121312500.0	-18.6022230597	-3.52501539988	-27.1396160905	-127.860523711	-60.0308766549	31.1795595275	-22.3636660391	-34.9645000635
122000000.0	-18.8203118607	-9.79857551842	-26.5270547106	-126.741154572	-60.2148076818	19.5599737202	-22.3937517017	-34.8717773562
122687500.0	-19.0842625455	-16.1569554302	-25.8598458352	-125.774033422	-60.2593190771	7.02096017132	-22.4109161508	-34.7474739819
123375000.0	-19.4164615903	-22.4328869631	-25.1683900478	-125.029837331	-60.294412461	-18.3618863606	-22.4279991139	-34.6247973766
124062500.0	-19.8094933222	-28.6940603604	-24.4395484416	-124.44414211	-60.1629673174	-45.1146681479	-22.4424176926	-34.498904068
124750000.0	-20.3019826798	-34.6493730739	-23.7044811264	-124.239583098	-60.2366244908	-72.948737343	-22.4667563806	-34.3025755311
125437500.0	-20.8562283031	-40.2106783158	-22.909846715	-124.27115344	-60.4885412729	-108.60972274	-22.4830513743	-34.0115060345
126125000.0	-21.4818898228	-44.4746463896	-22.106510018	-124.529701965	-60.3033999662	-150.740860136	-22.5074737123	-33.7920193747
126812500.0	-22.064565572	-48.1941940808	-21.2667989363	-125.135317757	-60.5573507482	154.480683218	-22.536302812	-33.5069010199
127500000.0	-22.5890956828	-50.9442991073	-20.4110109188	-126.034125741	-60.9474552843	100.329202848	-22.5556305085	-33.196158105
128187500.0	-23.0216607343	-53.7034447003	-19.5184561645	-127.380921176	-60.9055828758	40.8960859863	-22.5708675407	-32.7957700998
128875000.0	-23.3944441456	-55.9944361274	-18.6188076508	-129.157075334	-60.6925389283	-17.1006708415	-22.5817828129	-32.4353419355
129562500.0	-23.7116041104	-58.2963519993	-17.7065968528	-131.388212843	-60.4215880984	-80.1140731318	-22.6019265135	-32.0001678287
130250000.0	-23.9999723928	-60.4756045676	-16.8302786106	-134.24313005	-60.5840474617	-143.284965898	-22.6267477395	-31.621330605
130937500.0	-24.2391160133	-62.672955036	-15.9564391272	-137.792757784	-60.6406683367	160.760883926	-22.6447933872	-31.1562244371
131625000.0	-24.4517156267	-64.7052394531	-15.148537411	-141.643418534	-61.1904491169	116.772056872	-22.6578990133	-30.7648619014
132312500.0	-24.6426245004	-66.7029054435	-14.4051460518	-146.008902332	-61.4684899116	63.4394171207	-22.6754113767	-30.2942732148
133000000.0	-24.8057403631	-68.6588646143	-13.7196539131	-150.634092193	-61.5133483379	11.1170885574	-22.6953643135	-29.8652608887
133687500.0	-24.947677288	-70.5607131665	-13.0988995156	-155.50465543	-61.6833575711	-31.7154833812	-22.7143703938	-29.3988530847
134375000.0	-25.0750915986	-72.3978376853	-12.55340789	-160.49414957	-62.5969287627	-85.6367883625	-22.734673849	-28.9096003122
135062500.0	-25.1573364727	-74.1546447922	-12.0588368473	-165.570072117	-62.7807324122	-128.747432883	-22.7525809061	-28.4954267408
135750000.0	-25.2229281288	-75.8388698475	-11.6267152357	-170.653789083	-62.7200107928	-173.018989227	-22.7636980449	-28.1148824941
136437500.0	-25.263547263	-77.3857989329	-11.2476122123	-175.796886409	-62.5639103598	145.296682281	-22.7944054832	-27.8092313691
137125000.0	-25.2835997123	-78.9566011805	-10.9224007183	179.144723571	-62.6116345376	103.722033238	-22.8223313261	-27.4539826025
137812500.0	-25.2590904558	-80.2871017145	-10.6468639835	174.099198825	-62.1442525154	60.8584153736	-22.8425950933	-27.0866659515
138500000.0	-25.1975937642	-81.6187880882	-10.4098610502	169.183080144	-62.4212749476	23.146663717	-22.8611444732	-26.7829235074
139187500.0	-25.0896422028	-82.7778450322	-10.2183343745	164.34106798	-62.2808708437	-7.14583018462	-22.8821130996	-26.4911354393
139875000.0	-24.9288403538	-83.9746142441	-10.0601034751	159.654869131	-62.2184566219	-37.3714750034	-22.9014317111	-26.2150132008
140562500.0	-24.698650463	-85.1763703787	-9.93709259913	155.060511423	-62.3515133293	-67.3965965161	-22.9239381601	-26.0006005432
141250000.0	-24.4038483736	-86.4137157367	-9.83959717731	150.628774037	-62.2928214903	-104.792272284	-22.9445929591	-25.7527151683
141937500.0	-24.0102006623	-87.8372875309	-9.77086700539	146.323211804	-62.3564803981	-133.395328164	-22.9596549002	-25.600423755
142625000.0	-23.5492620915	-89.6872695174	-9.71912217551	142.170707744	-62.2473181251	-158.383628954	-22.9775782138	-25.451080176
143312500.0	-23.0168663725	-92.6972905608	-9.69037484355	138.166280117	-62.0644726274	-171.252516192	-22.9987975924	-25.3089058199
144000000.0	-22.524295854	-96.2825448369	-9.67444740792	134.299032537	-62.0360716843	-171.591053192	-23.0124902128	-25.2039325513
144687500.0	-22.0964129566	-100.719142348	-9.67528878673	130.580365357	-62.1274448669	178.124069606	-23.0259504904	-25.154986001
145375000.0	-21.7550184876	-105.086265442	-9.68447647121	126.989065108	-62.3110197105	177.717320413	-23.0432718456	-25.0961911209
146062500.0	-21.4789718069	-109.76335131	-9.70600065076	123.525935227	-62.7881790755	178.24178147	-23.0636923524	-25.0189590546
146750000.0	-21.2521194812	-114.395247162	-9.73288027296	120.16726177	-62.6597096166	176.211485408	-23.0840741787	-24.9728804612
147437500.0	-21.0681502435	-119.056425872	-9.76831113654	116.949505818	-62.9868137316	167.461600283	-23.0795214138	-24.9280152689
148125000.0	-20.9267721405	-123.577884953	-9.80528024061	113.818420196	-62.7068495707	161.211292014	-23.0930665203	-24.9417352595
148812500.0	-20.8134730921	-128.197874908	-9.84753548896	110.795489215	-62.3686311578	145.531716536	-23.0912769854	-24.9186366751
149500000.0	-20.7248544506	-132.634380999	-9.89293754984	107.884318809	-62.0344326491	136.822584771	-23.0935889691	-24.9132931137
150187500.0	-20.6646196917	-137.121621133	-9.94084085857	105.059049643	-61.6714547901	121.974224906	-23.0943451337	-24.8812781988
150875000.0	-20.6202753876	-141.381220563	-9.98766925545	102.319396602	-61.6385306983	105.819456111	-23.0949901407	-24.80889765
151562500.0	-20.5910761628	-145.702372663	-10.033367819	99.6541284774	-60.5767983052	92.729603258	-23.0827919215	-24.8147695818
152250000.0	-20.5924122587	-149.823372095	-10.0844020897	97.0704951455	-60.3254320314	79.4239437879	-23.0837006523	-24.6951144299
152937500.0	-20.6053788079	-154.002190047	-10.1368584621	94.5429929308	-60.3023370105	66.961032264	-23.0776940589	-24.569915291
153625000.0	-20.6323230516	-158.081195655	-10.1871653301	92.1050744762	-61.4609602769	62.7068379359	-23.0799030351	-24.4585177351
154312500.0	-20.6528519363	-162.041604949	-10.2353755348	89.7085075109	-61.5416184902	51.4708210585	-23.0639159347	-24.3207845599
155000000.0	-20.6878255762	-166.088340709	-10.286894443	87.4055249006	-62.1737874282	40.2020930597	-23.048785748	-24.1582815649
155687500.0	-20.7319273856	-170.021513577	-10.3367316523	85.1297092301	-61.7416448958	24.7246940281	-23.0430619568	-23.9444625997
156375000.0	-20.7852807909	-173.988402757	-10.3875302899	82.8999104947	-61.6728279563	13.5394585936	-23.0282847352	-23.7220929265
157062500.0	-20.8386676558	-177.780329834	-10.4335506785	80.7080056219	-61.9668557704	15.0437017772	-23.0090433754	-23.4120317338
157750000.0	-20.9009990666	178.369177026	-10.4817747528	78.5804364499	-62.2800199476	21.958899871	-22.9798549873	-23.1643698235
158437500.0	-20.9620171732	174.694563691	-10.5271972453	76.477812889	-62.2113800339	35.3499186187	-22.9592288912	-22.8667374295
159125000.0	-21.0269004829	170.949634518	-10.5705806713	74.4480751251	-61.9951138003	48.7860337848	-22.9406346729	-22.5119408632
159812500.0	-21.0955156462	167.307074484	-10.6151700537	72.4352465693	-62.0124128608	64.3302712228	-22.9123134155	-22.1484821968
160500000.0	-21.1648976612	163.630410582	-10.6585332367	70.4751915677	-62.1403588285	76.8730816754	-22.8855218595	-21.8012716851
161187500.0	-21.2368726623	160.178795518	-10.7010764731	68.5341629842	-62.0472486537	82.7022713788	-22.8602262139	-21.387804426
161875000.0	-21.3120697584	156.618937488	-10.7422173845	66.6482701715	-61.4925455736	97.9123165483	-22.8454128702	-20.9834833947
162562500.0	-21.3869773356	153.1988133	-10.7847391738	64.7800113867	-61.2398673514	112.588501698	-22.8332853332	-20.6311344491
163250000.0	-21.4539176314	149.675673856	-10.8229182483	62.9498057882	-60.8070623324	116.734073343	-22.8260726905	-20.2316723581
163937500.0	-21.5289816941	146.300517982	-10.8634089638	61.1520869394	-61.7534616364	130.930582417	-22.8096491643	-19.822249363
164625000.0	-21.5922425576	142.93206187	-10.8983586787	59.381223053	-61.32166244	147.785044865	-22.8108508994	-19.4284325622
165312500.0	-21.6750064365	139.595732275	-10.9372658542	57.633905195	-61.4308243065	165.019808457	-22.8043592477	-19.0027280859
166000000.0	-21.7494061945	136.345909396	-10.9726098616	55.9397358766	-61.1685259122	-177.204740665	-22.8091200164	-18.5939974208
166687500.0	-21.8314441225	133.00785222	-11.0081461038	54.2371317067	-61.6001002677	-167.021042109	-22.8164446888	-18.1588805263
167375000.0	-21.9194863424	129.847229657	-11.0398647976	52.5786606572	-61.8703283233	-164.656538445	-22.8281242505	-17.7830461806
168062500.0	-21.9962859945	126.569495148	-11.074240239	50.9383250196	-62.0370466106	-173.415258417	-22.841738173	-17.4608818381
168750000.0	-22.0860851171	123.467105321	-11.1053433029	49.3217677959	-62.2120862563	-173.459844014	-22.8736689257	-17.0939718214
169437500.0	-22.1594425603	120.213026872	-11.1375232561	47.7306787948	-62.2549812993	-172.397968683	-22.8975998763	-16.8436013465
170125000.0	-22.2423730331	117.130067381	-11.1649149906	46.1485289696	-62.396516739	-166.535272016	-22.921585452	-16.566879553
170812500.0	-22.3246147324	113.839905944	-11.1929593396	44.5969889921	-61.5813148953	-163.306568599	-22.9490681583	-16.3052527223
171500000.0	-22.418230437	110.740864394	-11.2193593023	43.0806016528	-61.4275310716	-152.152417811	-22.9837671878	-16.0723820342
172187500.0	-22.5116767682	107.491053035	-11.2417322751	41.5592292361	-60.526361733	-137.244412454	-23.0322029979	-15.9681852654
172875000.0	-22.6005602293	104.373871671	-11.2634977311	40.0795609192	-60.6074689355	-112.064562676	-23.0674551935	-15.8461880166
173562500.0	-22.6789427199	101.171572487	-11.2820422629	38.6197511026	-60.7435671221	-94.999928487	-23.1170434611	-15.7390829836
174250000.0	-22.779185299	98.0679977026	-11.3013906366	37.1694311006	-60.4852115213	-78.2265954852	-23.1670626728	-15.6616142954
174937500.0	-22.8435974873	94.8501829172	-11.3158992441	35.7538046787	-59.7855575454	-55.0182939294	-23.2239613469	-15.6202501389
175625000.0	-22.9079071423	91.5410859054	-11.3328958357	34.3332450085	-59.8754205839	-30.6738974118	-23.2773568253	-15.5821907021
176312500.0	-22.9754629735	88.2250623667	-11.345764693	32.9284056064	-59.9879188421	-12.5134959825	-23.333619377	-15.6339498747
177000000.0	-23.0402393181	84.8938301355	-11.3561156968	31.5343737234	-60.3532919379	3.58372102498	-23.4109074326	-15.7030595121
177687500.0	-23.0959207701	81.595018516	-11.3623260621	30.1591681302	-60.4048257075	20.7566523156	-23.4763157022	-15.7195867164
178375000.0	-23.1433822825	78.1330685369	-11.3719385571	28.7871089534	-60.4489716907	43.5914513408	-23.5551975334	-15.8154937002
179062500.0	-23.1835663918	74.8764865183	-11.3769962253	27.4080443244	-60.4672479739	56.0739692089	-23.621959994	-15.9564010646
179750000.0	-23.213952724	71.386424656	-11.3798402857	26.0473883918	-60.6056713077	71.5939894869	-23.6799818242	-16.0058463242
180437500.0	-23.2390074108	68.0193904578	-11.3811849782	24.6737021636	-60.7539648386	87.0483644379	-23.7259250564	-16.1573356295
181125000.0	-23.2575285854	64.4877059875	-11.3809026681	23.3487601728	-59.9139635411	99.7579675912	-23.7889646522	-16.3009088549
181812500.0	-23.2770355169	61.1098504028	-11.3802844245	21.989265838	-60.2261977876	113.320550504	-23.843866831	-16.3974323097
182500000.0	-23.2715564533	57.582841928	-11.3762939044	20.6642684665	-60.4229766574	129.730394784	-23.9185187522	-16.4904843534
183187500.0	-23.2607640142	54.1457050951	-11.3721720102	19.3123692115	-61.1541199192	144.688647845	-23.9754890811	-16.56267486
183875000.0	-23.2576742136	50.7144747328	-11.3675200748	17.9869508086	-61.2184419743	159.271344388	-24.023739888	-16.7326531331
184562500.0	-23.226015628	47.2553442932	-11.3607233962	16.647087609	-61.0458501247	-173.078303269	-24.0695305437	-16.8655832273
185250000.0	-23.2007168414	43.791758527	-11.3514467713	15.3232979426	-61.2900067709	-143.775079724	-24.1160926533	-16.9120002876
185937500.0	-23.1563548832	40.2984262655	-11.3466199348	13.9892035901	-61.0343866024	-127.909694803	-24.1527135079	-16.9212310496
186625000.0	-23.1335507089	36.8369175088	-11.3344445441	12.6739194599	-61.0239313842	-123.193738509	-24.2004686775	-16.9261226482
187312500.0	-23.0829209944	33.3251986731	-11.3254740661	11.352147976	-60.7559017936	-114.577693743	-24.2403722835	-16.8807561641
188000000.0	-23.0379602202	29.9835326073	-11.3133871216	10.0429844706	-60.2976734119	-99.9005710929	-24.2675336803	-16.899802502
188687500.0	-22.9774911435	26.4540626039	-11.3040022282	8.70131715804	-60.6874419573	-95.2112645242	-24.2962125233	-16.8356864201
189375000.0	-22.9198770618	23.068419752	-11.2913509008	7.40018598758	-60.9220356983	-94.2388543767	-24.3225023395	-16.7634412585
190062500.0	-22.8506120342	19.5255092755	-11.2803513547	6.07735167574	-61.0839049866	-102.953449307	-24.3456387617	-16.5528938212
190750000.0	-22.7891342471	16.1154277982	-11.2652462045	4.77320181716	-61.4580832289	-113.410850683	-24.36671659	-16.368870583
191437500.0	-22.7059164095	12.5175086187	-11.2529971746	3.45949807917	-61.3424317708	-129.157245175	-24.389709144	-16.1879527223
192125000.0	-22.6469751306	9.12976336737	-11.2390537733	2.15365794792	-61.6005733226	-154.2685609	-24.4041977843	-15.9997475826
192812500.0	-22.5756366099	5.68512807905	-11.2246872016	0.867094629425	-61.4167108754	-178.347610943	-24.4297621045	-15.7170408379
193500000.0	-22.5063150825	2.34519180903	-11.2099540082	-0.438398527926	-61.5566831895	154.109243687	-24.4560193467	-15.4807394187
194187500.0	-22.4256890907	-1.07041501636	-11.1977922591	-1.73087475481	-61.2774946065	136.334283873	-24.4609099449	-15.1665131521
194875000.0	-22.3524255337	-4.46689997957	-11.1827894393	-3.0314585488	-61.2098183463	109.308710578	-24.4689228904	-14.921420675
195562500.0	-22.2668587326	-7.91805973653	-11.1659875013	-4.32775160782	-61.1638659662	84.2034248732	-24.4816021889	-14.6081064065
196250000.0	-22.182046652	-11.4097400407	-11.1485637758	-5.62163272822	-61.3790140238	69.3548753003	-24.4954892839	-14.2592263713
196937500.0	-22.09507654	-14.7820121561	-11.1343380128	-6.90103103216	-61.1532957915	43.2010940892	-24.5125896705	-13.9054632927
197625000.0	-22.0092361851	-18.1391101367	-11.1165332727	-8.15333423022	-61.1425243675	27.4905195163	-24.5318382041	-13.5511689804
198312500.0	-21.9147868246	-21.4521410146	-11.099477353	-9.43357305356	-61.7898986487	5.38005118333	-24.5467487096	-13.312586396
199000000.0	-21.8186020072	-24.852143542	-11.080388212	-10.7033512319	-61.8583418768	-6.13918261524	-24.563314183	-13.0869926299
199687500.0	-21.7107580465	-28.0764713944	-11.0629957505	-11.9693044544	-61.5799632052	-17.7483283533	-24.5673891556	-12.8473721442
200375000.0	-21.6072770734	-31.3779576811	-11.0453649145	-13.2269510624	-60.943251378	-27.8292612904	-24.5812772885	-12.6105725885
201062500.0	-21.4834078837	-34.5505243106	-11.0237459724	-14.478355107	-60.5896847633	-27.8564305308	-24.6141177184	-12.3762792763
201750000.0	-21.370977706	-37.7784153543	-11.0057160006	-15.7264612689	-61.0043268119	-39.9431329041	-24.627178375	-12.1171104385
202437500.0	-21.2502125837	-40.8507108003	-10.9850010433	-16.9712309364	-60.397302228	-51.0777783552	-24.6600167273	-12.0545959199
203125000.0	-21.1346589078	-43.9801094738	-10.9604667004	-18.2115270461	-60.3459859896	-51.6883760637	-24.677221656	-11.9571822857
203812500.0	-20.9918680072	-46.9254575824	-10.9407305206	-19.4462831641	-60.3724093563	-39.9574598859	-24.6956416379	-11.9397845752
204500000.0	-20.86555474	-49.9071310867	-10.9160538907	-20.6908814259	-60.5029058484	-34.3221886053	-24.7176762523	-11.8638767028
