#Frequency	|S11|	<S11	|S21|	<S21	|S12|	<S12	|S22|	<S22
100000000.0	-17.4011846961	146.787980626	-29.1001129328	-122.668040082	-57.1819534048	14.0662039655	-20.5675260165	-40.8563699874
100687500.0	-17.3695394083	144.51865871	-28.6911754642	-123.508131222	-60.2523609156	-55.3572409669	-20.6424838306	-40.1951574083
101375000.0	-17.3530892852	141.961280855	-28.2954309717	-125.235045711	-60.1787533358	-86.471575011	-20.7041743247	-39.6004751309
102062500.0	-17.3392289014	139.383288788	-27.8972287445	-126.329306603	-60.5574579078	-94.4800613647	-20.7468101737	-38.6612782219
102750000.0	-17.3214674271	136.762795693	-27.5035816819	-127.619100851	-59.6859825484	-136.008110684	-20.7868078909	-37.8726185086
103437500.0	-17.3095895605	134.201662153	-27.1534326052	-128.852017416	-60.9738340351	-162.568517508	-20.8503585604	-37.289781445
104125000.0	-17.3171387008	131.443230132	-26.8408690556	-130.124720273	-60.7370545006	162.653589005	-20.9203802436	-36.5698397644
104812500.0	-17.3283431158	128.62037693	-26.5444776665	-131.52289004	-61.0864007937	113.4235375	-20.9930890707	-36.0001370316
105500000.0	-17.3397816878	125.708345291	-26.2720099778	-132.86156396	-60.6934240463	74.8665004771	-21.0643047092	-35.4947957192
106187500.0	-17.363861491	122.657968768	-26.0137896759	-134.234593978	-60.4315487678	66.4902357436	-21.1552704557	-34.9817175173
106875000.0	-17.3853262396	119.514044334	-25.7888428041	-135.603833878	-60.5925629433	75.0087879357	-21.2483847818	-34.5995813257
107562500.0	-17.4192710947	116.274558341	-25.5995773092	-136.909716401	-60.2219688596	72.9968036944	-21.3531513856	-34.1694332468
108250000.0	-17.4461711938	112.832094579	-25.4461372464	-138.172818594	-60.5045704649	81.0989633739	-21.4613350837	-33.8608633807
108937500.0	-17.4613818003	109.625024637	-25.2272101347	-139.377138071	-60.7725383263	72.5859751426	-21.5469247909	-33.4044729274
109625000.0	-17.4861830439	106.31297353	-25.0316768768	-140.618208911	-60.9408780978	66.365109797	-21.640611527	-33.0241736432
110312500.0	-17.4996365295	102.927646566	-24.8701477169	-141.72366467	-60.7800477059	66.8459001133	-21.7383283871	-32.5822079126
111000000.0	-17.5272971843	99.4289990279	-24.7333041093	-142.735204716	-60.6460743887	59.533085007	-21.8410606534	-32.2326344309
111687500.0	-17.5461106842	95.820245356	-24.6263307718	-143.641451411	-60.6546295258	58.591140866	-21.9421468287	-31.9370310317
112375000.0	-17.5714549094	92.1363808064	-24.5404319404	-144.425371322	-60.645470934	47.3410570995	-22.0485004088	-31.6868773796
113062500.0	-17.5908406157	88.3590070792	-24.4904845052	-145.07330577	-60.7240425394	48.7289818912	-22.1542478905	-31.4113277867
113750000.0	-17.6164852463	84.4801036922	-24.4709718523	-145.365566493	-60.968207348	61.9112541333	-22.2713862724	-31.2204905162
114437500.0	-17.6411331511	80.4831500695	-24.4620670627	-145.301645856	-61.0258825126	63.5681443927	-22.3951722857	-31.0769547591
115125000.0	-17.6677441689	76.3074500563	-24.4552759087	-144.79850366	-60.8104923877	63.6424432212	-22.5132597424	-30.9225254583
115812500.0	-17.6909609433	72.0238109096	-24.4350770644	-143.919558668	-60.8418886732	54.4590479711	-22.6244004048	-30.7426349494
116500000.0	-17.7134728905	67.6743579716	-24.3677962761	-142.679215771	-60.5033439924	54.8859547131	-22.7438298137	-30.6831644039
117187500.0	-17.7340051815	63.199656897	-24.2615186228	-141.072082678	-60.9164019531	56.8255642078	-22.8684855872	-30.6548623586
117875000.0	-17.7621910303	58.6311824859	-24.1000421788	-139.281525831	-60.9385916229	70.9696026643	-22.9914060548	-30.5996725356
118562500.0	-17.7978940879	53.9117097436	-23.8825901065	-137.354237921	-61.5331410353	88.5423810557	-23.1143810249	-30.5017947458
119250000.0	-17.8401856982	49.0975844946	-23.6087519266	-135.34259414	-61.575843167	107.99005599	-23.2319919849	-30.4152470548
119937500.0	-17.893045877	44.1508910078	-23.2847327486	-133.347038233	-61.5787484328	124.657376354	-23.3584220179	-30.4090668369
120625000.0	-17.9497611701	39.0776551208	-22.9166007641	-131.374409257	-61.5981371706	137.528263541	-23.480638938	-30.4768279517
121312500.0	-18.038138428	33.8678338558	-22.4896078003	-129.448755663	-62.014494711	151.117620286	-23.591037177	-30.4571722352
122000000.0	-18.1365497	28.524124419	-22.021710338	-127.62664509	-61.8642587921	159.698093746	-23.7095272132	-30.4746106287
122687500.0	-18.2809691007	23.0773708988	-21.5071851258	-125.939356295	-61.7041766368	160.681291409	-23.8243739818	-30.5429696809
123375000.0	-18.442786792	17.5462331151	-20.9564813458	-124.43241346	-62.118784979	160.167966442	-23.9315207315	-30.6146583074
124062500.0	-18.6527472286	11.8524565065	-20.3582840947	-123.010604697	-62.0423062567	159.28390989	-24.0418584365	-30.6974521874
124750000.0	-18.9354416228	6.10727804671	-19.7358777491	-121.844791861	-62.1021518648	158.959803096	-24.1408972997	-30.6896824098
125437500.0	-19.2591731772	0.251587603126	-19.0659482702	-120.800544942	-62.3485196946	162.695312901	-24.2415082337	-30.7190722415
126125000.0	-19.6861296492	-5.56185285802	-18.3769124878	-120.016940877	-62.3584262688	164.778448687	-24.3537988497	-30.7463343874
126812500.0	-20.2060466359	-11.3295619027	-17.6462961657	-119.393714119	-62.0214928768	170.962761956	-24.4533457214	-30.7132533457
127500000.0	-20.91148033	-16.6473956243	-16.8974453676	-119.115908637	-61.9063696447	-176.231711409	-24.5420965046	-30.8970315968
128187500.0	-21.74660976	-21.2093146733	-16.106750458	-119.027560097	-62.001908785	-154.037377906	-24.6311161103	-30.9692485583
128875000.0	-22.5949408604	-23.725007997	-15.2924738171	-119.261756194	-62.0307828479	-126.893128376	-24.7105738045	-30.9805421757
129562500.0	-23.3492035516	-24.9406981791	-14.4489638396	-119.781477915	-61.848684866	-94.6519031713	-24.7921731413	-31.0677187384
130250000.0	-23.9775832652	-26.0474069421	-13.5864090401	-120.687412968	-62.2332405949	-64.1029986685	-24.8761502184	-31.228676978
130937500.0	-24.4964122604	-26.9571434769	-12.6902122967	-122.023266543	-62.0225720663	-33.9292081702	-24.9462425744	-31.2747649445
131625000.0	-24.9617233105	-27.7163342723	-11.7948200053	-123.911460404	-62.3566667521	-2.73355000389	-25.0004115351	-31.4093141387
132312500.0	-25.3764704804	-28.4591371645	-10.8933194942	-126.329874165	-62.0238521577	29.9632474787	-25.0635541263	-31.495371901
133000000.0	-25.747875373	-29.3257320896	-10.0187177666	-129.348868699	-61.9371233443	74.249203121	-25.1231406283	-31.7073094183
133687500.0	-26.0869937368	-30.1523565885	-9.18461038152	-132.821270898	-61.9945212404	107.228800963	-25.1692404774	-31.8756333886
134375000.0	-26.4019058747	-31.102246972	-8.40865696027	-136.78945726	-61.8934608393	149.155902102	-25.2045094151	-32.1112764977
135062500.0	-26.681612258	-32.1938693786	-7.68886320511	-141.014247903	-61.7818749376	-170.866499263	-25.2344014113	-32.2613250745
135750000.0	-26.9422336492	-33.253878287	-7.03164072125	-145.511781769	-60.8825296535	-137.729843031	-25.2596044509	-32.6427501231
136437500.0	-27.1676322307	-34.3752320592	-6.43619776396	-150.203651165	-60.750575881	-96.9768984728	-25.2798493198	-32.9339315739
137125000.0	-27.38444027	-35.5107862934	-5.90056857211	-155.00391989	-60.7330875254	-53.5559103397	-25.301818737	-33.2331595394
137812500.0	-27.5538522823	-36.6717816911	-5.4218937793	-159.852808595	-61.0516616473	-18.5754671751	-25.3096813089	-33.4376114618
138500000.0	-27.6934910278	-37.7369756414	-4.99765589108	-164.733252297	-60.9533692555	20.5728271222	-25.3156059115	-33.8614877002
139187500.0	-27.8004668917	-38.8322171025	-4.62535770845	-169.596637422	-60.7609832157	54.8872984872	-25.3116178949	-34.1553666351
139875000.0	-27.8522018268	-39.9268654907	-4.29855651962	-174.427996853	-60.9960002899	85.4274539437	-25.3090109957	-34.477825153
140562500.0	-27.8695925842	-41.058423189	-4.01580853684	-179.216378014	-61.0008948419	115.534223391	-25.3083791617	-34.8624587321
141250000.0	-27.8295928109	-42.0716952494	-3.77047041413	176.079679215	-61.14266463	148.123355026	-25.2758932787	-35.2248300264
141937500.0	-27.7140549084	-43.0557511376	-3.56323888782	171.472479342	-60.8326223517	176.537255829	-25.2488016549	-35.6906839953
142625000.0	-27.5349920704	-43.9323386753	-3.38656866725	166.979753696	-60.7215118818	-163.615028773	-25.213831958	-36.1019118885
143312500.0	-27.2509657268	-44.9157581504	-3.24229192818	162.576302538	-60.7363338125	-137.64521216	-25.1652442292	-36.5221007215
144000000.0	-26.8627861963	-45.9228384059	-3.12306310422	158.296061302	-61.2963738635	-123.823663767	-25.1231944694	-36.9798394977
144687500.0	-26.2886180078	-47.3949059491	-3.02764445171	154.139900453	-61.3297888526	-122.678960871	-25.0690079301	-37.2725831534
145375000.0	-25.5656759636	-49.5206955151	-2.95257048853	150.118132394	-61.1740872762	-130.574122088	-25.0097762556	-37.6602647455
146062500.0	-24.8320395983	-53.6882885349	-2.89624448261	146.21113115	-61.0452165476	-146.874327499	-24.9472699244	-37.9429928128
146750000.0	-24.1788286599	-59.1138418098	-2.85463269559	142.425520557	-61.1210258551	-161.717765814	-24.8858693683	-38.2635217591
147437500.0	-23.6608932944	-64.5894083659	-2.83051095535	138.766966936	-60.6895538827	174.224230238	-24.8067911619	-38.5204249454
148125000.0	-23.2346358952	-70.2176378487	-2.81595635842	135.207033732	-61.8038265237	150.555015998	-24.7253559944	-38.7937125072
148812500.0	-22.874114487	-75.9412909107	-2.81362014299	131.767814531	-61.4302614713	135.099297652	-24.636523044	-39.0272757168
149500000.0	-22.5491129361	-81.483596956	-2.81587175115	128.426183297	-61.4403436564	118.357726382	-24.5490787285	-39.1753644974
150187500.0	-22.2675202082	-86.8929608825	-2.82869796724	125.201541183	-61.8263782281	89.8308766262	-24.461567204	-39.2481130741
150875000.0	-22.0205733001	-92.2169562243	-2.8462756165	122.069505444	-62.241088898	58.630186574	-24.3721612811	-39.2283656199
151562500.0	-21.8022659461	-97.3342595752	-2.86807564673	119.028331163	-61.8482734307	21.0527534033	-24.2862136946	-39.2226680095
152250000.0	-21.6024222354	-102.140707481	-2.89595183306	116.07054334	-61.579878224	-16.0401738261	-24.2058061995	-39.1257919016
152937500.0	-21.4114694673	-106.807745152	-2.92962751376	113.208049255	-61.8952191352	-48.0819992079	-24.1149649323	-38.912722556
153625000.0	-21.2608740112	-111.303834049	-2.96273189007	110.421546477	-61.7358993025	-89.6076306585	-24.042867493	-38.669898033
154312500.0	-21.0957244065	-115.668494351	-3.00087835917	107.720351655	-62.3223310165	-131.355187722	-23.9457352983	-38.4071559344
155000000.0	-20.9758541617	-119.824501417	-3.04149253368	105.063295035	-61.9295941984	-172.686925582	-23.8580481677	-38.1188531434
155687500.0	-20.8530955065	-123.917108639	-3.08224769448	102.503101479	-61.7709946985	151.436834004	-23.779343873	-37.6780098775
156375000.0	-20.7626590314	-127.758018594	-3.12395614119	99.982035057	-61.7613852224	126.857664966	-23.6876051149	-37.2677339702
157062500.0	-20.6804974496	-131.480376769	-3.16718308937	97.5444959517	-62.038727959	104.698730119	-23.6000016415	-36.7669913216
157750000.0	-20.616098382	-135.004227374	-3.21301082334	95.1566554602	-61.7575101958	92.6914315452	-23.5079764503	-36.1880215308
158437500.0	-20.5573823855	-138.439567776	-3.25974156905	92.826732234	-62.2121183166	77.18455202	-23.4391631291	-35.5182826037
159125000.0	-20.5124147947	-141.716921551	-3.30473344198	90.5555320848	-62.188413226	54.9340400679	-23.3740182023	-34.8091202197
159812500.0	-20.4875166381	-144.956233887	-3.35070287649	88.3327685762	-61.6751893718	38.9999511805	-23.305819895	-34.0522433364
160500000.0	-20.4723846333	-147.977437252	-3.39693176063	86.158677775	-61.4182434042	13.794039302	-23.2508269775	-33.2906732361
161187500.0	-20.4711535084	-150.962243832	-3.44480722641	84.0284922845	-61.1707750894	-12.109481701	-23.1908963602	-32.4831411933
161875000.0	-20.4864082372	-153.786752019	-3.49114859935	81.9408732427	-61.8447980695	-25.2649800391	-23.1576845911	-31.6900550596
162562500.0	-20.520168614	-156.594153379	-3.53711017829	79.8912703497	-62.2651897199	-42.1961491866	-23.1257389713	-30.8432725475
163250000.0	-20.560960376	-159.334481041	-3.5827359404	77.8846598364	-62.3391548316	-62.0375553446	-23.1041546431	-30.019752774
163937500.0	-20.6259902846	-161.990334861	-3.62932500394	75.9182269455	-62.750987875	-77.6827553834	-23.0820599052	-29.1434353102
164625000.0	-20.6886278921	-164.60729461	-3.67264184584	73.9858018508	-62.4775994322	-86.4873876541	-23.0633840546	-28.2547823614
165312500.0	-20.7819549921	-167.113258119	-3.71875985325	72.095061024	-61.6131623889	-105.242490647	-23.0618795488	-27.3697902266
166000000.0	-20.8806333142	-169.533720062	-3.76090235307	70.2282964247	-61.5455517595	-132.42898368	-23.0702412353	-26.470712461
166687500.0	-21.0080285731	-172.032633202	-3.80599379545	68.394014356	-61.8400004544	-157.894190651	-23.0808509498	-25.5611792606
167375000.0	-21.137481863	-174.388798781	-3.84817572307	66.5961073675	-61.4833308915	-172.056082176	-23.1064190729	-24.7338383096
168062500.0	-21.2924017768	-176.802138623	-3.88880455887	64.8247897597	-61.157987781	-172.812186134	-23.1295523244	-23.9130979435
168750000.0	-21.4485277553	-179.090170407	-3.92871776304	63.0989073508	-61.4771922078	-168.121976739	-23.175681601	-23.0775422618
169437500.0	-21.6424518726	178.452698075	-3.97021499916	61.4001371064	-61.4292798086	-169.862213421	-23.2143286693	-22.3005369437
170125000.0	-21.840939739	175.977455743	-4.00658005697	59.7135637599	-61.2489456254	176.583548333	-23.2765933897	-21.5900965952
170812500.0	-22.0609657082	173.478684634	-4.04752262503	58.061052158	-61.1535881824	175.758281075	-23.3367991521	-20.8922069876
171500000.0	-22.3028556901	170.917854817	-4.08318071177	56.4313101	-60.9126909059	163.709098856	-23.4198998615	-20.2060046553
172187500.0	-22.5590072725	168.306666822	-4.11751827688	54.8398561551	-60.7421605472	161.049573403	-23.5034718066	-19.559507594
172875000.0	-22.8394878442	165.523491866	-4.15066196077	53.2487277851	-60.7449144011	144.662747747	-23.5919932468	-18.9788767375
173562500.0	-23.1056626516	162.50447912	-4.18465296924	51.7005061256	-60.7216303971	124.801878348	-23.7151845056	-18.3252312086
174250000.0	-23.3919288674	159.454416516	-4.21410721598	50.1619866039	-60.674478404	107.281215809	-23.8227847934	-17.770314335
174937500.0	-23.6679994164	156.075952178	-4.2412894609	48.6414245579	-60.8020459428	78.7778944801	-23.9409295379	-17.2924298194
175625000.0	-23.9441946298	152.496695671	-4.26808566016	47.1445447406	-60.3708947383	56.5724348761	-24.0563981635	-16.8680729509
176312500.0	-24.2130802568	148.712445987	-4.29488463333	45.6682679911	-61.0146502054	37.1201100971	-24.1924777416	-16.4635663232
177000000.0	-24.4644216226	144.787329214	-4.3198053093	44.2018936646	-61.159196106	7.77410805244	-24.3469330554	-16.1739918408
177687500.0	-24.6843014152	140.590531574	-4.3435585587	42.7510612034	-61.6290821459	-12.6503015425	-24.4963652459	-15.8657153653
178375000.0	-24.897349576	136.435555229	-4.36392373579	41.3045983799	-61.2419239624	-23.8338909826	-24.6534976207	-15.6020267708
179062500.0	-25.0664536722	132.131235715	-4.3835246252	39.8850876775	-60.613708985	-34.7217765406	-24.8047744922	-15.5151608763
179750000.0	-25.2201430057	127.647315581	-4.40275591089	38.4722923608	-60.1156442497	-31.6991195636	-24.9663257266	-15.3285969552
180437500.0	-25.3472020044	123.098662191	-4.42052429651	37.0744163941	-60.3624700431	-30.5054908613	-25.1295021964	-15.2702133508
181125000.0	-25.437811262	118.401713954	-4.43691373706	35.6738776517	-59.9464985514	-29.6037885425	-25.2853361621	-15.1673461077
181812500.0	-25.5141328073	113.750489874	-4.45257350044	34.2946660455	-60.2814055726	-36.5386152388	-25.4643494842	-15.2037831038
182500000.0	-25.5492538203	109.031619079	-4.46485292331	32.9165782236	-60.0354741919	-33.3135682647	-25.6458361292	-15.17934811
183187500.0	-25.5589412005	104.242382835	-4.47722881289	31.568418845	-60.2681290972	-24.0403430989	-25.8240519598	-15.1915411238
183875000.0	-25.5321701538	99.5877108451	-4.48903569874	30.2083666782	-59.9528995056	-8.11444141825	-26.0031573791	-15.3386997501
184562500.0	-25.4974066848	94.8649431298	-4.5003292723	28.8651221765	-59.9385773517	-1.2931587628	-26.1676823256	-15.5847098755
185250000.0	-25.4171675005	90.2028867045	-4.510796272	27.5365006411	-60.0147116958	2.20054679611	-26.3314620765	-15.7821510163
185937500.0	-25.3250112472	85.4857895693	-4.52396449461	26.2040484014	-59.866712992	-1.33735551467	-26.4945223738	-15.9907088058
186625000.0	-25.1982101177	80.9676872193	-4.53040009211	24.8747555197	-59.8630599413	1.57330292072	-26.668046125	-16.2699929839
187312500.0	-25.0524473002	76.3850697619	-4.53859745006	23.5604246879	-59.9389639336	14.9044936501	-26.8235090141	-16.537785442
188000000.0	-24.8612825871	71.974094101	-4.54371028189	22.2409813778	-60.1819839046	14.5665161299	-26.9586022433	-16.8660179581
188687500.0	-24.6668306039	67.646257904	-4.54976356293	20.9348072233	-60.38890911	12.6041558583	-27.1086554794	-17.3510154941
189375000.0	-24.4343507745	63.455133752	-4.5533175056	19.6279621648	-60.4943945214	2.31461958371	-27.2534577037	-17.675755488
190062500.0	-24.1777797393	59.4045305064	-4.55882087966	18.3376709904	-60.5268897115	2.62915862697	-27.3955099563	-18.1327435004
190750000.0	-23.917693479	55.5617288539	-4.55916506405	17.0479674899	-60.8796850197	0.256482588974	-27.5250607716	-18.570115278
191437500.0	-23.6395107799	51.8315510233	-4.56349985077	15.7695132332	-60.6875950508	-0.0343406367274	-27.6458336107	-19.0698651851
192125000.0	-23.3576572961	48.4551680353	-4.5648410883	14.5048228216	-60.4308880022	2.88729159352	-27.7595382948	-19.6311411257
192812500.0	-23.0769091828	45.2601561087	-4.5669969493	13.2417182373	-60.398767618	10.939424731	-27.8794828157	-20.3269288977
193500000.0	-22.7965547732	42.3653208592	-4.56767967639	11.9720408858	-59.9514032257	15.0382363373	-27.9830627296	-20.9938733885
194187500.0	-22.5244452589	39.6170534523	-4.57024852037	10.7082835132	-59.8507309449	31.1387202802	-28.0584071144	-21.6200823957
194875000.0	-22.286375863	37.0791320621	-4.5677668796	9.4551851875	-59.3659109145	38.2795316869	-28.1277578564	-22.325634529
195562500.0	-22.0391719569	34.5408458824	-4.56725495506	8.21193737144	-59.3924347276	36.9585658304	-28.200043411	-23.0477217193
196250000.0	-21.8327267611	32.1727128886	-4.5662029079	6.97324245452	-59.6751552556	23.7553503758	-28.2539447773	-23.7136644623
196937500.0	-21.6249486804	29.9329795313	-4.56387304823	5.7398632446	-59.6129542814	10.7090538438	-28.2847844657	-24.3517654794
197625000.0	-21.4524722044	27.8138530835	-4.56110405789	4.5160101364	-59.5172275267	8.88384839967	-28.3041985694	-25.10957373
198312500.0	-21.290311783	25.795316923	-4.55707571541	3.31049825655	-59.8340129223	-4.25871685373	-28.3140258358	-26.0156695509
199000000.0	-21.1531434785	23.7634665522	-4.55241723283	2.09141462583	-60.1058241836	-18.8575512263	-28.3091680782	-26.9823265474
199687500.0	-21.0249533347	21.7791014907	-4.54760162134	0.884528796108	-60.00357914	-44.2655717509	-28.2880464034	-27.8326354711
200375000.0	-20.9248868367	19.8552949813	-4.54301944628	-0.338155284559	-60.1717731627	-75.9760525992	-28.2647312907	-28.7754024761
201062500.0	-20.8354084528	17.8393947339	-4.53625249012	-1.52769345494	-60.0839930855	-109.636767449	-28.2432944357	-29.6954564585
201750000.0	-20.7592106386	15.8988423162	-4.52770811841	-2.73183527934	-59.8539660759	-141.415326897	-28.2018394334	-30.6123945202
202437500.0	-20.6926271086	13.9578674767	-4.52099206134	-3.92182665597	-59.7912954864	-170.634107307	-28.1513748608	-31.5007456843
203125000.0	-20.6325741083	11.9736590243	-4.51076777022	-5.12586078638	-59.9317156216	159.928337456	-28.0740257051	-32.4448234517
203812500.0	-20.5738644567	9.96505828994	-4.50157512602	-6.31328702626	-59.9372016444	131.360623501	-27.9722964659	-33.3377154955
204500000.0	-20.5422982177	8.00347587573	-4.49065704159	-7.51128996113	-60.0288308177	105.818418573	-27.8778695071	-34.1946072934
205187500.0	-20.5261629955	5.98553441957	-4.47941049753	-8.67430514797	-60.2134045772	80.1538708106	-27.7914351205	-34.9647769396
