#Frequency	|S11|	<S11	|S21|	<S21	|S12|	<S12	|S22|	<S22
100000000.0	-18.3392744076	125.40487017	-27.5482823365	-124.907727213	-55.2884038943	110.700986939	-21.9755116174	-39.0554777474
100687500.0	-18.274509649	122.544192664	-27.1920550337	-126.767284767	-55.7699561398	12.4678497913	-21.9791338549	-38.8783450448
101375000.0	-18.1558922502	119.687365873	-26.8716591619	-127.685843057	-59.9284947142	-6.03119839455	-22.0239462209	-38.6366599261
102062500.0	-18.0658341881	116.91434745	-26.5121631285	-129.085542451	-59.7476771342	-23.9776002831	-22.0692388446	-38.3133924784
102750000.0	-17.9865079806	113.953258102	-26.1788379337	-130.426007862	-59.0147064625	-32.7787828592	-22.1177876992	-37.8066530015
103437500.0	-17.901359828	111.056425208	-25.8840780605	-131.759195549	-59.3851935699	-68.6846254017	-22.1793161894	-37.3984441837
104125000.0	-17.8318538994	107.961723131	-25.6028453041	-133.178018113	-59.873393609	-107.245561731	-22.2560288818	-36.9257720871
104812500.0	-17.7758780031	104.894982639	-25.3593397551	-134.548314179	-60.7970882524	-132.617574945	-22.3127820368	-36.6762893765
105500000.0	-17.7260656063	101.683580517	-25.1396561939	-135.941537311	-60.763720058	-155.989598385	-22.3757345584	-36.5595154538
106187500.0	-17.6755807549	98.390680835	-24.9502562113	-137.327834227	-60.5303608807	-160.833963507	-22.4415580642	-36.3944607315
106875000.0	-17.6350767706	94.9875021575	-24.799152582	-138.63179766	-59.9968624014	-159.137380872	-22.5028123505	-36.4664347944
107562500.0	-17.60939262	91.4660412359	-24.6795435941	-139.904343421	-60.9547997418	-144.801877899	-22.5677353515	-36.3882384804
108250000.0	-17.5773219715	87.8201558712	-24.6114101554	-140.960468469	-61.5989740944	-150.581628805	-22.6165275204	-36.3878377454
108937500.0	-17.5321537336	84.3413706449	-24.4814183187	-142.044989338	-62.2703658849	-163.813155836	-22.6691993593	-36.273983779
109625000.0	-17.4909963306	80.7851670435	-24.3730404836	-142.965862538	-62.3129040943	-177.954609032	-22.7155337474	-36.1710672825
110312500.0	-17.4452431388	77.1664246154	-24.2954428658	-143.612199462	-62.5384554857	173.548899901	-22.7712446879	-36.1126871559
111000000.0	-17.4141271437	73.4302379086	-24.2401829084	-144.197519047	-62.792957807	170.848677099	-22.8263260792	-36.0331947534
111687500.0	-17.3774892216	69.6149932013	-24.222090338	-144.355182867	-62.5233137877	167.395967199	-22.8738133653	-36.0445426843
112375000.0	-17.3532753081	65.6983596168	-24.2093297663	-144.160884786	-62.4560429906	167.819216769	-22.9220130143	-36.079880436
113062500.0	-17.3203070901	61.6598432847	-24.1910628491	-143.534528259	-62.4700616772	165.56429368	-22.970596023	-36.0627623629
113750000.0	-17.2985800725	57.5673324833	-24.1487401396	-142.519408288	-62.3268960423	164.364852247	-23.0220525376	-36.1532903107
114437500.0	-17.2778232224	53.3598325488	-24.0665334126	-141.14195363	-62.5041334908	175.834749835	-23.0664049972	-36.2689955725
115125000.0	-17.2719177814	49.0319396343	-23.9262160319	-139.505930491	-62.3176011235	-159.38966925	-23.113014284	-36.3800263321
115812500.0	-17.2582283685	44.5678496125	-23.7325852233	-137.735264029	-62.3045910038	-144.851220747	-23.1441205203	-36.4061086923
116500000.0	-17.2627193348	40.0378138575	-23.4877293941	-135.842144501	-61.7381569121	-119.533991629	-23.1778272096	-36.5319520263
117187500.0	-17.2690409021	35.4178662584	-23.1904571372	-133.901334789	-62.2428489489	-94.7905302043	-23.2109321339	-36.6555992416
117875000.0	-17.3011612601	30.6726079359	-22.8299502129	-131.981307402	-62.0969452217	-65.7505418427	-23.2461856512	-36.6739223894
118562500.0	-17.3384006312	25.7901653113	-22.427598288	-130.132029542	-61.5290040891	-42.1353322475	-23.2755916742	-36.7208306088
119250000.0	-17.4008796109	20.8642136285	-21.9746581563	-128.342745809	-61.4923480486	-14.8929361717	-23.3019793479	-36.648055654
119937500.0	-17.4852199821	15.8390184278	-21.4793942378	-126.697015554	-61.5615609744	11.5392105036	-23.3203923583	-36.5919931967
120625000.0	-17.6014749972	10.7442524376	-20.9434344275	-125.146628243	-61.8772070347	29.1106155601	-23.3488801545	-36.5768170125
121312500.0	-17.7599320794	5.54059679493	-20.3666816184	-123.775202357	-62.0864172761	46.4865636462	-23.3552752907	-36.5365842527
122000000.0	-17.9577375448	0.371315468016	-19.754770938	-122.563045733	-62.068509799	73.262879153	-23.3802000811	-36.3636277063
122687500.0	-18.2118429249	-4.76401628171	-19.1042316809	-121.568534319	-62.7589145322	87.2968311454	-23.3822630435	-36.2407122733
123375000.0	-18.5066912809	-9.81522158695	-18.4283624231	-120.717155003	-62.1765547008	91.7839144116	-23.3895001751	-36.1288153867
124062500.0	-18.9032996219	-14.6207364158	-17.7164523512	-120.11721866	-61.9317792103	106.429503371	-23.3936535388	-35.9103733456
124750000.0	-19.3518232539	-19.0286987003	-16.9764074351	-119.755810619	-61.6045139368	123.483449952	-23.408343761	-35.7099923754
125437500.0	-19.845392357	-22.9636692405	-16.2063811533	-119.62583185	-61.4635131296	144.670959881	-23.4118314867	-35.3354970984
126125000.0	-20.3596604906	-26.013830815	-15.405571466	-119.778379926	-60.886172196	170.866309334	-23.4299994833	-35.0704712504
126812500.0	-20.841141195	-28.5662902554	-14.5822415088	-120.259499933	-60.7792967979	-159.096070294	-23.4360682437	-34.6948486216
127500000.0	-21.2612693372	-30.4959626257	-13.7328720679	-121.126359617	-60.7109530695	-140.093761439	-23.4395067119	-34.3376643977
128187500.0	-21.6502992684	-32.2162684626	-12.8550192893	-122.342185215	-60.599705794	-122.519660025	-23.4413884257	-33.9073933273
128875000.0	-21.9889433418	-33.69082332	-11.9562237713	-124.053596725	-60.2521188003	-110.387430277	-23.4386146661	-33.3616171746
129562500.0	-22.2903249958	-35.0986944242	-11.0589106157	-126.282518786	-60.1453781948	-93.3011881033	-23.443134143	-32.8695920976
130250000.0	-22.5667930424	-36.437370097	-10.1726766484	-129.066250472	-60.2794081821	-75.4925341207	-23.4524370645	-32.3559161872
130937500.0	-22.8063893046	-37.7109688393	-9.32093036081	-132.388370266	-60.2768617947	-70.4428550178	-23.4535227667	-31.7718512669
131625000.0	-23.033579956	-38.9359455256	-8.51124509052	-136.203544647	-60.2334172236	-67.7691155944	-23.446071248	-31.1715480802
132312500.0	-23.2382866139	-40.1093656558	-7.7696471121	-140.373299065	-60.3009980922	-75.572191956	-23.4417106756	-30.5084673693
133000000.0	-23.4330269823	-41.2581139466	-7.08265241154	-144.845867564	-60.3393389561	-76.6727916288	-23.4500051738	-29.9992159564
133687500.0	-23.6007587623	-42.405683344	-6.46520977629	-149.479142554	-60.3578741844	-83.5861151348	-23.4561924576	-29.3198123195
134375000.0	-23.7601387343	-43.5128596307	-5.89979235451	-154.318214716	-59.9047638668	-88.7133365898	-23.4598213234	-28.7422604086
135062500.0	-23.8864863511	-44.6461087908	-5.40354807982	-159.192318103	-59.7603154614	-102.430748971	-23.4655435674	-28.1341373508
135750000.0	-24.0059357488	-45.7258473677	-4.95768772797	-164.13304888	-60.1467076086	-116.591031564	-23.4609350525	-27.5411744702
136437500.0	-24.0945953149	-46.8039198951	-4.56997804805	-169.046143635	-60.2510555591	-140.742446858	-23.4741054223	-26.9968416934
137125000.0	-24.1621237485	-47.8545100901	-4.22578427801	-173.954142966	-59.9888793148	-156.487288641	-23.4853706354	-26.4374805585
137812500.0	-24.1910369653	-48.8653991974	-3.93161748496	-178.790606606	-59.9656093785	-172.338469652	-23.4963629998	-25.8850942879
138500000.0	-24.1915108707	-49.8273916811	-3.67350192889	176.422155714	-60.8603497018	160.186327985	-23.5071217596	-25.3696800594
139187500.0	-24.1373058287	-50.8443455487	-3.45798841443	171.752685209	-60.7462153033	120.914923497	-23.5242133635	-24.8208125411
139875000.0	-24.0283505022	-51.994204488	-3.2750448313	167.153924075	-60.2791761862	91.0364587209	-23.5506102327	-24.2371593155
140562500.0	-23.869900882	-53.2145614304	-3.12592868971	162.700456588	-60.2412751777	61.517883725	-23.5751831616	-23.7622777007
141250000.0	-23.6252125416	-54.6916370231	-3.00397046753	158.345478652	-60.3058574535	29.7051694076	-23.5929365732	-23.3097281278
141937500.0	-23.3313804479	-56.6146905417	-2.9073215323	154.14156807	-61.2310200409	-1.70213435088	-23.6086082328	-22.8989236295
142625000.0	-22.9960506113	-59.0038971273	-2.83001551727	150.047238114	-60.8194445252	-43.1899621722	-23.6269965241	-22.575059671
143312500.0	-22.6303918155	-62.2135537288	-2.77441080887	146.100365715	-61.1224125469	-83.8960903181	-23.6421445672	-22.1492780289
144000000.0	-22.3108815896	-65.9209917134	-2.73201076568	142.255671816	-61.2705404554	-125.978144055	-23.6759441825	-21.814793818
144687500.0	-22.054758111	-70.2527737563	-2.70570703602	138.547774071	-61.6287813203	-167.949553077	-23.7017421914	-21.4773809011
145375000.0	-21.8278984811	-74.765806227	-2.69035745913	134.960443234	-61.8203565143	154.103591323	-23.7336757433	-21.2446306522
146062500.0	-21.6608435373	-79.5023297285	-2.68684554666	131.478121099	-61.6788040547	118.3920012	-23.7699564867	-20.9327566438
146750000.0	-21.52212966	-84.2562613746	-2.68898879244	128.099359837	-61.6828699407	78.1851059919	-23.8014271429	-20.6286532339
147437500.0	-21.4266826268	-89.0049769269	-2.70249692181	124.845526664	-61.7835802492	44.8219401624	-23.8158710154	-20.3424932048
148125000.0	-21.3640193753	-93.8084000602	-2.71955036743	121.67381566	-62.3649395802	20.2266709844	-23.8449042525	-20.0689644271
148812500.0	-21.3184575464	-98.6107142801	-2.74434360121	118.598528238	-62.4809886771	-11.3739122734	-23.8747176881	-19.8280252289
149500000.0	-21.2866987926	-103.339789305	-2.77187572279	115.62794062	-62.4077961408	-42.3730650438	-23.9176514661	-19.6173101026
150187500.0	-21.2764759829	-108.073596009	-2.80543148799	112.733011025	-62.4283747799	-70.951496329	-23.9444476541	-19.268337561
150875000.0	-21.2794405546	-112.664800831	-2.83791959965	109.917483609	-62.5613529587	-101.166808266	-23.9736820916	-19.0557553933
151562500.0	-21.291395875	-117.312871553	-2.87696190745	107.192366203	-62.4313178533	-137.862074078	-23.9899967523	-18.7382439672
152250000.0	-21.314586434	-121.752433075	-2.91407956294	104.527654728	-62.6529437939	-166.043574395	-24.0242288417	-18.4320534255
152937500.0	-21.3444762592	-126.197478782	-2.9566104811	101.942211804	-62.1560372602	164.757893805	-24.0574416658	-18.1404505097
153625000.0	-21.3934756184	-130.560607442	-2.9950004798	99.4108643761	-62.3188349505	135.588766595	-24.0961037328	-17.7877322988
154312500.0	-21.4345106503	-134.852152871	-3.0393293975	96.9507329158	-62.3531732564	98.0166106184	-24.1142273756	-17.4982666052
155000000.0	-21.4889837409	-139.076646932	-3.0812817384	94.5365019804	-62.0489076117	68.7755814784	-24.1401538782	-17.1591919914
155687500.0	-21.5362951503	-143.242124323	-3.1279633995	92.1925824379	-60.7589422167	47.4795786389	-24.1811577047	-16.7013136753
156375000.0	-21.6073166332	-147.355502185	-3.17093738652	89.8835282927	-60.9198781159	30.5264653796	-24.201130618	-16.3510476319
157062500.0	-21.6660149971	-151.379240803	-3.215894483	87.6579669506	-61.1191262835	7.88416697115	-24.2169546033	-15.9480985659
157750000.0	-21.7402906493	-155.353843584	-3.25879996692	85.4507240974	-60.8852099138	-6.45329186056	-24.2303879002	-15.5477229158
158437500.0	-21.7975553623	-159.262615356	-3.30367860235	83.3080273543	-60.687572117	-29.2336292659	-24.2552267594	-15.1203249223
159125000.0	-21.8693490879	-163.049346152	-3.3443558807	81.1915336542	-59.9479866815	-42.6720883316	-24.2850650664	-14.6093965458
159812500.0	-21.9270525319	-166.79992753	-3.3891642664	79.1316035174	-59.7998329374	-48.8700337084	-24.3191944234	-14.116133897
160500000.0	-22.0139346993	-170.511446704	-3.42820095069	77.093566808	-59.3315774136	-58.3170739714	-24.3504666216	-13.6962336794
161187500.0	-22.0784819137	-174.147735652	-3.47269695265	75.1081255912	-59.7781971018	-57.3058355676	-24.3730675878	-13.2262497807
161875000.0	-22.1689958481	-177.641814174	-3.513242781	73.1495730223	-59.3889217608	-55.66324777	-24.4176758283	-12.6876155423
162562500.0	-22.2449360885	178.880083766	-3.55514265275	71.2374496568	-59.4240936779	-54.2105817771	-24.4501410936	-12.1928365753
163250000.0	-22.3227928606	175.509884463	-3.59416594908	69.3345141406	-59.3487791187	-46.1638718918	-24.5037338974	-11.7469188108
163937500.0	-22.4085057946	172.205401893	-3.63521053508	67.4921130788	-59.7572567448	-34.8705224647	-24.5461269707	-11.2197775091
164625000.0	-22.4935874919	168.927473218	-3.67179981592	65.6611689869	-60.2764689566	-22.232249088	-24.6097923564	-10.7626528102
165312500.0	-22.5840009367	165.729667153	-3.71332614296	63.8776612974	-60.5884932747	-13.3833385315	-24.6640073574	-10.350307788
166000000.0	-22.6770595875	162.595899146	-3.75015724632	62.1114086488	-60.3593583162	-2.46738320726	-24.7156504346	-9.91015244212
166687500.0	-22.7889602476	159.425765572	-3.78924966088	60.3718746605	-60.2728008576	12.4961079463	-24.7758523713	-9.45501437055
167375000.0	-22.8977554263	156.470246331	-3.82507467769	58.6599116184	-60.2281999989	19.740715858	-24.8487225035	-9.15733059724
168062500.0	-23.0118719325	153.383080902	-3.86172588006	56.9849567717	-60.2529549938	35.5771311262	-24.9175979956	-8.86093254169
168750000.0	-23.131643353	150.475551219	-3.89590871206	55.3264921226	-60.3352287846	53.3096748949	-25.0069400968	-8.6507765479
169437500.0	-23.2603422874	147.370983547	-3.9317602815	53.7037393596	-60.2347605351	69.0591474215	-25.0910391241	-8.46875528117
170125000.0	-23.3727201637	144.415650942	-3.96298243585	52.0862189219	-60.2980346156	88.4655371377	-25.1839938044	-8.25502313172
170812500.0	-23.5037528905	141.338720604	-3.99680370629	50.5048573499	-60.3683845732	118.23563248	-25.2686323531	-8.08015551832
171500000.0	-23.6357979472	138.299958956	-4.02737698084	48.9320188424	-60.4168530823	146.029422675	-25.3677434387	-7.99883246921
172187500.0	-23.7848614516	135.161071715	-4.05515637169	47.3938645241	-61.5968717935	177.725611994	-25.4695933242	-7.97705858906
172875000.0	-23.9314673838	132.033495631	-4.08317989588	45.8726909876	-61.6568867523	-157.027087996	-25.561265363	-8.07515520409
173562500.0	-24.0680556002	128.783452512	-4.11046601939	44.3779669148	-61.5856475839	-127.657391918	-25.6687951041	-8.11317043147
174250000.0	-24.222974975	125.505251694	-4.13428586417	42.8938466163	-61.3225053752	-98.3982150474	-25.7636656133	-8.19544537947
174937500.0	-24.367594742	122.165740581	-4.15686233807	41.4353147154	-61.4465601802	-78.7437945041	-25.8662742557	-8.47471036205
175625000.0	-24.5049620781	118.722918082	-4.17730136443	39.9831793248	-61.4790240887	-49.8662891893	-25.9537632381	-8.67322188799
176312500.0	-24.6347426851	115.183465401	-4.2008360547	38.5572169185	-61.5490917766	-19.9009818657	-26.0645454277	-9.05092180911
177000000.0	-24.7670378885	111.650341228	-4.21744644066	37.1340311538	-61.8623225674	1.21672825642	-26.1780465529	-9.46861561756
177687500.0	-24.8572949541	108.056641354	-4.23735313503	35.7258818096	-61.7848773934	14.2471216996	-26.277551352	-9.78440166404
178375000.0	-24.9558472673	104.417059512	-4.25118672932	34.3222895131	-61.3135598138	26.7736397981	-26.3809631484	-10.1907395469
179062500.0	-25.0182616013	100.729654962	-4.26628286381	32.9416332664	-61.5061240264	50.1816715291	-26.4617113568	-10.741702889
179750000.0	-25.0978306985	96.9514300395	-4.27844602915	31.5599769001	-61.6474514968	64.9945996241	-26.546633342	-11.2795328081
180437500.0	-25.1473026712	93.0948641057	-4.29244529313	30.2013684389	-61.7075585052	78.877251013	-26.5977783428	-11.847705615
181125000.0	-25.1902432693	89.1896764367	-4.30276059035	28.8242909044	-61.6428943651	82.0630422654	-26.6686164152	-12.3916701106
181812500.0	-25.2105891005	85.3674907836	-4.31412978549	27.473021456	-60.7915257366	76.6796461461	-26.7217143803	-12.9681947196
182500000.0	-25.2224367955	81.4715769136	-4.31805660551	26.1179310104	-60.0323823625	66.0315989492	-26.7950878334	-13.4520843455
183187500.0	-25.2060088067	77.6032005565	-4.32499480574	24.7894472675	-60.0348623354	50.0427568092	-26.8417061608	-13.9270853947
183875000.0	-25.1882030248	73.7678554967	-4.32747468624	23.4414119529	-60.2353207643	36.617339766	-26.8808748878	-14.5511400887
184562500.0	-25.1507854937	69.861121772	-4.33429775077	22.1211920236	-60.5844936577	22.4651715088	-26.8883239058	-15.0605907564
185250000.0	-25.1117244224	66.0765188433	-4.33461651697	20.7835695587	-60.5209227746	8.54658475833	-26.9124021987	-15.4392535792
185937500.0	-25.0564178686	62.2393348648	-4.33961879593	19.4601335798	-60.6635382589	-7.26832545637	-26.9025370583	-15.734294543
186625000.0	-24.9919064998	58.6126065522	-4.33599244023	18.1325238718	-60.8665501117	-25.0084639118	-26.9046061141	-16.1523873713
187312500.0	-24.9203833035	54.8027963703	-4.33743284697	16.8320282589	-60.9658089701	-43.2148478348	-26.8792828442	-16.3999526015
188000000.0	-24.8316944927	51.2866774079	-4.33436288008	15.5247413749	-60.7228507992	-69.9059384897	-26.8474299683	-16.7352513349
188687500.0	-24.7459484636	47.6624708314	-4.3340922179	14.2391848576	-60.5717771787	-97.2670460724	-26.8244402534	-16.9169691363
189375000.0	-24.6449856521	44.1497215717	-4.3325783404	12.93443493	-59.6305818316	-126.721189365	-26.7992654462	-17.0137800775
190062500.0	-24.5494353109	40.6629159744	-4.33096717239	11.6392900089	-59.7599223331	-149.010049368	-26.7649477293	-16.9734996779
190750000.0	-24.4371239604	37.3207203969	-4.32449113473	10.3423657407	-60.0283544455	-172.084238938	-26.7194093926	-16.9912100345
191437500.0	-24.3339377109	34.0627913448	-4.32262361829	9.06219037557	-60.1138889276	173.172056051	-26.6750431512	-17.0048154252
192125000.0	-24.2222378284	30.8893158027	-4.31749633802	7.78489530124	-60.1788852806	157.098042144	-26.6184198503	-16.8243788083
192812500.0	-24.1288769869	27.7228240829	-4.31287944916	6.51745039939	-60.3091986465	131.838395004	-26.5779437442	-16.7057166064
193500000.0	-24.0294773472	24.6223921124	-4.30512043953	5.23323667841	-60.5402623465	107.056561356	-26.5047598645	-16.4967856944
194187500.0	-23.9354778444	21.5965799488	-4.30195445415	3.97178526978	-60.5398280389	85.476190894	-26.4200797396	-16.196847457
194875000.0	-23.8718977963	18.5835218452	-4.2941471172	2.70780032701	-60.9934728167	67.5864813643	-26.3500985806	-15.9129491505
195562500.0	-23.8070869896	15.5420706995	-4.28714506108	1.45597436462	-61.3541807479	37.9207757094	-26.2896824146	-15.6015052381
196250000.0	-23.7527133407	12.506566178	-4.28035121659	0.203349720561	-61.0952980743	1.45648127501	-26.2264855386	-15.1517419264
196937500.0	-23.6889232605	9.51250670783	-4.27243222731	-1.04653762777	-60.8894161548	-37.916578402	-26.1554302288	-14.5332328286
197625000.0	-23.6517170909	6.54771269074	-4.26170055851	-2.2779995495	-60.7681761571	-77.8771993782	-26.0934509805	-14.0178627879
198312500.0	-23.6067904216	3.59570322599	-4.25245776267	-3.50062224152	-60.7564839159	-115.780600687	-26.0345458708	-13.5937232798
199000000.0	-23.5911268274	0.521316540128	-4.24085648616	-4.7369070896	-61.0710922309	-146.045807121	-25.961868012	-13.0601916796
199687500.0	-23.5464425232	-2.47105587463	-4.23279773127	-5.97036015007	-61.4262588193	-174.840883038	-25.8952724424	-12.569477146
200375000.0	-23.5376044583	-5.50842847752	-4.22150741305	-7.201619836	-61.4034070625	156.700764837	-25.8511360195	-12.0940804954
201062500.0	-23.5003443145	-8.5579656325	-4.21195205026	-8.4079676266	-61.4990281056	130.070997888	-25.8169149576	-11.5048852828
201750000.0	-23.4803533203	-11.634143928	-4.19733087249	-9.63177397459	-61.4881289156	100.55124504	-25.7817511957	-10.9417070169
202437500.0	-23.4406227394	-14.7436708341	-4.18686067722	-10.8347414871	-61.5070826956	65.8681377143	-25.7525691833	-10.4928928088
203125000.0	-23.410618333	-17.8767250949	-4.16998068134	-12.0425275493	-61.5349119293	37.9593861999	-25.7291481741	-10.0429574399
203812500.0	-23.3629631044	-21.0798275653	-4.16039858463	-13.2395964542	-61.3215257434	14.3264898081	-25.6901946293	-9.51793796594
204500000.0	-23.3408604501	-24.1975745659	-4.14441123409	-14.4567326054	-61.267371222	-10.9078201032	-25.667540124	-9.11348475423
