#Frequency	|S11|	<S11	|S21|	<S21	|S12|	<S12	|S22|	<S22
100000000.0	-16.8694199571	146.850266872	-15.4754705457	-125.837549587	-55.6228920247	59.0214449931	-18.9327431789	-62.560586308
100687500.0	-16.845184779	144.095408911	-15.1001174733	-127.338090183	-57.2444417495	89.5586451643	-19.0896797995	-62.5995892777
101375000.0	-16.8136048363	140.983983777	-14.6782822889	-128.786173574	-57.4926025667	120.955939873	-19.1905558086	-62.0098441084
102062500.0	-16.8023375704	137.779681565	-14.3048654271	-130.156079738	-58.9809320863	168.694833384	-19.3116096459	-61.533828702
102750000.0	-16.7934593504	134.620276637	-13.948586072	-131.588481452	-60.2164045318	170.59086503	-19.4438320566	-61.1049544567
103437500.0	-16.7825505115	131.528935983	-13.618377479	-133.011909823	-60.2588923242	171.794195513	-19.581896481	-60.6740068748
104125000.0	-16.7843811532	128.327493521	-13.306897853	-134.420991825	-60.9205238536	175.927829006	-19.7411487535	-60.2071571076
104812500.0	-16.7865553181	125.122820397	-13.0205480399	-135.811162988	-61.1435189575	-177.527195957	-19.9101604778	-60.0428017594
105500000.0	-16.7943962246	121.843583997	-12.7628682388	-137.234892621	-60.737943362	-150.522619205	-20.0784572797	-59.8542546142
106187500.0	-16.8024487929	118.507016981	-12.5316170846	-138.636654734	-60.5747755495	-140.339396859	-20.2581983798	-59.7880854532
106875000.0	-16.8209091205	115.076678728	-12.333184595	-140.040633807	-60.8518722372	-135.488860676	-20.4371833201	-59.7373113649
107562500.0	-16.8549650194	111.561202065	-12.1693301431	-141.401843055	-60.8227001192	-127.513281036	-20.6315597619	-59.6461676839
108250000.0	-16.8910582801	107.951417121	-12.0405208606	-142.653900588	-60.6445327347	-118.751399656	-20.8278997834	-59.6780771414
108937500.0	-16.9184259307	104.455059888	-11.8548892923	-143.928202573	-61.2336609889	-104.839862819	-21.0119129271	-59.533952004
109625000.0	-16.9507551685	100.86748899	-11.6927802747	-145.112937108	-61.2724135753	-89.5879465024	-21.1981543515	-59.4163577009
110312500.0	-16.981286598	97.1769191111	-11.5628951802	-146.247186591	-61.6830582778	-74.4518201579	-21.3854035847	-59.3661363862
111000000.0	-17.0251146066	93.4282357206	-11.4616760897	-147.21907943	-61.8140394502	-69.5557687543	-21.5697619913	-59.336103861
111687500.0	-17.0720117051	89.6278167459	-11.3938561943	-148.000146551	-61.8096756925	-73.5962399027	-21.7641255996	-59.4791232532
112375000.0	-17.1214671883	85.7051379906	-11.3539666111	-148.547227952	-61.474080302	-82.203363436	-21.9678030558	-59.5471020165
113062500.0	-17.175060305	81.716061721	-11.339886684	-148.771325696	-61.2740913789	-89.7700890293	-22.1716826164	-59.652407002
113750000.0	-17.2417405897	77.5829976836	-11.3359116752	-148.574681499	-61.4859738882	-85.3452101228	-22.3770231967	-59.8029423448
114437500.0	-17.3027963061	73.359925017	-11.3278983947	-147.963418865	-61.0035153192	-73.7482849637	-22.5948641332	-60.0282301215
115125000.0	-17.3812694976	68.9312177841	-11.2921496	-146.908463358	-60.9045990354	-69.50754927	-22.8093976249	-60.230462655
115812500.0	-17.454017504	64.4003845955	-11.214197253	-145.493049166	-60.8916133391	-66.1307000431	-23.041428563	-60.4144988217
116500000.0	-17.5416035922	59.7507056222	-11.082691045	-143.800184399	-60.9622577553	-64.6810551484	-23.2527574221	-60.6127835777
117187500.0	-17.6285133793	54.9721291217	-10.8939146514	-141.936640408	-60.8181891035	-49.949144512	-23.4714290277	-60.8166797899
117875000.0	-17.7393261167	50.0162792511	-10.6476526902	-139.992384461	-60.8289044316	-47.125980461	-23.6980488102	-60.8902199643
118562500.0	-17.8514015668	44.8595880991	-10.3443489543	-137.996179504	-60.5327741801	-47.4380074203	-23.9273630217	-60.9224380934
119250000.0	-17.9880037249	39.5622945638	-9.98669234876	-136.015147278	-60.7829405165	-47.148442053	-24.1535451318	-60.830073712
119937500.0	-18.1343464575	34.1063957312	-9.57505286865	-134.093567569	-61.3979317498	-52.1422961665	-24.3686544101	-60.7569039901
120625000.0	-18.3094958806	28.4106756178	-9.11542699888	-132.271098436	-61.4413016707	-55.5356100923	-24.5908242828	-60.6203643237
121312500.0	-18.5142865547	22.5173712308	-8.61034462393	-130.570427247	-61.5613413481	-56.9918261693	-24.7828675159	-60.4346389735
122000000.0	-18.7398432838	16.464574923	-8.06023269317	-129.005597408	-61.0478575326	-58.1772433688	-24.9874907079	-60.2670475666
122687500.0	-19.0194119416	10.1687001246	-7.46934384732	-127.612171969	-61.2307551989	-56.681198112	-25.1614996622	-59.9846399672
123375000.0	-19.3434418506	3.76650735336	-6.84134434489	-126.391829787	-61.2894367767	-58.6671612281	-25.308502121	-59.6489851546
124062500.0	-19.7411837482	-2.96726462425	-6.17817984669	-125.386064938	-60.8898498553	-56.3933922394	-25.4419886828	-59.2269285898
124750000.0	-20.2209607463	-9.75764305415	-5.48597177278	-124.593622016	-60.773414322	-59.3737220098	-25.5564184614	-58.7812124047
125437500.0	-20.8152745242	-16.8194261917	-4.76136549172	-124.049866085	-60.7140064087	-59.9014469836	-25.6370169318	-58.2339234664
126125000.0	-21.5793677743	-23.8549208815	-4.00564183165	-123.728081839	-60.1080776218	-58.1610504549	-25.7003315561	-57.7896443319
126812500.0	-22.6981111647	-30.3282931198	-3.22063534369	-123.666568576	-60.0705519364	-55.2366055044	-25.7411054828	-57.2723246581
127500000.0	-23.7200957312	-32.2829900583	-2.40969992594	-123.879481514	-59.9357103334	-49.8309396381	-25.7501599097	-56.8105765022
128187500.0	-24.5312010652	-33.8997410161	-1.57256032439	-124.417912226	-59.6464167717	-35.3568107249	-25.7539073061	-56.3398588618
128875000.0	-25.1544247588	-35.3481408146	-0.707232235838	-125.315495766	-59.510833199	-18.2487729962	-25.7263564871	-55.8237368703
129562500.0	-25.7030631614	-36.966996532	0.183146449072	-126.640356661	-59.4989402368	4.5133860636	-25.6797962787	-55.4414967217
130250000.0	-26.1517068094	-38.5925721096	1.09183839042	-128.422958147	-59.395442386	21.2013497221	-25.6228786373	-55.1603095493
130937500.0	-26.5433579517	-40.414839992	2.00379452705	-130.786454654	-59.1903500077	32.1372446045	-25.5486502923	-54.8216871767
131625000.0	-26.895626482	-42.1862428069	2.90073466634	-133.700149812	-59.2901981292	36.2301447003	-25.4393028675	-54.5127407778
132312500.0	-27.2043385363	-43.9645444159	3.76331348301	-137.198040116	-59.0170268661	47.6216804576	-25.3229406298	-54.2361388922
133000000.0	-27.4805197531	-45.8129998934	4.57304367639	-141.165674053	-58.922809023	60.3443157113	-25.1744421447	-54.0573544352
133687500.0	-27.7162102097	-47.6773206418	5.31884459862	-145.542815054	-58.3008641037	70.7683024661	-25.0317174401	-53.9068264288
134375000.0	-27.9319429357	-49.5656296964	5.99871994747	-150.193397365	-58.3427309056	73.8571485924	-24.8713057802	-53.8311051713
135062500.0	-28.0995224086	-51.4933470226	6.61297039109	-155.054415941	-57.9401220954	79.9831528802	-24.6813447649	-53.8692429023
135750000.0	-28.2531260899	-53.3235739466	7.1611337876	-160.034232076	-58.1682594636	94.2082208839	-24.4729697465	-53.9945062098
136437500.0	-28.3663366147	-55.0914298098	7.64795871889	-165.114803988	-57.6053829918	98.7952056655	-24.2587205965	-54.3434333525
137125000.0	-28.4607338423	-56.8757510412	8.07383721515	-170.20187993	-56.9980971396	105.982506735	-24.0438210655	-54.6678012913
137812500.0	-28.4985833637	-58.4404659571	8.44431445317	-175.294055435	-56.5312055597	113.757327842	-23.8092633857	-55.0424933065
138500000.0	-28.5088587393	-59.9344487631	8.76462872719	179.668478966	-56.1970054369	127.812328057	-23.5764126891	-55.4808767582
139187500.0	-28.4721426736	-61.2745307785	9.03481359669	174.688902082	-56.3107655129	135.228875362	-23.3288274071	-55.9819545674
139875000.0	-28.382724846	-62.474451033	9.26287232302	169.817575686	-56.0999994633	146.127452508	-23.1015395318	-56.4942291177
140562500.0	-28.2301220448	-63.576224747	9.45163438691	165.041907573	-55.9732249248	151.739191742	-22.8776239806	-57.2157963186
141250000.0	-28.003458586	-64.3674323336	9.60444901971	160.39987884	-56.0259345952	160.587452333	-22.6607336393	-57.9271199924
141937500.0	-27.6902377073	-65.1346719089	9.72670036299	155.889004341	-56.175542818	168.131604412	-22.4446401916	-58.7164795949
142625000.0	-27.2538243963	-65.6980727244	9.82242963627	151.51988059	-55.8916139362	175.244812176	-22.25472252	-59.4788784833
143312500.0	-26.6317498147	-66.2294543799	9.89077917216	147.293198038	-56.1337779132	176.793666189	-22.0657383012	-60.279853048
144000000.0	-25.6592707535	-67.3139736568	9.94020694152	143.209709228	-55.775450651	170.952120209	-21.892456315	-61.0255428513
144687500.0	-24.7823253324	-72.9225940218	9.97260504143	139.272469098	-55.5934568823	169.319799558	-21.732451302	-61.7567416589
145375000.0	-24.1026835643	-78.8287532272	9.98989202014	135.475259176	-55.4502144881	166.381794528	-21.579043151	-62.4362873232
146062500.0	-23.6040153624	-84.8770551955	9.99302567358	131.811527356	-55.5464183969	164.740188882	-21.443823215	-63.0767158511
146750000.0	-23.1780213977	-90.6365206272	9.98643341772	128.283950205	-55.3338230363	162.233021858	-21.3088173817	-63.5824820893
147437500.0	-22.8538459392	-96.4330645392	9.96965288947	124.875155035	-55.7093465084	158.989986639	-21.1725195227	-63.9737496011
148125000.0	-22.5665718789	-101.88938345	9.94829091868	121.590763076	-55.4932214262	153.054014874	-21.0469659921	-64.3565311209
148812500.0	-22.3354097935	-107.414230052	9.91892277275	118.405322759	-55.1868137662	152.700279711	-20.9311419192	-64.646804595
149500000.0	-22.1277607406	-112.692310291	9.88731315109	115.333647462	-55.1783941318	145.845901593	-20.8267310587	-64.8871673615
150187500.0	-21.959836231	-117.909501353	9.85159629489	112.356837284	-55.3557939851	144.978899513	-20.7355449403	-65.030176852
150875000.0	-21.8165415271	-122.907504381	9.81405826011	109.474165842	-55.3794916779	140.205075652	-20.6450863575	-65.1007116937
151562500.0	-21.6940731869	-127.865768957	9.77359367062	106.668747426	-55.0079043133	137.587984264	-20.5532078586	-65.0987667272
152250000.0	-21.5978131138	-132.590081577	9.73209720434	103.952236282	-55.319859305	137.19421542	-20.4814718951	-65.0428880998
152937500.0	-21.5113522864	-137.267383606	9.68720702862	101.299537035	-54.9632321022	136.226630103	-20.4137274826	-64.8624586049
153625000.0	-21.4440728118	-141.833271064	9.64412455312	98.7408064916	-54.8278553777	135.966363161	-20.3596377072	-64.654856088
154312500.0	-21.3798200679	-146.27511477	9.59847162727	96.2312940545	-55.0043692756	133.663388239	-20.2980088077	-64.3666417656
155000000.0	-21.3463487726	-150.697174585	9.55272257688	93.792408334	-55.315286685	132.221908392	-20.2518279808	-64.0878729266
155687500.0	-21.3067276303	-154.958209391	9.50662235431	91.4014697096	-55.3574909884	129.713727168	-20.2243249299	-63.6578995179
156375000.0	-21.2969429457	-159.260042199	9.46076103003	89.0822454717	-55.5247604789	129.928127206	-20.1928494071	-63.1995099394
157062500.0	-21.2720685351	-163.40711542	9.41538761199	86.7900078927	-55.22990196	123.070961902	-20.1768015287	-62.7046117799
157750000.0	-21.2619817666	-167.591640965	9.3697548657	84.571003928	-55.780920926	123.235962864	-20.1676825719	-62.1714866369
158437500.0	-21.2409994278	-171.636568803	9.32474481521	82.3863598065	-55.6577498829	116.911508731	-20.1606233993	-61.5797306854
159125000.0	-21.2325851095	-175.692371258	9.28036014473	80.2645407293	-55.5303500112	115.054352112	-20.1709140283	-60.9513477214
159812500.0	-21.2188740427	-179.591926564	9.23612349965	78.1745366227	-55.5310306679	112.858227405	-20.1865895241	-60.2700223996
160500000.0	-21.226190125	176.495473613	9.19403838388	76.1318440699	-55.5463209896	111.389243193	-20.2112124629	-59.6031011427
161187500.0	-21.2150401193	172.701710961	9.15117114169	74.119246679	-55.6130649996	108.85852618	-20.2370515798	-58.8903952346
161875000.0	-21.2069276243	169.021455354	9.10940377297	72.1535710357	-55.9752877725	106.788242317	-20.2781496229	-58.1708583762
162562500.0	-21.2048801038	165.33343653	9.06814846595	70.2143917364	-56.1300766245	102.932776421	-20.3254282447	-57.4253420275
163250000.0	-21.1995766197	161.676657463	9.0271718686	68.3111027546	-55.9920449757	102.642254806	-20.3860463142	-56.6310567842
163937500.0	-21.1992567646	158.077690508	8.98601082543	66.4442824197	-56.3756484679	97.2312155103	-20.4535261722	-55.9007243621
164625000.0	-21.1892919525	154.603060013	8.94824184711	64.6166525566	-56.030497791	94.9771443807	-20.5320459815	-55.1890845743
165312500.0	-21.190097295	151.1218503	8.90802743185	62.8169666785	-56.1384525352	93.5463214834	-20.6290265335	-54.4483191572
166000000.0	-21.1763490436	147.784482865	8.87155509979	61.0533846169	-56.0117647962	91.6113463701	-20.7264525929	-53.7008308628
166687500.0	-21.1708119549	144.343347944	8.83373184253	59.30427429	-56.3213512354	89.9410476683	-20.837994342	-52.9461482492
167375000.0	-21.1587575734	141.105735597	8.79744440096	57.5857256224	-55.9816628949	87.6215534449	-20.9604186135	-52.3032073677
168062500.0	-21.1547566749	137.775010783	8.76216579758	55.8930639001	-56.1925890209	85.3253993035	-21.0848187609	-51.6797182663
168750000.0	-21.1354902888	134.628530277	8.72873676398	54.2428714189	-56.2829030273	88.1378978391	-21.2329867965	-51.0932369573
169437500.0	-21.1216342824	131.427829267	8.69575079143	52.6084610105	-56.4902680349	86.9887172673	-21.3818931142	-50.4803200104
170125000.0	-21.1051784875	128.356849424	8.66581042414	50.9970617621	-56.5248647277	77.0280800825	-21.540853811	-49.9448136852
170812500.0	-21.0956157583	125.224233639	8.63555118594	49.3993803005	-57.1235359148	76.6604699806	-21.7123685151	-49.4266105539
171500000.0	-21.0787711815	122.207022365	8.60802252178	47.8393954062	-56.7447804445	74.1520669795	-21.8940387933	-49.0083440702
172187500.0	-21.066819074	119.199190227	8.5833237245	46.2992738222	-56.8858235987	71.5606475858	-22.0833612709	-48.6692712247
172875000.0	-21.0603749333	116.199832034	8.55835293148	44.7825725475	-57.1341601642	64.981436054	-22.2777038883	-48.3490648012
173562500.0	-21.0430521169	113.289954111	8.53557155125	43.2720165506	-56.9205767806	63.7405835519	-22.499045679	-48.1096167953
174250000.0	-21.0318018344	110.423460112	8.51509473144	41.7994884583	-57.0555914791	64.2259392726	-22.7222901536	-47.8154489981
174937500.0	-21.0094450442	107.605496268	8.49581241465	40.3214169738	-56.6423627169	63.0834228484	-22.9423259139	-47.7034237299
175625000.0	-20.9931865487	104.734171716	8.47894881877	38.8671119049	-56.7017213038	65.1146154019	-23.1756302154	-47.5221325493
176312500.0	-20.9665342529	101.969740647	8.46236240532	37.4292314499	-56.6930862246	63.6881273858	-23.4225137037	-47.5700370277
177000000.0	-20.9370685338	99.1995159328	8.44801023921	36.0130045069	-56.9264335138	63.4778454984	-23.6753312192	-47.7105985024
177687500.0	-20.8861324361	96.4155613691	8.43446056254	34.5927730757	-56.6302263477	62.6618698399	-23.940374608	-47.9668030137
178375000.0	-20.8554931757	93.6052575019	8.42420830988	33.1946733766	-56.8786327356	61.7741288081	-24.2210726454	-48.1470429246
179062500.0	-20.8080173275	90.8756944885	8.41425309417	31.796894123	-56.4082483802	61.6415585478	-24.4848685146	-48.602006931
179750000.0	-20.7664466651	88.1241321231	8.40644492592	30.423857118	-56.667231863	59.9518356554	-24.7591184556	-49.0325251576
180437500.0	-20.7153043755	85.4614192964	8.40109400366	29.041925891	-56.4605739452	56.4834817367	-25.0218156346	-49.5891687692
181125000.0	-20.6614447403	82.7264759433	8.39769523568	27.6765520129	-56.35385183	56.2340930841	-25.2929831275	-50.1962058355
181812500.0	-20.5969293194	80.1271033926	8.39264807918	26.302886266	-56.1395328488	57.3857854339	-25.5744395097	-50.9220349783
182500000.0	-20.5413413394	77.4788664378	8.39134999473	24.9431994269	-56.4711007376	56.7033912272	-25.8540561035	-51.7772722571
183187500.0	-20.4670160777	74.8817798055	8.38974419363	23.5821664468	-56.5795080183	51.1043248319	-26.1256308712	-52.5882671883
183875000.0	-20.4030839899	72.3582615615	8.39026235952	22.238083396	-56.5054847687	52.5383452641	-26.3861642536	-53.6189469081
184562500.0	-20.3336020768	69.8131691119	8.39006237868	20.9019224353	-56.6402254994	58.3490013737	-26.6200928713	-54.6361493056
185250000.0	-20.2581994085	67.2786250011	8.39305618591	19.5711539098	-56.6439609249	72.5185921425	-26.8588380083	-55.73909706
185937500.0	-20.1891090634	64.7396185321	8.39341936794	18.2297225464	-56.6563015248	78.7482366138	-27.0890265713	-56.8931397025
186625000.0	-20.1230527985	62.3321289978	8.39850352201	16.9075151317	-56.5829826253	94.4380336986	-27.313138864	-58.3822654305
187312500.0	-20.0561668754	59.8369425632	8.40366332587	15.58022437	-56.6267774316	113.168284012	-27.5310576092	-59.5604317275
188000000.0	-19.9877434512	57.5104057172	8.40911614687	14.2681764596	-56.2676469458	125.914576723	-27.7022721171	-60.9203130675
188687500.0	-19.9265217557	55.0998887771	8.4143182506	12.9487026247	-56.3967414592	137.35099925	-27.8833779575	-62.2201665277
189375000.0	-19.8632508035	52.7583351985	8.42040187544	11.6433149139	-56.3194324851	151.762519502	-28.036347285	-63.6042105649
190062500.0	-19.8024308655	50.4212132744	8.42782023525	10.3384342747	-56.1810590273	167.869696658	-28.1908607126	-64.9264901773
190750000.0	-19.7432446789	48.101083419	8.43773125001	9.04259968617	-55.9924101006	-179.290199797	-28.3192327508	-66.4277612773
191437500.0	-19.7042007083	45.7335986367	8.44535585493	7.75198340717	-56.3538684699	-164.995301875	-28.4144247094	-67.9199791672
192125000.0	-19.6689242436	43.4812697871	8.45529218193	6.47175667991	-56.0445679418	-151.682495946	-28.4964591113	-69.3186361853
192812500.0	-19.6439731345	41.0998722283	8.4652352027	5.1980406934	-56.5574716272	-139.126396994	-28.5502190253	-70.8966037648
193500000.0	-19.6262631375	38.8135696454	8.47555339229	3.91345076567	-56.4630196394	-131.004837664	-28.5932190256	-72.2926460355
194187500.0	-19.6250589902	36.5010310012	8.48559062637	2.63535870995	-56.7978399169	-117.604441761	-28.5916391406	-73.6375373377
194875000.0	-19.640174437	34.2447878364	8.49822479814	1.36846218828	-56.7856535439	-111.865754452	-28.5723106348	-74.927041412
195562500.0	-19.6518732836	31.9135244333	8.51041696451	0.0998831829888	-57.2794557505	-97.7112983234	-28.5200186169	-76.4076367155
196250000.0	-19.6810343031	29.5748775883	8.52238897235	-1.15705207037	-57.2559143927	-87.8515119622	-28.4605481519	-77.57295617
196937500.0	-19.706164704	27.2160152718	8.53537565778	-2.42387948544	-57.1068691246	-74.3741420909	-28.3842056538	-78.8911624581
197625000.0	-19.7564491181	24.8215515753	8.54900243754	-3.66587591717	-57.3210055276	-64.378582879	-28.3000784716	-80.0213798738
198312500.0	-19.8018661144	22.4016731987	8.56327874935	-4.92006556566	-57.4039117793	-50.1600081882	-28.184092336	-81.1856158408
199000000.0	-19.8728674528	19.8852559444	8.58083883357	-6.1694846703	-57.6506671662	-40.3527757685	-28.0466574216	-82.1775879164
199687500.0	-19.9232411994	17.4259412614	8.59665668798	-7.41153434889	-57.333121214	-27.6696245316	-27.87785499	-83.1394710007
200375000.0	-20.0029005837	14.8827735429	8.61343382288	-8.65307341499	-57.638326808	-12.6034420586	-27.722041807	-84.096353466
201062500.0	-20.0693550611	12.338003815	8.63029680753	-9.89047577071	-57.4986143128	0.209229176428	-27.5371294401	-85.0208683906
201750000.0	-20.1437280848	9.65716865883	8.65047682962	-11.1318073311	-57.3458787562	3.16857911001	-27.3678064671	-85.6868301967
202437500.0	-20.2074652033	7.06716442741	8.66864428867	-12.3694554379	-57.3074285728	5.15970421169	-27.1801705685	-86.410648098
203125000.0	-20.2857190646	4.37886319178	8.69140184232	-13.6016620452	-57.4047960299	4.76171837064	-26.9746286283	-86.9307050307
203812500.0	-20.3497508191	1.65778389179	8.70968626819	-14.8413871861	-57.0617980346	1.77172052824	-26.7602877944	-87.2333424324
204500000.0	-20.4444659699	-1.06741519462	8.7306495762	-16.0773394446	-57.0251550315	-0.127173031029	-26.547765438	-87.6179322775
205187500.0	-20.5186628465	-3.79336899315	8.75146021274	-17.3164142825	-56.8107683738	-0.34495398328	-26.3561777582	-87.8850175054
205875000.0	-20.5953336772	-6.48942455715	8.77515834963	-18.5496059535	-57.0395800387	-0.224129845925	-26.1457038452	-87.9623240332
