#Frequency	|S11|	<S11	|S21|	<S21	|S12|	<S12	|S22|	<S22
100000000.0	-16.0341367102	139.162571601	-41.2007595727	-115.31415707	-78.5657051232	173.058826015	-21.7569954055	-33.8609506994
100687500.0	-15.9802589432	135.878632617	-40.9738408528	-123.148338929	-65.1508747255	81.3090365964	-21.8002829545	-34.1539132632
101375000.0	-15.9369838215	132.833588907	-40.6984254362	-124.081422149	-62.3470028342	28.865620048	-21.8268157909	-33.9927124699
102062500.0	-15.9129613311	129.787236356	-40.6021922243	-126.255043473	-62.5219297252	-62.5173773589	-21.8764116524	-33.5093634659
102750000.0	-15.8770546633	126.836871521	-40.3533503178	-127.694505694	-62.6106280639	-128.57790388	-21.9148649799	-33.223010866
103437500.0	-15.8636729129	123.923526171	-40.1109608849	-128.644227255	-63.2502032976	-179.26883971	-21.9603496248	-32.9340047921
104125000.0	-15.8483456131	120.82165059	-39.7511264479	-129.892308421	-63.5280134979	108.367015966	-22.0134937725	-32.5724394424
104812500.0	-15.83620353	117.695304687	-39.5201403302	-131.518062614	-62.4493784965	31.3311299726	-22.0713774838	-32.3606642637
105500000.0	-15.836041463	114.463188447	-39.2529639913	-133.08392848	-62.0865860609	-43.7183203041	-22.120668388	-32.1840626408
106187500.0	-15.8429855503	111.093901175	-39.0838376647	-134.263384328	-61.9960922613	-106.065898906	-22.180342495	-32.0847800269
106875000.0	-15.8656159912	107.607875202	-38.9640964541	-135.871668366	-62.0641596341	175.886880954	-22.2263590827	-32.0087541428
107562500.0	-15.9046643805	104.014588976	-38.8421058603	-137.166767163	-61.8429732739	111.319832894	-22.2834325125	-31.8690412885
108250000.0	-15.944549817	100.237268778	-38.8034192569	-138.436761584	-61.8725494671	51.8545719096	-22.3238763008	-31.9102254261
108937500.0	-15.9674835471	96.6601990651	-38.6964661933	-139.845352047	-60.8645867586	-16.0787985874	-22.3675405675	-31.7752806572
109625000.0	-15.997111135	93.0381673807	-38.5902459332	-140.558848972	-61.2101437324	-84.6350919667	-22.4037587564	-31.6429117793
110312500.0	-16.0306854054	89.2961007727	-38.5804118177	-141.524336725	-61.518305093	-150.701057729	-22.4452539093	-31.5812555586
111000000.0	-16.0796590309	85.4572702908	-38.5223165216	-141.931686591	-61.5384819306	138.555144466	-22.4859818609	-31.5147333262
111687500.0	-16.1289182919	81.4684124036	-38.5459014766	-142.18246208	-61.7125447649	67.661568802	-22.5297955728	-31.5027406349
112375000.0	-16.1881774934	77.39273373	-38.5251214986	-141.849342157	-61.6174105663	7.70748204498	-22.5729969608	-31.5368533716
113062500.0	-16.2465084754	73.200890683	-38.5200598457	-140.929792762	-61.4455169563	-53.4910145448	-22.6075612341	-31.5376738172
113750000.0	-16.3272508506	68.8589347409	-38.5040362011	-139.683318078	-61.3664237672	-111.299118296	-22.6425998365	-31.5720321767
114437500.0	-16.413517275	64.4205223632	-38.3975195956	-138.320562481	-61.1225704587	-166.534630676	-22.687695486	-31.5987371396
115125000.0	-16.5096327489	59.7554741823	-38.2498432761	-136.694093755	-61.0538233504	141.890758819	-22.732784883	-31.6434371976
115812500.0	-16.6064590111	54.9904537734	-38.0318778614	-134.796031556	-61.1240420483	88.12872251	-22.7671378951	-31.635082134
116500000.0	-16.7295908424	50.0454361783	-37.7991149042	-132.959765194	-61.5357938443	45.0278144971	-22.7968926791	-31.7245175374
117187500.0	-16.8618015482	45.0409630021	-37.4981840924	-130.997392411	-61.1428509723	13.8525197775	-22.8283185742	-31.8123735199
117875000.0	-17.0255347115	39.7636140853	-37.1364283425	-129.218416098	-61.2837546385	-14.5307591883	-22.8606955757	-31.7879336521
118562500.0	-17.2043889846	34.4374942694	-36.7301157145	-127.086968308	-61.5845000763	-44.8527138111	-22.8854570753	-31.8408673144
119250000.0	-17.4130711811	28.8717458456	-36.3247969809	-125.337592315	-61.2396773321	-74.6464407955	-22.9020049278	-31.7899289797
119937500.0	-17.6521436339	23.2366243296	-35.8200222181	-123.532868824	-61.1508111774	-103.95447216	-22.9202211563	-31.7383332772
120625000.0	-17.9392277954	17.3844854607	-35.3045158091	-122.14565702	-61.4943001786	-143.948090669	-22.9401939479	-31.6588812223
121312500.0	-18.2944668701	11.4541093479	-34.7030852955	-120.778753493	-61.6352097195	-174.247981479	-22.9443417695	-31.6244328291
122000000.0	-18.687886362	5.41449690322	-34.0963236392	-119.454029323	-61.5184164118	157.449043142	-22.9697046175	-31.5334600698
122687500.0	-19.1622586925	-0.685523175149	-33.4234711515	-118.272080364	-61.6071745309	127.308986405	-22.9850706008	-31.4612790264
123375000.0	-19.7183740513	-6.84885641754	-32.7414309618	-117.430452967	-61.6983094581	84.902584643	-22.9903197313	-31.3459605474
124062500.0	-20.4742370469	-12.8352573625	-32.0475560061	-116.674779544	-61.4523934394	54.195496054	-22.9969263342	-31.2096494225
124750000.0	-21.5093861252	-17.7748648183	-31.3000082623	-116.070943228	-61.6372458994	16.2582108523	-23.0139014595	-30.9954439779
125437500.0	-22.6667906514	-19.6593031837	-30.5145174295	-115.854374195	-61.784414983	-10.8166325473	-23.0246702247	-30.6702856122
126125000.0	-23.4655805437	-20.362198604	-29.7132178155	-115.88530753	-62.6284877911	-26.2867831393	-23.0420214318	-30.418342555
126812500.0	-24.1018894617	-20.973575991	-28.88740213	-116.193408688	-62.5347574724	-38.3373721533	-23.0625831739	-30.069764559
127500000.0	-24.5885631236	-21.5857032564	-27.9946426917	-116.773982782	-62.7031453725	-53.1152258844	-23.0759520752	-29.7695621177
128187500.0	-25.0268632473	-22.2216708121	-27.1238878506	-118.018184895	-62.6879785455	-68.0765353465	-23.0887898362	-29.3517821198
128875000.0	-25.3949751391	-22.7538625751	-26.193949301	-119.743000425	-62.9678903749	-82.3537085337	-23.0893299967	-28.8997102268
129562500.0	-25.7244167576	-23.4369506084	-25.2919470659	-122.028723346	-63.006822663	-106.497879547	-23.0983017423	-28.4051027572
130250000.0	-26.0214675827	-24.1394563526	-24.3545758647	-124.908179409	-62.9912558579	-119.223998761	-23.1105968676	-27.9493668138
130937500.0	-26.2775561937	-24.9608146432	-23.4678486634	-128.433086751	-63.6797911109	-142.93673591	-23.1229079774	-27.379013923
131625000.0	-26.5128596925	-25.6859825357	-22.6658405254	-132.175879542	-63.6480433853	-163.164659308	-23.1195948111	-26.8578791205
132312500.0	-26.7297494617	-26.5145623007	-21.9347602901	-136.537443598	-63.1332183	171.057610372	-23.1164270942	-26.2090425922
133000000.0	-26.9317339746	-27.2774880587	-21.2501453327	-141.038688318	-62.781323358	154.210026225	-23.1222502747	-25.6884386922
133687500.0	-27.1063144502	-28.1101924695	-20.6529477795	-145.777865582	-62.2384027817	128.96771497	-23.127395831	-24.9883616299
134375000.0	-27.2560561032	-28.930630858	-20.1023561749	-150.547747202	-62.5135946723	101.361436396	-23.1340784892	-24.3986047048
135062500.0	-27.377472455	-29.8091439823	-19.6166600143	-155.458692832	-63.0289889718	71.0313673086	-23.1451980273	-23.7702294952
135750000.0	-27.4792391046	-30.62035554	-19.1706478484	-160.371596331	-63.0341732821	42.4707220752	-23.1475201711	-23.2109991768
136437500.0	-27.5456852338	-31.4117844171	-18.7912500148	-165.35634736	-63.4130910787	13.9527328891	-23.1612660006	-22.6540927003
137125000.0	-27.5860957528	-32.2413553712	-18.4484633839	-170.190885544	-63.7752273735	-10.0458575151	-23.1866912168	-22.081396201
137812500.0	-27.5588214369	-32.970534765	-18.1691236267	-175.066068397	-63.683921237	-24.8197996586	-23.1951512632	-21.4974379589
138500000.0	-27.4798875455	-33.6989294981	-17.9121191988	-179.804939931	-63.5449518003	-39.4470091734	-23.2090601776	-21.0046233993
139187500.0	-27.3398281798	-34.3888415159	-17.7125199009	175.458308715	-63.2347717429	-53.7653278779	-23.2157506466	-20.3831878099
139875000.0	-27.126499029	-35.1673631422	-17.5368144037	170.879188281	-63.2743972234	-68.1478717926	-23.2402019287	-19.7811811821
140562500.0	-26.8229274776	-35.9288896109	-17.4010147916	166.330402295	-62.9692638237	-82.5220137733	-23.2659750289	-19.2387668609
141250000.0	-26.3217163066	-36.9871036064	-17.2869375589	161.961097685	-63.1093625647	-109.448282627	-23.2853510155	-18.7139063815
141937500.0	-25.5309234613	-38.9854968152	-17.2026933598	157.706471172	-62.616172353	-125.827862651	-23.2995506087	-18.2553068253
142625000.0	-24.6195476347	-44.155921104	-17.1411968051	153.603389459	-62.4917156945	-152.819104461	-23.3196489619	-17.8238816374
143312500.0	-24.04944769	-50.4605518737	-17.0993645224	149.592928027	-62.1358009894	166.760955285	-23.332324088	-17.337813956
144000000.0	-23.6452378311	-56.9902110298	-17.0780540578	145.718916556	-62.4618976782	124.110346319	-23.3552997947	-16.8861866713
144687500.0	-23.3877397883	-63.4406930789	-17.071849204	141.964948473	-62.0245201342	85.8904349201	-23.3739819508	-16.4495831909
145375000.0	-23.1603454245	-69.8766725939	-17.0809262824	138.361852882	-61.7850875403	50.6348406235	-23.3979882666	-16.0889941469
146062500.0	-23.0079702493	-76.3023608945	-17.0987151245	134.929566204	-61.3448282642	25.9466613941	-23.4275481427	-15.7322311934
146750000.0	-22.8713586294	-82.5645854722	-17.1276963372	131.536219738	-61.6885669716	-2.89141173367	-23.457942876	-15.3050991713
147437500.0	-22.7784294337	-88.7433911612	-17.1601047739	128.307117494	-61.7537519034	-31.6837006205	-23.4752339096	-14.981807955
148125000.0	-22.7011642578	-94.743063848	-17.204021726	125.164053198	-61.1030028643	-50.5742429606	-23.4991480534	-14.6772358487
148812500.0	-22.6471377123	-100.859524092	-17.2488941372	122.153310397	-61.0540001926	-73.222408646	-23.5256173533	-14.378474626
149500000.0	-22.5902418412	-106.690445242	-17.3002257934	119.216227982	-61.6120235844	-102.592320051	-23.5621988307	-14.0748761803
150187500.0	-22.5470573478	-112.558573849	-17.3534033333	116.399875722	-61.7850585499	-136.589430224	-23.5860098977	-13.7409740497
150875000.0	-22.5041485852	-118.062647401	-17.4089021038	113.660051122	-62.4846299463	-166.58204808	-23.6172928987	-13.3789965428
151562500.0	-22.4783037449	-123.656727217	-17.4613208419	111.017110519	-62.1014688784	154.128377116	-23.6325731026	-13.0376487417
152250000.0	-22.4465240587	-128.869476652	-17.5203984763	108.4549237	-61.696383524	123.599061478	-23.6535140157	-12.6752505832
152937500.0	-22.421373866	-134.162343041	-17.5785439611	105.960619503	-61.6376207416	88.5740408761	-23.6728795913	-12.3325446172
153625000.0	-22.4020264287	-139.17284017	-17.6350750749	103.559348991	-61.4743547938	57.5633193922	-23.7028547119	-11.8611842313
154312500.0	-22.3656808033	-144.106124444	-17.696445574	101.177677747	-61.25453902	26.0394011397	-23.7063807982	-11.5639980489
155000000.0	-22.3503604062	-148.908160892	-17.748022942	98.9277382902	-60.8988446027	-13.0626833307	-23.7293277164	-11.1039333866
155687500.0	-22.3090567852	-153.606305086	-17.8082055855	96.6896318211	-60.9157021512	-53.6534652339	-23.762290977	-10.6211538737
156375000.0	-22.3004734805	-158.274277818	-17.8599947739	94.5273271703	-60.9965128265	-92.553078486	-23.7837066015	-10.2931663826
157062500.0	-22.2616861297	-162.685458498	-17.9178637362	92.3782898755	-60.7676783387	-117.906460196	-23.8028862031	-9.8190261667
157750000.0	-22.2416287865	-167.046163027	-17.9668648737	90.3579001529	-60.7807673724	-142.844565609	-23.8115990077	-9.38348113193
158437500.0	-22.2056866155	-171.174109031	-18.024897935	88.32761207	-60.9814136512	-155.565562709	-23.8326339301	-8.93922245046
159125000.0	-22.1825351529	-175.327765948	-18.0688910297	86.3706274888	-61.1804183566	-166.897273364	-23.8539662491	-8.4302439073
159812500.0	-22.1523608276	-179.278021122	-18.122650575	84.382040863	-61.2419325127	-179.736814751	-23.8809146507	-7.93968866533
160500000.0	-22.1383976172	176.784791524	-18.1719708373	82.5173803558	-61.1125602821	167.031829123	-23.9066635983	-7.54582366961
161187500.0	-22.1058695058	173.075589282	-18.2202069849	80.6065695176	-60.8025375426	166.364605258	-23.9273028292	-7.07858222914
161875000.0	-22.0897280678	169.418806854	-18.2642636554	78.8070737477	-60.646440563	153.381259076	-23.9665119607	-6.56272449644
162562500.0	-22.0744375558	165.881314832	-18.3152041071	76.9872719186	-60.7076262724	138.557086988	-23.9905616288	-6.07228026945
163250000.0	-22.0454030793	162.358659048	-18.3574818442	75.2133860139	-60.8366009533	124.625503867	-24.025906779	-5.53240780294
163937500.0	-22.0442213442	159.000892032	-18.4046366001	73.4963966383	-60.2869841149	120.556962677	-24.0514963528	-5.02415995825
164625000.0	-22.0230005705	155.6695786	-18.4484216535	71.7873793929	-60.51031658	109.03789184	-24.0974472947	-4.51416746315
165312500.0	-22.030963678	152.410922487	-18.4905483284	70.1344884566	-60.2653772073	98.5737217329	-24.1415912578	-4.01717869163
166000000.0	-22.0340820425	149.324557418	-18.5285020118	68.4851275934	-60.8953737992	86.2398710033	-24.1790505787	-3.6202035764
166687500.0	-22.0498124453	146.241719256	-18.5691672978	66.8526262913	-60.719924146	85.6238408322	-24.2244136631	-3.14305690399
167375000.0	-22.0687667802	143.33714519	-18.6037802184	65.2467417356	-60.6682815614	85.9246158438	-24.2850951148	-2.79636728149
168062500.0	-22.0908141059	140.268003669	-18.6377275223	63.6706903486	-59.791095355	92.452047274	-24.3363691903	-2.55061531083
168750000.0	-22.110482707	137.3912637	-18.6765033219	62.1198485318	-60.2195788573	104.342346647	-24.4173649442	-2.30189483875
169437500.0	-22.147616523	134.381518699	-18.7101854032	60.6214625332	-60.1499459587	119.292248887	-24.4823597993	-2.03714342508
170125000.0	-22.1797126516	131.56060363	-18.7434934757	59.1141606539	-59.8801798196	143.806992417	-24.5675945267	-1.78280760035
170812500.0	-22.2144208446	128.506797914	-18.7729744631	57.6497144846	-60.1634685302	171.575108557	-24.6494287843	-1.65576046786
171500000.0	-22.2564095997	125.694320444	-18.804374685	56.2049820018	-60.1958255779	-156.553135631	-24.7464017651	-1.51191563541
172187500.0	-22.3002329198	122.752500521	-18.8290087318	54.7890399658	-60.5717416787	-113.454282543	-24.8348519224	-1.46234063183
172875000.0	-22.3538922392	119.827299021	-18.8563182903	53.3444416112	-60.7710408712	-68.7482285135	-24.9051439153	-1.4940800054
173562500.0	-22.3889342125	116.8591535	-18.8791884303	51.968567894	-60.7315913954	-22.8361300693	-24.9974125938	-1.43236547487
174250000.0	-22.4500308779	113.941694698	-18.8976860044	50.6060500408	-60.868416583	21.4721066936	-25.0840528381	-1.54831801285
174937500.0	-22.4828008517	110.909855591	-18.918803073	49.22959979	-61.3509273745	77.4395756493	-25.1791948749	-1.78251564934
175625000.0	-22.5280243494	107.867268258	-18.9357409504	47.876015798	-61.0350325239	121.905045129	-25.2699448534	-1.94374518297
176312500.0	-22.5579153168	104.761215299	-18.9577341454	46.5373491331	-60.7560111449	152.78206792	-25.3646288317	-2.22880055263
177000000.0	-22.5852338672	101.61423587	-18.9755775637	45.2398807287	-60.6091580186	-165.264022189	-25.4664950993	-2.48979105211
177687500.0	-22.5974886356	98.4801991019	-18.9892472838	43.9258385841	-61.000907214	-115.953214064	-25.5623700118	-2.77100069686
178375000.0	-22.6258588852	95.2827860581	-19.0019122804	42.6281084146	-60.6551479119	-74.0153047157	-25.6543464525	-3.10650077476
179062500.0	-22.6258142233	92.1518661113	-19.0158918344	41.2941504552	-60.9019125275	-32.9979931451	-25.7409684938	-3.62374055044
179750000.0	-22.6322640235	88.917905869	-19.0209840313	40.0100420427	-61.2566887239	19.3395756758	-25.8332595452	-3.99812170643
180437500.0	-22.6280670946	85.7485391376	-19.030021082	38.7124962046	-61.5960501408	65.6435599248	-25.9019756893	-4.57984792846
181125000.0	-22.6071445304	82.3671330606	-19.0341598896	37.4056496919	-61.7439084604	114.18462818	-25.9769186607	-5.06054248387
181812500.0	-22.5876540926	79.2201681908	-19.0397513389	36.1220519509	-61.9642063655	159.620459104	-26.0392497063	-5.6280940696
182500000.0	-22.5492309282	75.9117580776	-19.0395935829	34.8554104708	-61.9789466919	-156.328543552	-26.1045301939	-6.04438139414
183187500.0	-22.4911994462	72.7229414273	-19.045290315	33.5738179916	-61.4511633053	-111.299596944	-26.1586085592	-6.44324710522
183875000.0	-22.4347381066	69.455893128	-19.0382720294	32.3148922078	-61.4201965147	-66.5162989518	-26.201615288	-6.96168082206
184562500.0	-22.3626390091	66.2457745004	-19.042207319	31.062779803	-61.3943189243	-27.575200104	-26.2332313802	-7.47390962937
185250000.0	-22.2924381597	63.0603782734	-19.0393536835	29.8293366325	-61.9313740949	10.8228233393	-26.2597019875	-7.81358501162
185937500.0	-22.2175879584	59.9407986672	-19.0414111318	28.5867596357	-61.4430494256	45.7722715352	-26.2650521583	-8.1218688805
186625000.0	-22.1366882156	56.8981477254	-19.0313947864	27.3506849511	-61.7651985444	76.9423760589	-26.2789633679	-8.47042951794
187312500.0	-22.0478919475	53.781347671	-19.0295996181	26.0783846988	-61.9434295407	95.2460102222	-26.2708517059	-8.71666626691
188000000.0	-21.9573654886	50.8472267206	-19.0211619544	24.838158187	-61.8546189102	105.238292922	-26.2489113584	-9.00775952827
188687500.0	-21.869766228	47.7603396232	-19.0177724375	23.5904172498	-62.3075422587	115.72370976	-26.2346661509	-9.19466204271
189375000.0	-21.7672703713	44.8561224722	-19.0098901295	22.3546889337	-61.857593146	116.989484417	-26.2141336017	-9.36892203426
190062500.0	-21.6807278811	41.9893220575	-19.0052261932	21.1264171246	-61.8000252115	119.145328884	-26.1992772213	-9.40663508424
190750000.0	-21.5902347717	39.2227746203	-18.9941374771	19.9173194312	-61.7205354085	116.94926603	-26.160674186	-9.47885839428
191437500.0	-21.5030589664	36.352520555	-18.9866977532	18.6655706399	-61.4829600209	102.501343219	-26.1124028398	-9.48284841685
192125000.0	-21.4193210781	33.7213255571	-18.9723615991	17.4534356432	-61.1984056237	88.4451953075	-26.0568874484	-9.33306047112
192812500.0	-21.3403000957	30.930888043	-18.9624869211	16.2465284775	-61.352539889	77.8591152315	-26.0075479221	-9.18969741566
193500000.0	-21.2715608409	28.325867712	-18.9513010017	15.0257903462	-61.7537255778	76.9196376229	-25.9605556156	-9.00518075093
194187500.0	-21.2133894032	25.6507033923	-18.9406944685	13.8188048047	-61.8692492507	64.2829317221	-25.8849556958	-8.71347605879
194875000.0	-21.1671488235	23.0495008488	-18.9265399866	12.6173706958	-61.254519598	48.8609936001	-25.8205417885	-8.47360201909
195562500.0	-21.1184767966	20.4125532886	-18.9144011453	11.4336472306	-61.2964135171	37.8161273082	-25.761529222	-8.19154733378
196250000.0	-21.0857998466	17.7989806069	-18.8991245477	10.2227826345	-61.0272411496	40.2120194516	-25.6881876866	-7.79373952275
196937500.0	-21.0528464038	15.1352597046	-18.8844480574	9.04638763792	-60.6807760126	30.719607712	-25.6167100766	-7.35707397453
197625000.0	-21.0304209992	12.4561493785	-18.8719986927	7.8527511498	-60.6323821585	14.7536726862	-25.5532378398	-6.86819940985
198312500.0	-21.0143649124	9.89877458671	-18.8514598771	6.70988968447	-61.0035706966	-12.8280781864	-25.4880324867	-6.48373827218
199000000.0	-21.0150317166	7.14727362013	-18.8322621999	5.51313494616	-60.3529615249	-28.518963897	-25.4278688886	-6.09803587688
199687500.0	-20.9982766326	4.482498431	-18.8149177459	4.35642425423	-60.411273427	-45.0007424031	-25.3655449063	-5.68643263553
200375000.0	-21.0066960009	1.71705271009	-18.8015015868	3.17451752316	-60.3548475743	-56.6841836875	-25.3261672717	-5.23451399047
201062500.0	-21.0037030311	-1.01661526897	-18.7872348923	2.05537210313	-60.3204957278	-70.5965702853	-25.2843615088	-4.74735202884
201750000.0	-21.0122122113	-3.87091768308	-18.7657972316	0.896527896281	-60.3820142053	-83.3933542121	-25.2423880243	-4.25515701507
202437500.0	-21.0077453995	-6.62028161583	-18.747525495	-0.249756424166	-60.1717424157	-97.1283298341	-25.2056410763	-3.89723542151
203125000.0	-21.015465108	-9.4789204954	-18.7234718484	-1.42955760143	-60.1868586738	-113.259377196	-25.1763993446	-3.49724942497
203812500.0	-20.9989306438	-12.342995498	-18.7031824392	-2.60473379279	-60.0808039677	-138.259512805	-25.1415011264	-3.04757616962
204500000.0	-21.0020040109	-15.3054540207	-18.6813718336	-3.75749064914	-59.8292380808	-150.749553913	-25.1221854943	-2.65815377045
205187500.0	-20.994184776	-18.1598375166	-18.6629845217	-4.91675092478	-59.6743099262	-165.828140974	-25.0986453748	-2.24567130259
