#Frequency	|S11|	<S11	|S21|	<S21	|S12|	<S12	|S22|	<S22
100000000.0	-16.4114738306	136.827644453	-14.1301514139	-130.064878365	-58.6426596515	31.4275236793	-19.7458866248	-71.4238048883
100687500.0	-16.3766830153	133.842092573	-13.7361602996	-131.271299492	-59.4002904071	107.401079514	-19.758002679	-71.511059364
101375000.0	-16.3492010826	130.655524586	-13.3603650536	-132.578716186	-59.0248320018	144.908483794	-19.8219559792	-71.5401820011
102062500.0	-16.3282715664	127.447094846	-12.9935389496	-134.080459138	-59.3884519901	148.518375554	-19.9058173561	-71.4770336476
102750000.0	-16.316952378	124.232435658	-12.6571167067	-135.529066524	-59.6557340671	123.025205233	-19.9641786684	-71.4700536801
103437500.0	-16.3220071838	121.064346129	-12.3449937486	-137.028881674	-59.8514595079	113.535864348	-20.043173394	-71.4218032827
104125000.0	-16.341065402	117.76131766	-12.0555700834	-138.56463717	-61.2465644533	87.7828606052	-20.1347516091	-71.3468752112
104812500.0	-16.3609513901	114.373526131	-11.7982008108	-140.076218847	-61.0537460077	82.696401901	-20.2128730242	-71.4872828781
105500000.0	-16.3875862783	110.872141384	-11.5642806502	-141.621199754	-60.7045185775	58.7647051697	-20.2917371654	-71.5454059258
106187500.0	-16.4295293539	107.248261156	-11.3619583812	-143.145730226	-60.6234103394	7.8310830526	-20.3872480755	-71.6636641668
106875000.0	-16.4771515954	103.506072435	-11.2008927577	-144.612011295	-60.4116490861	-34.2673551462	-20.4733463424	-71.8531599409
107562500.0	-16.5444184403	99.5953864306	-11.0794076376	-145.990427315	-60.226117239	-68.3495601543	-20.5784979571	-71.9438929631
108250000.0	-16.6037351483	95.4801694608	-11.0038720841	-147.215024543	-60.1873867757	-93.2682839887	-20.6701350886	-72.0556618498
108937500.0	-16.6510446418	91.603185214	-10.8638767871	-148.428301424	-60.5281987364	-108.587043911	-20.7598618141	-72.0989206646
109625000.0	-16.7014812712	87.6242030267	-10.7522011192	-149.535448512	-60.5258195425	-133.398955646	-20.8504645205	-72.1479465026
110312500.0	-16.7517481121	83.535387558	-10.6751000553	-150.465367824	-60.6861314613	-149.956685927	-20.9438786437	-72.1853477882
111000000.0	-16.8178559633	79.2790958745	-10.6214121087	-151.168540306	-60.737186523	-176.107682176	-21.0430852629	-72.2223256381
111687500.0	-16.8780319945	74.9411264759	-10.6007583389	-151.559820767	-60.7230290382	165.772680765	-21.1346987196	-72.2926237116
112375000.0	-16.9529097903	70.4688243168	-10.5886646727	-151.548171945	-61.0734359782	151.522381365	-21.2339582956	-72.3822541094
113062500.0	-17.0191563699	65.8716831649	-10.5770108	-151.095323024	-60.9824413212	135.800954294	-21.3329408055	-72.4578385079
113750000.0	-17.1037802542	61.1195305859	-10.53771682	-150.218189945	-60.7537656595	117.956958178	-21.4434731899	-72.4927973422
114437500.0	-17.189283373	56.248273528	-10.4602204974	-148.973743633	-60.741896175	103.017408687	-21.5626247381	-72.4865693906
115125000.0	-17.2797746063	51.1437134472	-10.3270206504	-147.45843518	-60.8337724588	83.9318499726	-21.6810526379	-72.4634278895
115812500.0	-17.3666157449	45.8991813678	-10.1398772119	-145.772859637	-60.9873396911	70.0747585963	-21.7976888943	-72.3811343917
116500000.0	-17.4653919696	40.5107476251	-9.8944110275	-143.974803639	-60.7420835423	57.1426962827	-21.9077558905	-72.2466563113
117187500.0	-17.5746102251	34.98516465	-9.59472689661	-142.127409122	-60.1381489103	52.5402915141	-22.0224612612	-72.0442329884
117875000.0	-17.6993228847	29.310575344	-9.23788528305	-140.308981514	-61.1039581814	51.9013978405	-22.1554730126	-71.685224864
118562500.0	-17.8363273248	23.459653932	-8.83402171034	-138.544370944	-61.0177485714	41.3464798438	-22.2840986176	-71.2663097586
119250000.0	-17.9855956588	17.4471956509	-8.38180030056	-136.854269815	-61.0586247204	41.5386931017	-22.4120516849	-70.7291063221
119937500.0	-18.1692049299	11.2284114374	-7.88703328858	-135.268442895	-61.1876063288	44.1837570513	-22.5242310046	-70.1314770912
120625000.0	-18.3633801078	4.91443911072	-7.3488104951	-133.813313069	-61.6142474626	57.3786910547	-22.6357699119	-69.4276721637
121312500.0	-18.6179532257	-1.59817386225	-6.77216526985	-132.533865079	-61.114761349	72.2948735172	-22.7396870488	-68.5664156094
122000000.0	-18.8935243355	-8.15373887039	-6.15370407594	-131.410829004	-61.1788863855	84.5121660689	-22.8473131859	-67.6455595316
122687500.0	-19.2468501976	-14.9399526122	-5.50261949674	-130.499374053	-61.1461125001	99.3419019502	-22.9351490133	-66.6340767672
123375000.0	-19.6416940272	-21.6754660501	-4.81535368929	-129.77185437	-61.0137571266	109.774269171	-23.0054108524	-65.5376306635
124062500.0	-20.1481046356	-28.5044656977	-4.10028526937	-129.285794528	-60.8766562199	125.874888319	-23.0541523468	-64.4148352202
124750000.0	-20.7632681426	-35.1174291336	-3.3538413377	-129.015473741	-60.8534929317	134.496922389	-23.093233183	-63.2388053302
125437500.0	-21.4898208107	-41.1902920326	-2.58069145416	-129.007819748	-60.764999252	147.457134685	-23.1306456198	-61.9982849989
126125000.0	-22.338477628	-45.5420939253	-1.77249692543	-129.273959659	-60.0225839163	155.657902152	-23.1477224764	-60.790536196
126812500.0	-23.0973830846	-48.7579563673	-0.940041477451	-129.84856602	-59.9096890461	167.226814343	-23.1523321384	-59.582217616
127500000.0	-23.6673561299	-50.8742275604	-0.0765713286853	-130.777412206	-59.4203940782	173.940355921	-23.1403691586	-58.4275713397
128187500.0	-24.1903110503	-53.1314984227	0.804349068208	-132.131266546	-59.4060740632	-173.798411952	-23.1160758522	-57.2196568795
128875000.0	-24.6098064133	-55.0970283055	1.71092160148	-133.93391189	-59.0924668619	-169.513226467	-23.0813902732	-55.9945188075
129562500.0	-24.9737610801	-57.0849700679	2.6157850224	-136.308676301	-58.4748462427	-169.742031469	-23.0392802372	-54.817773699
130250000.0	-25.2845132133	-59.0527240061	3.51205945564	-139.244382136	-58.2727555742	-165.992312483	-22.9895337929	-53.6843702411
130937500.0	-25.5439039883	-61.0323972178	4.37238386762	-142.778103567	-58.338416879	-152.256035518	-22.9219332355	-52.5898840201
131625000.0	-25.7744680863	-62.986297701	5.18456925939	-146.785013339	-58.0165004119	-146.529280419	-22.8416978513	-51.5901718463
132312500.0	-25.9781930268	-64.892507869	5.92955101107	-151.192341554	-57.7984099044	-133.99087784	-22.7612573733	-50.6417943869
133000000.0	-26.1620966757	-66.7486553198	6.61376085474	-155.878499497	-57.4241609819	-130.531023388	-22.6662719028	-49.824094795
133687500.0	-26.307694629	-68.5643694479	7.22521988281	-160.791956662	-57.5576499037	-122.905677445	-22.5740833807	-49.0523890853
134375000.0	-26.436924944	-70.3479856121	7.77629868606	-165.836123985	-57.1981226007	-121.999721673	-22.4791167083	-48.4275782399
135062500.0	-26.5183379378	-72.0817435936	8.26143749268	-170.957417555	-55.9369633291	-127.095103462	-22.3677199192	-47.9239030592
135750000.0	-26.5947175166	-73.7449482197	8.69115326857	-176.100690904	-56.0117103668	-129.77288483	-22.2416380684	-47.5323201567
136437500.0	-26.6315640667	-75.2711674342	9.06228544161	178.748792161	-55.5282037256	-136.919057992	-22.1234102315	-47.3043599756
137125000.0	-26.6416572576	-76.6839327611	9.384288672	173.6332389	-55.4828184433	-139.706468308	-22.017938194	-47.1978838468
137812500.0	-26.6111877424	-77.9807263904	9.65618094401	168.585186191	-54.8910945321	-148.234680893	-21.9036547483	-47.177750218
138500000.0	-26.5280910686	-79.1571515337	9.8869123869	163.618437909	-55.272268325	-150.549056493	-21.7914893059	-47.3455538171
139187500.0	-26.4023352428	-80.2656030286	10.0735814538	158.751925141	-55.0534970961	-157.421870276	-21.6761613969	-47.5651958045
139875000.0	-26.1965720798	-81.2124823039	10.227603752	154.006426295	-54.9819279107	-159.899413593	-21.5827624969	-47.8830409935
140562500.0	-25.9339249414	-82.1800708008	10.3453263431	149.392564656	-54.890089405	-165.882862746	-21.500587312	-48.3788253711
141250000.0	-25.5589704591	-83.0764866763	10.4361576406	144.926801811	-54.8142998332	-169.807607235	-21.4269121752	-48.9222380373
141937500.0	-25.0799201987	-84.1025145693	10.4989525877	140.598600941	-54.7225514716	-174.209773629	-21.366803583	-49.5520088206
142625000.0	-24.4805968085	-85.664319368	10.542309913	136.412340744	-55.0193188082	-179.297525897	-21.3111796088	-50.1992249218
143312500.0	-23.7513351855	-88.8647903947	10.5618267856	132.3726326	-55.1455680184	177.106349773	-21.2641452004	-50.8830316406
144000000.0	-23.1046433065	-93.1135287531	10.5681373401	128.477189401	-55.0561688486	179.028130768	-21.2368797353	-51.5890901726
144687500.0	-22.6624426367	-98.4492819639	10.559353079	124.73503442	-55.3362654373	175.463399386	-21.2200756785	-52.3027322982
145375000.0	-22.2443713144	-103.465755603	10.5419397762	121.131448553	-55.5276509946	169.298400535	-21.2101706255	-53.0733901879
146062500.0	-21.9347998242	-108.734719361	10.5115462101	117.655766871	-55.5816602086	166.680789368	-21.212452404	-53.8398504953
146750000.0	-21.6670897923	-113.869318209	10.4772896354	114.305061004	-55.4498599975	166.484526251	-21.2132455323	-54.5482282406
147437500.0	-21.4745716355	-118.946856543	10.434120877	111.082418778	-55.722829695	166.118439824	-21.2178207524	-55.2582123729
148125000.0	-21.3063539552	-123.856518673	10.3890628305	107.973343258	-55.527861867	160.080302207	-21.2316393248	-55.922229142
148812500.0	-21.1754369565	-128.779702122	10.3362189813	104.958728513	-56.2312082673	158.795100113	-21.2417558965	-56.5611844659
149500000.0	-21.0700383792	-133.480303612	10.2855862345	102.056998083	-55.8057830838	149.796032171	-21.2610743278	-57.081487866
150187500.0	-20.9858265059	-138.173789235	10.2295247512	99.2461843099	-56.1018532011	146.123578638	-21.2850764472	-57.6305275864
150875000.0	-20.9298035873	-142.708469598	10.1766077898	96.5381590035	-55.8292251245	141.930396792	-21.3109005215	-58.1201449598
151562500.0	-20.8709003289	-147.223151793	10.1196347318	93.8980816285	-56.2365208249	142.667210994	-21.3348320661	-58.6140883389
152250000.0	-20.8539180964	-151.602453833	10.0650753247	91.3426582278	-56.5277435482	139.320285485	-21.3665049468	-58.9844438504
152937500.0	-20.8315082116	-155.857711228	10.0064647172	88.8552029225	-56.4277807911	140.203838645	-21.3986823511	-59.3326668957
153625000.0	-20.8384970638	-160.081680943	9.95372039036	86.4350869637	-56.6024578185	137.450867722	-21.4430131256	-59.6498183728
154312500.0	-20.829596889	-164.236611354	9.89774427046	84.0703781141	-56.764673208	135.17273405	-21.4679110747	-59.9361610436
155000000.0	-20.852240251	-168.345713056	9.84571438686	81.7683770094	-56.865119264	133.038485351	-21.508990484	-60.1392321481
155687500.0	-20.8639519444	-172.3503379	9.79147331697	79.5201139886	-56.715654565	133.122064323	-21.5519626744	-60.3371381056
156375000.0	-20.9102222613	-176.384316352	9.74085137634	77.3268083096	-57.2040217411	131.049388773	-21.5920162398	-60.4924387825
157062500.0	-20.9397656339	179.75235366	9.68779804097	75.1790357483	-56.8627590931	128.580249634	-21.6371406297	-60.5758837142
157750000.0	-20.98438632	175.869147666	9.63895279234	73.0809116156	-56.8273286176	126.52545415	-21.6769144864	-60.6022019538
158437500.0	-21.0258455494	172.142241289	9.58929935913	71.008214522	-56.9227698009	122.051190074	-21.7275096555	-60.663459918
159125000.0	-21.0687231776	168.384259028	9.54408093103	69.0001447659	-56.8133063762	121.988566033	-21.7782454077	-60.6135785223
159812500.0	-21.1170064681	164.772529189	9.49760828714	67.0202398858	-56.310328264	117.897704793	-21.8323519394	-60.5884146008
160500000.0	-21.1652655025	161.10327125	9.45663068857	65.0831304039	-56.4122156226	117.097410957	-21.8894987843	-60.5498123426
161187500.0	-21.2197663459	157.457177362	9.4124376456	63.180126542	-56.6749193414	107.213178097	-21.9428352438	-60.4824063105
161875000.0	-21.2642409813	153.931692586	9.37131290218	61.3107700218	-56.6601040521	106.681642865	-22.0068808074	-60.4058575669
162562500.0	-21.3228189603	150.395226543	9.32929471448	59.4713372599	-56.1648198347	104.2632373	-22.0660782193	-60.3059975018
163250000.0	-21.3712761873	146.970485825	9.29048414617	57.6577891578	-56.5949382002	102.984810472	-22.14700261	-60.2171901766
163937500.0	-21.4353964942	143.555940238	9.25064421974	55.8813335792	-56.5683088965	95.5511549183	-22.2232974105	-60.0980393075
164625000.0	-21.4785482813	140.218655107	9.21571155966	54.1217389778	-56.9318135021	94.6180021458	-22.3038655509	-60.0361690786
165312500.0	-21.5460093951	136.840319842	9.17753809711	52.3975887651	-56.8826806851	91.4595128321	-22.3769478328	-59.9559343584
166000000.0	-21.5982326587	133.672107359	9.14606668871	50.7019452335	-56.5775628349	89.5104706202	-22.4637357294	-59.9398819951
166687500.0	-21.6658515105	130.37058756	9.11021618201	49.0293343277	-56.6241830517	90.4773361948	-22.5438057332	-59.9959353628
167375000.0	-21.727398144	127.292726658	9.07870140504	47.3783002065	-56.3311367844	87.5562984689	-22.6371887471	-60.0475110156
168062500.0	-21.7964924576	124.057057787	9.04666174942	45.7541489917	-56.5014453689	86.7341569952	-22.7290423154	-60.0557057126
168750000.0	-21.8674107836	121.004901654	9.0187738938	44.1593864933	-56.5796593931	81.1397063762	-22.8243267025	-60.1874293597
169437500.0	-21.92805313	117.8716043	8.98921392838	42.578835277	-56.4146884557	78.9245106453	-22.9225475712	-60.3023737521
170125000.0	-21.9943742294	114.868103649	8.96627940688	41.0016900613	-56.1718019782	78.4344664333	-23.0317394509	-60.4791627716
170812500.0	-22.0594435879	111.734253692	8.94030098406	39.4645036254	-56.1952801652	78.2254108866	-23.1312256453	-60.6255838995
171500000.0	-22.1423047156	108.701897509	8.91973911464	37.9520912841	-55.8710587194	75.3866529121	-23.2378046772	-60.8227034709
172187500.0	-22.2055107834	105.550567032	8.89930641805	36.457007819	-56.4924767535	75.7940795206	-23.3375699663	-61.1013151487
172875000.0	-22.2851992298	102.386724118	8.88158193718	34.9763062319	-56.3222165875	69.982774237	-23.4353793605	-61.3141500327
173562500.0	-22.3337908504	99.2908492515	8.86365778154	33.5193438942	-56.2117032277	68.2853360025	-23.5455533388	-61.6546478404
174250000.0	-22.4138481721	96.1701325863	8.85215870213	32.074379957	-56.2628833699	63.0745370081	-23.6465182496	-61.9974499896
174937500.0	-22.4611886543	93.0048866495	8.84005879393	30.6372842906	-56.4181157949	63.0689544289	-23.7508687787	-62.3837565659
175625000.0	-22.5220698366	89.7909539026	8.83124539367	29.2143443864	-56.3833730244	62.5453513177	-23.8581942015	-62.6440905173
176312500.0	-22.5623758471	86.6277119085	8.82054168931	27.7982767207	-56.7329506064	60.4321732071	-23.9630293254	-63.1403069224
177000000.0	-22.6053264758	83.3292948695	8.81517144131	26.4016313466	-57.0941402436	59.5416906469	-24.0667695608	-63.5408108674
177687500.0	-22.6294677574	80.1066597992	8.80658088093	25.0021152398	-57.4072958135	58.6104132741	-24.1794615251	-64.0161980755
178375000.0	-22.6690954696	76.8358087482	8.80601650718	23.6094980436	-57.2187280671	57.5784081661	-24.2942803001	-64.3976736486
179062500.0	-22.6925354165	73.6579309151	8.80364124534	22.2229086455	-57.1340112133	55.2235571	-24.3869828544	-64.8900832205
179750000.0	-22.7145531394	70.3317048423	8.80462996115	20.8545463685	-57.2589581565	57.0952312274	-24.4905875195	-65.3103165168
180437500.0	-22.7260033104	66.9199103026	8.80540336395	19.4798163696	-57.0670845337	54.0435187821	-24.5711060575	-65.7297504027
181125000.0	-22.7287978751	63.5020703529	8.80969408529	18.1088006912	-57.3603242928	53.7155138336	-24.6654934144	-66.0928638631
181812500.0	-22.7378732151	60.1327509796	8.81119279985	16.7452154779	-56.6785228642	47.6037624044	-24.7431047771	-66.5620013247
182500000.0	-22.7223716777	56.7415878641	8.8188771352	15.3881851779	-56.9576229494	48.2091497601	-24.8486061168	-66.9496152213
183187500.0	-22.7081532037	53.348411334	8.82229650421	14.0359445934	-56.6338813053	42.6694281244	-24.9376874999	-67.2749377559
183875000.0	-22.6750868313	50.034388963	8.83254557446	12.6790370144	-56.9502203959	43.7534131521	-25.0182661399	-67.4901762186
184562500.0	-22.6532735574	46.535641576	8.83948404393	11.3295034121	-57.0926726372	41.6833639733	-25.0929956355	-67.6528410033
185250000.0	-22.6006772586	43.1840112312	8.850375186	9.97983670818	-57.3821512231	41.5175847131	-25.174437124	-67.8526004448
185937500.0	-22.5618781897	39.7251449634	8.85683586962	8.62889377258	-56.9025301107	37.489010773	-25.2502670078	-67.9005246599
186625000.0	-22.5159357995	36.3732550341	8.87068817116	7.28503681246	-57.3270654613	38.27047003	-25.3313215117	-68.0617688033
187312500.0	-22.4643162382	32.8423514626	8.8794334386	5.95414821091	-57.2090624267	30.3440262144	-25.4046591977	-68.094297609
188000000.0	-22.399827928	29.5226446601	8.89304327582	4.60914072241	-57.4030181876	31.1018700268	-25.4640072928	-68.0234669957
188687500.0	-22.3361977369	26.0438288945	8.9035367772	3.27212224953	-57.4781159625	30.3847218938	-25.5422984522	-68.0486017512
189375000.0	-22.2672925964	22.7539316957	8.91678059699	1.93498050912	-57.2317998662	32.8152641171	-25.6184462502	-67.9407457524
190062500.0	-22.2011397171	19.3414826377	8.92914719171	0.608529739189	-57.0975743873	31.9633725148	-25.6994499007	-67.8294096944
190750000.0	-22.1307454682	16.0095673651	8.94590953378	-0.724022066881	-57.2170704229	33.0988620956	-25.7774046114	-67.7159226566
191437500.0	-22.0522369011	12.5084346207	8.9576567904	-2.04854036978	-57.4893440501	33.8446179601	-25.8511137564	-67.5615436068
192125000.0	-21.9904646618	9.21217508008	8.9725563195	-3.37035739254	-57.8279027722	32.3056997204	-25.9293542146	-67.3986329424
192812500.0	-21.9057818406	5.7662878275	8.98622591158	-4.67727307146	-57.9203650948	31.3028586372	-26.0029012508	-67.3405778232
193500000.0	-21.8428645761	2.41150283329	9.00326224338	-5.98872833253	-57.6021199387	26.6106529234	-26.0925245754	-67.1653894992
194187500.0	-21.7615866102	-0.866002866647	9.01608219441	-7.30481025496	-57.2218225318	27.3054648027	-26.170318273	-66.897224108
194875000.0	-21.6995929999	-4.21301530633	9.03446756683	-8.60905785655	-56.8583655076	31.2556329939	-26.2499433195	-66.6199356207
195562500.0	-21.6091966617	-7.53354368212	9.04958719679	-9.90578127604	-56.7038688266	31.5676100711	-26.3220739064	-66.3746328335
196250000.0	-21.5350498533	-10.968677323	9.06752592299	-11.1979688052	-56.6967080388	28.6425477109	-26.4134235552	-66.1364875732
196937500.0	-21.4386330473	-14.2893151079	9.08390066447	-12.4968155964	-56.9413145285	26.4940659906	-26.4969513504	-65.7845236444
197625000.0	-21.3591410576	-17.5685268052	9.10463403326	-13.7787288981	-56.606566163	24.9777415178	-26.5860792562	-65.5681644654
198312500.0	-21.2591830443	-20.7826302962	9.12280053057	-15.0547701345	-56.9687901694	24.9298329303	-26.6587546027	-65.4200829956
199000000.0	-21.1647898801	-24.0837064851	9.14502725391	-16.3310432132	-57.139672372	26.7574620966	-26.7319710674	-65.2423740193
199687500.0	-21.0597704039	-27.2586265215	9.16395368902	-17.6093903618	-57.0558808958	26.6598432287	-26.7977414801	-65.0367554298
200375000.0	-20.9651732056	-30.4853333751	9.18658321271	-18.8824998163	-56.9364169765	26.7615535	-26.8779402701	-65.0993300858
201062500.0	-20.8534317487	-33.6814713378	9.20613798732	-20.1478506684	-56.7588605474	24.1718006337	-26.963445756	-65.1268653591
201750000.0	-20.7331959986	-36.8062736347	9.23007610487	-21.4095470755	-56.6487374914	24.6970385492	-27.0445068287	-65.2068440886
202437500.0	-20.6264187278	-39.8460303058	9.25143651504	-22.6773632389	-56.3025978425	22.1509140006	-27.1013099342	-65.2955197366
203125000.0	-20.5081158079	-42.8296270331	9.27833130068	-23.9339134189	-56.3885239193	21.5550756007	-27.1603374423	-65.4313542598
203812500.0	-20.3834178014	-45.7767141918	9.29995492246	-25.1946416419	-56.3026090171	17.3881349227	-27.1963361908	-65.5798511928
204500000.0	-20.2618397339	-48.6586852677	9.32758219026	-26.454114544	-56.3410686365	17.2349985666	-27.2511483222	-65.7289237453
205187500.0	-20.1417518568	-51.5014440519	9.35277325245	-27.7083792258	-56.0090401227	14.8073836961	-27.3246952217	-65.9453739793
205875000.0	-20.0032684538	-54.1863049549	9.38297325847	-28.9676362513	-56.228223685	13.5110917515	-27.3724615108	-65.960924575
