#Frequency	|S11|	<S11	|S21|	<S21	|S12|	<S12	|S22|	<S22
100000000.0	-16.3511094217	150.550569384	-18.5683325472	-124.600018465	-55.6702620219	52.3790863167	-20.1218818132	-63.5748342307
100687500.0	-16.298407053	148.450879284	-18.2379099658	-125.864947451	-59.2707989059	-80.1470841046	-20.1579925661	-63.697607067
101375000.0	-16.2804685536	145.99047426	-17.8262522226	-127.058325736	-60.6143693783	-166.058525432	-20.2628138066	-63.0087669561
102062500.0	-16.2818782016	143.370735401	-17.4280694969	-128.281054899	-62.755110898	-126.998958457	-20.3851144539	-62.4272322178
102750000.0	-16.2903576664	140.76792329	-17.0786256244	-129.608902827	-62.7300122914	-109.425967701	-20.5044203614	-62.0279740024
103437500.0	-16.2988663236	138.214352339	-16.7425750299	-130.922868706	-61.8420736769	-70.0010547744	-20.6377149159	-61.5161056588
104125000.0	-16.3191739745	135.403918327	-16.4201889287	-132.273462214	-61.374793754	-34.910622636	-20.7831424881	-61.0508670448
104812500.0	-16.3464884526	132.639023793	-16.1197121692	-133.658797116	-60.801969368	6.84942167891	-20.9146071917	-60.6991260139
105500000.0	-16.3838887281	129.742239492	-15.8444315572	-135.05143572	-60.9439572225	2.31913077024	-21.043684506	-60.4812353297
106187500.0	-16.4255794722	126.719955542	-15.5936620095	-136.430900294	-60.7277243289	12.8034454288	-21.1933210783	-60.265862133
106875000.0	-16.4749438156	123.584178068	-15.3736022578	-137.8243556	-60.6700084356	11.902309989	-21.3519692345	-60.1496721534
107562500.0	-16.534820332	120.33721756	-15.1849130673	-139.177737937	-60.9886407363	-1.00342720445	-21.5293643068	-59.9779138191
108250000.0	-16.5958535965	116.882044239	-15.0344788626	-140.486666776	-61.0095216016	9.01470339332	-21.6929502989	-59.9978834923
108937500.0	-16.6368705881	113.669232923	-14.829644783	-141.759638888	-61.2511440384	11.2617178249	-21.8450908427	-59.7532834908
109625000.0	-16.6867016657	110.351181664	-14.6427105086	-143.008233136	-61.5071204372	15.9472987995	-21.9976903618	-59.5169403615
110312500.0	-16.7338182575	106.931764048	-14.484531554	-144.209745596	-61.4164020267	33.5794175652	-22.1591053689	-59.3783118952
111000000.0	-16.7937801356	103.416990215	-14.3532219312	-145.314652358	-61.4635473425	63.966466235	-22.3193163597	-59.2652742898
111687500.0	-16.8463355508	99.7813335918	-14.2538054599	-146.316905691	-61.492906089	94.1480748506	-22.4786996712	-59.2723293735
112375000.0	-16.9072973072	96.0651374459	-14.1845234193	-147.166615145	-61.6578417372	113.457214838	-22.6454923436	-59.322792986
113062500.0	-16.9650443154	92.2217282911	-14.1481405162	-147.784779681	-61.1772831931	132.235637869	-22.8114279415	-59.3476476578
113750000.0	-17.0282795014	88.289009128	-14.131094259	-148.120982441	-61.5397488398	148.975496505	-22.9764105602	-59.4292780201
114437500.0	-17.0889203027	84.2281137017	-14.1310196771	-148.108695747	-61.2365200295	171.987840267	-23.1566696929	-59.4587191843
115125000.0	-17.1557115855	80.0198594424	-14.1323246346	-147.66351484	-61.8390474582	-172.833369998	-23.3351662672	-59.5700806145
115812500.0	-17.219770903	75.6715886608	-14.1205592888	-146.788468624	-61.7849111352	-158.06811558	-23.511624453	-59.595119474
116500000.0	-17.2877575338	71.2476136239	-14.068514641	-145.561735756	-61.9230968456	-144.665073361	-23.6767658382	-59.7552826792
117187500.0	-17.3557462486	66.6955807681	-13.9723259309	-143.993379552	-62.1690733042	-130.42804833	-23.8441846123	-59.8892799806
117875000.0	-17.433813155	62.0019595848	-13.8227838618	-142.241534204	-62.3641521765	-125.669004736	-24.0281119772	-60.0000185586
118562500.0	-17.5170988591	57.1368149333	-13.6152485264	-140.323105283	-62.2883335656	-109.253730122	-24.2065153486	-60.034802166
119250000.0	-17.6058569053	52.1494690971	-13.3533747137	-138.367493433	-62.0073614313	-91.2710574764	-24.3831357736	-60.0564650571
119937500.0	-17.7122251779	47.0332035707	-13.0390241041	-136.377664589	-61.9401231674	-74.0574976357	-24.5568689651	-59.9951126265
120625000.0	-17.8212088501	41.7450150911	-12.6735878996	-134.431198123	-61.9290185797	-58.4676745811	-24.7268718844	-60.0154860283
121312500.0	-17.9636878314	36.352585482	-12.2612785894	-132.541201944	-61.8915913724	-55.4107254289	-24.8842736825	-59.9864699386
122000000.0	-18.1198239458	30.7943368802	-11.800696457	-130.734729272	-62.0705546167	-53.1355940391	-25.0494942969	-59.9479019845
122687500.0	-18.3124358869	25.1054766277	-11.2969696903	-129.047932786	-61.838447962	-38.1243364555	-25.1851213407	-59.9225435761
123375000.0	-18.5339536409	19.2147514385	-10.753987555	-127.509097878	-61.6945125829	-23.4559222699	-25.3200266512	-59.8334137973
124062500.0	-18.8108255467	13.1601254617	-10.1678696065	-126.113209459	-61.6546930825	-11.0556136749	-25.4413065548	-59.7367438113
124750000.0	-19.1589618715	7.00821000049	-9.54872411729	-124.912643987	-61.5959683812	-7.32044237266	-25.5629901017	-59.500982332
125437500.0	-19.5645781792	0.663756689826	-8.8922460214	-123.875222956	-61.4213596751	-0.85242103486	-25.6732282942	-59.1795471185
126125000.0	-20.0834520157	-5.77807827064	-8.20330102123	-123.053526287	-61.1003038438	2.24459609731	-25.7884966227	-59.0639651222
126812500.0	-20.7004157175	-12.4076340803	-7.48186002255	-122.417419923	-60.6979978478	11.1890879711	-25.8744394367	-58.7956873282
127500000.0	-21.6061987549	-19.1158789788	-6.73030559624	-122.046588935	-60.6187706611	12.0637442154	-25.9462094962	-58.5473420426
128187500.0	-22.9627029439	-26.9087377032	-5.94845894578	-121.934023725	-60.7675929685	9.71630610013	-26.0031486289	-58.2723799916
128875000.0	-23.901716653	-41.1649762131	-5.13546394534	-122.118240694	-60.6574377962	-4.12576926634	-26.058371239	-57.9292652305
129562500.0	-24.6648578998	-55.4815712409	-4.29158959459	-122.624557339	-60.1598679193	-11.993576259	-26.0885348577	-57.6033676921
130250000.0	-25.3018540753	-69.8465520898	-3.41966316135	-123.524259947	-60.0683255314	-24.0884977481	-26.1100831897	-57.3703901786
130937500.0	-25.8342044032	-84.3653265883	-2.52527036104	-124.850016411	-59.4597382626	-32.756636005	-26.1160954394	-57.1180176569
131625000.0	-26.2899249001	-98.9668704642	-1.62028725727	-126.694050461	-59.4229133399	-43.8465900714	-26.0992292553	-56.9287744149
132312500.0	-26.7158547353	-113.769495726	-0.716590057343	-129.108772324	-58.5477591881	-52.1224325755	-26.0744013355	-56.7244488421
133000000.0	-27.1027755966	-128.708503344	0.163608230442	-132.097630343	-59.3469618361	-63.3168659418	-26.0363269286	-56.6708382582
133687500.0	-27.453037436	-143.673416584	0.998529579544	-135.570904429	-58.9854006237	-73.3146607011	-25.9991891542	-56.5481272018
134375000.0	-27.7793677993	-158.788737844	1.77921960451	-139.512948889	-58.7074421494	-84.9720170327	-25.9331631303	-56.5011003738
135062500.0	-28.0689130542	-174.120169527	2.50063856881	-143.757998935	-58.7629189451	-97.6185683731	-25.8549198718	-56.4762765277
135750000.0	-28.3404480135	170.599278316	3.15713679765	-148.260553422	-59.3304596086	-111.884941639	-25.7582507385	-56.617251293
136437500.0	-28.5850742204	155.180590971	3.75255520526	-152.931014365	-59.3354341889	-125.481738479	-25.6648959534	-56.8442782121
137125000.0	-28.8090556688	139.720456173	4.28893861917	-157.724382081	-59.1036434736	-129.989749362	-25.5611802765	-57.1206356496
137812500.0	-28.9832555507	124.308335176	4.76780779958	-162.581177075	-59.2028686546	-140.994663544	-25.453936984	-57.3427651456
138500000.0	-29.1340911736	108.863941715	5.19334531229	-167.477108989	-58.950857465	-146.12768639	-25.3208644709	-57.6711278676
139187500.0	-29.2344393101	93.3992697663	5.56614915236	-172.364567366	-58.9511932636	-145.310588969	-25.2000360289	-57.9813886609
139875000.0	-29.2874086944	77.9204927617	5.89352379721	-177.219608868	-58.7121286767	-153.423007982	-25.078117027	-58.3277640566
140562500.0	-29.296902726	62.5601578931	6.17612658001	177.978459345	-59.1534372084	-151.557577685	-24.9556739377	-58.7994335597
141250000.0	-29.2283642552	47.2883570009	6.41878744554	173.24948088	-58.4565494713	-154.703654595	-24.8163494519	-59.2262795278
141937500.0	-29.0858013166	32.0666423568	6.62505049368	168.62072729	-58.5241840659	-157.444638283	-24.6863434964	-59.7929991446
142625000.0	-28.8623702331	16.9953904743	6.79836269109	164.0853609	-58.5439339969	-163.041721011	-24.5438212225	-60.3859715054
143312500.0	-28.5200157479	1.99866458949	6.9392922738	159.665384186	-58.6177698586	-165.505861782	-24.3979875333	-60.8990608448
144000000.0	-28.0640953171	-12.8190005817	7.05483111149	155.355986486	-58.4380015834	-173.950549677	-24.2750615993	-61.5437598787
144687500.0	-27.3228547248	-27.5577370825	7.14544154476	151.180280902	-58.4839217571	-175.317842599	-24.1478404803	-62.1082907883
145375000.0	-26.1001179928	-41.1715219349	7.21663558348	147.124856058	-58.1791220662	173.581895756	-24.0279501674	-62.6980610805
146062500.0	-25.2982969642	-48.2729551355	7.26753300111	143.198965947	-58.1806999319	173.823099457	-23.9040851557	-63.2442180175
146750000.0	-24.6484322324	-55.2521821568	7.30291737771	139.382603057	-58.6745416658	170.774716593	-23.8027711165	-63.7624668103
147437500.0	-24.1304486441	-62.1342820062	7.32154627707	135.703392363	-58.6691488265	167.166296194	-23.6856423205	-64.2236499227
148125000.0	-23.7044745097	-68.7932265005	7.32980858556	132.135191961	-58.97011633	165.571057544	-23.5928555718	-64.6300727112
148812500.0	-23.359651235	-75.2979652366	7.32667474965	128.683166306	-58.5697175759	158.771169059	-23.4865663235	-65.0227126353
149500000.0	-23.0252990076	-81.4478844979	7.31532084379	125.334811094	-59.0468837587	154.95326938	-23.4044495799	-65.323391785
150187500.0	-22.7322934613	-87.3922553665	7.2948095902	122.098961298	-58.1885834087	151.480794602	-23.311457693	-65.5038472292
150875000.0	-22.4669318003	-93.2047658032	7.27071856622	118.964545871	-58.8794649589	147.984984804	-23.2311832163	-65.6379119875
151562500.0	-22.2224872061	-98.7258430109	7.24049593791	115.932073951	-58.7794400094	146.641613726	-23.1588380339	-65.6842137913
152250000.0	-22.0010800678	-103.90184865	7.20655301653	112.981260066	-58.6903800736	144.684486664	-23.104651147	-65.721183735
152937500.0	-21.7923857997	-108.96946795	7.16718008911	110.129400851	-58.1395502249	142.789812318	-23.0439862618	-65.6269300984
153625000.0	-21.6050494128	-113.717892231	7.12718026488	107.360558791	-58.1622459865	142.887118767	-23.0049033458	-65.4371353194
154312500.0	-21.4134985161	-118.281595948	7.08298553125	104.669298675	-58.2891771698	136.318441505	-22.948988429	-65.225410871
155000000.0	-21.2705887296	-122.718312511	7.03768601935	102.040972997	-58.1776311156	136.893872545	-22.9060642192	-64.9354416668
155687500.0	-21.114125105	-126.923181074	6.99066884481	99.5034920825	-58.2480419483	132.283601413	-22.8873456338	-64.5936345826
156375000.0	-20.998087024	-130.921255252	6.9430778787	97.0144535864	-58.3686071746	119.847310437	-22.8542743163	-64.2339986112
157062500.0	-20.8808645753	-134.729333672	6.89485619821	94.5946178296	-58.3993914103	104.662985408	-22.8347253534	-63.7665972808
157750000.0	-20.7877428848	-138.416549092	6.84479175992	92.2316824998	-58.2416743455	88.6177551079	-22.8175536825	-63.2174433839
158437500.0	-20.7099328359	-141.933545956	6.79512778214	89.9338941993	-58.3700901918	68.0653129051	-22.8132363681	-62.7155697301
159125000.0	-20.642094791	-145.291061098	6.7445509749	87.698535548	-58.1051644114	54.5866324538	-22.8248207159	-62.1737944613
159812500.0	-20.5918224788	-148.52582597	6.6953442195	85.5044503285	-58.1594169157	35.6567785521	-22.8401096907	-61.5414203731
160500000.0	-20.5584741272	-151.65245833	6.6474510684	83.3549051143	-58.1489656485	23.3697689628	-22.8628743226	-60.9796763452
161187500.0	-20.5377801912	-154.699068291	6.5972652346	81.2542764965	-58.4037533541	11.194300464	-22.8862044572	-60.2823416566
161875000.0	-20.5207549847	-157.583211188	6.55003679531	79.1955139231	-58.0096892203	-13.5481955834	-22.9367732339	-59.6391326349
162562500.0	-20.5401839673	-160.40315519	6.50184265581	77.1797073979	-58.0051780885	-26.3992292625	-22.9898484218	-59.0262425684
163250000.0	-20.5575715195	-163.18395262	6.45430975673	75.1995505009	-57.6882575988	-41.7907344095	-23.0627201382	-58.3692380736
163937500.0	-20.6067479263	-165.875948329	6.40675594708	73.2690403617	-57.2178228541	-58.5948324008	-23.1203196344	-57.7191550445
164625000.0	-20.6524266189	-168.501552758	6.36224022565	71.3635079546	-57.0117034019	-73.5486087289	-23.2156329502	-57.0700514951
165312500.0	-20.7299982249	-171.072598186	6.31652500161	69.4952832758	-57.2398459276	-90.2529335734	-23.2984543837	-56.3776762625
166000000.0	-20.8075928578	-173.568776094	6.27340265143	67.6638321784	-57.5487603015	-105.126705667	-23.3942116687	-55.7473220377
166687500.0	-20.9232026112	-176.089963177	6.23099014698	65.8697332766	-57.3016698356	-120.002186699	-23.512288215	-55.1184121741
167375000.0	-21.0341026668	-178.502046263	6.1901466246	64.0945645072	-57.3461996261	-139.316283631	-23.6337914396	-54.6270150302
168062500.0	-21.1698658609	179.008637288	6.14798979511	62.3586920982	-56.9742939354	-153.148429072	-23.7665417175	-54.0734347481
168750000.0	-21.3093208325	176.564427789	6.10914351111	60.6530762381	-57.3549346171	-173.004264595	-23.9118565323	-53.6930349188
169437500.0	-21.4725696451	174.032025101	6.06807495996	58.9775236646	-57.1910300585	172.978883275	-24.0682090049	-53.2400190484
170125000.0	-21.6419919929	171.586304599	6.03301022245	57.3057459703	-57.1961481819	150.14906245	-24.2447226518	-52.9895617904
170812500.0	-21.835100813	168.968645339	5.99575875778	55.6699185243	-57.3698414174	134.830383888	-24.428731874	-52.7025812854
171500000.0	-22.0361131027	166.361036831	5.96179314937	54.0607740932	-57.5125679557	122.459681906	-24.6141876681	-52.4756986214
172187500.0	-22.2575793017	163.622496387	5.92999416612	52.4807570098	-57.4944618379	104.123628586	-24.8092088615	-52.320089719
172875000.0	-22.4894966843	160.767037721	5.89829332595	50.910272226	-57.7926433888	90.4379427928	-24.9947558586	-52.2475949956
173562500.0	-22.7047603995	157.673625764	5.86757086771	49.3733817484	-57.738332575	88.3141111891	-25.2160005468	-52.212927156
174250000.0	-22.9493182246	154.587287911	5.83917672081	47.8524347243	-58.6336396855	87.8357440594	-25.4095503214	-52.199516648
174937500.0	-23.1634740386	151.285611868	5.81285311009	46.3490511964	-58.4584042641	80.3723069323	-25.6336513213	-52.3352793714
175625000.0	-23.3909128436	147.789765362	5.78817111003	44.8533920527	-58.7278026058	83.4908719055	-25.8466743621	-52.5702211782
176312500.0	-23.5981229191	144.166701249	5.76425299839	43.378650118	-58.5106729819	76.9621122276	-26.062182593	-52.8735936381
177000000.0	-23.8035528691	140.387859408	5.7418154426	41.9233836491	-58.561666867	78.6607312519	-26.2903708454	-53.3758427059
177687500.0	-23.9751376994	136.501452104	5.71975047358	40.4793302984	-58.6032507181	74.8409938232	-26.5269122636	-53.9063821702
178375000.0	-24.1355058506	132.511568005	5.70166982764	39.0475437228	-59.149636528	72.9870216493	-26.7600162928	-54.5039826027
179062500.0	-24.2741470887	128.421397631	5.68243463333	37.6273332936	-59.3971879333	76.3621822304	-26.9753059268	-55.1476628506
179750000.0	-24.3888873637	124.232331175	5.66495903562	36.2140737752	-59.9164211988	75.1026837779	-27.1901008078	-55.8640763821
180437500.0	-24.4873681498	119.95009644	5.64842361869	34.8117342246	-59.9123176384	69.4546727569	-27.3813162109	-56.6848179519
181125000.0	-24.5480838441	115.583554892	5.63385226361	33.4154958519	-60.1824512361	70.2732040252	-27.6032645455	-57.5430763491
181812500.0	-24.5969883932	111.238706155	5.61972604677	32.0398791946	-60.1313345991	66.2848632196	-27.7799382019	-58.3697794299
182500000.0	-24.6023217423	106.819043978	5.60759137253	30.669582897	-60.0447357662	65.4441819088	-28.0056459048	-59.3867034256
183187500.0	-24.5921487446	102.363703748	5.59481533271	29.3154425846	-60.034971085	66.0717208256	-28.1905452891	-60.3565908061
183875000.0	-24.5351399661	97.9638672336	5.58489976521	27.9552059908	-60.1034463963	66.0152001383	-28.3682960561	-61.4413752631
184562500.0	-24.4854293471	93.49407348	5.57353161919	26.6157650322	-60.2103232441	65.7844957264	-28.5081577603	-62.4961480478
185250000.0	-24.3905218885	89.1360675304	5.56505966126	25.275511969	-60.1869992679	65.5546319493	-28.6776244963	-63.5748484258
185937500.0	-24.2931484476	84.771928271	5.55394612254	23.9462578208	-60.0454175872	62.5581047378	-28.8068472621	-64.605354353
186625000.0	-24.1584085431	80.5837994964	5.54897756939	22.6232284238	-59.9213443643	63.7292735947	-28.9441252153	-65.9033693515
187312500.0	-24.0150996394	76.3088278511	5.54168946966	21.3156960687	-60.2822667527	65.4258517642	-29.0465551447	-66.9073181416
188000000.0	-23.8291652086	72.2458474246	5.53744214845	20.0029395739	-60.0538702748	58.4360183246	-29.1298110737	-67.9732693791
188687500.0	-23.6418764271	68.1902417474	5.53148301153	18.7023553111	-60.2238452674	55.3495926152	-29.2084365695	-69.1170077867
189375000.0	-23.4191504099	64.3237559024	5.52676148194	17.4099539049	-60.3189781015	58.0135081613	-29.2796632431	-70.2903581326
190062500.0	-23.1969762613	60.5728433985	5.52355814388	16.1300413753	-60.8482812883	57.9434010685	-29.3424559282	-71.3156062153
190750000.0	-22.9656191003	57.087958691	5.5230752206	14.8529605273	-60.6415692982	48.1429681818	-29.3954787575	-72.4283331998
191437500.0	-22.7203785855	53.6521714913	5.51984682935	13.5820816133	-60.7040628942	46.9897679561	-29.4556014671	-73.6639117249
192125000.0	-22.4826163936	50.5153800826	5.51864377434	12.3154942571	-60.4358255035	47.0318063113	-29.4726194577	-74.6378626116
192812500.0	-22.2303369024	47.5150452051	5.51720459694	11.0721003048	-60.1707880352	45.8503797764	-29.4992037789	-75.696259782
193500000.0	-21.9927343135	44.6942621995	5.51817712872	9.80624321274	-60.4383287399	45.8517525568	-29.4860865598	-76.6883015143
194187500.0	-21.7521893971	42.0091889433	5.51822599693	8.56302624916	-60.5298859323	44.3927679791	-29.467630734	-77.5800108323
194875000.0	-21.5434477337	39.4704221928	5.52058188921	7.32302569148	-60.6695632459	40.2180946495	-29.4136680077	-78.3765932257
195562500.0	-21.3297232047	37.0644258217	5.52217277597	6.09169686462	-60.061249064	37.6943579506	-29.3707732732	-79.2675512732
196250000.0	-21.1415129748	34.7383203864	5.52502495195	4.86599851712	-59.8749386727	36.1517403307	-29.305083239	-80.1039992001
196937500.0	-20.9536059339	32.4857525213	5.52792080537	3.64368706717	-59.3099313228	39.2700412024	-29.2634513325	-80.8047450778
197625000.0	-20.8002245077	30.3678017455	5.53343505758	2.43340834794	-59.3012837842	49.1342017705	-29.1874565767	-81.3527698386
198312500.0	-20.6588632753	28.308299026	5.53822729411	1.2336063163	-59.3181814508	62.4573451554	-29.0873946856	-81.9954837715
199000000.0	-20.5419503561	26.2497012054	5.54636802958	0.0152211013041	-59.6728685461	77.4247290566	-28.9747571327	-82.6042381578
199687500.0	-20.430163355	24.2135967827	5.5534121607	-1.18103083264	-59.2865298964	91.8264563619	-28.8469116592	-83.1350681189
200375000.0	-20.3445967928	22.2587481824	5.5620624876	-2.39246870744	-59.4184325863	104.127317644	-28.7209542154	-83.669299917
201062500.0	-20.2684130772	20.2589181615	5.56850298868	-3.58017875136	-59.2980191612	117.007918286	-28.5941618375	-84.182434366
201750000.0	-20.1953142368	18.3317380539	5.57877355151	-4.77514722067	-59.2520715328	129.302988607	-28.4803918642	-84.5438951563
202437500.0	-20.1412189179	16.3903875734	5.5885573839	-5.96239951378	-58.9270774861	146.498618715	-28.328632584	-84.931729184
203125000.0	-20.0928276341	14.4235861058	5.60151847533	-7.16058161377	-58.9297065598	158.943173378	-28.1824524244	-85.1977567767
203812500.0	-20.0498288914	12.3600911848	5.61179513092	-8.34713546363	-58.9332677906	162.273398119	-28.0119462756	-85.2778339422
204500000.0	-20.0218743409	10.3727576805	5.62433508107	-9.53666930465	-58.8351103852	175.031066092	-27.8661179175	-85.5126820716
205187500.0	-20.0040754316	8.38760033591	5.63698616562	-10.7095807877	-58.9718506498	-170.050312105	-27.706490822	-85.6645999933
