#Frequency	|S11|	<S11	|S21|	<S21	|S12|	<S12	|S22|	<S22
100000000.0	-19.6648794283	126.482553607	-35.7805998229	-124.561859274	-66.0202448016	-159.026363569	-21.7796952336	-36.8504656137
100687500.0	-19.6209101954	123.191267086	-34.9555428057	-125.626188782	-64.9441271629	154.941340207	-21.791909328	-36.4611188442
101375000.0	-19.5452526397	119.879873416	-34.4543258476	-127.111755443	-65.0367752624	176.807078666	-21.8003120217	-36.119920166
102062500.0	-19.4718084488	116.637047995	-34.1403053478	-128.242464068	-64.8165177631	-177.74084847	-21.7957147785	-35.7742690587
102750000.0	-19.3984556445	113.39735084	-33.7999443676	-129.499726618	-63.3348093222	-139.065454549	-21.7989853079	-35.5420850461
103437500.0	-19.3435119123	110.159939359	-33.5228514111	-130.876721667	-62.2551891252	-146.985121708	-21.81524299	-35.3733444369
104125000.0	-19.2834909003	106.711913333	-33.249503896	-132.184237928	-61.849038692	-139.50213966	-21.8368727664	-35.0831890546
104812500.0	-19.2430890191	103.35531232	-32.9937691814	-133.361685949	-62.4189974823	-131.151890448	-21.856200178	-34.9962968159
105500000.0	-19.1956480679	99.8396751853	-32.7510527547	-134.642517737	-62.8046902266	-109.23952785	-21.8783810522	-34.9141690877
106187500.0	-19.1547070805	96.244865755	-32.534166105	-135.929390254	-62.3651399031	-109.096345437	-21.9127035229	-34.8940085773
106875000.0	-19.1206792412	92.4883530254	-32.3481204629	-137.223884785	-62.4112427424	-123.481628856	-21.936121787	-34.898121268
107562500.0	-19.096744869	88.6025745683	-32.2043132171	-138.447732915	-62.0124100713	-123.83790721	-21.9717390768	-34.8756761268
108250000.0	-19.0668963612	84.5018552733	-32.1041106733	-139.505976231	-61.640267584	-128.047238043	-21.9983415267	-34.9231138941
108937500.0	-19.0286856291	80.6241140796	-31.940558093	-140.612542227	-61.3763425706	-128.779575583	-22.0210522935	-34.8340817374
109625000.0	-18.9848647046	76.7071059755	-31.8243066448	-141.477332127	-61.1762337221	-117.038617231	-22.0456661244	-34.7697888393
110312500.0	-18.9368945284	72.656982083	-31.7212193623	-142.250408547	-61.524634032	-114.394218891	-22.0691701733	-34.7648139592
111000000.0	-18.9020662546	68.5198660572	-31.6534816071	-142.693470151	-61.3728000659	-118.041289578	-22.0951663347	-34.7616751453
111687500.0	-18.8561638475	64.2810786765	-31.6089637939	-142.886382868	-60.8496911376	-128.899526299	-22.1167637183	-34.8449249176
112375000.0	-18.8177121127	59.9369999223	-31.5777375778	-142.716251925	-60.7918508746	-130.116053552	-22.1502644542	-34.9253113918
113062500.0	-18.7709107004	55.520351499	-31.5394101865	-142.20674234	-60.4941479253	-142.102776195	-22.1729073563	-34.9710083639
113750000.0	-18.7317503764	50.9178719058	-31.4725249048	-141.267328991	-60.6508976546	-154.752579308	-22.2028864681	-35.0332710828
114437500.0	-18.6968768964	46.3043488106	-31.3627242525	-139.886933402	-60.8220588448	-166.696264186	-22.2329197484	-35.0872405397
115125000.0	-18.6564131852	41.4748009261	-31.1952456971	-138.261228776	-61.0031172393	-177.766977175	-22.2611044022	-35.1611396694
115812500.0	-18.6148828736	36.614037511	-30.9892624183	-136.484487689	-61.1331143851	172.845648035	-22.281443939	-35.191220997
116500000.0	-18.5830003455	31.5459350911	-30.7076123662	-134.651194151	-61.3849357532	169.215860969	-22.3092345036	-35.2599269457
117187500.0	-18.5499366828	26.4950024185	-30.3867191553	-132.789031399	-61.1771813231	166.524063852	-22.3284250005	-35.3925091427
117875000.0	-18.5327546935	21.1721882477	-30.0129792084	-130.985219494	-61.0359111317	161.201851763	-22.3597665623	-35.3923162976
118562500.0	-18.5204426524	15.7980125477	-29.5778639588	-129.222762223	-60.5472729072	157.90638427	-22.3852678698	-35.4352936343
119250000.0	-18.5299590343	10.2619159973	-29.1014413493	-127.538374679	-60.116106321	153.633619892	-22.4071652578	-35.3827265584
119937500.0	-18.5565745817	4.6843636378	-28.5830460115	-126.000696322	-60.0792827367	154.612945451	-22.4194724826	-35.3732510004
120625000.0	-18.5982726698	-1.02206642189	-28.0178151188	-124.612464883	-60.5024692162	154.782673191	-22.4433242823	-35.3096143916
121312500.0	-18.6812501187	-6.79598032048	-27.4210002907	-123.337438845	-60.6087130235	144.350398232	-22.4508375134	-35.275609458
122000000.0	-18.7909278589	-12.5911861604	-26.7774738651	-122.201138027	-60.6471004987	145.421574645	-22.477080638	-35.1710179693
122687500.0	-18.9498073972	-18.4307476569	-26.1207892999	-121.39707297	-60.3473408576	157.173577761	-22.4973030443	-35.0928959486
123375000.0	-19.1448862158	-24.1754175295	-25.4091789731	-120.729653258	-60.15602353	162.018850709	-22.5115678581	-34.9687514814
124062500.0	-19.4004303591	-29.9381297087	-24.697826567	-120.298719457	-60.2698671614	168.287003666	-22.5242961044	-34.8433749809
124750000.0	-19.7258183166	-35.3004491035	-23.9336140079	-120.007129134	-60.5425583876	-178.115370011	-22.5470048512	-34.6332004201
125437500.0	-20.0786829753	-40.3410455187	-23.1681041683	-120.165988816	-60.5398446341	-167.093576235	-22.5600882245	-34.3987725088
126125000.0	-20.4751076783	-44.7083345663	-22.3488337684	-120.456775412	-61.0199919347	-163.631863069	-22.5865881182	-34.1970135838
126812500.0	-20.8686289581	-48.7377409263	-21.5237393046	-121.151914528	-60.9133533777	-173.103486869	-22.6008218916	-33.9022379849
127500000.0	-21.2621447278	-51.9495951843	-20.6663065195	-122.146034258	-60.7103052707	-173.094010961	-22.6144553119	-33.6470799931
128187500.0	-21.6052660129	-55.0470284778	-19.8098622477	-123.70129615	-60.7306570975	-169.895022605	-22.6345674705	-33.2981347632
128875000.0	-21.9153541374	-57.6963802441	-18.9091542066	-125.47109427	-61.0952750916	-157.897209646	-22.6490163056	-32.8828221264
129562500.0	-22.1778758112	-60.2957690184	-18.0209516377	-127.949941948	-61.3358744575	-157.724666664	-22.6541867319	-32.4797258842
130250000.0	-22.4182390395	-62.7064776678	-17.1100807472	-130.767811043	-61.5124341697	-159.847973815	-22.6769517923	-32.0835732909
130937500.0	-22.6211222513	-65.0656833847	-16.2653367043	-134.353223925	-61.4098162263	-170.411323316	-22.6904827408	-31.6424854549
131625000.0	-22.8165056627	-67.2654301562	-15.4633820341	-138.242399804	-61.1424984983	-172.332298202	-22.7060160101	-31.2280293959
132312500.0	-22.9918072784	-69.3989352525	-14.7231603164	-142.634447894	-61.2734099801	-174.497061624	-22.7221408306	-30.7594474733
133000000.0	-23.1537684336	-71.4234648211	-14.030614043	-147.268253443	-61.6708188272	173.258581457	-22.7437708183	-30.3746611332
133687500.0	-23.2919532635	-73.4057549362	-13.4221287818	-152.1044391	-61.4013856974	162.546331381	-22.7664500156	-29.9468993428
134375000.0	-23.4104587352	-75.3245244191	-12.8669246243	-157.056230459	-61.6127496786	150.177327244	-22.784069657	-29.5187739264
135062500.0	-23.4952191365	-77.153532581	-12.3770249072	-162.127142962	-61.8195907681	142.316581713	-22.7971711718	-29.0965072978
135750000.0	-23.5765069629	-78.8834706088	-11.9430953937	-167.18912108	-62.0398837773	130.751068644	-22.8109417799	-28.7236814137
136437500.0	-23.6296767151	-80.4959260111	-11.5680650251	-172.265638881	-62.0219135928	112.249133357	-22.8357333523	-28.4428656198
137125000.0	-23.6572019362	-82.090386831	-11.2415432646	-177.295513994	-62.4998535136	100.803700675	-22.8651540611	-28.1394030676
137812500.0	-23.6614822547	-83.5214940132	-10.9652238836	177.724621668	-62.5679084862	97.9581208255	-22.8827796552	-27.7954062076
138500000.0	-23.6343103472	-84.9916396664	-10.7288343504	172.821475008	-62.4138263289	97.6264321949	-22.902874252	-27.5279703416
139187500.0	-23.5655366241	-86.3556590692	-10.5312854733	168.048964093	-62.4449255722	96.162276364	-22.9172384602	-27.2651750879
139875000.0	-23.4489723657	-87.7318643399	-10.3711159494	163.380510614	-62.3925452097	87.5808184519	-22.9432755157	-27.0386417468
140562500.0	-23.292475517	-89.1170959668	-10.2382965501	158.852042923	-62.4607835666	87.8529164795	-22.9728268023	-26.8666262849
141250000.0	-23.0807520059	-90.5236869505	-10.1333255319	154.445621507	-62.3958695638	87.7236987539	-22.9853621224	-26.6837208862
141937500.0	-22.8013898711	-92.1750427567	-10.0512972483	150.200909535	-62.516604866	90.0297865652	-23.001412228	-26.4918542833
142625000.0	-22.4890112298	-94.1959753114	-9.99079953962	146.070187249	-62.5389253679	91.8815542511	-23.0215729347	-26.3742974334
143312500.0	-22.1392552347	-96.7538636009	-9.94641007882	142.105169163	-62.8364404845	107.3518315	-23.028540359	-26.2139704758
144000000.0	-21.8081660876	-99.6822669889	-9.91801385857	138.235634132	-63.0564838916	122.008261997	-23.0475353462	-26.1626844469
144687500.0	-21.4850194087	-103.296050553	-9.90068044597	134.518324081	-62.8467581607	137.054576402	-23.0594969992	-26.0421722805
145375000.0	-21.2036991138	-106.981899953	-9.8932846429	130.918525454	-62.6121090574	150.325081956	-23.0650769096	-26.0270646218
146062500.0	-20.9739077722	-111.024200584	-9.89662785493	127.444046521	-62.4117907552	166.597052359	-23.079280726	-25.9431436614
146750000.0	-20.7923837513	-115.052216194	-9.9077330595	124.035895612	-62.0410196801	-163.378335555	-23.1072237166	-25.9170359944
147437500.0	-20.6450263816	-119.203925357	-9.92894127788	120.780580635	-62.2033063795	-132.81237133	-23.1054575636	-25.9175673367
148125000.0	-20.5382790235	-123.250111178	-9.95277458105	117.609657384	-62.4105551334	-103.851338195	-23.1192751761	-25.961649367
148812500.0	-20.4462134262	-127.474406054	-9.98412079589	114.515451051	-62.3189051712	-75.8367337887	-23.1122019903	-26.0093232598
149500000.0	-20.3843940207	-131.527736024	-10.0146239918	111.542456003	-62.1685604044	-46.8978265107	-23.1170452976	-25.9889357086
150187500.0	-20.3383616942	-135.700256626	-10.055229936	108.658647926	-61.8067120717	-20.4626081408	-23.1186249077	-25.9483964773
150875000.0	-20.3214954188	-139.688693296	-10.0907099472	105.847712405	-61.8397643636	6.36921482876	-23.1131329153	-25.9276997409
151562500.0	-20.3274160834	-143.791931401	-10.1346137088	103.100098489	-61.6069650041	29.5593232378	-23.0983606834	-25.8646483143
152250000.0	-20.3568555687	-147.724078569	-10.1732560514	100.449638926	-61.421921155	56.1645534345	-23.096095032	-25.7815459176
152937500.0	-20.3934457623	-151.703724894	-10.222041651	97.8429532187	-61.5964034726	73.7837501555	-23.0773127801	-25.6744841464
153625000.0	-20.4461619517	-155.57615382	-10.2624016698	95.3163141505	-61.6213208395	98.9849395081	-23.0682771467	-25.5241977664
154312500.0	-20.5110154869	-159.430518375	-10.3085143836	92.8497144549	-61.3944755949	112.572641859	-23.0421723492	-25.4130555035
155000000.0	-20.5875738954	-163.314596287	-10.3555745157	90.4433796457	-60.864464238	117.783565307	-23.0294537483	-25.2704427787
155687500.0	-20.6545768124	-167.087817149	-10.4052034184	88.0780903949	-60.9514795094	121.701104188	-23.0209309011	-25.0489522669
156375000.0	-20.7476378955	-170.935521189	-10.4512526602	85.7861859334	-60.6408276629	115.837008912	-22.9975095872	-24.82277207
157062500.0	-20.8346573319	-174.658614368	-10.4997434535	83.5290141642	-60.5612192371	115.086597883	-22.9663287623	-24.5596760266
157750000.0	-20.9279033584	-178.423865606	-10.5459517957	81.3289398131	-60.65135259	107.895577768	-22.9314224118	-24.2520375278
158437500.0	-21.0222718056	177.962610723	-10.59384523	79.1656177683	-60.8152998347	89.9377434747	-22.9149496475	-23.9620213473
159125000.0	-21.1330874774	174.256992362	-10.6370290513	77.0414570225	-60.6744386261	65.4420232698	-22.8974850301	-23.6969194874
159812500.0	-21.2397960569	170.710010752	-10.6829784923	74.9729505354	-60.5846440317	52.8308021281	-22.8683421258	-23.3216888498
160500000.0	-21.3494141976	167.034102372	-10.7267103437	72.9403732211	-59.5393790616	37.7936151558	-22.8482350587	-22.965694316
161187500.0	-21.4513300576	163.514734639	-10.7728075612	70.9434008201	-59.3605539868	24.3791101175	-22.8287987777	-22.6013770358
161875000.0	-21.5557491569	159.937660602	-10.8171442139	68.9807814771	-59.2534264911	-1.26829970698	-22.8189523564	-22.2379986111
162562500.0	-21.6671519876	156.474131368	-10.8620284184	67.044971073	-59.5664664453	-16.6142031876	-22.8036340952	-21.8872869997
163250000.0	-21.7666046658	152.975774399	-10.9069571819	65.1310295454	-59.6247912936	-44.3465235649	-22.7923382299	-21.4978801204
163937500.0	-21.8774784027	149.605691974	-10.9516704609	63.283595554	-59.7814650304	-82.390400039	-22.7779231919	-21.0979030239
164625000.0	-21.9783822237	146.220763301	-10.9946700507	61.4343048876	-59.5342760358	-110.115626552	-22.7735766026	-20.7018272845
165312500.0	-22.0884457452	142.866258998	-11.0338309504	59.647992095	-59.6714377146	-127.002763348	-22.7686809455	-20.2798783245
166000000.0	-22.199686442	139.602247656	-11.0722988063	57.8717650493	-59.6845701071	-147.880507423	-22.7609237629	-19.9002319027
166687500.0	-22.3092979022	136.234556546	-11.1123791694	56.1289725564	-59.9352873623	-159.207830502	-22.7620826574	-19.5465347402
167375000.0	-22.425962623	132.99772675	-11.1499050475	54.393004075	-59.8130407458	-156.95634469	-22.7752497663	-19.244591156
168062500.0	-22.5442417613	129.71140883	-11.1865466771	52.7165590979	-59.7765651287	-154.671995608	-22.7866641063	-18.8857432055
168750000.0	-22.6531960346	126.560361732	-11.2232773589	51.058815593	-59.7893531293	-157.495438416	-22.8151046393	-18.6545413318
169437500.0	-22.7613616971	123.290386326	-11.2612657509	49.4162019657	-59.7266533128	-157.452181384	-22.8425586282	-18.3976773513
170125000.0	-22.8772640309	120.137332294	-11.291374992	47.8048948549	-60.0260745366	-144.300302758	-22.8785227182	-18.2120045699
170812500.0	-22.9936941586	116.805274646	-11.3264358285	46.2167230211	-59.8084319092	-134.764207973	-22.9090639339	-17.9459436244
171500000.0	-23.1060902281	113.599828413	-11.3566954728	44.6474552576	-59.6762414414	-117.269252775	-22.9605092147	-17.7633472597
172187500.0	-23.2150304125	110.23349007	-11.3851351026	43.1176158355	-59.4929393272	-89.3876877525	-22.9940269909	-17.6015968285
172875000.0	-23.3370923011	106.963474503	-11.4098909484	41.6140581654	-60.090757436	-63.9004190654	-23.0257266074	-17.5210196981
173562500.0	-23.4315722639	103.660848172	-11.4367401173	40.0982557543	-60.2362222172	-37.5749451448	-23.084619782	-17.4600520775
174250000.0	-23.5422227981	100.408698589	-11.4570708699	38.6219576302	-60.5553392268	-21.5748400492	-23.1334578449	-17.3774430812
174937500.0	-23.637344793	97.0478328114	-11.4788898283	37.1406000361	-60.4923329478	-0.85319351344	-23.1892317102	-17.3654579013
175625000.0	-23.7295700351	93.6340812158	-11.4942592669	35.6936496726	-60.4225296186	17.5526103965	-23.2352746889	-17.2856232932
176312500.0	-23.805954525	90.2191302269	-11.51427962	34.2519122777	-60.231605266	30.7839145039	-23.2889437504	-17.3087265567
177000000.0	-23.8800740551	86.752011114	-11.5281208096	32.8366989429	-60.1613039845	31.6145136762	-23.360965032	-17.3769872191
177687500.0	-23.9385752396	83.3713545844	-11.5458355623	31.4125848301	-60.136853129	31.7511729685	-23.4240216532	-17.4969304585
178375000.0	-24.0073647539	79.8511255525	-11.5533173968	30.0186338977	-60.9094154574	30.8262776627	-23.4896849842	-17.5490551476
179062500.0	-24.06160259	76.4673923113	-11.5638884726	28.6185408869	-60.9111402037	33.0347551706	-23.5434741266	-17.683789759
179750000.0	-24.1074691249	72.9089900039	-11.5701509401	27.2648858098	-60.7133869853	34.4517109594	-23.6137391574	-17.8050146562
180437500.0	-24.1505361323	69.5169102455	-11.5755458494	25.8870709766	-60.8885312199	38.8734319817	-23.6609664317	-18.0449682592
181125000.0	-24.1701586935	65.8165880283	-11.5755762353	24.5250836913	-60.7072311367	49.5036788964	-23.7285001149	-18.1416853253
181812500.0	-24.2022117878	62.367426738	-11.577427959	23.1517119753	-60.6298048026	51.1437086678	-23.7833994985	-18.3092432266
182500000.0	-24.21229383	58.6287632584	-11.5775640063	21.8042625499	-60.5281088209	39.074731918	-23.8494490174	-18.3933319797
183187500.0	-24.2099677998	55.0686632919	-11.5800848356	20.4558912987	-60.453611387	35.1758976494	-23.9083741289	-18.4989996414
183875000.0	-24.2094839175	51.4913349006	-11.5783938178	19.1092086541	-60.4418300701	21.246702276	-23.9658616688	-18.6402349446
184562500.0	-24.1921027056	47.9413070808	-11.5779103645	17.7692232704	-60.2422112686	-6.44306361197	-24.0046277299	-18.7583696192
185250000.0	-24.1584976131	44.3068814958	-11.5752949146	16.4265357689	-60.2124451049	-46.693995943	-24.0560574522	-18.8433343631
185937500.0	-24.1349655829	40.6916340374	-11.5738726572	15.0865922655	-60.5253963693	-77.5044995167	-24.0894259649	-18.8479200787
186625000.0	-24.1147252893	37.1415209888	-11.5648128283	13.7682860918	-60.5499079862	-116.056006525	-24.1265708069	-18.862500744
187312500.0	-24.0673589922	33.4694795045	-11.5600736856	12.4354146053	-59.8904191679	-156.341398442	-24.1538125553	-18.7946304627
188000000.0	-24.019456685	29.9605935031	-11.5519914294	11.0961525152	-60.456333599	167.596245966	-24.18393408	-18.7949362264
188687500.0	-23.9649858751	26.2591510268	-11.5466289607	9.76677485611	-60.5052305739	126.371449029	-24.2057985582	-18.7840886586
189375000.0	-23.9174034705	22.7851316401	-11.5395266705	8.42268779463	-60.7801523125	87.4264676694	-24.241104676	-18.6468061289
190062500.0	-23.8509400393	19.1658384651	-11.5296324827	7.10360407374	-60.7227486207	60.0451875788	-24.2730299904	-18.4719782864
190750000.0	-23.7981401755	15.6860602363	-11.5160238242	5.78180369674	-61.0965549075	36.2475239479	-24.3010582153	-18.2369546084
191437500.0	-23.7306022036	12.0720934618	-11.5062570498	4.46980115169	-60.6666789243	24.5171959191	-24.3296272169	-18.1277286095
192125000.0	-23.6681068454	8.66700226818	-11.4952091552	3.1589101815	-60.9837733181	1.30265451285	-24.3545657798	-17.9335858795
192812500.0	-23.5939613106	5.04945905038	-11.4866834926	1.88135783884	-60.8835131917	-8.47782775676	-24.3864691195	-17.7755140236
193500000.0	-23.5250369357	1.60707706233	-11.4767327325	0.571918662767	-60.7947713085	-5.6496468824	-24.3963940439	-17.5667497445
194187500.0	-23.4566079966	-1.90696515026	-11.4666141339	-0.734133835525	-61.0692434347	9.39018732768	-24.4045226916	-17.3555210398
194875000.0	-23.3918749696	-5.39792434785	-11.4537924693	-2.02897830601	-61.4886617955	23.9614900214	-24.4178245866	-17.0832504493
195562500.0	-23.303236109	-8.91987146075	-11.4441105701	-3.30887864524	-60.7597038462	47.8350258266	-24.434818401	-16.7526806473
196250000.0	-23.2171721678	-12.5041407688	-11.4315340412	-4.58407829905	-60.6811579192	80.8487023344	-24.4572167332	-16.4642625067
196937500.0	-23.1270737951	-15.9580079431	-11.4190213634	-5.87475889738	-60.3726772133	110.117073174	-24.4677317063	-16.0583818579
197625000.0	-23.0319918383	-19.5025545061	-11.4075185851	-7.14444621936	-60.4185918673	149.266681278	-24.4806379991	-15.7031927341
198312500.0	-22.9405448341	-22.8420433339	-11.3967605599	-8.41139098682	-60.4148156336	178.42208217	-24.4857297429	-15.4815940023
199000000.0	-22.8347491454	-26.3447620956	-11.382620296	-9.66359714473	-60.8327330014	-151.117190103	-24.4895276263	-15.2694918244
199687500.0	-22.7250466974	-29.5309584405	-11.3717385	-10.9344222379	-60.4880807039	-120.240407813	-24.5005448843	-15.0306068226
200375000.0	-22.6198913284	-32.8760214931	-11.3550187106	-12.1920696185	-60.9133709555	-100.444660813	-24.5249143899	-14.7999041942
201062500.0	-22.4942199742	-36.1263998475	-11.3414684781	-13.4347897112	-60.6322440173	-72.5753769858	-24.5419739105	-14.5675711448
201750000.0	-22.3734726377	-39.4541632895	-11.3211624463	-14.6693843845	-60.8409801184	-34.3381696326	-24.5628123599	-14.3584932359
202437500.0	-22.251514457	-42.5163928405	-11.304079484	-15.9107933125	-60.7966733189	8.49681889728	-24.5843149086	-14.1849878731
203125000.0	-22.1172106387	-45.6313189489	-11.2797152095	-17.1388042069	-60.5191635943	42.0647195369	-24.6025168237	-14.130848355
203812500.0	-21.9618071474	-48.6173109673	-11.2641619205	-18.3835121599	-60.4214194692	76.3769651165	-24.6167182725	-14.095551805
204500000.0	-21.8218291202	-51.6138030146	-11.2410753431	-19.6155288415	-60.3699218753	108.442691874	-24.6341351854	-14.0927652896
