#Frequency	|S11|	<S11	|S21|	<S21	|S12|	<S12	|S22|	<S22
100000000.0	-18.8207769066	142.183205137	-16.1829695004	-124.339920249	-60.6418399163	10.759485359	-19.1954758096	-63.4224790218
100687500.0	-18.6993233434	139.06351643	-15.7881259407	-125.552197218	-64.7958885175	-95.5797152274	-19.2774778799	-62.9310011992
101375000.0	-18.6427648791	135.612907416	-15.4003194616	-126.809681978	-62.2767158904	115.213033695	-19.4004369128	-62.3015806661
102062500.0	-18.5903431696	132.383939601	-15.0163096199	-128.039259927	-60.1636593288	43.6212264975	-19.5301000466	-61.8704506829
102750000.0	-18.5317092369	129.211414419	-14.6585100556	-129.316576318	-60.2685039594	4.84381894401	-19.670494474	-61.4600777502
103437500.0	-18.477005238	126.009478717	-14.3193124024	-130.627353991	-60.5912570916	14.8056794417	-19.8052072897	-61.0603327273
104125000.0	-18.4247951706	122.748139964	-14.0016991266	-131.954809421	-60.4482094202	10.1203469266	-19.9673621876	-60.7123303367
104812500.0	-18.3839400556	119.550710098	-13.708344274	-133.265446231	-60.9206761901	27.4945672372	-20.1299539367	-60.4743188175
105500000.0	-18.3449640767	116.297751098	-13.4416411441	-134.597548984	-60.8481102157	43.7904345991	-20.2984198858	-60.3097399931
106187500.0	-18.3145174376	112.991550173	-13.2029446752	-135.93258742	-61.505041741	56.9798457229	-20.4836895124	-60.1841206618
106875000.0	-18.2920755084	109.574897301	-12.9936529758	-137.2395753	-61.39222046	53.6442279861	-20.6751003433	-60.077712705
107562500.0	-18.2864734324	106.122501614	-12.8196793998	-138.506792459	-60.8638026682	66.1890867071	-20.8770886435	-60.0071768269
108250000.0	-18.2820742607	102.486930132	-12.6813196755	-139.677832714	-60.7520125014	96.4103033436	-21.073617782	-60.0538125881
108937500.0	-18.2573717309	98.9659039146	-12.4877507801	-140.85768814	-60.677279879	96.8183714239	-21.2517170475	-59.8774878318
109625000.0	-18.2471498774	95.4040743113	-12.3161726373	-141.966027272	-60.1378134642	102.613341939	-21.4329661366	-59.8021571661
110312500.0	-18.2270259887	91.7223813138	-12.1748118768	-142.992099825	-60.3685737658	115.342495954	-21.6291881642	-59.7606685535
111000000.0	-18.2223382461	88.0088777887	-12.0563523782	-143.884893349	-60.7023317912	131.743442439	-21.8202555361	-59.832219577
111687500.0	-18.2174063489	84.2159373204	-11.9715877535	-144.611205058	-60.610543457	159.615761624	-22.0232875263	-59.8942350302
112375000.0	-18.2187223702	80.3514911764	-11.911534174	-145.095913871	-60.9307210519	-170.67822001	-22.2186258998	-60.0241581078
113062500.0	-18.2179018679	76.3897826887	-11.8793206433	-145.289166083	-60.9628997067	-129.959946496	-22.4239781667	-60.0941651028
113750000.0	-18.2265149433	72.3478627424	-11.8518414007	-145.099011704	-61.1269368745	-99.1653408202	-22.6299900188	-60.2651814888
114437500.0	-18.2350015375	68.1926833654	-11.8238961307	-144.49588383	-61.2569628652	-71.4970841358	-22.8552831729	-60.4398242544
115125000.0	-18.2513831572	63.9129031137	-11.7695081812	-143.478559347	-61.0324875798	-49.3324095025	-23.0792178289	-60.6059910475
115812500.0	-18.2620627089	59.495324892	-11.6790308008	-142.099645432	-60.8510122569	-32.9356056213	-23.3103832114	-60.7167903887
116500000.0	-18.2810794919	54.96063145	-11.5335093766	-140.439595248	-61.0519825945	-18.3277468457	-23.5285227468	-60.8916548148
117187500.0	-18.3093045575	50.3366953136	-11.3343738137	-138.611480168	-61.1085096574	-4.2156569394	-23.7556145166	-61.0118602806
117875000.0	-18.3410292222	45.5044875102	-11.0744686268	-136.692729475	-61.0507147741	10.8194855457	-23.989716303	-61.0982282242
118562500.0	-18.3906758715	40.5432103459	-10.7623657611	-134.731413143	-61.1795162492	13.1310388838	-24.2171714355	-61.1074954414
119250000.0	-18.4451885928	35.418163241	-10.3915477793	-132.783039386	-61.6746044727	24.1547900748	-24.4428395352	-61.0731961205
119937500.0	-18.5182301016	30.184700905	-9.97317619052	-130.89851376	-61.4982233501	27.2701909938	-24.6452126636	-60.9892703777
120625000.0	-18.6008663907	24.7190883575	-9.50243969432	-129.103056839	-61.5700606409	40.3781555368	-24.8546709028	-60.8185770944
121312500.0	-18.721969525	19.1797546107	-8.9886148926	-127.445353044	-60.9584998583	42.460611438	-25.0435862537	-60.6590216899
122000000.0	-18.8560418404	13.4040123802	-8.42983670705	-125.931211341	-60.9214354954	45.9325609519	-25.2351487374	-60.4407581009
122687500.0	-19.0390702876	7.59502946367	-7.83272441154	-124.594329488	-60.9299429447	59.8856479839	-25.3973194587	-60.2378693269
123375000.0	-19.2543069081	1.58124455459	-7.19662666894	-123.439304568	-60.923184332	66.8416633506	-25.5428117341	-59.8261761811
124062500.0	-19.5249081906	-4.49359320387	-6.52978232767	-122.500087916	-60.981658237	67.5389893563	-25.6761584086	-59.488025471
124750000.0	-19.8682822766	-10.6005476939	-5.83069058985	-121.787200897	-60.657252401	57.9899487558	-25.7918615708	-58.994104737
125437500.0	-20.2438646949	-16.6051427767	-5.10569234322	-121.30279095	-60.8450053756	53.147750909	-25.8661883541	-58.4562720483
126125000.0	-20.7636149717	-22.4307617316	-4.34777700747	-121.042111788	-60.7417388359	46.6414696029	-25.9411792651	-58.0434329534
126812500.0	-21.3525411614	-27.8093441592	-3.56633823981	-121.056058566	-60.9384840766	40.0466266673	-25.9863259559	-57.5677630415
127500000.0	-22.0187354833	-31.9147791389	-2.75632176555	-121.343189547	-60.4943147662	30.2387822356	-25.9972326648	-57.0772348549
128187500.0	-22.6308547708	-35.2066913496	-1.92690310235	-121.944856472	-60.2532124045	21.2078157286	-25.9961545019	-56.5593568694
128875000.0	-23.1592718504	-37.9975312451	-1.06705400308	-122.884146585	-60.1012582119	8.69718940061	-25.9638900202	-56.1289762038
129562500.0	-23.6202761235	-40.415564704	-0.189215727141	-124.243221465	-59.8403734353	-8.16914449815	-25.9171967084	-55.6676825187
130250000.0	-24.0262467547	-42.7980011594	0.708325961481	-126.042319261	-60.1089774918	-32.4851909118	-25.8607300998	-55.3732272027
130937500.0	-24.3675684367	-45.0883157755	1.60252900732	-128.385061933	-59.6120494488	-52.0843411047	-25.7832016602	-55.0649949615
131625000.0	-24.6829497825	-47.2491698337	2.48992500955	-131.262168349	-59.5064288257	-65.7664362361	-25.6741005207	-54.8089481561
132312500.0	-24.9504933678	-49.3860824125	3.34046761035	-134.701596513	-59.3496372716	-79.6993139144	-25.5563195068	-54.5354875952
133000000.0	-25.2007242289	-51.4086480879	4.14738049946	-138.610725358	-59.5477755471	-94.8007877804	-25.414477803	-54.4411406743
133687500.0	-25.4126782551	-53.4664725263	4.88806637692	-142.93586494	-59.3089148128	-104.194360869	-25.2713984451	-54.2698712038
134375000.0	-25.6087982142	-55.4433170102	5.56813140098	-147.534544106	-58.8666426056	-108.195285973	-25.0980182137	-54.2788835972
135062500.0	-25.7696586709	-57.4372484759	6.17982039917	-152.34997824	-58.3452542584	-120.704759917	-24.914778043	-54.2999605808
135750000.0	-25.9092190361	-59.2808560171	6.73035191379	-157.278697411	-58.4630876032	-122.896587632	-24.7053714598	-54.4814689229
136437500.0	-26.0224846021	-61.1026003727	7.21532755009	-162.311887767	-57.6558278801	-132.052978428	-24.4959464356	-54.7301637765
137125000.0	-26.1180326154	-62.8838243035	7.64572308618	-167.352855075	-58.1403163308	-137.965858827	-24.2896475226	-55.0304038762
137812500.0	-26.1768824584	-64.4796565147	8.01728752596	-172.397435937	-57.6579349239	-149.439040668	-24.0726781045	-55.3947088638
138500000.0	-26.206508641	-66.0072996649	8.34192015342	-177.39085304	-57.4844014379	-154.118681616	-23.8384510511	-55.8413339425
139187500.0	-26.1988896227	-67.4178220921	8.61506109615	177.674392345	-57.2811595307	-153.281300092	-23.6026754686	-56.3070505765
139875000.0	-26.1392804767	-68.7794973058	8.84806347188	172.843546243	-56.9993557889	-160.779394745	-23.3765489807	-56.8101779721
140562500.0	-26.0407413723	-69.9664499582	9.04104830763	168.111863902	-57.0763274879	-164.986638626	-23.1583409785	-57.5017554117
141250000.0	-25.8798720791	-71.1773888335	9.20140241075	163.514080252	-57.075643804	-170.768619959	-22.9300710874	-58.1330911353
141937500.0	-25.6525253993	-72.2536967492	9.32975385619	159.047697584	-57.2232573922	-172.723548425	-22.7223555366	-58.8844475522
142625000.0	-25.3816044722	-73.4533142886	9.43608556187	154.72170969	-56.7674365597	-179.914324132	-22.5285432667	-59.5993784009
143312500.0	-24.9694644782	-74.8140607596	9.51386435132	150.523623565	-56.8427145516	177.080951242	-22.3321866116	-60.3012544237
144000000.0	-24.477451154	-76.6623538152	9.57592532577	146.473808854	-56.4302719294	170.070869815	-22.1562580355	-60.9327097262
144687500.0	-23.9250568724	-79.7040071099	9.61847467669	142.562368069	-56.3274578685	167.790571532	-21.989540319	-61.6294254156
145375000.0	-23.4058730769	-83.5300199649	9.64982610614	138.783932965	-56.0059306932	167.106344519	-21.8288748123	-62.2601832226
146062500.0	-22.9770918522	-87.7695231176	9.66549510332	135.130096567	-56.3122911414	164.673341566	-21.6834805507	-62.8126930474
146750000.0	-22.6056779135	-92.4117742478	9.67359285191	131.595433137	-56.2912474159	158.993012008	-21.5516406421	-63.2923847627
147437500.0	-22.3011898661	-96.9514085494	9.66954853063	128.179230628	-56.0838739125	160.766238772	-21.4066138492	-63.7006918644
148125000.0	-22.0633079496	-101.596600997	9.66385863783	124.865293402	-56.0998280467	158.233234039	-21.2809258835	-63.9606996566
148812500.0	-21.8557726883	-106.306797367	9.64696877147	121.655131285	-55.7979951265	157.322015281	-21.1491468391	-64.2112225587
149500000.0	-21.6937534617	-110.901602148	9.62937192786	118.551642248	-55.6336492946	154.121048903	-21.0378760763	-64.4268482835
150187500.0	-21.5503880001	-115.537060004	9.60310978425	115.530100884	-55.9293772724	153.974188023	-20.9294908531	-64.5428529527
150875000.0	-21.4500349722	-120.006728029	9.57792782879	112.607151607	-55.9076027664	152.464973348	-20.8287434144	-64.5989386719
151562500.0	-21.3538710879	-124.523111343	9.54673271344	109.752412912	-56.0378147214	147.006402874	-20.7286375169	-64.5609862709
152250000.0	-21.2975057393	-128.818444509	9.51489985638	106.989694691	-56.0607356456	146.089040042	-20.6487466436	-64.4612079787
152937500.0	-21.2476035989	-133.156731193	9.47701688709	104.278032429	-55.7175078639	138.70379166	-20.5653559464	-64.29738342
153625000.0	-21.2328033364	-137.347693446	9.44269327683	101.660017811	-55.6384550082	137.214428182	-20.5050366883	-64.0364368734
154312500.0	-21.206715526	-141.560550958	9.40260915301	99.0838026683	-55.1356717391	130.479356052	-20.4385206814	-63.7601759398
155000000.0	-21.211305419	-145.746052386	9.36504627341	96.5836579753	-55.2455852799	128.918261906	-20.3863379067	-63.4156328274
155687500.0	-21.2140318153	-149.900144095	9.32383639713	94.1305998949	-55.5074263509	125.558880735	-20.3468383912	-63.0029375563
156375000.0	-21.2470048591	-153.940380055	9.28380324072	91.7453443564	-56.1365638209	124.353746149	-20.3164879316	-62.5280865971
157062500.0	-21.2663536407	-157.984984068	9.24192671965	89.4031413652	-56.1383500099	122.268221622	-20.2832949898	-62.0366732627
157750000.0	-21.3004921817	-162.023718139	9.20093840631	87.1212849745	-56.0963195506	120.808116228	-20.2577023722	-61.4625000029
158437500.0	-21.3296655688	-165.938235229	9.15797611756	84.8734433606	-55.8626042843	117.755091124	-20.2491577675	-60.8768429209
159125000.0	-21.357371024	-169.892002466	9.11881340753	82.6910538225	-56.0584971589	116.47050698	-20.2517470869	-60.2456682856
159812500.0	-21.3957536142	-173.791680874	9.07550715896	80.540543778	-56.2188358377	114.03348268	-20.2581402726	-59.6023049828
160500000.0	-21.4357308438	-177.647100462	9.03664663266	78.4444904019	-56.3082187873	114.157204016	-20.2788469368	-58.8985837175
161187500.0	-21.4835696582	178.593577396	8.9935661702	76.3730902379	-56.6594563587	115.925868648	-20.2985184161	-58.2013691448
161875000.0	-21.5157683989	174.814710887	8.95399506141	74.3462246918	-56.6132548303	108.75106783	-20.3392301986	-57.4925125223
162562500.0	-21.5690873121	171.057506861	8.91168681871	72.3494085851	-56.6895757519	107.231444983	-20.3804034541	-56.7648443432
163250000.0	-21.5923763387	167.285868932	8.87316975985	70.3971888171	-56.3949813679	105.924643318	-20.4400018637	-55.9744313634
163937500.0	-21.6450436731	163.697174001	8.82974307018	68.4740727683	-56.2033941467	104.852214295	-20.5036857707	-55.2067446519
164625000.0	-21.6787711368	160.025214864	8.79307935355	66.5875573206	-56.0399882275	94.3981337057	-20.5838162586	-54.4547570291
165312500.0	-21.7130228949	156.489834859	8.7499848044	64.7361756601	-56.1062265543	93.735396682	-20.6670806178	-53.7103335768
166000000.0	-21.7384527149	152.995976716	8.71279990634	62.9122979307	-56.091154246	87.9631338486	-20.7678668382	-52.9848800824
166687500.0	-21.778225587	149.473716907	8.67250570947	61.1138641351	-56.4121860798	87.9157632353	-20.8700956835	-52.2488073752
167375000.0	-21.8158223239	146.067079746	8.63627121892	59.350110302	-55.8334015415	81.9325482241	-20.9851799549	-51.5996874584
168062500.0	-21.8461658851	142.649259673	8.59798393353	57.6203775889	-55.9632233213	78.4787308592	-21.1042683705	-50.9248580198
168750000.0	-21.8795395152	139.255916548	8.56406745015	55.9310202868	-55.7248054086	76.8823811233	-21.2395966571	-50.327865908
169437500.0	-21.8948173535	135.883467314	8.52792517651	54.2533897556	-56.4222340652	75.2185297079	-21.3889727231	-49.7421842053
170125000.0	-21.9275966584	132.560920655	8.49737040459	52.6070445338	-56.4353573436	74.8906490524	-21.5577025653	-49.1598400028
170812500.0	-21.9353644555	129.196006369	8.46297481413	50.9721137828	-56.8709660546	73.7525607748	-21.723382434	-48.5755598288
171500000.0	-21.9667746631	126.005762183	8.43375580262	49.376310533	-56.849968725	75.0725272167	-21.9036935461	-48.1596658292
172187500.0	-21.97814439	122.765897635	8.40473398088	47.7977555402	-56.8776628835	75.2954260746	-22.0929634201	-47.7565124303
172875000.0	-22.0044876167	119.601448437	8.37794548796	46.2471788004	-56.5390152358	75.1488678899	-22.2802622784	-47.4063809024
173562500.0	-21.9978811199	116.45143824	8.35161780284	44.6979863047	-55.880437286	72.4108556291	-22.4930552499	-47.0909876646
174250000.0	-22.0215038087	113.406518592	8.32975573455	43.1830752024	-56.0005414225	71.6725629028	-22.7114877615	-46.8778707255
174937500.0	-22.010765562	110.297983491	8.30715148324	41.6771883905	-55.9935357566	67.904633627	-22.9443822536	-46.7153491766
175625000.0	-22.0089284089	107.212223969	8.28909535972	40.1943680708	-56.1001183706	66.5898851476	-23.1730272681	-46.5392805041
176312500.0	-22.0002369808	104.135178224	8.26779846162	38.7201771594	-56.0278057742	63.1050434405	-23.4182247895	-46.582083105
177000000.0	-21.9871990069	101.151921597	8.250842981	37.2713594947	-56.1569127032	62.1182793284	-23.6694966919	-46.7178641708
177687500.0	-21.9584974519	98.0992576788	8.23388100212	35.8170497961	-55.9352999169	59.3773770133	-23.9252641926	-46.8969888093
178375000.0	-21.9324509973	95.1684543816	8.22108945154	34.386110652	-55.6854285822	56.5885783541	-24.1851033909	-47.1130254865
179062500.0	-21.9000193198	92.2762902888	8.20644179156	32.9605933792	-55.6995081096	60.0267128716	-24.4350063122	-47.5112075877
179750000.0	-21.8559960596	89.3936193045	8.1965726884	31.5556246256	-55.9020464405	58.5163742455	-24.7139038951	-47.8740699073
180437500.0	-21.8272575591	86.5230491236	8.18591923921	30.137942492	-55.9715840341	57.282517975	-24.9695056459	-48.4288831769
181125000.0	-21.7691638074	83.5634133648	8.17937244764	28.7514436148	-56.1045990912	55.5249960428	-25.2468854395	-48.9630370292
181812500.0	-21.7183616074	80.7734650575	8.16825063816	27.3543640393	-56.09434626	57.4860579538	-25.5235856586	-49.6832260711
182500000.0	-21.6619911497	77.9130883128	8.16504334991	25.9762577945	-56.1051437091	57.6854526313	-25.8037271835	-50.3705414247
183187500.0	-21.6055674838	75.1342916494	8.15785086611	24.6027586109	-56.0543746512	55.7316086064	-26.0793048363	-51.2320959422
183875000.0	-21.5283244108	72.4145916975	8.15599211373	23.2363471958	-56.2453959361	56.8135359264	-26.3350322592	-52.0945526111
184562500.0	-21.4571221144	69.6999231462	8.15157577996	21.8774901624	-56.1592145269	55.6941465873	-26.5725743549	-53.1422404118
185250000.0	-21.3724684922	66.9938776682	8.1512356238	20.5245076001	-56.2590978219	55.6821629804	-26.8175750738	-54.2072178819
185937500.0	-21.3004767079	64.410302899	8.14707683078	19.1609767831	-56.5375801502	56.1831771796	-27.034175134	-55.281293933
186625000.0	-21.2306719936	61.804465702	8.14996813032	17.8216264827	-55.9873633364	51.2310705422	-27.2588843421	-56.4905151605
187312500.0	-21.1459413927	59.2229617854	8.14915240593	16.4759824859	-55.904662903	50.9595560691	-27.4660555697	-57.7949034787
188000000.0	-21.0719277076	56.6979047302	8.15224069983	15.1460223049	-55.5834755808	50.4710299704	-27.641220345	-59.0595078505
188687500.0	-20.9969563373	54.1886022786	8.15201760902	13.809316189	-55.5370142132	50.7618362462	-27.8038621802	-60.3561503593
189375000.0	-20.927900773	51.7133727459	8.15543546352	12.4897554586	-55.5316439305	42.4770668179	-27.9799279306	-61.6619802172
190062500.0	-20.8590028035	49.2912671942	8.15708854708	11.1676922371	-55.6435577457	39.9867715514	-28.1302345534	-63.0600750807
190750000.0	-20.8051550399	46.8657587918	8.16365298621	9.86649602895	-55.5876021158	36.5586557117	-28.2567046105	-64.5512341131
191437500.0	-20.7503726766	44.4442993983	8.16594533234	8.55903015735	-55.8317800559	36.217869598	-28.366620648	-65.9106371252
192125000.0	-20.7163346985	42.0884121589	8.17283437273	7.26388409684	-56.2650667528	33.891689788	-28.4364141278	-67.3433724637
192812500.0	-20.6811868382	39.6933959764	8.17734051747	5.97505012462	-56.6478423045	33.8628895509	-28.5125474763	-68.8586691304
193500000.0	-20.6630905202	37.3705502319	8.18526682531	4.68854653257	-56.4280923433	31.2098439882	-28.5450531429	-70.2955523212
194187500.0	-20.6430799722	34.967434349	8.19098617962	3.39792515678	-56.4752517329	30.4051048396	-28.5636316377	-71.5224122775
194875000.0	-20.6539857159	32.6672060972	8.19906651257	2.12356739577	-56.3193076235	27.9378143718	-28.5610200571	-72.8942038573
195562500.0	-20.6517850764	30.1880536221	8.20575272844	0.853372421735	-56.355169901	27.3768145386	-28.5428709891	-74.2461170447
196250000.0	-20.682833316	27.7747769522	8.21578765097	-0.413220307466	-56.273678862	23.8839215771	-28.4899787475	-75.5377025342
196937500.0	-20.7038561909	25.2608086998	8.22388591338	-1.68833285156	-56.7487766864	23.6350043761	-28.4384699615	-76.7487727666
197625000.0	-20.7454656288	22.823484165	8.23464231213	-2.93507310558	-56.6373824958	20.7581602299	-28.356642534	-77.916129108
198312500.0	-20.7869623966	20.3463458196	8.24539928503	-4.19380590227	-56.7592429995	20.6253593482	-28.2455414866	-79.0091971299
199000000.0	-20.8474886907	17.7953883951	8.26102308044	-5.44261028877	-56.6203218663	18.4294025574	-28.0953224307	-79.9976902988
199687500.0	-20.8926650976	15.2103693861	8.27226602649	-6.6922435265	-56.4696649414	17.9515925395	-27.9590767264	-81.0624737053
200375000.0	-20.9518876426	12.6132993201	8.28801461416	-7.93632529783	-56.4758660334	19.0520656865	-27.7812744382	-81.963736168
201062500.0	-21.0182551557	9.97623584414	8.30026419924	-9.17594896838	-55.9464258088	14.2464461326	-27.6231104195	-82.8840919977
201750000.0	-21.0787794479	7.28290542531	8.3170863124	-10.4135601678	-56.1619755646	14.1478064097	-27.4581473954	-83.5988100107
202437500.0	-21.1480142007	4.59618327725	8.33153657776	-11.6550298167	-55.9793806291	14.8735104179	-27.2759331021	-84.254397252
203125000.0	-21.2115455541	1.85467222145	8.34983489154	-12.885595068	-56.0612223154	15.0661653429	-27.1007773957	-84.839372001
203812500.0	-21.2751414834	-0.906408377059	8.36361947534	-14.1205725592	-55.7781000945	20.6243104337	-26.9004420975	-85.2673173982
204500000.0	-21.3420682727	-3.65582897876	8.38239160285	-15.3521631094	-55.9483916288	21.0690018897	-26.687170117	-85.5364947403
205187500.0	-21.416277947	-6.34291209436	8.39930666232	-16.5874987626	-56.0161776909	14.9429468705	-26.5038025425	-85.880218234
205875000.0	-21.4680958233	-9.12941783124	8.42192007484	-17.8137821243	-56.2096619181	16.0827627369	-26.3065384458	-86.0050723174
