#Frequency	|S11|	<S11	|S21|	<S21	|S12|	<S12	|S22|	<S22
100000000.0	-17.2934473451	132.144875445	-19.7194960286	-129.504111457	-57.5776527895	-120.669579905	-21.9674967149	-60.2786288581
100687500.0	-17.2734407734	129.226452512	-19.2836299166	-131.007568415	-56.1349042714	-168.226548872	-22.0315319848	-60.8113767952
101375000.0	-17.2347542939	126.137503904	-18.8901572063	-132.088380397	-58.70528481	-147.108706638	-22.064693144	-60.7950350579
102062500.0	-17.2043762958	123.027029725	-18.5362499218	-133.521419756	-58.6178697342	-128.895666321	-22.1180933274	-60.8884592
102750000.0	-17.1995049359	119.822501146	-18.1947437554	-134.95184322	-60.227160338	-86.6609353847	-22.1782465104	-60.7375277281
103437500.0	-17.1882321631	116.64906456	-17.8753655827	-136.348283745	-60.2109934396	-101.484097079	-22.2409250988	-60.6383285443
104125000.0	-17.1948449314	113.319491449	-17.5914209434	-137.835219724	-59.7903448548	-85.7847356649	-22.3216907558	-60.5955571085
104812500.0	-17.2018793156	109.995163071	-17.3280117581	-139.313612102	-59.8189529979	-53.2348811777	-22.3926580397	-60.6629474585
105500000.0	-17.2147981995	106.506991933	-17.0948218815	-140.779381667	-60.1383776108	-9.78722744457	-22.4428903883	-60.7121857285
106187500.0	-17.2301818995	102.895938262	-16.8915866255	-142.244431898	-59.8782452438	23.6368176528	-22.4976132123	-60.8170577
106875000.0	-17.2544949528	99.1621495656	-16.7250436784	-143.622722344	-60.218260431	61.357064427	-22.5590738013	-60.9706322958
107562500.0	-17.2961780802	95.2522542544	-16.6001271596	-144.920853301	-60.631575487	109.882420784	-22.62384638	-61.0146409042
108250000.0	-17.336364967	91.1657535957	-16.5204198418	-146.066879551	-60.6260884363	159.419235823	-22.6818330804	-61.0971256624
108937500.0	-17.3591926122	87.3209349365	-16.3724292014	-147.202925352	-60.6295942817	-162.811723007	-22.7379953616	-61.1044012819
109625000.0	-17.3883538351	83.4058494773	-16.2575319519	-148.216797211	-60.8984941127	-116.809972144	-22.7884597834	-61.1009831821
110312500.0	-17.4128514579	79.3096783702	-16.1693598021	-149.071967598	-60.982554017	-69.9347076716	-22.8457513299	-61.21080037
111000000.0	-17.4487547027	75.130851879	-16.1137058572	-149.74260725	-61.1976059091	-26.3836625523	-22.9055750364	-61.2304662677
111687500.0	-17.4815682937	70.7961918043	-16.0824906725	-150.078395377	-60.6395610032	15.58616262	-22.9602448296	-61.3374045751
112375000.0	-17.5248838016	66.3841821109	-16.0614686706	-150.023124159	-60.5570379015	58.7015816266	-23.0152650437	-61.3890273397
113062500.0	-17.5638865381	61.8446433507	-16.0394405487	-149.547073393	-60.815357197	100.971450764	-23.0776874925	-61.4526962847
113750000.0	-17.6031114757	57.1887576115	-15.9946185381	-148.637814565	-60.4940404438	137.682489847	-23.134805182	-61.4510067271
114437500.0	-17.6470034372	52.3737046249	-15.9087336541	-147.356698129	-60.2544369027	170.136913113	-23.2006721889	-61.5096361551
115125000.0	-17.6982294992	47.3888547286	-15.7719542169	-145.817444455	-60.2489160669	-148.312975826	-23.2649704582	-61.5158963941
115812500.0	-17.744083706	42.2923590853	-15.5806634062	-144.103717649	-60.3139257369	-110.927986364	-23.324463877	-61.4997973384
116500000.0	-17.8028649419	37.0391267564	-15.3271696367	-142.258294651	-60.7466306894	-82.9256242629	-23.3782523958	-61.4222835446
117187500.0	-17.8605489057	31.6992523385	-15.0202372332	-140.387370631	-60.5602122637	-61.9838045289	-23.4333836715	-61.4010239527
117875000.0	-17.9408524221	26.1181918055	-14.6587492886	-138.544697794	-60.7930800852	-43.0752048677	-23.4931490044	-61.2243875899
118562500.0	-18.0249728151	20.4732278892	-14.2511005691	-136.731805689	-60.4284744581	-17.8905825927	-23.5472237154	-61.0277481149
119250000.0	-18.1302243493	14.5885843519	-13.7914120703	-135.020389512	-60.1766640106	-4.67904140799	-23.6086536182	-60.7151057572
119937500.0	-18.2500206247	8.67310549058	-13.2895180991	-133.410849399	-60.0887437158	1.10973448568	-23.6608909385	-60.4396462899
120625000.0	-18.3977777568	2.51845176419	-12.7416743323	-131.955831197	-60.077799657	16.3210414178	-23.7249282359	-60.1336479316
121312500.0	-18.5813899003	-3.61729642655	-12.1608694959	-130.640773995	-60.1573207145	24.1773651917	-23.7786475886	-59.8200848381
122000000.0	-18.802121366	-9.91862509998	-11.5381546002	-129.535526475	-60.2691687377	35.7706762078	-23.8365394599	-59.3796695137
122687500.0	-19.0756932607	-16.2531980715	-10.8819855886	-128.612887775	-59.7241792307	37.3884468964	-23.8777307856	-58.9376847313
123375000.0	-19.4042238431	-22.6028282499	-10.1923083869	-127.902104172	-59.9257698196	39.1782862102	-23.9093427993	-58.3371830633
124062500.0	-19.7901041131	-28.9105217076	-9.47117190427	-127.409453848	-59.5551581558	38.5694778209	-23.9449272651	-57.8504761124
124750000.0	-20.2982456938	-34.9653828303	-8.72287575634	-127.170108203	-59.3903114666	35.2136771057	-23.9837282788	-57.2160208082
125437500.0	-20.8500820158	-40.3623974868	-7.94529191742	-127.154945559	-59.3729820047	27.7624034975	-24.0192685471	-56.544974883
126125000.0	-21.4863025318	-44.8662097951	-7.13892016567	-127.452956297	-59.2467361386	22.1075110835	-24.0541532414	-55.9749344947
126812500.0	-22.0641244054	-48.5545302933	-6.30388221155	-128.028053645	-59.6707975874	8.54785462734	-24.0931405987	-55.2488009905
127500000.0	-22.5790549567	-51.4014780343	-5.44860473375	-128.973712839	-59.8305791948	-11.3414859576	-24.113344162	-54.5704471305
128187500.0	-23.0205918867	-53.9545083986	-4.56683397382	-130.298001035	-59.6307569506	-23.6635686678	-24.137953526	-53.8214580958
128875000.0	-23.4017410176	-56.3312051532	-3.66768670213	-132.11851804	-59.4565352793	-40.8029926038	-24.1514938456	-53.0617560883
129562500.0	-23.7303711186	-58.5825059392	-2.76461933554	-134.45204505	-59.6805089076	-55.2903243905	-24.1656060522	-52.352587727
130250000.0	-24.0067101291	-60.8108435926	-1.87116745796	-137.367883779	-59.2409029334	-73.7277188392	-24.1761651548	-51.6238116194
130937500.0	-24.252153173	-62.9512697159	-1.01038716606	-140.847263816	-59.3433733112	-90.9715329206	-24.1828709704	-50.9413293046
131625000.0	-24.474292484	-65.0102162627	-0.202449962794	-144.834362362	-59.7150601929	-101.805625953	-24.1707825289	-50.3432105146
132312500.0	-24.6666883886	-67.0109483401	0.547770100887	-149.195742817	-59.6690132258	-115.827635706	-24.1613451153	-49.6799873652
133000000.0	-24.8372016666	-68.9319105818	1.23041068879	-153.867392404	-59.4116082439	-126.345761552	-24.1551312544	-49.1457863825
133687500.0	-24.9808755129	-70.8170966239	1.84598118775	-158.745608242	-59.1476580265	-128.263388653	-24.1578533121	-48.5891609287
134375000.0	-25.1006594946	-72.6281057425	2.39603255783	-163.769065456	-59.1833681643	-131.597645643	-24.1488572391	-48.0935418551
135062500.0	-25.1809514335	-74.3899957219	2.88563597366	-168.847308779	-58.9426081113	-134.95972961	-24.1430709524	-47.6596296527
135750000.0	-25.2503725078	-76.0464214365	3.31686193766	-173.969978278	-59.3099979441	-145.08618154	-24.1285577081	-47.3353349493
136437500.0	-25.2971849882	-77.6219795357	3.69399039473	-179.092104658	-59.0784627658	-145.822794079	-24.1211403705	-47.0974498374
137125000.0	-25.3108017853	-79.1343370918	4.01755146853	175.813736757	-59.2217164594	-146.557707339	-24.1252155267	-46.8560474743
137812500.0	-25.2888154776	-80.4388431775	4.29441472243	170.799659055	-59.0638469275	-151.476296394	-24.1141725862	-46.6101675381
138500000.0	-25.2296520249	-81.7820473263	4.52779910353	165.86372868	-59.2211683238	-151.647184201	-24.1011365112	-46.418517892
139187500.0	-25.124257697	-82.9574757669	4.72164577499	161.032128756	-58.9793131075	-152.484439858	-24.0886606623	-46.2788691203
139875000.0	-24.9614664761	-84.1340918916	4.87798027433	156.317842793	-59.1632043518	-152.743125661	-24.0978594271	-46.2326556928
140562500.0	-24.7316651401	-85.2504259503	5.00417924366	151.726870692	-58.8394992643	-160.245055771	-24.104024492	-46.4009341132
141250000.0	-24.4426810589	-86.4148729169	5.09956563115	147.280312455	-58.7378345074	-164.569716045	-24.1081602836	-46.4925946587
141937500.0	-24.0369045783	-87.7803582743	5.17194576931	142.974119947	-59.0094040483	-172.307438694	-24.1056029952	-46.7178360683
142625000.0	-23.5766231311	-89.743374589	5.22278962755	138.809663703	-58.9065951733	-178.513432117	-24.0990494765	-46.8870969273
143312500.0	-23.0297017159	-92.5016409465	5.25456214995	134.796638612	-58.9947531273	171.089317515	-24.1013505247	-47.0930282866
144000000.0	-22.5452232394	-96.0956372681	5.26978371693	130.907922225	-58.6161048161	171.650872774	-24.1058897768	-47.3721121589
144687500.0	-22.1235032522	-100.419485974	5.2726292555	127.172893483	-58.1782155946	179.694851256	-24.1151811048	-47.7153520874
145375000.0	-21.7752924636	-104.990531923	5.26403921858	123.566234174	-59.666999383	-168.910137694	-24.1230182511	-48.0783357576
146062500.0	-21.4936821191	-109.553074689	5.24652699597	120.08633603	-59.8861044377	-159.488689841	-24.1468538783	-48.4344267065
146750000.0	-21.2538365773	-114.244626175	5.22085752954	116.71903124	-59.7237991995	-145.213620198	-24.164902352	-48.7051352286
147437500.0	-21.0734646508	-118.812252819	5.18641564408	113.486716938	-59.8592827589	-137.020404942	-24.1735532506	-49.0673301869
148125000.0	-20.9315884792	-123.375397451	5.14996688099	110.354041203	-59.8661613108	-128.285282988	-24.1918306258	-49.3464423943
148812500.0	-20.8164288969	-127.928774409	5.1085419149	107.326458533	-59.7315370762	-120.656503434	-24.2024038312	-49.656765887
149500000.0	-20.7297106535	-132.335800165	5.06442229435	104.392132947	-59.5979082617	-108.118373803	-24.2301402068	-49.9204270272
150187500.0	-20.6595508137	-136.792385855	5.01708174523	101.559380205	-59.6657969343	-94.2804372251	-24.246689359	-50.1251637894
150875000.0	-20.6143314696	-141.104988748	4.9703817766	98.8111708673	-59.5724368834	-83.3747758536	-24.259013923	-50.3044423868
151562500.0	-20.5861037557	-145.450412765	4.92242605881	96.1409287022	-60.1342879345	-68.9822077013	-24.2705320714	-50.4984171439
152250000.0	-20.589973964	-149.569499524	4.87398171831	93.5343271236	-60.287421558	-62.4883699224	-24.2872318897	-50.5973157963
152937500.0	-20.6047256492	-153.735734631	4.82311621593	91.0125914243	-60.278247882	-49.3509293807	-24.3101993474	-50.6395439345
153625000.0	-20.6259292429	-157.732709393	4.77360158824	88.5500843871	-60.6265254454	-46.5504103155	-24.3397742341	-50.6422930515
154312500.0	-20.6568289273	-161.760275564	4.72304070167	86.1487987216	-60.4627944102	-31.6642562291	-24.3506144929	-50.6866427252
155000000.0	-20.7063961014	-165.782997271	4.67368791517	83.7971890156	-60.6720871745	-22.4689628322	-24.3658761824	-50.6769026336
155687500.0	-20.7506720425	-169.739114101	4.62546892889	81.5033869725	-60.6923232356	-11.8816279752	-24.3954413665	-50.6321079123
156375000.0	-20.8096201713	-173.672050016	4.57539826961	79.2647040252	-60.6493311925	-6.39382444867	-24.4076265847	-50.5764974019
157062500.0	-20.8624940707	-177.498342336	4.52873440583	77.0774202891	-60.4581432312	7.5024766289	-24.4092173829	-50.3895437515
157750000.0	-20.9312319963	178.654052969	4.48103130985	74.929618342	-60.3024157536	17.4612157467	-24.4205917949	-50.1937340408
158437500.0	-20.9958374762	174.871386665	4.43577506401	72.8312398916	-60.1818207529	31.0517252228	-24.443625784	-49.9505974639
159125000.0	-21.0585035111	171.164227814	4.38995309908	70.7824891438	-60.1629925231	45.0033191585	-24.472433123	-49.6887448149
159812500.0	-21.1285734743	167.467105581	4.34538321891	68.7720169318	-59.9291296561	64.3726344226	-24.4985603016	-49.4572434084
160500000.0	-21.2087704275	163.744194011	4.30147624236	66.7883773384	-60.1716757888	77.8522457864	-24.5276484117	-49.2324103301
161187500.0	-21.2805144524	160.160051208	4.25908495858	64.8434868726	-59.8443283215	90.6271036104	-24.550487177	-48.8085731513
161875000.0	-21.3652643577	156.573433031	4.21797840418	62.929191114	-60.3851648831	91.3631165506	-24.5938592173	-48.4068554822
162562500.0	-21.4449901781	153.094539021	4.17776952511	61.0546704526	-59.1676283412	80.7310109761	-24.6342423016	-48.0540623451
163250000.0	-21.5131323756	149.547036171	4.13723990651	59.2076861276	-59.3031787008	79.6643423328	-24.6824445173	-47.7369662827
163937500.0	-21.5961442142	146.156937333	4.09840817106	57.3912361945	-59.074872532	77.3864124502	-24.7231618911	-47.3984100819
164625000.0	-21.6702305547	142.697704452	4.06198417651	55.5916760188	-59.3248246615	78.2786116182	-24.780912358	-47.0948405078
165312500.0	-21.7459905446	139.313636108	4.02470657219	53.8322408652	-58.9988162189	74.356237598	-24.8386327826	-46.7856842731
166000000.0	-21.8235449168	135.986676075	3.98882362299	52.0971591211	-58.8699710628	76.0376985148	-24.9118103581	-46.4385287946
166687500.0	-21.9016516504	132.630260266	3.95396017937	50.3867093837	-58.8784512076	68.002719304	-24.9779203541	-46.1497583226
167375000.0	-21.987312972	129.419535588	3.92140568913	48.7045801722	-59.042973685	67.6151012381	-25.0582794154	-45.9553465751
168062500.0	-22.0657513762	126.186204755	3.88866508151	47.0527321541	-59.1815690814	61.0358665439	-25.1274142983	-45.7029058324
168750000.0	-22.1606460212	123.017094418	3.85718489419	45.4274954872	-58.7120010277	60.612747852	-25.212865416	-45.5631684237
169437500.0	-22.2366572377	119.781068015	3.8253681857	43.8216795025	-58.3227924532	61.9208657528	-25.2911470243	-45.4079873108
170125000.0	-22.3193378256	116.635264296	3.79913459529	42.2152521635	-58.20342797	62.1602097205	-25.3799168183	-45.3233458377
170812500.0	-22.3966646279	113.415040272	3.77245520306	40.6522464151	-58.2038319825	66.5464918169	-25.4594454012	-45.2498956648
171500000.0	-22.4819351627	110.300632395	3.74890379355	39.1132158854	-57.9815392474	60.1329219646	-25.5395508049	-45.2265784262
172187500.0	-22.558257859	107.067554813	3.7267443801	37.592145427	-57.8255771353	61.2542941629	-25.6435277396	-45.2185806972
172875000.0	-22.6414413532	103.968974237	3.70478903255	36.0847835937	-57.541479636	57.6309212169	-25.732977811	-45.2409733915
173562500.0	-22.7083173443	100.755816676	3.68619848114	34.595798398	-57.821773098	59.4937117215	-25.8507315161	-45.4030685877
174250000.0	-22.7964309437	97.6585535808	3.6692635705	33.122909563	-57.8098644529	60.8368330857	-25.9642575422	-45.4143258673
174937500.0	-22.870094067	94.4578893401	3.65382072756	31.6679425556	-58.2919422526	63.4334132138	-26.0555822617	-45.6355519195
175625000.0	-22.9318684011	91.3148240806	3.64152631382	30.2186632606	-58.3918921091	64.9239732382	-26.1495814803	-45.7362735229
176312500.0	-22.9983290531	88.0212501524	3.62953304688	28.7899768065	-58.3930707426	65.9737221019	-26.2507003903	-46.0953171398
177000000.0	-23.0531756585	84.7258299456	3.62031277527	27.3605775471	-58.6193839635	56.788096304	-26.3536589389	-46.2805829067
177687500.0	-23.0889185772	81.4459805976	3.61184819782	25.9537604226	-58.5684254649	56.357343147	-26.4588633226	-46.5472175467
178375000.0	-23.1425022226	78.1481589734	3.60664458264	24.5430182187	-58.7932374252	57.3813583877	-26.5807668845	-46.8476183222
179062500.0	-23.1795320222	74.8819978487	3.60108831227	23.1508942304	-58.4463841029	58.423126191	-26.6607169639	-47.3146397939
179750000.0	-23.2109480311	71.4795733188	3.59787926421	21.7577489032	-58.0943158277	63.1848751952	-26.7514831608	-47.5754576429
180437500.0	-23.2391596162	68.1272548633	3.59736351313	20.3729776911	-57.9554204819	61.9595987068	-26.8311306398	-47.9506091945
181125000.0	-23.2498994837	64.6589262042	3.59699391584	18.9999438541	-58.0813629357	57.1079028643	-26.9187885683	-48.2037868149
181812500.0	-23.26872062	61.3447027109	3.59823960344	17.6446294579	-57.9607022753	54.3142382324	-26.99979027	-48.5179552091
182500000.0	-23.26674275	57.8679975484	3.60143855966	16.2752863469	-58.3106918858	53.4700066831	-27.0859136639	-48.7909459315
183187500.0	-23.2543623824	54.4940947031	3.6056278542	14.9202436938	-58.0164700659	54.0808236197	-27.1512859588	-49.0119572618
183875000.0	-23.2429053825	51.0754083581	3.61024227577	13.5587285825	-58.0089488596	58.0734477552	-27.2227482279	-49.2367740852
184562500.0	-23.2285015233	47.6044662899	3.61624265424	12.206979417	-57.8667757883	58.6519389666	-27.2851993398	-49.3698708725
185250000.0	-23.2045420951	44.082586923	3.6230987625	10.8485407622	-57.9017800743	59.4588609534	-27.3474016296	-49.5838665824
185937500.0	-23.1688902603	40.6461768893	3.6297894461	9.49731500947	-57.8584596309	59.5381968255	-27.4106724419	-49.6406067844
186625000.0	-23.1487851614	37.1567914429	3.64008713948	8.15143237372	-58.4052646103	58.6283085216	-27.4700385377	-49.7589288994
187312500.0	-23.0927860912	33.6398802147	3.64987507633	6.81635729837	-58.9556471403	57.6904641193	-27.5232429502	-49.678710903
188000000.0	-23.0486609878	30.1590472624	3.66071357879	5.46996060572	-59.0185597186	56.4540655116	-27.5667176823	-49.6712915275
188687500.0	-22.9953479799	26.6584187242	3.6703317021	4.12742535654	-59.2747438124	55.356384002	-27.6377275582	-49.5998239951
189375000.0	-22.9459866815	23.239457011	3.68162544135	2.78598699917	-59.6617257868	55.3877265344	-27.6855770146	-49.5914389548
190062500.0	-22.8861816125	19.7328064103	3.6943974382	1.45847579769	-59.5950567695	61.6822702715	-27.7409865677	-49.3774854926
190750000.0	-22.8375924577	16.2666178465	3.70789216503	0.132976643706	-59.3276620443	58.0467248622	-27.7978076251	-49.1173461456
191437500.0	-22.765930487	12.6961490111	3.72065727527	-1.18763423168	-59.5141139327	50.4132486992	-27.8412713376	-49.0116516853
192125000.0	-22.7005881023	9.23067998761	3.73350133679	-2.5045578765	-59.4181281185	51.0883130274	-27.9054185209	-48.7594888278
192812500.0	-22.6304686431	5.65076452287	3.74682772841	-3.80549362402	-59.4271426022	42.5709802498	-27.9732146801	-48.5464739104
193500000.0	-22.5618968134	2.25648126709	3.76062363511	-5.1329914245	-59.3140743805	40.4905142032	-28.0180735734	-48.189858353
194187500.0	-22.4891833965	-1.15813204712	3.77374218752	-6.43285277594	-59.1067987172	39.2208055915	-28.088871042	-47.903333155
194875000.0	-22.432449387	-4.62368895824	3.78921182291	-7.74314381368	-58.773563516	38.9364833582	-28.142070895	-47.5865382223
195562500.0	-22.3431412349	-8.09696287225	3.80426337105	-9.03602584892	-58.7536825388	27.2048288525	-28.1810107183	-47.2734770316
196250000.0	-22.2532458503	-11.5682729768	3.82020065662	-10.3294549063	-58.6173893039	14.0455222936	-28.2845237312	-46.8951070238
196937500.0	-22.1591416415	-14.9748836579	3.83641395718	-11.6193798821	-58.8291025669	-0.297572561086	-28.3355128444	-46.4508283307
197625000.0	-22.0704028919	-18.3913033892	3.85313029811	-12.8966113501	-58.6254082198	-14.1675197261	-28.3932780661	-46.0553698165
198312500.0	-21.9770542098	-21.7386301072	3.87084846859	-14.1712570182	-58.7640297858	-28.8666503962	-28.457609383	-45.8556386089
199000000.0	-21.8755665506	-25.1593270864	3.88979697307	-15.4677569363	-58.5948160654	-40.4153400691	-28.5223199314	-45.6261615957
199687500.0	-21.7715767778	-28.4177455648	3.90776265697	-16.7336760674	-58.5236374674	-54.5821272972	-28.5838743498	-45.4816058734
200375000.0	-21.6656866443	-31.7495504702	3.92659403169	-18.014872925	-58.9324532011	-71.6097727977	-28.6635788157	-45.3141765771
201062500.0	-21.5485476738	-34.9918896011	3.94625771356	-19.277745801	-59.2233594003	-87.32488709	-28.7303348275	-45.2164110164
201750000.0	-21.4196997253	-38.2293459203	3.96650431671	-20.5463278402	-59.2697389101	-109.346003324	-28.8201496106	-45.0879843809
202437500.0	-21.2954959762	-41.2960576829	3.98808185227	-21.8023956966	-59.2779128097	-123.906545308	-28.8901806949	-45.0875138679
203125000.0	-21.1660109218	-44.3913802766	4.01065441662	-23.0638062349	-59.0815254457	-143.969175083	-28.9445371068	-45.0179981606
203812500.0	-21.014872612	-47.3504028766	4.0325638733	-24.3114650699	-58.9643748063	-159.29986449	-28.9942865683	-45.2020956416
204500000.0	-20.8863719331	-50.3484703439	4.05546635915	-25.572763377	-58.1498637357	176.695352526	-29.0527800623	-45.2459675362
205187500.0	-20.7469139943	-53.1810773618	4.07865639686	-26.8226511668	-58.1275633273	161.275416128	-29.1257006813	-45.4626199045
