#Frequency	|S11|	<S11	|S21|	<S21	|S12|	<S12	|S22|	<S22
100000000.0	-17.3524232322	146.839248036	-19.0107962939	-124.138237343	-63.2788332866	-129.197110889	-20.0749407963	-62.9935843289
100687500.0	-17.3071819034	144.547260501	-18.6886087806	-124.412217322	-62.6705986533	-86.9142111114	-20.2787609101	-62.7848863415
101375000.0	-17.315563566	141.902007031	-18.2846899732	-125.552663269	-61.7818035494	-62.3851974132	-20.3769626448	-62.300258606
102062500.0	-17.3010717294	139.25774219	-17.8833797279	-126.776491831	-63.0303102022	-55.9941112084	-20.4995632241	-61.880499197
102750000.0	-17.2927948775	136.66411455	-17.5109130297	-128.056059733	-63.8704549263	-40.1038114612	-20.6130002598	-61.5496115283
103437500.0	-17.2855834707	134.161345204	-17.1661222192	-129.4037039	-63.0827306418	-31.7694743427	-20.7342730233	-61.1077452826
104125000.0	-17.2908801353	131.379831389	-16.8390099801	-130.719171814	-64.7520030101	-39.4371281266	-20.8726965058	-60.63614019
104812500.0	-17.3034873534	128.596970773	-16.5377679878	-132.049321705	-64.6522340168	-10.314476246	-21.0120489063	-60.3841317603
105500000.0	-17.3199220972	125.65573553	-16.2544243718	-133.401022844	-64.7729483768	-4.19822849862	-21.1515454819	-60.1520467366
106187500.0	-17.3424357153	122.65443739	-16.0008976648	-134.787925971	-63.991460475	-31.7394173941	-21.2942685671	-59.9575985427
106875000.0	-17.3667558029	119.488012845	-15.7771537233	-136.120012479	-63.1983149841	-53.4377394698	-21.4453519104	-59.8552616211
107562500.0	-17.3992707932	116.259621891	-15.588407982	-137.429419875	-63.1441550338	-68.5138436846	-21.612790598	-59.6955591452
108250000.0	-17.4316831484	112.826260172	-15.4304478631	-138.691186457	-63.1339556665	-66.5949529832	-21.7712792977	-59.7183312111
108937500.0	-17.4530202462	109.627903623	-15.2220002973	-139.889413432	-62.8571969423	-66.0514004466	-21.9341829262	-59.5603406633
109625000.0	-17.4799063025	106.336159188	-15.0268096957	-141.120729428	-62.3297290837	-72.6764829488	-22.0840876418	-59.4817238466
110312500.0	-17.4970328933	102.922435213	-14.8618557824	-142.266204851	-62.305206766	-72.4040142659	-22.2441466508	-59.3276719056
111000000.0	-17.5276069258	99.4456940449	-14.7215734323	-143.349101859	-62.4540136441	-83.6910271493	-22.4040650087	-59.2269943779
111687500.0	-17.5433063373	95.8138430703	-14.6127913295	-144.286329319	-62.3777713964	-87.9994588591	-22.5569178797	-59.2510622562
112375000.0	-17.5713560092	92.1555106885	-14.5331867374	-145.105455494	-61.9212278838	-99.8323461466	-22.7143940366	-59.2557785833
113062500.0	-17.590867211	88.3288291321	-14.485176662	-145.677143599	-61.7895576634	-112.777410696	-22.8789815953	-59.2257928046
113750000.0	-17.6186101299	84.4476058638	-14.4594039936	-146.010516238	-61.3880619212	-125.439206726	-23.0506751015	-59.2662359524
114437500.0	-17.6411395988	80.4464310817	-14.453063542	-145.963380756	-61.1372478671	-140.118508957	-23.2302719464	-59.31494063
115125000.0	-17.6677224946	76.2817571924	-14.4421310963	-145.515752632	-61.4815545691	-166.185306456	-23.4060549656	-59.423950427
115812500.0	-17.6904792694	71.9826662819	-14.4185807413	-144.619165693	-61.7358892373	167.180934253	-23.5792836709	-59.4527644203
116500000.0	-17.7160774497	67.6259301738	-14.3573500437	-143.380404891	-61.4898462585	147.773982196	-23.7441763689	-59.5888425499
117187500.0	-17.7392735226	63.1659635255	-14.2556393292	-141.798099512	-60.3330421729	120.993032413	-23.9139972349	-59.7277302645
117875000.0	-17.7696878837	58.547112166	-14.0950452521	-140.037215156	-60.3750113558	92.280787473	-24.0922514876	-59.7701688474
118562500.0	-17.8082090267	53.8504485873	-13.8812121832	-138.14025061	-59.8619426426	50.6519572031	-24.2673243988	-59.8202224648
119250000.0	-17.846909804	48.9847151112	-13.6134117703	-136.165933597	-59.1711480946	11.4301654543	-24.4381414293	-59.8077656989
119937500.0	-17.9018076302	44.0653156068	-13.2925200742	-134.193942106	-59.3441345153	-17.1274126714	-24.6049184856	-59.7945740303
120625000.0	-17.9572447058	38.9232877543	-12.9171449297	-132.234448093	-59.7409436887	-40.3872363442	-24.7729460234	-59.7927328772
121312500.0	-18.0468005582	33.7703971645	-12.4985465989	-130.34682103	-59.8653285466	-55.2196699656	-24.9297153435	-59.7391996034
122000000.0	-18.1500400962	28.403565156	-12.0292942345	-128.569157333	-60.1530871758	-70.2730037641	-25.0858246172	-59.702495825
122687500.0	-18.2874050244	23.0165982965	-11.5179359847	-126.925312393	-60.3465306458	-73.7624919595	-25.2232714038	-59.6149850022
123375000.0	-18.4475963095	17.3925509109	-10.9630779493	-125.423802148	-60.1917842702	-86.4625934804	-25.3554797706	-59.5067457252
124062500.0	-18.6602083241	11.7236602797	-10.3723367939	-124.063322593	-60.0283640863	-91.0116055838	-25.476476039	-59.4052073508
124750000.0	-18.931340049	5.95418716815	-9.74754006787	-122.894574716	-59.6332388276	-106.112779758	-25.5969106341	-59.1987007966
125437500.0	-19.2560752132	0.0909072280572	-9.0885292999	-121.901746346	-59.6426466888	-124.305817448	-25.7098206504	-58.9098003689
126125000.0	-19.6839366237	-5.82186630445	-8.39265240792	-121.12445245	-59.5774969609	-138.170309996	-25.7992387598	-58.7527416646
126812500.0	-20.1961029471	-11.6977468656	-7.6712370422	-120.558291245	-59.7914814746	-152.834818863	-25.8873213498	-58.4606756643
127500000.0	-20.8828624418	-16.9147446201	-6.91612642433	-120.246162797	-59.6583603659	-167.951283382	-25.9427340309	-58.2400101416
128187500.0	-21.7397831231	-21.5509261308	-6.13452823175	-120.17518282	-59.2525716708	-179.787845745	-26.0029448627	-57.96034465
128875000.0	-22.6039510312	-23.9394255533	-5.32162363908	-120.42888937	-59.1237665582	166.032322758	-26.049723001	-57.6300792779
129562500.0	-23.3353115981	-25.2047484292	-4.48294324647	-120.981267631	-59.0967473742	155.095635843	-26.0899874582	-57.3515021789
130250000.0	-23.9595693136	-26.1456999883	-3.61250772749	-121.930092187	-58.9786991229	153.897344918	-26.1206028815	-57.184300491
130937500.0	-24.4769421088	-27.0143782876	-2.72501759212	-123.276770588	-58.8049842717	144.48669572	-26.1145944471	-56.9425040865
131625000.0	-24.9331967627	-27.7886628758	-1.82260950008	-125.160770418	-58.8310184176	142.06200424	-26.0894269214	-56.7287034452
132312500.0	-25.3292259394	-28.5428621425	-0.929550501456	-127.575271263	-58.2795405137	145.504973763	-26.0671707077	-56.5346041581
133000000.0	-25.7035265283	-29.3069287075	-0.0534998151735	-130.583013317	-57.7348140118	155.758037028	-26.0284474405	-56.4676245788
133687500.0	-26.0335832174	-30.2382733407	0.775242607554	-134.076134969	-57.5519187677	159.699809973	-25.9904901565	-56.3693807923
134375000.0	-26.3514670174	-31.1267216444	1.55741105995	-138.021432912	-57.6937284332	161.683845888	-25.9315627938	-56.3483482338
135062500.0	-26.6355342244	-32.1749844977	2.27387957208	-142.271080946	-57.3958684521	163.511831979	-25.8521414692	-56.4012213458
135750000.0	-26.8875515256	-33.2041945674	2.93216156579	-146.770251442	-57.7505581001	171.744734596	-25.7629344469	-56.4768857781
136437500.0	-27.1183325046	-34.3516323492	3.52543454126	-151.436179657	-57.6019613977	-173.819627089	-25.6608549994	-56.6981039456
137125000.0	-27.3371336666	-35.4613655028	4.06146850353	-156.243221393	-57.5722365608	-166.91345604	-25.5603571065	-56.9479470099
137812500.0	-27.5118099071	-36.5900889754	4.53715930307	-161.08516953	-57.1962201156	-156.667748376	-25.4522623826	-57.2143178473
138500000.0	-27.6516653593	-37.7461567497	4.96454799544	-165.974363874	-57.0616139424	-151.628763903	-25.3219397184	-57.5789669064
139187500.0	-27.7518743147	-38.866602966	5.33530476043	-170.830414357	-56.94153724	-150.894906871	-25.1985622426	-57.9583537421
139875000.0	-27.8144804854	-40.0131606492	5.66250373014	-175.666566653	-56.9008207317	-159.094292394	-25.0848012865	-58.3243789755
140562500.0	-27.8394070497	-41.0458746999	5.94503598968	179.560985197	-56.7570204621	-159.886388718	-24.9529966597	-58.8072881362
141250000.0	-27.8048085637	-42.0788308082	6.18949457974	174.856890259	-56.7238948847	-169.11887809	-24.8266716851	-59.3024851408
141937500.0	-27.7034497796	-43.0197195453	6.39642538502	170.259898298	-56.7500703848	-170.130053091	-24.6828248833	-59.8027430411
142625000.0	-27.5231279181	-43.9308024828	6.57326236819	165.743075433	-56.464218028	-178.398158093	-24.5506121727	-60.314264879
143312500.0	-27.2348464227	-44.8261593621	6.71630545325	161.351702936	-56.6343000244	-179.027564873	-24.4183130455	-60.7857129103
144000000.0	-26.8525956986	-45.7919034892	6.83679184838	157.063937453	-56.4994077147	177.128870515	-24.2889052439	-61.3401448236
144687500.0	-26.3015086039	-47.29016101	6.93080440648	152.920232849	-56.8944186762	174.985595494	-24.1739455423	-61.9345878225
145375000.0	-25.5563283631	-49.4056429905	7.00743267984	148.877005274	-57.0694990678	174.40793787	-24.0500797871	-62.538878169
146062500.0	-24.8109329463	-53.6552049585	7.06308296843	144.97559559	-57.2812905987	171.594062678	-23.941466332	-63.0722075835
146750000.0	-24.1773939316	-59.0850988577	7.10506530828	141.177629224	-57.2798035132	170.274764482	-23.8279703058	-63.5669397161
147437500.0	-23.6681212466	-64.6678278972	7.1291042384	137.522495754	-57.5521183555	161.259695928	-23.7066955377	-63.9749177552
148125000.0	-23.2427547204	-70.350454169	7.14619398183	133.957126215	-57.6028624315	157.257751071	-23.6063711817	-64.4060702913
148812500.0	-22.8944319481	-76.0074741107	7.14981632586	130.509174593	-57.6258706842	147.755009461	-23.5039185023	-64.7729708119
149500000.0	-22.5906471089	-81.5814220531	7.14888205271	127.164885024	-57.6392496125	144.572605348	-23.4141572152	-65.0656766228
150187500.0	-22.3136479666	-87.0079177717	7.13418647129	123.939957497	-57.6249851035	136.904531014	-23.325399843	-65.2356218947
150875000.0	-22.0674198513	-92.2177635664	7.1192119577	120.799637367	-57.8886066308	135.992525393	-23.2428776979	-65.3430472374
151562500.0	-21.84120884	-97.3647496229	7.09568468301	117.750209317	-57.7142167221	136.760807125	-23.1684969798	-65.3962278523
152250000.0	-21.6370500447	-102.180039489	7.06905545961	114.783431183	-57.9752630462	135.8183571	-23.1093054334	-65.4120719696
152937500.0	-21.4540309086	-106.890705301	7.03428006882	111.90750694	-57.6685612311	134.133494072	-23.0463156612	-65.3854786354
153625000.0	-21.2982453407	-111.324570651	7.00107870106	109.110866509	-57.9834108398	132.282521169	-23.0058794506	-65.2424925513
154312500.0	-21.1348112307	-115.722323534	6.96203490874	106.401808364	-57.8682703972	130.102639061	-22.9545616317	-65.0717661004
155000000.0	-21.0122099028	-119.829989761	6.9232314928	103.750371534	-57.8826485773	129.728577292	-22.9146560731	-64.7915222145
155687500.0	-20.8917201032	-123.883191572	6.8801883658	101.177838216	-57.6237810585	127.269742489	-22.8983874587	-64.4786364025
156375000.0	-20.8028450464	-127.663364559	6.83876323398	98.6531388772	-58.1725421111	117.500025468	-22.8667738702	-64.0320499531
157062500.0	-20.7131892404	-131.394594619	6.79312093782	96.2109574546	-57.8217184047	104.117618095	-22.842745753	-63.5668125845
157750000.0	-20.6421876461	-134.913406762	6.74881101038	93.8155290785	-58.0536730083	85.0186193117	-22.8275470936	-63.0336803717
158437500.0	-20.5765958757	-138.381731318	6.70064369911	91.4912365754	-58.259852205	70.9794765378	-22.8233585949	-62.4854336432
159125000.0	-20.5222933277	-141.730503603	6.65679381314	89.2079895255	-58.4049459901	50.704544442	-22.8384853949	-61.9240676494
159812500.0	-20.4955191802	-144.904002767	6.60963605352	86.9897854425	-58.4308797303	37.8561412732	-22.8585653319	-61.3551692341
160500000.0	-20.4833658887	-147.935903905	6.56424609565	84.8079069382	-58.4568424676	13.6769576194	-22.8745827095	-60.7771368938
161187500.0	-20.4873072591	-150.885249098	6.51573220096	82.6768783832	-58.2472345477	-1.57504864887	-22.9013120438	-60.1395849656
161875000.0	-20.4941738359	-153.769711941	6.47188903441	80.5735293347	-58.1254572397	-11.6291363209	-22.9424747751	-59.4894779579
162562500.0	-20.5309146486	-156.553041063	6.42374244602	78.5320813581	-58.0454116265	-13.3013063324	-22.9902570944	-58.8630977557
163250000.0	-20.5700411018	-159.33994454	6.37962156985	76.5169667213	-57.7154433283	-16.8003384881	-23.0565026599	-58.2490503175
163937500.0	-20.6407314723	-161.93149545	6.33302052516	74.5546007712	-57.9257393878	-14.9849727018	-23.1211410811	-57.604870396
164625000.0	-20.7019955707	-164.54351463	6.29103928923	72.6102441181	-57.5580314486	-14.2033350927	-23.2036219007	-56.9623418492
165312500.0	-20.7997903174	-166.990915624	6.24402962288	70.7257105558	-57.7485886803	-16.034909745	-23.2985035751	-56.297472975
166000000.0	-20.8935870568	-169.52835812	6.20220541361	68.8588283587	-57.5148432838	-13.6512362595	-23.4002054461	-55.6674870697
166687500.0	-21.0227457755	-171.98188467	6.15695929887	67.0329703754	-57.7638824689	-15.6347816673	-23.5159654881	-55.0780330655
167375000.0	-21.1446118598	-174.399729874	6.11711867468	65.227806251	-57.6871803471	-16.4451788747	-23.6433002872	-54.5572149885
168062500.0	-21.3062246495	-176.797398557	6.07389235546	63.4616849222	-58.0496566231	-27.3658638481	-23.764808085	-54.0710563107
168750000.0	-21.4739035068	-179.173774131	6.03506582265	61.726417175	-58.1943956186	-31.166946169	-23.9096235125	-53.6531185835
169437500.0	-21.6667552736	178.41975364	5.99405534627	60.0336626162	-58.3614897043	-32.4443017931	-24.0591574157	-53.2571937128
170125000.0	-21.8652665334	175.982461962	5.96045554429	58.3428151037	-58.1846125558	-34.1703685186	-24.2245550338	-52.8953306882
170812500.0	-22.094080818	173.512246728	5.92264687633	56.6833184682	-58.3504423337	-38.9768997227	-24.3948634036	-52.5474518877
171500000.0	-22.3255185117	170.984792025	5.88912739037	55.0483476031	-58.2833178882	-39.5530286406	-24.5798566028	-52.3251836561
172187500.0	-22.5915774977	168.246909623	5.85589278466	53.442054002	-58.4716726264	-46.4989665009	-24.7574579671	-52.1984316285
172875000.0	-22.8565455973	165.446542668	5.82389242835	51.8487719227	-58.580751135	-44.1548768229	-24.9399324328	-52.0792720227
173562500.0	-23.1233398783	162.367515538	5.79169272972	50.2973963096	-58.0968340127	-31.3191759195	-25.1572508922	-52.1074780272
174250000.0	-23.4030666086	159.332728547	5.76488333635	48.7414577707	-58.1301525777	-18.1663625289	-25.361699295	-52.152056406
174937500.0	-23.6717185252	155.871161814	5.73638402061	47.2141927253	-57.8737333528	-9.36794603738	-25.5646391404	-52.4535839128
175625000.0	-23.944278717	152.374904707	5.7136959683	45.6875103701	-57.8391460766	5.38362190842	-25.7729693083	-52.6475623711
176312500.0	-24.2085442653	148.662958997	5.68605550352	44.194472109	-58.3418398022	17.3373426165	-25.9811200139	-53.0588313367
177000000.0	-24.456806351	144.786598222	5.66371012209	42.7052770656	-58.2334079742	30.7929387597	-26.1930004229	-53.54697316
177687500.0	-24.6687258146	140.555511381	5.6391560955	41.2394866094	-58.0938168897	45.9101080252	-26.4262811068	-54.1143989376
178375000.0	-24.8792915251	136.363264706	5.61993261756	39.7837029641	-58.0679205405	61.7459670409	-26.6623763599	-54.6890674377
179062500.0	-25.054520631	131.978859482	5.59737374328	38.3479424464	-57.9628421553	67.6507868965	-26.8537553499	-55.3532884289
179750000.0	-25.2129940059	127.548503757	5.58143991368	36.9163378443	-57.971597765	69.2245610424	-27.0813701456	-56.1292797068
180437500.0	-25.338603056	122.973065625	5.5620736886	35.4988276417	-57.8843870607	66.6759505703	-27.2652832873	-56.8029549349
181125000.0	-25.4333394058	118.275579038	5.54806274538	34.0821521111	-57.870435937	65.3055874496	-27.471136181	-57.640184602
181812500.0	-25.5046306681	113.611122331	5.53089037526	32.6875491053	-57.6917362891	63.5138712823	-27.6604451837	-58.5299024328
182500000.0	-25.5400776068	108.850049456	5.51921802193	31.2967454559	-57.5278800316	56.1458464267	-27.8493157914	-59.5323702753
183187500.0	-25.54602699	104.239430427	5.50341635764	29.9275336351	-57.5756188714	54.5792451253	-28.0494933305	-60.4318725877
183875000.0	-25.5203203044	99.5236210183	5.49380640599	28.5540212363	-57.8094667948	55.120718311	-28.2057139788	-61.4447416606
184562500.0	-25.4875658156	94.8275177902	5.48081022993	27.2003755903	-57.8952092347	55.6118425623	-28.3452326212	-62.4649901812
185250000.0	-25.3987966375	90.1108481332	5.472742552	25.8411897531	-57.6460082028	63.4927480706	-28.4962208292	-63.5629221341
185937500.0	-25.3017862443	85.5006293143	5.45958743919	24.4988765786	-57.3901694508	65.0223372224	-28.6306082986	-64.5567473007
186625000.0	-25.1616976719	80.8738910382	5.45441635132	23.1532433781	-57.4953395838	60.9681479254	-28.7478681071	-65.6733991717
187312500.0	-25.01640882	76.2963771904	5.44416160574	21.8248593389	-57.8757401172	61.3631608306	-28.8664691032	-66.7233684112
188000000.0	-24.819654054	71.8588867488	5.43878644051	20.4992977217	-57.7249305964	57.2156618994	-28.9443932557	-67.9106924373
188687500.0	-24.624541059	67.5148068193	5.43033961932	19.1890997501	-57.5851092658	57.2497466888	-29.0272499276	-68.9505606313
189375000.0	-24.3780449864	63.3199164002	5.42508906032	17.8780994971	-57.5190249846	55.0091371722	-29.1018030901	-70.0665229849
190062500.0	-24.1385993226	59.3138782238	5.41853048208	16.5867205701	-57.6099039665	52.7670076657	-29.1689943587	-71.1226479602
190750000.0	-23.8792484093	55.5022359836	5.41608293401	15.2808469076	-57.4328919114	43.0500691481	-29.2089431843	-72.2730798888
191437500.0	-23.6162133279	51.845919121	5.41028880419	14.0103920614	-57.5063635405	44.392355011	-29.237831459	-73.4186702474
192125000.0	-23.342736683	48.5162532579	5.40833663783	12.7332525147	-57.7356028849	46.3071608472	-29.2651123624	-74.2906649293
192812500.0	-23.065241798	45.2966025523	5.40482916589	11.4786189957	-57.4721959439	47.9326957174	-29.2821577051	-75.3444927534
193500000.0	-22.7961289269	42.3207124955	5.4048798402	10.2084386673	-56.82824888	49.5145481408	-29.2752002799	-76.2650044068
194187500.0	-22.5243960735	39.5166958428	5.40040333892	8.95952974176	-57.1602547495	48.9667578409	-29.2440860196	-77.1071441219
194875000.0	-22.2957733306	37.0288385888	5.40212541635	7.70685021275	-57.0185478664	47.8461133613	-29.2004498496	-77.8198624223
195562500.0	-22.0515273338	34.5498586645	5.40133976578	6.46765068587	-57.3980705537	42.8016390491	-29.1315313481	-78.6910536829
196250000.0	-21.8476296465	32.2314811617	5.40327673907	5.23342804792	-57.3578900158	41.7489319475	-29.1033168019	-79.5000583697
196937500.0	-21.6307070385	29.9484482872	5.4033972583	4.0033365992	-57.328957485	38.0319684163	-29.0289304156	-80.0596020148
197625000.0	-21.4543307986	27.8641859566	5.40719979182	2.78048353328	-57.4953275367	37.9648655734	-28.9637425581	-80.7290157139
198312500.0	-21.279935225	25.8399917488	5.40863471574	1.57420595825	-57.1715565078	38.8684650806	-28.8575390956	-81.3298838594
199000000.0	-21.1497053098	23.8277924389	5.4156423753	0.351555377479	-57.6095642303	38.0319163309	-28.7503892806	-81.863479194
199687500.0	-21.0198493886	21.7782825945	5.41905235615	-0.856960013244	-57.6027207602	41.0188027136	-28.638073108	-82.3640568872
200375000.0	-20.922135276	19.7670840225	5.42722911969	-2.07164620488	-57.7877725329	41.1426495302	-28.5082986674	-82.9677618082
201062500.0	-20.8223568534	17.8039320213	5.43114132894	-3.26783965096	-58.0669246395	39.5037585546	-28.3776125765	-83.4661599608
201750000.0	-20.748534645	15.8008457949	5.44018485624	-4.47689058785	-58.0530458171	39.6796746328	-28.2733536743	-83.891052436
202437500.0	-20.682285681	13.8447272207	5.44659368852	-5.66434420797	-57.7543584151	37.6308476394	-28.1292792899	-84.2639173114
203125000.0	-20.6266073039	11.8359563095	5.45815921701	-6.85984767856	-57.9297329067	37.0650775516	-27.9764796957	-84.6368888931
203812500.0	-20.5807655654	9.82385736245	5.46472544916	-8.04305080216	-57.6813730065	36.2725953128	-27.822891922	-84.8715206356
204500000.0	-20.5464035804	7.8355950304	5.47603545316	-9.23756872818	-57.5391883093	34.88702004	-27.6597561642	-85.1122121256
205187500.0	-20.5201004151	5.8080989909	5.48520959837	-10.4132964311	-57.4050678289	36.9678055426	-27.533740197	-85.1227997039
