#Frequency	|S11|	<S11	|S21|	<S21	|S12|	<S12	|S22|	<S22
100000000.0	-16.9046346659	147.189470252	-35.4319369229	-123.633395406	-70.2008061288	-74.6708449168	-20.0468235936	-30.3792443274
100687500.0	-16.8700304687	144.098320073	-34.8813283309	-125.776661714	-62.6468380697	73.4232656901	-20.1685681212	-29.6878746303
101375000.0	-16.8596818365	140.756687233	-34.555969665	-126.994427989	-62.7425697823	18.5943268848	-20.2063105463	-28.9075859348
102062500.0	-16.837106879	137.647376593	-34.2236619469	-128.269843931	-61.7716571379	1.07277501757	-20.2530680584	-28.1368376646
102750000.0	-16.8224839221	134.489707725	-33.9118565933	-129.818013256	-61.1036011959	-20.8566291277	-20.2937076597	-27.4584314825
103437500.0	-16.8166653937	131.375520532	-33.6117997585	-131.327836159	-62.2748259573	-46.8556074121	-20.3481770351	-26.6959384475
104125000.0	-16.8116386384	128.14898215	-33.3038812536	-132.496667971	-62.3331425583	-37.3210463195	-20.4012484373	-25.9170063887
104812500.0	-16.8107636121	124.979615437	-33.0290496271	-133.734905566	-62.0814657232	-28.9017470246	-20.4670662734	-25.3412761218
105500000.0	-16.8137942251	121.719696839	-32.798850833	-135.045320332	-61.8760024114	-58.882485411	-20.5490273893	-24.7726008561
106187500.0	-16.8219163053	118.410015453	-32.5898068475	-136.144233024	-61.8480666593	-101.593315568	-20.6335690473	-24.1766500276
106875000.0	-16.8406361074	114.99954107	-32.3926614626	-137.479740398	-61.4896222276	-153.76288314	-20.7289676448	-23.6668046038
107562500.0	-16.8700658367	111.511813021	-32.2336076937	-138.756056661	-60.8364557988	142.898252383	-20.8214421196	-23.1406366257
108250000.0	-16.9098788795	107.86808908	-32.1072369123	-139.945387502	-60.9832047365	85.7769995777	-20.92131981	-22.8126501983
108937500.0	-16.935985047	104.338456447	-31.9220002514	-141.191836092	-60.4433784953	50.1308051768	-21.0048131135	-22.2886655164
109625000.0	-16.9680285092	100.74588529	-31.7805461385	-142.244143884	-60.6264532622	7.17794899021	-21.0843741458	-21.8106793463
110312500.0	-16.9946387022	97.0824777186	-31.6729843041	-143.312924272	-60.83349536	-33.1304188623	-21.1734017964	-21.4011015005
111000000.0	-17.0333452278	93.374331128	-31.5798597448	-144.273427734	-60.8837148567	-63.116949544	-21.2621536131	-20.9874598313
111687500.0	-17.0780862617	89.5425169606	-31.507394857	-145.094632796	-60.4126156565	-86.6397193675	-21.3719732433	-20.6820216337
112375000.0	-17.127958838	85.615467131	-31.4812830702	-145.628029726	-60.3229390395	-111.744612868	-21.479380806	-20.3495672942
113062500.0	-17.1824669747	81.5996863146	-31.4660672669	-145.867705291	-60.343505234	-138.468583316	-21.5862195375	-20.0501981906
113750000.0	-17.2459425865	77.4660963098	-31.4511794682	-145.594279316	-60.2821706988	-174.252675331	-21.7005568168	-19.8456029195
114437500.0	-17.3164062398	73.263999616	-31.4269202417	-144.889386266	-60.4028028572	159.55555679	-21.8309450572	-19.6249750251
115125000.0	-17.3901637701	68.8415239819	-31.3877000912	-143.79865944	-59.7782009259	131.622258599	-21.9601297868	-19.4935267327
115812500.0	-17.4630980005	64.3367575433	-31.2932376697	-142.277980042	-60.1922760876	91.3779721388	-22.0879521991	-19.3494847296
116500000.0	-17.5536849289	59.656074571	-31.1636754641	-140.620137822	-60.2124094018	50.5565327174	-22.2152530853	-19.3011249753
117187500.0	-17.6443317062	54.9103861932	-30.9741246592	-138.764707467	-59.8742692391	18.180856213	-22.354603268	-19.2825949042
117875000.0	-17.7537090924	49.9407608757	-30.7268972683	-136.799473993	-59.8482111541	-21.3008508256	-22.485150924	-19.2199228292
118562500.0	-17.8674144888	44.7899364895	-30.4200542742	-134.742796171	-60.1608092803	-49.9567972616	-22.6186512525	-19.1704295375
119250000.0	-18.0049571861	39.4789447535	-30.0536394785	-132.775084695	-60.3588845291	-77.1614827794	-22.7477520513	-19.1706298313
119937500.0	-18.1553933386	33.9844849826	-29.6282045262	-130.817691647	-60.5966487428	-104.848290314	-22.8725071975	-19.2167541283
120625000.0	-18.3318398064	28.3341314454	-29.1619128419	-129.084091695	-60.4284360866	-121.211784553	-23.0133104446	-19.304841921
121312500.0	-18.5353505751	22.4439406058	-28.64160212	-127.433275695	-60.1814303764	-146.628551321	-23.1422926846	-19.5046125032
122000000.0	-18.7718872387	16.4011622885	-28.0877130176	-125.940493087	-60.6052913393	-162.350710987	-23.2863987335	-19.6594719844
122687500.0	-19.0537191218	10.0932310697	-27.4957151034	-124.478751862	-60.6612330306	-174.349379578	-23.4148749623	-19.8865481285
123375000.0	-19.3819484809	3.73088302307	-26.8731068661	-123.329180653	-61.0806394864	172.456501061	-23.5437973511	-20.0774996735
124062500.0	-19.7768225449	-2.98285616233	-26.1940945008	-122.265077448	-61.6866816148	166.137791883	-23.6671440522	-20.3498982856
124750000.0	-20.2604966507	-9.83104119223	-25.4975500604	-121.487899331	-61.5833293409	151.807400636	-23.8025293275	-20.5317240981
125437500.0	-20.8426693513	-16.8103183402	-24.7680646857	-120.91319975	-61.5430086009	139.762070064	-23.922298487	-20.7791597847
126125000.0	-21.600594615	-23.6027070098	-24.0135284846	-120.570099145	-61.9820112978	119.098555556	-24.0598290141	-21.0437720843
126812500.0	-22.6055753205	-30.2229451852	-23.2121957509	-120.49134003	-61.5379107897	104.003197666	-24.1837294438	-21.2527572928
127500000.0	-23.7119242721	-32.0022565206	-22.4009725493	-120.726833759	-61.7727329779	76.5293716495	-24.3087458576	-21.5458988588
128187500.0	-24.5443725821	-33.9883254308	-21.552172137	-121.160716212	-61.636443324	51.0242130354	-24.4120101302	-21.8502966703
128875000.0	-25.1878697113	-35.3420703817	-20.6938919452	-122.01160372	-61.6763489836	29.9994069949	-24.5090812557	-22.1100783605
129562500.0	-25.7139374745	-36.9845684265	-19.7877190457	-123.19555582	-61.6935891247	0.945425377938	-24.590629663	-22.5023370532
130250000.0	-26.1873862247	-38.6238886976	-18.8803307128	-125.002572808	-62.2898204812	-28.16387766	-24.6939488002	-22.8703932185
130937500.0	-26.5869213422	-40.4325863437	-17.9735685992	-127.305506817	-62.8435804331	-45.1394589586	-24.7711193023	-23.2523400256
131625000.0	-26.9453065528	-42.1797962484	-17.0887593761	-130.256462128	-62.710385635	-70.5077441242	-24.827566821	-23.7194607708
132312500.0	-27.2614621497	-44.0261110884	-16.2228802496	-133.682833182	-63.2528907988	-85.2829328528	-24.8755954908	-24.1220307287
133000000.0	-27.5416384194	-45.8511862037	-15.4241255405	-137.681314362	-62.8334610355	-97.1107001702	-24.9321149274	-24.5885159401
133687500.0	-27.7837043542	-47.6777886179	-14.6688647301	-141.954637037	-62.8500109819	-109.498964032	-24.9824519533	-24.9965615574
134375000.0	-28.0030698397	-49.5803678824	-13.9934743377	-146.63164534	-63.0581866117	-120.511183117	-25.009144101	-25.54140655
135062500.0	-28.1783305644	-51.5063483595	-13.3726849685	-151.477427469	-63.1314692434	-124.123509546	-25.0374802599	-26.0379533895
135750000.0	-28.3340452852	-53.3439860366	-12.825315916	-156.507221962	-62.7028116799	-138.776577636	-25.0552131224	-26.6434517064
136437500.0	-28.4498953758	-55.1313992446	-12.3407868389	-161.562846506	-62.4150324402	-152.732571879	-25.0602750798	-27.2323462516
137125000.0	-28.53768652	-56.874986797	-11.9118644706	-166.65108462	-62.1543552344	-156.344395076	-25.0630919423	-27.8461436965
137812500.0	-28.5814256515	-58.446900398	-11.5412777529	-171.707503546	-62.3524398299	-168.132945928	-25.0403879013	-28.3580882275
138500000.0	-28.5927943613	-59.9155133437	-11.2201308135	-176.730111589	-62.5530614961	178.778090303	-25.0080446174	-28.9525698745
139187500.0	-28.5560853273	-61.2687840372	-10.9500471493	178.317260815	-62.3019178458	167.160364907	-24.9717503124	-29.4831820406
139875000.0	-28.4656242892	-62.4714797751	-10.716527724	173.466364359	-62.9358462768	152.557691421	-24.9236520651	-30.0175443417
140562500.0	-28.3250818553	-63.6634362633	-10.5283731788	168.711961547	-62.6720737351	140.619968664	-24.8862020261	-30.5737604002
141250000.0	-28.1037257736	-64.5572304736	-10.3733618479	164.085515888	-62.3763436312	121.005780965	-24.8267863641	-31.0963732073
141937500.0	-27.7876310199	-65.2717809139	-10.2509721993	159.583405041	-62.1798513737	106.788693725	-24.7549478982	-31.6566476575
142625000.0	-27.3620634169	-65.8618302284	-10.1552678802	155.22511868	-62.1981964043	94.1665674758	-24.6701916479	-32.1834803911
143312500.0	-26.7450872435	-66.6203901246	-10.0855522177	151.014858601	-61.7302558002	93.2541956268	-24.5714956312	-32.7066596866
144000000.0	-25.8832959246	-67.5906909973	-10.0315443636	146.943345281	-61.8768777314	94.0406535141	-24.4737573268	-33.2753007597
144687500.0	-24.9236209363	-73.354126321	-9.99882910742	142.993586423	-62.0142086474	93.194910959	-24.3707267706	-33.7297194267
145375000.0	-24.2210126334	-78.9025535	-9.97992806484	139.199813558	-62.0108537789	82.2080568071	-24.265642258	-34.2177243232
146062500.0	-23.7052603425	-85.032747676	-9.97513734553	135.546134205	-62.280372086	65.8327751331	-24.1600096899	-34.6105838317
146750000.0	-23.2989896313	-90.7679778349	-9.98079418413	132.024516952	-62.0897031731	51.9653476036	-24.0550103657	-34.9053709714
147437500.0	-22.9407069048	-96.4847925208	-9.99687995424	128.639530938	-61.4012600408	39.4682436953	-23.9179994845	-35.2109379307
148125000.0	-22.6523256352	-101.925878597	-10.0192918573	125.346461351	-60.9194234988	12.8933010742	-23.795848723	-35.3898035907
148812500.0	-22.4002214714	-107.483024371	-10.0486677041	122.1741922	-60.883017544	-1.90512740607	-23.6661624333	-35.5541237146
149500000.0	-22.1893348089	-112.722042693	-10.0819015041	119.108196813	-60.2267145003	-17.5596627633	-23.5466396623	-35.6327493472
150187500.0	-22.0147883066	-117.943803435	-10.1203223238	116.154782972	-60.1386387879	-32.6572343671	-23.4059387567	-35.6771325166
150875000.0	-21.8662256233	-122.955637029	-10.1580095331	113.26485875	-60.0200007007	-46.0082852296	-23.2679287918	-35.6528643546
151562500.0	-21.7309459027	-127.926666898	-10.1988790903	110.487806644	-59.8543255624	-70.9160936232	-23.1270439496	-35.5065795692
152250000.0	-21.6289332633	-132.6204885	-10.2426609693	107.775403035	-59.880422467	-98.8377984181	-22.9975684133	-35.3077808281
152937500.0	-21.5383779708	-137.266171486	-10.2883236	105.150621757	-60.2404746837	-117.14447723	-22.8571470109	-35.02946968
153625000.0	-21.4687634031	-141.793674046	-10.3339438996	102.601052051	-60.5244900999	-132.066311037	-22.746060211	-34.6834132254
154312500.0	-21.4091368854	-146.260588851	-10.3787053302	100.128018471	-60.4902556693	-154.11804183	-22.603680638	-34.3048311149
155000000.0	-21.3651506443	-150.758591161	-10.4254944218	97.6761952103	-60.2956983751	-167.077502642	-22.479728189	-33.8852274253
155687500.0	-21.3230793619	-155.098960021	-10.4695072986	95.3079056502	-60.2852744416	-166.299372197	-22.3645419885	-33.3067860373
156375000.0	-21.2986304617	-159.385931967	-10.51576258	92.9716101135	-60.1215640237	-164.805891531	-22.2397167858	-32.7345674688
157062500.0	-21.2712535753	-163.54702025	-10.5632237778	90.7270466038	-59.3554980432	-162.695007118	-22.1160620187	-32.0690878887
157750000.0	-21.2460323589	-167.672247002	-10.6077519478	88.5057386795	-59.7964417061	-162.9191625	-21.9926243388	-31.3707601117
158437500.0	-21.2254213261	-171.655356552	-10.6533918721	86.3466997404	-59.5272019294	-168.309607005	-21.8801506592	-30.6655317815
159125000.0	-21.2080454955	-175.646639981	-10.6978037577	84.231789183	-59.4576823658	-175.15905474	-21.7812672055	-29.8295639359
159812500.0	-21.1982864627	-179.604763142	-10.7414143075	82.169944452	-59.6218231835	-178.025337699	-21.6761259922	-28.9515778348
160500000.0	-21.1997610954	176.4775743	-10.7849978684	80.1229672824	-59.757410895	169.247159038	-21.5891146973	-28.0788361723
161187500.0	-21.1899822244	172.672948032	-10.8299071554	78.1296217041	-59.4949520997	144.183641625	-21.4994012203	-27.1420908388
161875000.0	-21.1863157362	168.939951971	-10.8719569554	76.18552853	-59.0737348399	128.895523759	-21.423159622	-26.1707496979
162562500.0	-21.1875463014	165.269801473	-10.9160424758	74.2661857823	-59.6357006357	113.495224397	-21.3567216165	-25.1477072163
163250000.0	-21.1740825614	161.668604418	-10.9556989795	72.3793621256	-59.6430075227	95.945798975	-21.2903926598	-24.0686306097
163937500.0	-21.1707873814	158.04919205	-10.9981683047	70.5272500796	-59.6101058254	83.3020891222	-21.2274529418	-23.0846323891
164625000.0	-21.1600713244	154.521413532	-11.0375912327	68.7006809428	-59.598097018	73.6744460197	-21.1894150517	-22.0326742397
165312500.0	-21.1518945842	151.004911534	-11.0781056706	66.9155208229	-59.6001563426	69.7608204281	-21.1497312174	-20.9892730166
166000000.0	-21.1461842719	147.694002452	-11.1142102838	65.1707991435	-59.5867558621	57.2432354479	-21.1201982059	-19.8900024127
166687500.0	-21.1335616844	144.267792645	-11.1511390481	63.432617809	-60.1395522192	31.9383282229	-21.0941019429	-18.832356149
167375000.0	-21.1260461056	141.045617978	-11.1868161501	61.7257034268	-60.1831055001	4.59181659908	-21.0844152457	-17.7892702142
168062500.0	-21.1091664969	137.734924325	-11.2260648823	60.0456818459	-60.5948753747	-36.3882229457	-21.0766058587	-16.7274426602
168750000.0	-21.0977985179	134.607521034	-11.2601811934	58.4059725642	-60.6552509554	-65.6544373133	-21.093400735	-15.6602329855
169437500.0	-21.0777441046	131.37880292	-11.2962043974	56.7855260223	-60.5116643818	-104.031470191	-21.1038498773	-14.6123563844
170125000.0	-21.0661721533	128.294616966	-11.3263032176	55.1802938091	-60.2054516103	-151.965855697	-21.1334428415	-13.6330740886
170812500.0	-21.0515462978	125.158045033	-11.3597741267	53.5928588628	-59.7750469701	167.327175455	-21.1603285038	-12.5964853763
171500000.0	-21.0364476571	122.169762035	-11.3885826671	52.0419860211	-59.6529786988	125.146292515	-21.2043854539	-11.6210705125
172187500.0	-21.0229467581	119.169750856	-11.4163025789	50.5253870021	-60.1410142486	77.4954636496	-21.2590515424	-10.6643724801
172875000.0	-21.0159972535	116.234831393	-11.4461670649	49.0235462186	-60.4083018891	20.7634339508	-21.3117430715	-9.78056818494
173562500.0	-20.998570369	113.302964503	-11.4730506185	47.5586933587	-60.5146100436	-34.6914372088	-21.3911494293	-8.8628860664
174250000.0	-20.9844084603	110.447130538	-11.4950173431	46.0896566996	-60.7817414199	-91.315464327	-21.4728918576	-8.0546434849
174937500.0	-20.962763122	107.621133179	-11.5169173145	44.646610472	-60.3249606404	-145.276760798	-21.5702246707	-7.26104873953
175625000.0	-20.9424996509	104.774355676	-11.5360056044	43.2101693233	-60.4268451306	161.87848642	-21.6680879344	-6.48036690304
176312500.0	-20.9147645448	101.97138604	-11.5545702081	41.81178848	-60.5479631531	115.698392825	-21.7793958391	-5.69888662745
177000000.0	-20.8807072452	99.2325284032	-11.571040227	40.3972783842	-60.3662284662	61.6411510461	-21.9109773317	-4.99625815504
177687500.0	-20.8414639916	96.4925109696	-11.5849706444	39.0176275185	-60.5733299636	6.08102050424	-22.051689481	-4.26365256876
178375000.0	-20.8065646315	93.7507371577	-11.5963980365	37.6397063965	-60.8044614258	-39.2810653859	-22.1914585975	-3.58081720651
179062500.0	-20.7565205067	91.0988891559	-11.6078939646	36.2938158496	-60.6672956091	-90.6439196765	-22.3399190845	-3.01004580229
179750000.0	-20.7077278911	88.3743065679	-11.6177255988	34.9298576924	-60.5564070831	-133.092310682	-22.4974748946	-2.5176108561
180437500.0	-20.6637890918	85.6816802636	-11.6257681249	33.5989538762	-60.4838134156	-175.528696631	-22.6612137974	-2.06537677078
181125000.0	-20.6121264702	82.9249458614	-11.632730115	32.2463546535	-60.6999857273	141.531247479	-22.8340411198	-1.5341444467
181812500.0	-20.5640242779	80.3371218018	-11.6367074667	30.9318214146	-61.2693557474	96.4908696647	-23.0098046584	-1.09615878574
182500000.0	-20.5023700172	77.6949190533	-11.6389286964	29.5979081431	-61.1271959162	55.01465457	-23.1947661326	-0.629461294676
183187500.0	-20.4340352987	75.0540381712	-11.6383656502	28.2876380514	-61.288093087	13.7949672166	-23.3888215307	-0.234349185965
183875000.0	-20.3693534799	72.5661344157	-11.636482517	26.9794539323	-61.2550780863	-26.6659030238	-23.5777104668	0.131383251115
184562500.0	-20.2924402428	69.9789736015	-11.6347752553	25.6886848356	-61.5707600967	-60.5557752684	-23.7716739386	0.395098138722
185250000.0	-20.2231980113	67.462980144	-11.6310014641	24.3944868982	-61.6915526277	-87.641164348	-23.972582861	0.584584001145
185937500.0	-20.1527799708	64.9135155348	-11.628793751	23.0971479224	-61.8213072968	-127.513535556	-24.1684442758	0.755714715502
186625000.0	-20.0905748862	62.5152443563	-11.6202664321	21.7943939938	-61.9079112948	-167.587856513	-24.3908468941	0.891215578367
187312500.0	-20.0201114849	60.0253469669	-11.6148473798	20.5050763207	-62.0793828225	161.105567546	-24.588089082	1.01245992451
188000000.0	-19.9538881672	57.6817423096	-11.6067460326	19.2217730032	-62.4007934216	119.706137125	-24.7858033655	1.07289290642
188687500.0	-19.8930540136	55.2818565616	-11.6024459321	17.9291006088	-62.6125692901	81.3751573227	-24.9975249079	1.08631451417
189375000.0	-19.8371125851	52.9911631382	-11.5925122898	16.6504376992	-62.51077666	43.3207723807	-25.2163881549	1.08581404638
190062500.0	-19.7743409003	50.634064687	-11.5835384842	15.3664698746	-62.0183785041	1.87758467126	-25.4277784208	0.946573592216
190750000.0	-19.7258810037	48.3581882168	-11.5709849524	14.0957331701	-61.9124840565	-40.3799565608	-25.6388209093	0.872818148803
191437500.0	-19.6843158179	46.034287065	-11.5625807001	12.8231260508	-61.9802575986	-81.1584325014	-25.830974996	0.648351018244
192125000.0	-19.6530482928	43.7989374484	-11.551059906	11.5571768216	-62.445700307	-111.53603464	-26.017551456	0.324752428374
192812500.0	-19.6283957785	41.4434788268	-11.5397770837	10.2952251048	-62.2874550636	-131.136162009	-26.213018934	-0.105085864453
193500000.0	-19.6183765081	39.1890486564	-11.5268458139	9.02008331837	-62.0571287492	-160.107234266	-26.4155907522	-0.622080453592
194187500.0	-19.6097080024	36.8318061006	-11.5170860586	7.75284568006	-62.0672518178	-179.759237149	-26.5750324613	-1.18131249455
194875000.0	-19.6223170096	34.5569969626	-11.5031078085	6.50605960015	-61.9115648055	162.212320893	-26.7474440584	-1.89344857935
195562500.0	-19.632450837	32.1754553928	-11.489446157	5.25454921266	-62.20724336	136.006711246	-26.897272252	-2.65774195667
196250000.0	-19.6676038194	29.8024870239	-11.4739429182	4.00126140664	-62.1638890028	107.880696109	-27.0508545135	-3.50392185818
196937500.0	-19.7020377815	27.3752757226	-11.4579610249	2.75229256157	-62.3122306861	82.5526804837	-27.1728225504	-4.38105458716
197625000.0	-19.7478468448	24.9477780927	-11.4425277646	1.49998290651	-62.5739364705	64.6496142134	-27.2801401326	-5.3225481024
198312500.0	-19.7967970501	22.6109256126	-11.4266027946	0.26841027867	-62.5433352156	40.298701376	-27.3798416411	-6.49123933368
199000000.0	-19.8609124897	20.0981191787	-11.4082221734	-0.977610966771	-62.0987858468	23.5648678679	-27.4481883975	-7.74677900169
199687500.0	-19.9162305268	17.6270476273	-11.3907706692	-2.21106227955	-62.3724169631	1.43287082866	-27.5265530936	-9.01655518808
200375000.0	-19.9830035785	15.0880944407	-11.3774301722	-3.45508257675	-62.1874854909	-11.8489714148	-27.5720037125	-10.4528333328
201062500.0	-20.0552829879	12.5125027831	-11.3627878556	-4.67462094026	-62.135959488	-14.6561514624	-27.6277508702	-11.8253504775
201750000.0	-20.1429470309	9.8784954208	-11.3448439987	-5.91678368118	-61.6336824085	-24.4404882485	-27.6383901379	-13.2732752684
202437500.0	-20.2248353379	7.27220101933	-11.3268955732	-7.13724998823	-61.1841176787	-40.9206392612	-27.6458933815	-14.7173119532
203125000.0	-20.3121774241	4.63628041979	-11.3083661976	-8.37947324408	-60.9262863968	-55.6760828939	-27.6152431701	-16.2098803391
203812500.0	-20.3857744891	1.9130676153	-11.2913755044	-9.57935569395	-61.1652104924	-57.0852442605	-27.5734073723	-17.7478374178
204500000.0	-20.4753022144	-0.825276690528	-11.272487046	-10.8135757543	-60.9389831423	-68.465988071	-27.5112388984	-19.2517203463
205187500.0	-20.5552603787	-3.4897115073	-11.2512642904	-12.0178335991	-60.9032115675	-80.1555823961	-27.4573128216	-20.7205391
