# Hz S DB R 50
100000000	-30.0252325164302	-35.9349236698671	-19.133092155711	-12.8467005531754			-65.0282584923327	98.175225682432	-3.49762921887492	64.899634435288
100687500	-30.1561973597948	-35.771037779159	-18.693235384346	-15.9773795957948			-58.7715089365376	-31.6872058818021	-3.47909702553625	61.882404517534
101375000	-29.5416585517703	-35.9765793128938	-18.3695977205974	-18.0796365939719			-63.902825373174	124.74788620711	-3.51433694611174	58.8752541274086
102062500	-30.2143587173897	-38.2754516209591	-17.8139665582066	-20.91428024949			-53.9095868365723	-74.1790518275291	-3.51623120062995	55.820659430767
102750000	-29.8183817531448	-38.6717994531665	-17.55562210969	-23.206933233065			-58.4343549689348	151.159711141625	-3.55503398093673	53.1458307019688
103437500	-30.2787513467454	-39.3111832989166	-17.1267342731815	-25.7006085423772			-58.5371725689897	-30.4239240648051	-3.51748679790637	49.893969482744
104125000	-29.9425468624903	-40.9408973273851	-16.8006130226037	-29.0395514828876			-68.5696505989635	-93.9835063952132	-3.6028279900347	47.1662827613599
104812500	-29.7745295141499	-40.6678028819718	-16.3768752029756	-31.4693042807322			-62.6155187858999	162.206117945508	-3.60313634680752	43.9509885946122
105500000	-29.8933037494623	-42.6506145752303	-16.2330595789276	-34.8059923627547			-64.6032136712522	-45.6226474090408	-3.65044311835548	40.8776325332688
106187500	-30.0442205971399	-46.0511691359303	-15.8549985755011	-37.0141892700725			-66.849274234578	32.6482390701284	-3.61960666622008	37.7905658266853
106875000	-29.9786229876719	-46.7002766646097	-15.6406643366908	-40.4869937390565			-65.4329653777218	165.244937504374	-3.73981911971877	34.7551472467713
107562500	-29.6964733862665	-46.461098430133	-15.4466663011581	-43.4555584538284			-56.1061567575808	15.589168980144	-3.68214829534349	31.1847677703024
108250000	-29.254367145738	-47.5308860820103	-15.3026324220933	-46.6071087509748			-56.160571308414	-76.6812846882579	-3.79799743172864	28.1650193825538
108937500	-29.499073208706	-49.7684445478111	-15.0743965734234	-49.105214616458			-60.6805615573919	1.01980259779166	-3.75963723427569	25.177636767835
109625000	-29.788460269388	-49.5973277889802	-14.8946155742686	-52.5760447084993			-77.6582343044605	133.435759157711	-3.85327194200773	21.5369523907331
110312500	-29.4809628684665	-51.1237598655581	-14.8889918712561	-55.3437815696132			-70.3588549200901	73.7496647775838	-3.87306854603819	18.5659681274323
111000000	-29.508571590781	-52.4458443669195	-14.722385570476	-58.6894920428412			-66.0512223962122	-119.263031467396	-3.95557614689728	14.7637669789485
111687500	-29.5900290067015	-54.1385923905123	-14.8439435773191	-60.9338461962796			-58.5411751622094	77.9631357768473	-3.90033344527592	11.4835342361165
112375000	-29.922733310099	-55.2813485065202	-14.7629599588075	-64.3216866921486			-63.329773856022	-129.269080039579	-4.02389201266373	7.93021924664928
113062500	-29.4815058719431	-56.1565657715738	-14.9090367815579	-66.9830290238779			-61.6908493443999	-32.0421027120426	-3.99322952129505	4.4282634547542
113750000	-29.6874474491029	-56.0303176310544	-14.966998567084	-69.4469177108433			-62.9043147231263	-78.6077042191758	-4.0672373414771	0.762460020510445
114437500	-29.1695030037147	-62.8580986629323	-15.2167497982051	-72.1607638644552			-62.6809860936762	46.1530315173381	-4.06379428245487	-2.82237142966293
115125000	-29.1118680729228	-61.7485232157218	-15.3638913861102	-73.4984440810694			-54.3964395501667	-23.5159850740254	-4.12397550440958	-6.85828759158663
115812500	-29.4331625278833	-60.7709120918654	-15.6681592527497	-75.477119747862			-63.533407470654	100.266761347572	-4.14325581146152	-10.5906021918653
116500000	-29.1054503087997	-62.4554049208972	-15.9970239791651	-76.4629911841628			-56.4890916379958	-54.7673554706892	-4.15232340920083	-14.955815305344
117187500	-29.0293697782072	-64.5611010832798	-16.5596987864517	-77.6934060345829			-61.3938961565211	137.77633329448	-4.19581461401006	-18.6241462905143
117875000	-29.13012454977	-64.1581755845775	-16.958588141746	-76.9057782344646			-65.1455139745891	-103.72571119353	-4.22475093953855	-22.9656831608835
118562500	-28.8455156060239	-65.3173769958774	-17.5059789557763	-75.608683749815			-55.8484395815845	179.793210232893	-4.26273443369422	-27.0779859263871
119250000	-28.6673216541896	-66.2668699289123	-18.100675583472	-71.3713809824819			-65.4653339201888	-42.5766697749843	-4.32095598074823	-31.7298826565758
119937500	-28.3374207279858	-70.476687158925	-18.4496222592834	-66.6731851535968			-59.9573869331924	-133.80602840012	-4.3403148604054	-36.542408225042
120625000	-28.5722547470309	-70.0136775950332	-18.6094088666822	-58.0419157360247			-59.334762171499	7.42077763033896	-4.40235774119468	-41.3040560575139
121312500	-28.0754412156503	-71.6452639582997	-18.339515673752	-50.1081285686669			-64.625725994655	-120.384598646975	-4.44222169571885	-46.3428819061335
122000000	-28.5729146134471	-72.2835586947836	-17.4859358198986	-42.0600703520956			-66.2308400301494	-22.0748571159079	-4.56805829281972	-51.1948224282269
122687500	-28.0113721127542	-73.7030460879834	-16.2453281322868	-35.4680851545375			-60.661516984123	-97.2606221737274	-4.6651330317826	-56.6944376569613
123375000	-28.1239471934734	-74.7972806847093	-14.8074211130432	-32.1057596337437			-68.2002293049772	89.1476420702617	-4.79229804928702	-61.9835048200756
124062500	-27.9192722299881	-76.3414711728893	-13.366866306665	-30.700959172329			-61.5420446367908	159.832149451044	-4.87540381479075	-67.5912307212258
124750000	-28.119852167671	-77.4292224812124	-11.9362335202701	-31.171875997185			-58.1163795921096	50.1068789005469	-5.10005394244758	-72.9137826628051
125437500	-27.571409863668	-75.4973717031045	-10.5979697611788	-32.9339468227888			-59.6517825791494	-86.6650232061723	-5.22657461445291	-78.7570279562558
126125000	-27.8732152338092	-79.3723804525959	-9.42125583677014	-35.7992012154442			-62.4165984119031	26.4704239206658	-5.55308859534849	-84.1662634974761
126812500	-27.374513687317	-79.4541851403334	-8.2542773183418	-39.9772317934136			-60.5302334994458	-87.0720900328484	-5.73608596100621	-89.929240394362
127500000	-27.4309250759335	-82.0938163622539	-7.31765902103152	-43.9050124427771			-57.2062070418908	46.4424323323151	-6.10092593036443	-95.4391781240266
128187500	-27.3125661657395	-81.5564411519028	-6.40975104688003	-48.6818606820305			-61.4540362912848	-14.5831162701702	-6.31789104415165	-101.069931219271
128875000	-27.4965225495996	-83.5014613925211	-5.66647918240608	-53.4116420812315			-60.1456967795256	45.4152392094729	-6.7464187724955	-106.981882387936
129562500	-27.1066455711797	-85.0949895005179	-4.94622949014441	-58.7150544353078			-62.362074763241	-72.4385723170364	-6.98517501010683	-112.546865151256
130250000	-27.1197353972672	-83.6147126868304	-4.36155672449611	-63.6132431758053			-59.9065586293412	-166.230418766121	-7.48850720157411	-118.216299278028
130937500	-26.9614178410433	-86.4223881433256	-3.84782400122465	-68.7706502912503			-61.6140941792828	94.6070985652476	-7.73976403413703	-123.127029393195
131625000	-26.671811754158	-85.236141963505	-3.40732779459473	-73.7508766162308			-58.7396638668736	-116.293085983452	-8.26705760929663	-128.858849698192
132312500	-26.8116187530142	-88.1766585848935	-2.96044142175806	-78.5547241917383			-59.3595821669714	-14.8562553419721	-8.57875094034423	-133.765505330874
133000000	-26.8893376473863	-88.1391021074438	-2.63042272612675	-83.6052124813034			-56.3230332163756	-154.051589135856	-9.0788718347163	-139.202210123249
133687500	-26.685012830167	-88.508155913313	-2.32415651470037	-88.278509879648			-61.7172105579644	-99.8901689147414	-9.45043368870781	-144.024767310687
134375000	-26.5168442715192	-89.504108256095	-1.99726633506164	-92.847769020808			-57.8760356583456	-141.602370976079	-9.86777397185937	-149.684608598227
135062500	-26.5284350955297	-89.8324563164798	-1.76136107124645	-97.0212078116744			-56.9399089616743	-40.0132571894727	-10.3154408702691	-154.726273670646
135750000	-26.6997511090963	-88.5705019389471	-1.53881893992132	-101.634635672012			-64.4468126618899	-117.345281405358	-10.7031466291252	-159.600846245101
136437500	-26.6362917864616	-91.7280585590407	-1.31930331563965	-105.986883601487			-66.5363374335492	175.622631059262	-11.1143842533028	-164.982474204719
137125000	-26.227830577647	-92.4898135760873	-1.10070865333578	-110.014903363286			-59.2521627616786	-132.22462332551	-11.5415664597807	-169.359283195981
137812500	-26.2659195169816	-93.0348537456617	-0.941912933150095	-113.954167071658			-62.6893631117215	104.94006910871	-11.8836951232575	-174.748947805322
138500000	-25.965720124775	-95.4233383290233	-0.744466114107541	-118.078866719197			-62.1514739718465	-141.174424806495	-12.1783479686595	179.639613571958
139187500	-26.2534959416565	-93.4499149646195	-0.608828430125199	-121.954537843489			-55.6444902925651	14.3652150163822	-12.629940532031	174.213206443955
139875000	-26.3502493698597	-94.6088944303612	-0.458839045936492	-125.771761979434			-58.3305107286918	-83.3416042946498	-13.0356065756262	169.518161896257
140562500	-26.2100244838946	-95.7983687950089	-0.328986324637971	-129.519971064255			-67.2775711092788	45.4643876913367	-13.3361293431601	163.390978051328
141250000	-26.3331803400889	-96.8087647928339	-0.170672187548715	-133.373672927102			-59.2130593404441	-78.3813940555238	-13.6928528734943	158.26900616277
141937500	-26.2064052331216	-98.5924916437264	-0.104482235279637	-137.241879614226			-61.1073818148993	175.234344188179	-13.9752325023774	152.15514925745
142625000	-26.4622442659394	-98.2124417293	9.75414496993486E-03	-140.88274477598			-75.1441380320937	-171.795708267284	-14.3886078333172	147.762618897347
143312500	-26.0476723199263	-101.113288173911	0.11431717758646	-144.622229976736			-62.3132454668298	-158.174693481907	-14.6079932403417	141.182134868296
144000000	-26.1978862262019	-100.215669188796	0.201558946479353	-147.791019180655			-58.8341542287267	-33.1571795261922	-14.9665637206379	136.169527679048
144687500	-26.1454573781451	-102.319645701656	0.23267955509851	-151.802593998489			-53.4364658233383	170.570380493294	-15.0928372252189	130.642262989919
145375000	-26.067144494438	-103.496992337881	0.301115722011585	-155.081604566347			-54.5555965745256	-56.7224404857727	-15.435524254607	124.309588631692
146062500	-26.1598343652211	-103.522812650889	0.346226243509273	-158.551629047701			-60.8143280571263	-122.172423014502	-15.5676868471883	118.587228644439
146750000	-26.2109874600193	-103.844878731552	0.374257691343926	-161.522969004989			-61.0414544621438	-56.7996414326727	-15.9200861175705	113.124278389828
147437500	-25.9134888851158	-105.975217299112	0.453309302685901	-164.973260384137			-61.4663419198856	179.21328805938	-15.8970875390762	107.38511092543
148125000	-26.3067841386982	-105.239640096971	0.419168492695902	-168.272601947166			-63.697859103409	-59.0267864472932	-16.1472922382842	101.650016836065
148812500	-26.2336478656413	-106.451322425187	0.493111462557787	-171.325301493629			-55.8334857139137	-109.823606521178	-16.2911139748683	96.3896062604968
149500000	-26.4585726352947	-106.069692942533	0.488768276146162	-174.457972457259			-59.4319367562005	15.7976960673665	-16.4872786828085	89.7931283381254
150187500	-26.3150347770516	-108.742256427716	0.531584378042594	-177.344712028834			-56.6812356661506	158.54443913522	-16.50900519961	85.1971182948607
150875000	-26.2604172362203	-108.523366102598	0.522263460066884	179.629424421649			-59.8641561016127	152.020015566487	-16.5776330571316	79.1353038616197
151562500	-26.1643316712834	-109.505987969277	0.551515275479136	176.738840416244			-53.2777959220175	-168.170958603668	-16.6045393212464	74.4371763039246
152250000	-26.3744547376518	-110.643748451508	0.524559343488928	173.968836333079			-64.1974499361219	171.903460734406	-16.7795311276362	69.2513018661661
152937500	-26.4208553768288	-112.45707636129	0.585553378966751	171.29131226913			-54.0150172444573	-117.066400565669	-16.6932025229754	63.9474259156646
153625000	-26.3932709613158	-113.616372433398	0.547471054383719	168.380033148617			-67.5349356393082	154.079435854797	-16.8097097736713	58.3541714546805
154312500	-26.4329623736088	-113.799240548851	0.584007873154472	165.999914366226			-54.1152432897904	-117.660902557158	-16.7244107220528	53.9716071713942
155000000	-26.1355064325525	-116.260256921369	0.565292302798228	162.939890134377			-69.9273961666459	101.646833604591	-16.6635593759306	48.8560170762573
155687500	-26.1856751369673	-116.15766077626	0.581050323028249	160.69318031694			-52.1267145377827	-129.783931583131	-16.6768323438864	43.1199487503751
156375000	-26.6069771815254	-118.782423905564	0.612792778666448	157.680919832591			-55.073613098343	-148.190594788892	-16.6393717252174	38.6732587794871
157062500	-26.6610369148221	-118.504048874192	0.642634358970227	155.278780540399			-58.4516692591063	-126.266723408913	-16.6609903022979	33.7429392278834
157750000	-26.5675709109067	-119.164526101026	0.660165890718453	152.768510556634			-52.5793885007968	-165.196341286984	-16.5373467562938	29.8255624269923
158437500	-26.657758471542	-122.282084565555	0.632326553521986	150.239192352498			-58.8594449564647	-66.3199484039151	-16.4197804556538	25.3080620854892
159125000	-26.468974829558	-120.555678295754	0.675389371818667	147.587436907406			-57.7288900691267	-156.577664301509	-16.3305160281153	21.190444762494
159812500	-26.70987963186	-123.231746472497	0.702692056121566	145.168507143477			-57.2478976628068	-129.233359026145	-16.3092733917414	16.7499408888159
160500000	-26.5629681682797	-123.111609002433	0.723989626346928	142.417876277334			-55.2909584777734	144.096279220018	-16.1735081365008	13.4876305462087
161187500	-26.5460449978082	-122.614716666613	0.687752939643331	140.24062635257			-69.3066740060665	141.650295818003	-16.0268386575633	8.39525117792333
161875000	-26.5746785833601	-122.878964905469	0.766216527882091	137.504580174396			-52.5700508554927	-165.611048897496	-16.0234834546205	5.6192992430827
162562500	-26.5564253129322	-124.803327185941	0.707789306940976	135.056634551033			-64.1186302760429	-73.5866121727613	-15.735625569464	0.986996732965667
163250000	-26.4060763268166	-125.929431768659	0.734821396037499	132.701821876465			-55.4847601518108	-177.98503975591	-15.7187603176892	-1.93616268536692
163937500	-26.5720676644043	-128.391143023978	0.717739954236802	130.107943433545			-61.1134092301442	125.701064106271	-15.7042592939364	-6.33095099734756
164625000	-26.7965479308201	-126.462564957036	0.71595853520248	127.801046877092			-60.0852804937521	167.67261239016	-15.579215935191	-10.5584697033723
165312500	-26.6597138573814	-129.496499368008	0.701352271115911	125.240013652617			-72.9877310700602	90.3041939756397	-15.4367329282876	-13.4480841805842
166000000	-26.726841970356	-128.66685227987	0.73183715403351	122.992952418013			-56.6993093794565	131.545418036259	-15.4015924442865	-16.4469195404129
166687500	-26.5653054791113	-130.575990033517	0.703465752300063	120.578319946375			-57.341278737155	87.1997439157207	-15.1281830662085	-19.907565919416
167375000	-26.6700780748285	-131.266068933512	0.732404618919669	118.526781906113			-56.9964240904523	-133.704303176431	-15.2523352353513	-23.7473657458771
168062500	-26.6618231063508	-134.01443300755	0.712056245003076	116.012902149758			-63.3664916011386	140.399657031232	-14.9157338520303	-26.3807586791176
168750000	-26.4675254636156	-133.778062633304	0.696635944769754	113.869484967554			-55.2267399126973	-144.914337371956	-14.85337669411	-30.9729666459755
169437500	-26.4185000029049	-135.487195945393	0.658056894785611	111.522947255888			-62.7685954707041	-42.3736818346148	-14.74872409693	-33.0509990235996
170125000	-26.5091480121465	-133.261522366879	0.66303316569838	109.520776550094			-70.5435936419586	-10.668384831953	-14.6722270020603	-37.0216863187914
170812500	-26.5775399607794	-135.7135805792	0.644572099655251	107.196639661289			-58.0765736981107	32.6459047992679	-14.5753018209655	-39.8614234824955
171500000	-26.7634009902852	-137.024374419481	0.649614292292625	105.187083368922			-68.6565187756867	88.0542996160798	-14.5003852567909	-42.9925626414606
172187500	-26.4073961992105	-138.584147086547	0.629505222339325	103.056418214193			-53.8296389803951	49.493739221305	-14.3501298487768	-46.1056448589502
172875000	-26.8389989591899	-138.362699164597	0.652616460598504	101.133096807214			-68.2165244352326	-77.3552732127942	-14.2239806086331	-50.0205041038123
173562500	-26.4017323640376	-137.988755458679	0.625951507294971	98.9857915003513			-57.050489452847	133.447178969724	-14.2089864112307	-51.8391354845801
174250000	-26.5195468938624	-139.728342433364	0.645841866155044	96.9448653352552			-61.830066523856	-97.77351869474	-14.0129104192014	-56.086843814675
174937500	-26.7148361397117	-138.948421290959	0.674054925183927	94.7557690319322			-57.6813040525539	164.301394468255	-14.0878195814678	-58.4785611197423
175625000	-26.3704725344876	-141.78591326376	0.662512188804236	92.830864016848			-65.0326853623821	-42.8042628173309	-13.900003753482	-62.011112719379
176312500	-26.6973412406377	-142.794863308433	0.69901436725288	90.8288255407785			-57.3084204581472	140.092211292294	-13.8599463155406	-64.1665520338348
177000000	-26.5608154559433	-143.721206347708	0.721542819472434	88.8387396465052			-59.3004872962329	96.5040943376213	-13.7200564699398	-68.0599781835744
177687500	-26.7590228291112	-143.701612701047	0.727978280867698	86.7111903003489			-56.0078833574504	131.354214589236	-13.7370496282537	-71.0657510403656
178375000	-26.6238626479517	-144.718770631831	0.741168884151426	84.6212995835375			-67.88606902125	56.1254277199409	-13.616191615864	-73.5450178005969
179062500	-26.693953953181	-146.121642439989	0.78856060930073	82.4348878563717			-55.3554621974166	124.876866809258	-13.5835209483694	-76.5593082343825
179750000	-26.4099050721582	-147.293202992036	0.769123915096815	80.1846905123587			-54.2945595863079	117.561598106406	-13.4666655208213	-79.1762578396443
180437500	-26.374410080351	-148.006823059793	0.832817135451436	78.304465426125			-56.5934929149608	146.990888509626	-13.4138722245983	-82.5710652000551
181125000	-26.4485161389687	-149.24806344497	0.842837105276369	76.0258235492813			-56.1751636383409	92.5045689008748	-13.3537099028814	-85.0318548224071
181812500	-26.4872812092663	-151.82829372393	0.845679079119993	73.9073322541202			-56.621604192813	130.091818480753	-13.2832468255738	-88.4040368804991
182500000	-26.2956155898484	-152.421828542497	0.902551575444228	71.6967673620321			-56.2091513783359	96.9077257858549	-13.3415287812558	-90.5853498514459
183187500	-26.3299152707511	-153.904485251637	0.906835628182273	69.4030885075684			-60.4088012881821	-162.247588239612	-13.2523184584702	-93.7579912612872
183875000	-26.3640236582757	-154.850500215551	0.927578641196642	67.3173232334426			-55.0199753176625	67.7816294958656	-13.3588051586524	-95.6844545895369
184562500	-26.2278077872269	-155.500942447789	0.897992091132262	65.3616771368931			-60.9921121125016	109.198401251883	-13.1987261557212	-99.4222670842768
185250000	-26.0165563840298	-159.446975817413	0.929573132377783	62.9614666387388			-54.473558218641	84.9339580275594	-13.2614357655484	-101.389503606181
185937500	-26.1583990755584	-159.483381316817	0.912059424602426	60.8303034639151			-67.2233709303868	-164.747369638527	-13.1277084052357	-104.287778308123
186625000	-25.823763860868	-161.62469890302	0.891189855305863	58.8047917439702			-56.4444540364538	101.147772118567	-13.2888418826409	-107.083440507665
187312500	-25.7677710465045	-162.566104708807	0.891065990498151	56.535498631859			-67.8638940453247	167.230257061047	-13.0113593320918	-109.31060991476
188000000	-25.8231429363253	-162.771200985594	0.879591780199673	54.4392870823442			-65.0248357109306	-159.661383245724	-13.1502455266335	-112.045856553877
