# Hz S DB R 50
100000000	-20.0174315897874	123.325432394019	0.944885839965962	-12.8442800959438			-58.0453810984905	-13.0157301840662	-3.52290390175089	64.48211928084
100687500	-19.7715847973539	120.631622647056	1.32689962784551	-14.9650266329686			-63.833024225808	179.37034002018	-3.52611925006897	62.0172728960426
101375000	-19.8419149961948	116.192302213163	1.79384036529898	-17.3970973079713			-55.9594281403823	39.7526513982454	-3.53279227282348	59.0300452642415
102062500	-19.6555850288573	113.200489174079	2.16124860853841	-19.4894296360784			-65.6620018870695	111.056922976209	-3.5688575816536	56.3770537642994
102750000	-19.701469776374	109.639655210759	2.59128051120174	-21.9741947826549			-55.0851457827253	-24.5760895822166	-3.55590417975867	53.4279506212304
103437500	-19.5510938443069	107.407415741166	2.88036656662419	-24.433979962179			-68.0949153671931	98.3881044402133	-3.5727173461557	50.7344819197543
104125000	-19.4634867976477	102.149023035567	3.28558902959472	-26.9428172109205			-58.4946635906172	34.3859710041594	-3.58950622793803	47.4681386964509
104812500	-19.3216632389196	100.167418965441	3.54521584073206	-29.5832559349716			-73.3373445612019	-139.75094884242	-3.63776769293923	44.4967239856193
105500000	-19.2102948198825	96.2253376326023	3.90782213321927	-32.1408026197106			-58.4508995748711	-51.1359612353363	-3.59689202274775	41.5354270769874
106187500	-19.2488655625386	93.7528973459165	4.13903469692079	-34.9767188463732			-58.1276768199137	-106.958891462468	-3.70021897155099	38.6380043864329
106875000	-19.1614246191998	88.9061729870823	4.4458623426044	-37.6225584948016			-55.9101783662067	-2.44174691643173	-3.6894256310413	35.5448999642474
107562500	-19.1022705509481	86.0238093666274	4.64562268111103	-40.2559671658155			-69.4440325273312	174.090269636603	-3.73040696853948	32.2732946833247
108250000	-18.8602722540753	80.8818938572298	4.88501091221739	-42.9567136438244			-53.2953767556683	20.6080329579845	-3.74824076790931	29.1976924172715
108937500	-19.0331379812601	78.1559291484309	5.02020609399939	-45.7215989732238			-58.8443033922965	-12.1411647950009	-3.7973173772917	26.0462386762502
109625000	-18.6836343270652	74.7093356194488	5.22754835265069	-48.4119196991544			-62.582394346281	6.46138203731433	-3.80553502882103	22.8333199341827
110312500	-18.8272108753977	70.6531136253985	5.27446356741301	-51.1763200174057			-59.0770635142978	-30.2506999059399	-3.8882389676564	19.7129275763915
111000000	-18.6445868762447	66.6850425056169	5.42704507796469	-53.7968037176087			-62.9030366769485	1.61884585380298	-3.90972678995516	16.3791725231583
111687500	-18.6917582331376	62.3009625232927	5.40500546320723	-56.4648261488072			-56.7057210054175	-53.7629357455791	-3.97077355833972	12.902691440544
112375000	-18.2637178635387	59.6213784827625	5.46028005157509	-58.8036522278635			-59.9686578412984	65.0016715525255	-4.0037264899864	9.96735377112019
113062500	-18.5139828713057	54.3732405412025	5.3778337280945	-61.2540134583979			-53.5591226958411	-46.1362246341523	-4.04007528102859	6.19394273491335
113750000	-18.2254255918036	51.0480817679725	5.33784156790589	-63.4082267764136			-61.8653559681603	-20.4723217349945	-4.07293563166391	2.78220733253169
114437500	-18.3917885980138	46.0456591574806	5.20601760119256	-65.433818577766			-56.338083371663	-23.405222321488	-4.10233998527253	-0.685313655925232
115125000	-18.2735971484176	42.6993670515699	5.09439754912943	-67.1443809433218			-66.8668407931475	102.669654545936	-4.16555034067646	-4.46336369081619
115812500	-17.9950196002647	37.1304045959837	4.84277853344783	-68.676925542904			-54.1777820042318	-55.1500898025375	-4.23231747631033	-8.50643222487495
116500000	-18.0264227042853	33.5179284792659	4.58891387370998	-69.5232183805985			-59.7064758506823	-111.236415719194	-4.252190761925	-12.3136743230021
117187500	-17.9612298744242	27.2173953598103	4.20944072712469	-70.0046827212924			-55.9171221901411	-44.8078560481882	-4.30704448366333	-16.2322932670638
117875000	-17.8838787145421	24.0570724564454	3.85344212239969	-69.4291621352867			-57.2390014946216	-159.927012632928	-4.34686262925969	-20.2501420452896
118562500	-17.7558591824911	18.4770502417973	3.45829846055188	-67.6333992656442			-54.9577506271555	-38.3403441497589	-4.41374415464055	-24.4183219543743
119250000	-17.8166253505422	13.1825924104852	3.06987476600741	-64.7356857858743			-60.5132178497045	91.559507430666	-4.46419926746764	-28.9640198489554
119937500	-17.6558585519266	7.61267527214825	2.77224268092659	-59.8868846197054			-58.8517614651196	-108.017223407752	-4.51401850695265	-33.6556933012409
120625000	-17.7573783284854	3.1772291555545	2.7232334692806	-53.5200725647085			-59.1540024481891	-69.2038261072643	-4.61076540500462	-38.1522035956395
121312500	-17.4804392922041	-2.49285103774953	3.00640611401437	-45.9102279564284			-60.5501998065027	-16.2142198430873	-4.70361679432975	-42.8732273480121
122000000	-17.7115392765907	-8.42638300275697	3.78648402310927	-38.4453864939152			-60.4074709001119	-70.3481514943028	-4.80622128853411	-47.7486673484889
122687500	-17.5815309638913	-13.5700574321549	4.86651992298444	-32.4535497124538			-61.2544705879219	-7.51347064202448	-4.96446050982952	-52.992790587709
123375000	-17.6176675179153	-20.3819068067885	6.282251897166	-28.6919422044551			-63.9397913639124	-30.9581143569264	-5.06074043343859	-58.1795728818389
124062500	-17.4784698540312	-26.2822465877298	7.66261172156544	-26.7470666514579			-55.2088556458549	-1.7857702419936	-5.27517664757347	-63.2193596532278
124750000	-17.7477807464206	-33.4214840376394	9.16517843848399	-27.0170639088949			-59.7118032464392	-3.10083393419203	-5.4566409597968	-68.8685404331081
125437500	-17.7256030049304	-38.0532610615213	10.4806068802446	-28.5336934575393			-56.9223309389229	20.1113384753336	-5.73113067870017	-74.6198149403431
126125000	-17.9642247622689	-45.4212595415118	11.7888797890089	-31.8093090794542			-55.0070482711092	-30.5753948893307	-6.01566734719428	-79.8781633916702
126812500	-18.0400985029234	-50.2032679982079	12.9083155513722	-35.284666154657			-51.2224765145966	19.9245855261664	-6.36089951265767	-85.4849187452264
127500000	-18.2236401846384	-57.9028129374584	14.0172725760038	-39.8043225450229			-50.2691880683867	-25.7681329816083	-6.6844927744527	-90.5575563607737
128187500	-18.5221236768393	-62.0987856457817	14.895163987688	-44.5714774102828			-49.9269381850234	3.66175041133404	-7.08769867343615	-96.070210274238
128875000	-18.6321720670578	-69.4904603813335	15.7421563028032	-49.8040071648962			-48.2508068687548	-32.572894311204	-7.49102979188916	-101.418538995418
129562500	-19.1366326541978	-74.7306275230839	16.413639841067	-54.8484334711315			-50.8952538671492	-26.5843019196466	-7.88050482673851	-106.648399102825
130250000	-19.1834684519834	-79.3260300831655	17.1186202486403	-60.3962973553278			-47.3232081267901	-44.0845787017597	-8.36600537284999	-111.550200545047
130937500	-19.9535182230936	-85.593087436259	17.59784181467	-65.7619948148818			-48.8164283708486	-43.7110460509796	-8.72690027913473	-116.450389632063
131625000	-20.0715518315143	-90.344572999031	18.1089305530252	-70.9780929148393			-44.8647427557586	-52.7013760545008	-9.2767891509492	-120.974422188003
132312500	-20.6358997220101	-96.3907920300851	18.4752472225583	-76.2512852216676			-48.784801010189	-52.3576357552577	-9.738749154152	-125.912561050571
133000000	-21.0590455849093	-100.346987131648	18.8985068217868	-81.6428241773937			-45.4163553359148	-48.3665566697028	-10.2667339760168	-130.261268324541
133687500	-21.4579589842803	-104.895418216253	19.1446797560454	-86.3276396106719			-48.7785899302694	-59.4475883745091	-10.6518631104571	-134.659957050902
134375000	-21.9979935719988	-108.751653045911	19.4921543731772	-91.3451492871574			-45.8732810339372	-69.1937511966547	-11.1926177965712	-139.772384429949
135062500	-22.4957231016787	-115.030627080114	19.6973030909175	-95.6954292674229			-46.5394644297639	-77.1222682161901	-11.6055461151468	-143.989667731857
135750000	-23.5989319835123	-115.153385680734	19.960440761938	-100.474391857148			-45.9571220642659	-60.7903939770548	-12.1333827194906	-148.09090120538
136437500	-23.8008391556509	-121.316860607942	20.1339416341364	-104.898788684967			-45.338706410405	-84.7745126449113	-12.4950311881055	-152.809262354372
137125000	-24.7645234325952	-122.176308769327	20.3531093545115	-109.042173110306			-48.0079172958045	-87.2614593974303	-13.0225401534533	-157.075837056382
137812500	-24.7092480610365	-126.84688549088	20.4874217873254	-113.418098436046			-44.2193029689893	-87.2747562614363	-13.4353922956401	-161.56481991067
138500000	-25.8603129169872	-129.386799461084	20.6977092994315	-117.367820640662			-45.2809453437225	-98.1149055469507	-13.754608148559	-167.839479156369
139187500	-26.2287796033021	-129.834623057745	20.7798129006468	-121.545433790643			-44.8419280766829	-95.2862548965973	-14.3343333672788	-171.926728153891
139875000	-27.3162080020046	-132.419928641942	20.952621047482	-125.280331698461			-44.9559671619488	-100.042140635304	-14.6077674785472	-176.926632223156
140562500	-27.354819084799	-134.150844446231	21.0258832550308	-129.241282402746			-44.0439325249285	-113.71752322683	-15.2053627706192	177.721344106657
141250000	-28.3007291859006	-136.5502723568	21.2011847788096	-133.090566100412			-45.964147952201	-113.827711414348	-15.3948456561422	172.934454731593
141937500	-28.5101769604762	-139.848252139977	21.2188726974751	-136.935266134422			-43.9347990535918	-105.352505180858	-15.8777671946642	167.330741237121
142625000	-30.0596702806271	-139.315624188891	21.362607677439	-140.328788462162			-45.5803945859892	-118.535591541939	-16.2064805386478	162.460337327808
143312500	-29.3326576074082	-138.304328587326	21.4258345959929	-144.264014010896			-42.8114223412727	-118.684941213604	-16.7135065167174	156.841569921996
144000000	-30.6004774141071	-141.39352568392	21.536433456501	-147.380708018288			-45.6751426403444	-132.313704975481	-16.8137473618789	150.554137958008
144687500	-30.7050536851189	-138.652990974201	21.5764958751155	-151.134373794545			-42.8088668677466	-126.220326366462	-17.4053951483647	145.671859769043
145375000	-31.3358434450179	-147.387567620133	21.6797920393677	-154.708467989123			-44.029526615957	-130.952028961784	-17.5749709662584	139.8812015647
146062500	-32.1877638408685	-138.407829773078	21.7274937615753	-157.898703437181			-43.7718409834468	-123.481305754121	-17.9972335157876	133.069085942157
146750000	-32.9838932533562	-144.510978714155	21.7950413747807	-161.31140050041			-43.9663470657212	-146.843061665343	-18.1631249915316	129.403147625615
147437500	-32.8721361741528	-139.745488219471	21.821338924032	-164.677800753761			-44.7588387641477	-143.494836259707	-18.465297031443	121.652028647789
148125000	-32.5647111318885	-145.131788479392	21.8717681931483	-168.034275444987			-43.1358751782701	-149.507873013348	-18.6005680092186	117.297365125169
148812500	-33.5403340414033	-142.268112322723	21.8845213287656	-171.237607144199			-45.9121841644964	-147.442757310907	-18.7239116511662	110.774548003796
149500000	-33.1700544046446	-147.687762546965	21.942387993293	-174.378818043666			-44.0942436644196	-150.254361143502	-18.9936655985019	105.386053916177
150187500	-34.4415622856487	-144.107829811085	21.9182709142671	-177.506834811191			-45.5620533439042	-156.108637649883	-18.9885159616195	99.1267629058936
150875000	-34.2961160953098	-153.810001391197	21.9698521547626	179.625604913443			-45.2520241572179	-167.889474643148	-19.0442774348819	94.0468344847104
151562500	-34.586934387631	-151.228110433676	21.9425436622143	176.613480739887			-44.6223097331634	-161.493494427641	-18.8508597846188	88.3146618364509
152250000	-33.5991982385264	-159.895810302841	21.9843440650167	173.571514754341			-43.9196096726243	-166.305640860514	-19.0636453232785	82.9560827167626
152937500	-35.6957990608418	-167.715113710879	21.9654539523826	170.938311030348			-44.1676538877446	-163.635279036287	-18.8584063907234	78.3710382293676
153625000	-35.2466639871972	-166.317782606775	21.9893885198986	168.060088092536			-43.8269264091221	-162.313360188863	-18.9056909704487	71.3230967954358
154312500	-36.2935515334765	-175.681415752434	21.999215379936	165.488427483128			-44.0206075920985	177.672760698118	-18.5451712828312	67.5178573732699
155000000	-35.2837581983317	-173.991031378492	22.0011032396024	162.689974210527			-43.434178542852	-167.086161238599	-18.5977537706824	62.1224354471183
155687500	-36.637405305755	178.652972082752	21.9995263341438	160.25742601577			-43.6863854544508	-178.707792975145	-18.3791807860173	56.6153069398546
156375000	-36.1528123947226	-175.310258810787	22.0934672593842	157.253990086902			-43.67158678814	-178.47391119118	-18.4695652828733	51.243320577244
157062500	-38.1546827952771	161.337260514761	22.0482947898753	154.658827422353			-43.7396581360473	174.816604610136	-18.2067317949379	47.5554016054662
157750000	-38.0525098218245	-174.863399142272	22.1187238089877	152.121407593074			-45.4160614873814	170.917535212795	-17.9810244835544	42.4768821480302
158437500	-37.6836486087742	156.658174484367	22.080179235479	149.556684653244			-43.868703938525	174.77044447803	-17.8498658783111	38.4469710027006
159125000	-40.5873260543884	-177.540666724255	22.1517390575485	146.94192558239			-45.0206134571391	-176.814181831253	-17.5198046753935	33.6181132998298
159812500	-38.6231922398597	148.379869331797	22.1310260911131	144.338788053833			-44.2160611689064	169.752781610565	-17.4535819775592	29.5555701567784
160500000	-40.4588948413713	173.606431450353	22.1933399176071	141.707040013342			-46.180977566917	177.335959444772	-17.1273207202824	25.9146131291743
161187500	-39.63566313759	158.302285626665	22.1070932457829	139.494861529668			-42.6056816415294	163.360828211194	-17.0553669619005	21.708844608294
161875000	-41.9294106838992	170.862059434378	22.2138963669457	136.697165561468			-44.2179133767472	154.364688138389	-16.8049731764588	17.8483723715563
162562500	-40.2727596659886	157.971449333258	22.1523976856867	134.161621229956			-42.2870900957491	166.370724501775	-16.6143989167293	12.6864366323773
163250000	-42.3995573996543	173.23958498309	22.1967409976195	131.528848568743			-47.4510447054098	165.997530980099	-16.3249907565711	10.4198183892809
163937500	-40.0673262869798	159.678682125213	22.1703085010902	129.25258957826			-44.0574606310434	154.442873522401	-16.382138142381	6.087587848852
164625000	-45.0463782335621	145.814877809378	22.2232098763637	126.526487848189			-42.8284728821892	134.190603064331	-16.1495793058061	3.16207791173849
165312500	-39.0161490641851	152.25503460537	22.1925273781326	124.141863638303			-43.3620186975535	149.326881622853	-16.0533045029342	-0.46325577977567
166000000	-42.6884347404493	138.651868895554	22.2178353158255	121.609418576115			-46.2561104947988	139.265473766524	-15.7334229443287	-4.02403241987909
166687500	-40.4274470874195	143.794183618103	22.1524134156146	119.218030973896			-42.8093067383411	147.99873051104	-15.6654636200317	-7.52888586880803
167375000	-41.4701450674601	132.442182164107	22.1963803685726	117.006084767244			-44.0326444000721	134.753674723438	-15.5493960165307	-9.9293459422385
168062500	-40.9049762899623	148.100896329745	22.160185351314	114.540266622536			-43.0965148707543	148.756971639338	-15.3738694419003	-13.6499433336766
168750000	-42.1288312504727	113.553523836724	22.1986759782704	112.206917349944			-42.5884472751414	130.626542675909	-15.2701164555828	-16.5503732012286
169437500	-40.7927434511275	128.960577720445	22.1054894296074	109.866495059752			-43.9087910176303	146.114677025406	-15.0896690882609	-20.2517595757831
170125000	-42.8538967294855	101.749464846848	22.1662519850375	107.664607874469			-43.4362614101319	125.108033066566	-15.0804179556788	-22.5462680429415
170812500	-43.7701030955114	92.8418324891219	22.1150575371591	105.474576908374			-42.7337198828426	124.136004396309	-14.7871645783894	-25.9173828936744
171500000	-39.0563161112176	84.2984840264627	22.1339990688368	103.311908727305			-43.6493344703801	124.137951347223	-14.8203565919128	-28.01553200367
172187500	-42.8039582003589	79.5873376645752	22.0875697487422	101.191172837014			-45.7576997205824	122.457954785711	-14.4918456993521	-31.5681807830119
172875000	-38.9213682829197	79.5319870940944	22.1315787996857	99.1228627599939			-43.0244745237696	119.088529809704	-14.4724281105001	-34.2937852882562
173562500	-41.3553538687787	50.6941753744145	22.0620343344509	96.935215430881			-44.3072952752443	124.759635436485	-14.2679052183832	-37.3488924573608
174250000	-38.5353099525955	48.5255117245233	22.1414714839886	94.8971905878917			-42.5182130519204	118.360821139045	-14.1340787811659	-40.9149300412269
174937500	-40.1180866699454	35.1074267877471	22.0988568471872	92.8233252786049			-46.4891924109629	114.647292281938	-13.9897713318397	-43.141676033154
175625000	-40.0786648641538	40.6786972949278	22.1250211606649	90.7619880823156			-42.0095311561378	111.490454336644	-13.8822724826791	-46.2545657356151
176312500	-38.9034422453984	20.0950080444094	22.1195291833208	88.7184353218288			-45.3264108984734	107.092375758437	-13.679106316055	-48.7286121409584
177000000	-38.0932915370455	27.9707506917147	22.18882037064	86.9246477732354			-44.1569690439161	115.753502220147	-13.637486245031	-52.6035265695488
177687500	-36.4205508623269	14.4791454575103	22.1515444296375	84.7195935523229			-44.2189477471905	106.662280813962	-13.5880121509169	-54.8227296740918
178375000	-38.3601522701646	25.82778016155	22.2443924988086	82.4520772634812			-44.0570428843921	109.694695571789	-13.5558410047397	-58.2015135362027
179062500	-36.5783153250082	-2.34211905423419	22.2207237095504	80.3554172092967			-44.6852135716174	104.049202639128	-13.3974962019653	-60.3712321439479
179750000	-38.9492225695224	-1.09611479523126	22.2488976506804	78.3891079084229			-42.257845178659	109.419503201785	-13.253974030022	-63.8177401621052
180437500	-36.1516815016506	-6.98206414663042	22.2820546645394	76.1844810938724			-44.2519657628618	81.6752752151861	-13.1559383435986	-66.6459968110274
181125000	-38.185162767235	-13.9477912099305	22.3311700540612	74.0996682248743			-44.3290265799434	105.003486716083	-13.0309430143652	-69.7955617199964
181812500	-36.477130554592	-14.5618238126615	22.3267677957775	71.9366839039087			-43.5247622784523	93.2678630173032	-13.1039487298427	-72.5764017162081
182500000	-39.4498221260858	-28.1361286416443	22.4059349560363	69.5575547989259			-44.3327724947831	92.0765921292142	-12.9597275140405	-75.7523541076251
183187500	-37.1380493305191	-23.0982284970586	22.3806378485042	67.3265640632337			-42.1282771997726	95.9738530736305	-12.9642914098289	-78.4930081943522
183875000	-38.8431446502051	-29.195099594744	22.4435331284964	65.1046270502405			-44.1529712230349	89.6025990904749	-12.9357110126447	-81.0334924075938
184562500	-37.9499766828671	-27.8954903700206	22.400244986472	63.1731643162899			-41.2458359852647	84.0396625365696	-12.9457448614046	-84.6335815996889
185250000	-41.5738682425573	-35.537081808782	22.4703589796414	60.8525722128411			-46.7614137246538	85.6073203740454	-12.8254158383802	-87.3944707410853
185937500	-40.2156053449644	-23.1066923797044	22.4253532529199	58.5587527120884			-43.9491061113093	78.2217194907258	-12.8331339163405	-90.5298817334429
186625000	-41.9079892460835	-51.6370357999811	22.4529029890438	56.205449673272			-44.0219431136642	73.5457212226368	-12.8401652785321	-92.4031732626915
187312500	-47.0330156198287	-37.376744553595	22.4241250484392	54.1945078113604			-43.6768844895789	84.0981987078687	-12.727448026556	-95.3923409032009
188000000	-42.4128950662023	-53.7031732183074	22.4668733227842	51.8887608652975			-46.2212038107575	54.6970328993698	-12.8094581782341	-97.7869529805765
188687500	-44.6254647651624	-61.8691169441188	22.4195236206163	49.6292032219159			-43.0726631919485	70.8560150165083	-12.7843930138989	-100.230061952191
