# Hz S DB R 50
100000000	-28.0209991123328	-15.1085766001373	-21.1644842786215	-9.06487073405718			-55.7315284499511	137.555257115395	-3.51063998867478	64.9177453187609
100687500	-28.2483152428312	-15.3105322458358	-20.5916417982685	-12.4697257713585			-60.2868891736687	-8.02229675874076	-3.47593223378238	62.1290938109983
101375000	-28.0035807203831	-18.6515274221551	-20.4004731280866	-13.4800956958161			-63.3376242163521	-156.425811324851	-3.55346524623775	59.0689755489012
102062500	-28.4890278154285	-17.1630783307593	-19.8411793563056	-15.9649476142934			-58.5620622423066	106.195146666676	-3.5282405845987	56.262236303009
102750000	-28.2218773931058	-17.7911829733029	-19.6516298752346	-17.8711982959556			-63.7378229430053	74.548540110467	-3.58563085134234	53.5309010963217
103437500	-28.3104487911269	-21.0666043896338	-19.1453809822022	-21.0708721940197			-73.3236026024373	-37.3868255828502	-3.56708589015307	50.6058092517617
104125000	-27.9351192281972	-20.4135737665259	-18.8925104957502	-23.9869360717721			-63.1433485168952	164.147828609333	-3.62804723656115	47.4672624565437
104812500	-28.0324052125974	-21.549448131756	-18.5369869493974	-25.482038892722			-57.0184275205037	2.86775685003739	-3.60222505402594	44.5339067172567
105500000	-28.2372076808759	-22.4428276684234	-18.3383863847273	-28.5834933396798			-61.6715110678949	-134.634975089106	-3.63244666077684	41.5506916473154
106187500	-28.7175576085163	-22.9935543597855	-17.9981564008302	-30.542594739195			-60.7815008291658	-18.8611245286503	-3.61990961717821	38.617631879894
106875000	-28.170947986948	-26.1966993863126	-17.8119751635637	-33.8231036464285			-58.8287255892627	-135.054375800446	-3.72675906153251	35.614835628199
107562500	-27.9272731078058	-24.9553206083448	-17.5061656262289	-36.2377059547327			-60.8797270546142	39.661963692825	-3.68285323093704	32.3705719412024
108250000	-27.9869572694018	-26.7893144189018	-17.3663913968006	-39.5270428685249			-75.1323913262183	-84.1068710493901	-3.78455341651729	29.3071694359247
108937500	-28.0417445560774	-27.4786358459415	-17.1747468444057	-41.5265734152902			-64.7281215382899	0.196700255327047	-3.7536502600594	26.3229961507504
109625000	-28.1900529252604	-28.5454697954092	-16.9541928456002	-44.4765605304385			-54.5978056247268	-143.585735417661	-3.85260022999187	22.8818615575922
110312500	-28.2430816633002	-27.9545335607562	-16.8808191652972	-47.4550864194586			-55.2187674258239	106.60529156587	-3.8686482592809	19.8277600773504
111000000	-28.1879120979045	-31.3636696045983	-16.7750041474824	-49.9401928081296			-59.9289096681865	-109.961819199677	-3.95264557632015	16.285209591975
111687500	-28.3225231927924	-32.760097529959	-16.8257544067565	-52.5600289894492			-59.9218934008124	93.5732350688717	-3.908909573727	13.0970495402951
112375000	-28.4473600136974	-31.3804237795493	-16.6970645181515	-55.2069719190278			-56.6777799170891	-81.6729015987441	-4.05839849168411	9.70854071731085
113062500	-28.1420665691555	-34.1057274328542	-16.8485086195218	-56.7000290614034			-58.9309457811644	75.2283992151339	-4.02028421966859	6.34753331364669
113750000	-28.1863303805903	-34.6648832418826	-16.8453186573589	-59.5691444060446			-61.7072124587722	31.9080172950398	-4.09985024688177	2.76555894468641
114437500	-28.2703840463222	-37.6390811024293	-17.0817473759018	-61.5146143660471			-62.0726267892952	107.428442306689	-4.06866637793336	-0.78934527513531
115125000	-28.1570753397259	-37.6199676988143	-17.1608347421487	-63.2518813668963			-60.337143643949	-69.6542195711892	-4.18562975936388	-4.7351798600794
115812500	-28.1458798296594	-38.8102148018786	-17.3951285395626	-65.1189387245989			-68.0991677392931	-160.751995549515	-4.21275022145839	-8.34108022267403
116500000	-28.1457485443522	-40.2822385234139	-17.6507914517543	-65.5454902266075			-64.6130644035642	-0.177756319087571	-4.22849615362138	-12.5922486405202
117187500	-28.080439357557	-42.5202302616772	-18.0536648548736	-66.1645855544692			-57.1395453521886	-172.34745892527	-4.27514211027146	-16.1362742629867
117875000	-28.3761073689568	-41.3897689111799	-18.3522099697477	-64.8300568151558			-62.9996486953662	-8.6090806250319	-4.33014285945096	-20.2693276215254
118562500	-28.2461882854628	-43.8682796104191	-18.8723063721029	-63.5560353383711			-66.0118691651878	-43.3447594400133	-4.3892217046064	-24.436945121871
119250000	-27.9609528667985	-46.5406371614451	-19.1837062983618	-59.5583213995929			-55.0062604065998	-42.8440101257398	-4.489710321891	-28.8545327284524
119937500	-27.8362274421395	-49.2995658775596	-19.5262539559945	-56.019737717003			-58.3405270572452	173.512159715089	-4.54143517556692	-33.7393518310738
120625000	-28.0439644831508	-48.1465073642252	-19.4511377225614	-48.3682093926306			-61.2161249397919	55.1472186526026	-4.62451110595917	-38.2578216830796
121312500	-27.5505157600328	-48.9928690972338	-19.3473890177909	-41.122273792256			-59.3285551099946	-129.360968234927	-4.69326769161729	-43.0715425385367
122000000	-28.0011195599564	-51.0785441480371	-18.5225559994219	-33.4521488681922			-55.2508505685105	34.7383866918232	-4.79994611287246	-47.7681792643459
122687500	-27.9897675698726	-51.1781552116907	-17.4598469686237	-27.6305893197161			-62.4647938761421	102.98844532062	-4.94553486097118	-52.9928430211539
123375000	-27.7887708970125	-54.1212024941957	-16.0787478595402	-23.0933321609503			-58.3356977112659	111.50829942774	-5.10961436267222	-58.0957177425906
124062500	-27.6311866671249	-53.9221074471463	-14.6742868593839	-21.9180513835887			-54.2182930915225	-109.489012042886	-5.26125766224954	-63.381737922459
124750000	-27.8015764372759	-57.0253902517183	-13.1244764396058	-21.6701108561678			-55.8705240774517	65.1133321613068	-5.51390691413308	-69.0483407818159
125437500	-27.4931804181534	-57.689929059242	-11.8331653381818	-23.2826518448421			-65.1385156382807	-71.1683181525793	-5.69186479887181	-74.6245492103527
126125000	-27.884725927184	-57.6203159527687	-10.5470010367877	-26.1528263486032			-62.7942807069947	109.194621371374	-6.07897972126376	-79.9805360522031
126812500	-27.3894819267749	-60.6926762825854	-9.35856837821616	-29.5884864139917			-54.4223918718715	-39.9581118153834	-6.31182070390719	-85.4830661977447
127500000	-27.1728353976813	-61.3834473370632	-8.38806712745257	-33.8074267971141			-56.6776302062277	10.7438870172602	-6.70316968523834	-90.6196779811664
128187500	-27.4036848013685	-61.6412099663643	-7.39315620765786	-38.6025570154782			-56.5329084673824	-77.3106243737651	-7.05097868997686	-96.2405402637133
128875000	-27.2119395135361	-64.2670852392852	-6.59785585155728	-43.7016836877075			-66.50034641842	168.404243424521	-7.54244148431541	-101.910353844199
129562500	-27.0369243477078	-63.8034641189119	-5.87041024371315	-48.6553544970276			-56.8339467589882	-21.5300966392523	-7.85656766173067	-106.987672096988
130250000	-26.8445292831319	-64.4035568567293	-5.22582122453088	-54.0465346912216			-60.6855640126891	-179.643299840492	-8.44674307052512	-112.243933496685
130937500	-27.0174369645529	-66.8609545232799	-4.66316462473136	-59.4791337197702			-58.5912136987551	-99.2786422973593	-8.81175549617872	-116.934496601777
131625000	-26.7181291552628	-68.156646492647	-4.20590899725585	-64.5322660250568			-63.9234139769576	-151.147630947892	-9.43180790172489	-122.007395348815
132312500	-26.9906606697082	-68.0717190124815	-3.72995376425686	-69.6409316315407			-58.7553788658122	20.855052641956	-9.84670021950082	-126.410649904541
133000000	-27.0851456274641	-69.3296442552243	-3.38685552146196	-75.1275256653135			-63.0991607227641	-120.172521414074	-10.451679532111	-131.417885627179
133687500	-26.5962788008554	-70.2484504413087	-3.04530911451036	-79.9319253662541			-60.8821980063946	-48.3568961671684	-10.8775881287951	-135.479379917235
134375000	-26.932295428918	-71.0403432917709	-2.75323160165432	-84.812496439476			-57.4349922992418	-165.46618144908	-11.4177821462732	-140.794591018647
135062500	-26.4491264779199	-73.2797090580161	-2.49499603589943	-89.13632639786			-61.3298006359885	-42.0197549303567	-11.9140044654955	-144.484900475005
135750000	-26.4792497328854	-72.1547279136581	-2.26458544164129	-93.9431483374639			-56.0887802407235	-158.132843397712	-12.4150652448789	-148.900576721429
136437500	-26.4648606362012	-75.9600378588292	-2.07290712288341	-98.1748410088031			-72.1172716185421	92.7082223383431	-12.9448268057942	-153.342903999847
137125000	-26.3494531665642	-73.4033024726427	-1.8393388228831	-102.668993027903			-62.2804069160825	-119.483207831037	-13.4563471398164	-157.496725530375
137812500	-26.2204621399802	-74.3987151597963	-1.70213286956135	-106.802839898547			-60.2951286539442	6.55690679647823	-13.9679166726712	-161.937259077529
138500000	-26.2295867936979	-78.4201158832979	-1.48400477266458	-111.000971742234			-52.3469006192403	-127.546681397552	-14.3317163633328	-166.992521412868
139187500	-26.070995517365	-77.9622697272261	-1.38177995920029	-114.811479287298			-62.1925482142413	-23.3425772874957	-14.8873236151381	-171.619281335556
139875000	-26.3840904657605	-78.7434390732027	-1.2162702477058	-118.801356678846			-58.7017430981792	-102.770647591291	-15.2991258564542	-175.754115073044
140562500	-26.4679460377578	-80.1118345182006	-1.09925927221198	-122.673117886668			-64.8848061204881	159.6651636561	-15.7565651880687	178.716424269992
141250000	-26.3121568098859	-80.1711616242235	-0.990025390638524	-126.481996017407			-56.1491867377691	-47.3279940228156	-16.1281625704995	174.763255361893
141937500	-26.3285265273983	-80.2165220085814	-0.915192972495884	-130.427901298221			-70.0452002243128	110.988863854462	-16.6016516330345	168.588355594494
142625000	-25.9508388344851	-80.1269766043251	-0.797263061801147	-133.99494606156			-57.4254232694129	-75.5322205296445	-17.028746782921	164.525156671398
143312500	-26.1962743538849	-84.6071442218939	-0.729748459181023	-137.741645206312			-54.3316740380714	137.68806245381	-17.3192706553134	158.611935533321
144000000	-26.2540086024245	-80.8786863646749	-0.637227949209177	-140.926003583337			-54.4308531267795	-87.2288750392349	-17.7241894468112	154.590765358237
144687500	-26.0173542886638	-83.6947506448642	-0.582667098117193	-144.855784124196			-68.4093709091771	33.1721892842079	-17.9079272884338	147.989623679211
145375000	-26.5616012313767	-85.0412152305896	-0.507023077099367	-148.172323954882			-55.097024076099	-104.202213359383	-18.340248187468	142.193655708782
146062500	-26.2877541625136	-85.2381525058582	-0.447976265759398	-151.685934704252			-56.3698688625194	129.247361536208	-18.5253336484291	136.533045304795
146750000	-26.3138167963032	-83.3613063883852	-0.399378150967929	-154.816171273723			-57.3687481067417	-91.6419448982647	-18.9466648567558	130.701742132995
147437500	-26.2218207470379	-86.6079760125008	-0.37605491974404	-158.115771899434			-57.2862842402488	-160.027109359235	-18.8874217179994	124.459910720415
148125000	-26.6030319979195	-88.0906094392585	-0.364660930577683	-161.322998106056			-62.9202118626812	3.20328170973733	-19.271048078242	118.852584674939
148812500	-26.5820816310136	-87.977329338235	-0.299269040984914	-164.575730002114			-56.3627710555449	-176.557528280673	-19.3229408446251	112.532877119223
149500000	-26.5680438128289	-88.117906050172	-0.293436935903202	-167.498248534346			-61.4815560713036	7.04184459368288	-19.6041174570958	105.899665629114
150187500	-26.4551525477905	-90.4099888339732	-0.25258330607076	-170.733725081259			-56.9377035375268	-162.485087638563	-19.6011181214667	100.241197557282
150875000	-26.9473080029329	-88.5511017572513	-0.265758453679994	-173.537269796987			-63.467683727393	-91.8600793748917	-19.7423829327035	93.5981888803088
151562500	-26.3718655241945	-92.0464232146785	-0.222789017459237	-176.498106927631			-51.2056146321427	-159.107580188873	-19.6282149752804	89.5857870060989
152250000	-27.0421237709114	-95.064155017973	-0.224655332034308	-179.419920243976			-59.5580574216922	-124.456344776816	-19.619122221339	82.3033422021644
152937500	-27.0241607928991	-93.2888510443865	-0.169608322049124	177.814481203402			-54.8486365406118	-141.141924775151	-19.5552234028094	77.6130282010981
153625000	-26.7832419212398	-97.3945985147505	-0.216562808404854	174.824116687796			-62.3574473768127	-131.773986285114	-19.5884639985207	70.9982934532149
154312500	-26.7085593687995	-97.1030783008425	-0.192056728937792	172.482283385569			-57.5743992071831	-107.558720870362	-19.4381607222424	67.6719544249807
155000000	-26.7613139651938	-98.1253830368137	-0.182566749771123	169.416436748642			-68.6787630222766	-83.1484001932757	-19.2700496522659	61.8527096214874
155687500	-27.0095947200666	-99.566681039739	-0.167336301630095	167.259229013274			-61.2228625936975	-120.341256969848	-19.2403348529992	55.8755913786447
156375000	-27.2751945631965	-101.86127446155	-0.128885208307784	164.222362990784			-66.1200735914457	-104.955970367922	-19.0527107007089	50.7612344109915
157062500	-27.3448366234445	-100.610276289737	-0.139325664776042	161.821736709822			-58.8431967997525	-106.022005101061	-19.1403878360687	45.3717007545595
157750000	-27.1058582768123	-101.576633905409	-6.68624121213241E-02	159.077232766294			-56.5559945327484	166.075917101698	-18.7835982583106	42.25314871926
158437500	-27.3645757885221	-104.408238669795	-9.45909455381673E-02	156.6049862587			-68.7366706608716	-133.901123789377	-18.5520772999094	36.8481139414152
159125000	-26.9956886640398	-105.84514732079	-3.18500292966501E-02	154.068735297972			-58.0551020997914	114.692518570692	-18.3920237663587	33.1139647208607
159812500	-27.6185022297182	-106.769137063608	-4.12682072621843E-02	151.456802658634			-58.1013869431993	-77.8040805908208	-18.2236422123322	27.6860924979354
160500000	-27.3617370089481	-108.754825316754	-1.82380242815141E-03	148.903121680544			-53.2331901451255	132.182232591805	-18.0631863805557	24.5632996194929
161187500	-27.1342202803564	-106.918326688182	-0.04761431554959	146.652030442443			-53.2672837858049	-73.941654681634	-17.8076041331374	19.5460684462129
161875000	-27.5280337372301	-107.99696164781	3.57493210446088E-02	143.923963604534			-60.0136684010625	-176.771896063771	-17.7318812142151	16.7748213835618
162562500	-27.2847373720761	-109.592010353334	2.59569424388436E-03	141.272728023588			-60.0521522226531	-77.2073608893594	-17.4278211266281	11.1869860476066
163250000	-27.2734871551106	-111.415404436874	1.87690296979128E-02	138.830659422132			-60.1844375494151	142.941046000822	-17.2902439724465	9.34432918944962
163937500	-27.222793671101	-112.34092568728	3.20676069305559E-02	136.39540457313			-59.7976876450385	81.5640558310004	-17.1006038514016	5.23702065930634
164625000	-27.2691563375251	-110.168081672766	0.029582772742776	133.958728474288			-62.5046686997563	-150.299878062093	-16.9345430574892	1.37256471875126
165312500	-27.3659750873468	-114.412158590852	2.30641538095588E-02	131.46330510849			-63.8340024784672	82.468063257016	-16.6686605095731	-1.4649332482175
166000000	-27.2138466162299	-114.444054086193	7.22925941080228E-03	129.133556429064			-58.3834684198809	-175.5188178477	-16.6138990152306	-5.55129148202901
166687500	-27.1629849034741	-116.007903633015	1.91763414647393E-02	126.777891829045			-67.8809200759856	86.4572264799666	-16.2623475580478	-8.97564427529297
167375000	-27.1863888743633	-116.789807184151	1.84633021766513E-02	124.612420621794			-56.8263733003286	-117.885081583658	-16.3361400817915	-12.1231685705588
168062500	-27.0932312031992	-118.228976552813	3.20411274701631E-02	121.983377082458			-59.6110216916604	78.5693706529231	-16.0208798033029	-14.7153655559346
168750000	-26.961190614208	-118.610387576386	2.30632863974568E-02	119.976632495369			-63.9562232163449	-119.701369357542	-15.9812218571892	-19.0401572266514
169437500	-27.096951653017	-121.038878500602	-1.22805532468651E-02	117.484137985367			-54.2139377973652	97.4664911204845	-15.7142229774307	-21.2183250607486
170125000	-27.2004379256722	-119.452297656706	-1.41134727510475E-02	115.581242677023			-60.9037522266963	-119.995573180062	-15.6695038449852	-25.0119183997805
170812500	-27.3057506330772	-119.560137579115	-3.57181602179489E-02	113.167718675064			-62.161668571604	132.979052132668	-15.4000319542462	-27.7480693131962
171500000	-27.5494971016264	-123.517243346094	-1.88433354415741E-02	110.980689346441			-57.0532625145871	-142.899228967236	-15.5375772427586	-30.8928288077251
172187500	-27.1325688084426	-124.309690613915	-3.10280186033825E-02	108.74815504049			-70.4423119270277	27.4270546361624	-15.1746727191716	-32.6035596442404
172875000	-27.5851163214895	-124.286268015373	-3.48783629005463E-02	106.931039011211			-60.2151840285834	-10.4912558236896	-15.072111062322	-36.9507142850116
173562500	-27.3077356543306	-120.826574102292	-3.85697953568704E-02	104.787407079993			-52.7124471879943	98.4124299394748	-14.9329745045701	-38.6866901095447
174250000	-27.1387621716096	-123.873234549785	-2.74540682161163E-02	102.602457150901			-75.3613783658634	-42.5965554116757	-14.7276063718839	-43.0169734646889
174937500	-27.170859214631	-126.684448788375	-1.56955071687679E-02	100.58151349944			-55.302896527694	116.773951193685	-14.7684606103449	-44.6286745614276
175625000	-26.908107695192	-127.111089857662	-1.69702060487735E-02	98.7581760213968			-56.9254175028555	-36.1328870113076	-14.6236725547939	-48.4596080132327
176312500	-27.2707022875608	-127.084378765481	7.58495107452347E-03	96.5805162166178			-57.7254913236865	155.497095962442	-14.5256135285271	-50.8471935127401
177000000	-27.3387613121991	-129.530622236867	3.46634305510014E-02	94.5323907741495			-58.0409451078847	-14.1392665421745	-14.368091481596	-53.9440123090112
177687500	-27.5761881531263	-128.421094123894	3.39065907636137E-02	92.4714100675419			-59.5650286317188	-157.157593350693	-14.412108355031	-56.4987773580468
178375000	-27.2816021902249	-132.764717047661	5.42729605593196E-02	90.2834267552004			-69.1724170089646	15.144680250441	-14.3043571908184	-59.226442926696
179062500	-27.1207202932551	-129.684699706483	9.52892673810097E-02	88.266499452229			-63.1664164555384	177.382615639483	-14.147228886107	-62.4515900633074
179750000	-27.2450216571487	-133.003051539398	8.37445907721503E-02	86.2539032747611			-56.9456880569912	53.5163586017669	-14.0538268281181	-65.0628489813199
180437500	-27.2848396077343	-131.673061795388	0.142556315630574	84.1417728163936			-57.0964488552356	-152.271822588481	-13.9920233847242	-68.3357890863399
181125000	-27.4091270185669	-134.09422598596	0.143406344188533	81.9412993769712			-59.260497886585	100.268978749325	-13.8960559879519	-70.1253181496658
181812500	-27.4062999921914	-137.924205347771	0.178214194009083	79.7172436992614			-58.5035505834217	172.27716027919	-13.9779917523981	-73.7020239052509
182500000	-27.1695546851103	-138.659864047569	0.223052212817328	77.5070301504174			-55.7943339241984	114.024930346894	-13.9189789053958	-75.3913585622294
183187500	-27.3097945602338	-136.909785940433	0.247944628836934	75.3026170033075			-65.6066149076698	-116.974253031056	-13.753435000433	-78.8594032695354
183875000	-27.4652394256922	-140.115733306579	0.259842579061656	73.1221955217454			-55.7585076801091	63.0593748340586	-13.7825039271872	-80.4940138902151
184562500	-26.9063941434111	-140.992731180257	0.253486957764802	71.276842171822			-66.9119608158276	-105.91931207126	-13.6342217685773	-84.4211900665483
185250000	-27.0869019954007	-144.227068667975	0.277557535574165	68.9329261546751			-56.8902804005435	119.314918236978	-13.665838295889	-87.0106000750003
185937500	-27.4805688813695	-144.869094853155	0.266707502376709	66.6198383932316			-59.5777501332926	-84.7375768305701	-13.5522009494547	-89.2005983549387
186625000	-26.932475006192	-149.352810350619	0.293111597982831	64.369390713985			-57.9493046833168	48.7676610578568	-13.6415046459595	-91.1799355174319
187312500	-26.6809280700886	-150.152583621857	0.26465124471255	62.2921744229305			-61.5221592855623	147.49849487195	-13.4598405528171	-94.1884666103547
