# Hz S DB R 50
100000000	-15.5518232810318	142.367188161314	2.99285243145389	-15.9438145308694			-54.953718333553	-19.8677330128508	-3.48181473627772	64.5467440860076
100687500	-15.4444644152327	139.76263938767	3.39853748606346	-18.5666470928986			-60.0286329484189	-52.2783928536328	-3.47164475195016	61.7875378220322
101375000	-15.5125910763183	136.334519041466	3.83661747706645	-20.7251517513336			-59.6234666544447	8.6720861971618	-3.50019318366232	58.8869823558231
102062500	-15.5457708960115	133.47528250204	4.21958802550859	-23.5590022071524			-58.3317264561601	-152.011652838857	-3.53892649891626	55.7242272212042
102750000	-15.5387777526572	129.864410622442	4.61825658922568	-25.9169546524946			-58.5139235049501	12.1112624607824	-3.53124914619764	53.0883196342074
103437500	-15.5834439084155	127.558347240242	4.94264910214817	-28.9038545699101			-63.4621380343543	-61.6953446448965	-3.54010155935625	49.8795495950397
104125000	-15.6117801336006	123.40619747306	5.31899609946081	-31.27246508977			-55.9163532417746	48.7395697579334	-3.5760163883771	46.9974838677828
104812500	-15.6031061490305	120.265128407122	5.63246578569473	-34.5226714559271			-53.4338975658262	-39.5416250739554	-3.61567740570954	43.6979207205154
105500000	-15.5682736337123	116.749282708192	5.95920345674449	-37.0791206913908			-58.6739379906883	31.6755556885735	-3.61339518729384	40.8767348618176
106187500	-15.6233415369896	113.864662079966	6.22450155971315	-40.1543180425381			-57.8113375368444	-59.5198079509869	-3.64588535825402	37.3402414601943
106875000	-15.7149582426256	109.958523795774	6.47146704078286	-43.0636349703435			-59.70389432534	17.628584080152	-3.69246780868098	34.5546304244087
107562500	-15.6966774986888	106.352123186784	6.70446471094951	-46.0549218640299			-55.8115134110005	-55.0326324634441	-3.69535424194558	31.0956704768424
108250000	-15.7447363716773	102.396157905643	6.92299206900044	-48.8869163804625			-62.8029535552412	-42.1436485606116	-3.78527500942862	28.3192627632336
108937500	-15.904167197942	98.0581551041506	7.04118087080603	-52.1349777742379			-55.6883306279383	0.29291561687044	-3.78448344259105	24.5378535645863
109625000	-15.8268546199235	94.7185189796138	7.24816907666855	-55.0330754740763			-62.2689717947749	-9.20802639980974	-3.84792060816762	21.5255668966488
110312500	-15.9425465914151	90.0543742051487	7.29316510471175	-58.2064780297173			-56.3977928853319	-19.7595603107446	-3.86172594958564	18.2512701523996
111000000	-15.9776539344015	86.4407116853969	7.4084134917444	-60.9983797993586			-60.7956130344734	-0.553722061206894	-3.92216523009892	14.9448251994064
111687500	-16.1073364251563	82.1134800023563	7.3826552525583	-64.0606377922247			-53.3628687982755	9.4498969624217	-3.91279451652748	11.2978110378347
112375000	-16.0845963385323	78.3383020272328	7.37831701782601	-66.6471106323536			-60.949902964977	-65.2105192965041	-4.03593572668195	8.05074888076944
113062500	-16.1852025244106	73.1447327867508	7.29848390578516	-69.5912887581715			-68.0708368697595	6.56997255834551	-3.98975239190035	4.51175545892879
113750000	-16.2658137008623	68.9452119917374	7.17709975336867	-71.9366500108343			-57.2562763764195	-84.9580892068109	-4.08462117150561	0.853774942549055
114437500	-16.3654830095845	63.5461369086412	7.03136011769611	-74.4620954731828			-60.1705760193271	0.631678465070307	-4.04289027687431	-2.77560903794534
115125000	-16.5401023240331	59.505269878589	6.840935885549	-76.4956416432599			-61.0457097198673	-126.288422121848	-4.14216256782681	-6.59572118714709
115812500	-16.4214621665356	53.8592596414471	6.55469896335901	-78.218660582252			-54.5417277464408	-10.0799908120262	-4.15097693646681	-10.6944314139613
116500000	-16.6692154818757	49.5012466247202	6.19692801945871	-79.3480731105866			-55.0732106355064	-81.7386575182966	-4.16685118265786	-14.6984653174425
117187500	-16.7545313825858	42.880744897807	5.76641058212584	-80.0298451860499			-62.332548140902	-2.58681039439105	-4.19820681390295	-18.656941831635
117875000	-16.8833511057767	37.7189567818118	5.28549872613743	-79.6452914041561			-53.9415925925515	-57.9864109201018	-4.21913526968432	-23.0148285583159
118562500	-16.8761784632715	31.7564413720796	4.76507307111229	-78.1393070643319			-63.3664291072619	-41.0490374241577	-4.27365354068855	-27.3480337780538
119250000	-17.2163514717785	25.6311217599236	4.26380181668601	-74.6290992463252			-58.1850290846818	-81.8882933817644	-4.31767171775968	-31.6842563527777
119937500	-17.2939909364015	19.0988600295602	3.86322769481772	-69.3335225574058			-64.2193652155311	-142.058855451246	-4.35558206821755	-36.7718351229106
120625000	-17.51077249604	13.4297353636476	3.75597102160828	-61.8437342611467			-54.0865106108206	-25.3493407052816	-4.3827339479431	-41.2742837916542
121312500	-17.4458680290108	6.81720816670789	4.07241928750079	-53.6289772257619			-62.8127206998678	-37.688927388518	-4.47589156942785	-46.1312099026164
122000000	-17.8187816624464	0.414161990457838	4.9268126971485	-45.2756269357541			-65.507108049769	-136.090731098409	-4.54261140530154	-51.2133414709679
122687500	-18.090484638063	-7.13185706178813	6.15120087215467	-39.54815507156			-64.6793001153559	-102.994526389553	-4.67356163518171	-56.7143914335876
123375000	-18.2663927763613	-14.9307976537185	7.61254789057725	-35.8374752376464			-54.7160967532083	2.38088739918523	-4.77231166830418	-61.8021607689537
124062500	-18.4346053010092	-21.089274703243	9.08002513492686	-34.4940366818792			-57.825006324693	70.0470771854151	-4.91540935022331	-67.307846782759
124750000	-18.6670450113849	-29.523429639548	10.6085180182438	-35.2681606815352			-55.3838914668706	-6.99761929756504	-5.052561128412	-72.7099175832368
125437500	-19.0534955544872	-36.1168748579292	11.8600749766653	-37.3195237718279			-64.0037240669936	99.1544375286498	-5.25746502705805	-78.8704460596535
126125000	-19.5194887989419	-44.1958087756402	13.1177581853458	-40.631294597999			-47.6890838577913	-16.5935960329458	-5.5031798988664	-84.2170531013141
126812500	-19.9369234102176	-51.7690658912023	14.2211429964455	-44.6856169911634			-56.4019402128331	-6.10885457777466	-5.73710977877843	-89.87973526323
127500000	-20.2155883261115	-58.9015857510699	15.2106905135908	-49.1697820045556			-50.6915801672721	-10.2601690447083	-6.03636162807924	-95.1238059030711
128187500	-20.8943440212945	-67.1632836063252	16.0742949705516	-54.0759925326892			-52.0542321952718	-48.8781161704825	-6.31047320398782	-100.884140407213
128875000	-21.1195287555606	-74.7397526866066	16.8571365352436	-59.1514094894389			-48.1553924027701	-11.2554872416515	-6.67034704286568	-106.43189578023
129562500	-21.6237412968913	-82.3331210542045	17.487143157385	-64.5012570733108			-56.5271209809615	-33.8601887305112	-6.95282772878138	-112.120896540738
130250000	-21.9790640920987	-87.7943759860199	18.1259406907651	-69.534121873554			-47.2105653561754	-30.3732344900472	-7.40446751855527	-117.182301010104
130937500	-22.6163592452952	-95.3018102618636	18.6181781284202	-74.8988700181211			-49.6245578852648	-64.5751482585335	-7.67039094554245	-122.275712408235
131625000	-23.0421247476938	-101.612518869631	19.0680749034657	-79.7685596109367			-49.40644495699	-33.3461647410563	-8.16048825206262	-127.57961313421
132312500	-23.4196939671512	-111.025809416869	19.4761659268566	-84.8522174930351			-46.8508157387102	-55.4530170251583	-8.37030819422226	-132.876390617688
133000000	-23.888135954818	-118.213863610934	19.8281101397675	-89.6628193130557			-47.6445560541576	-53.009130937586	-8.87782138152091	-138.136209679949
133687500	-23.9534634326653	-124.575770052213	20.1057915610964	-94.6031487323098			-46.2153798713824	-62.5095213885701	-9.13895215977278	-143.093599645971
134375000	-24.7835108983541	-132.664248651285	20.4044846400654	-98.9737901377019			-48.4009145330486	-78.0944812356032	-9.54216933423829	-148.809307533797
135062500	-25.0531698446222	-139.545915880768	20.6280996851065	-103.461588147866			-44.4919393253478	-73.2214349662484	-9.89136738477288	-153.487481467893
135750000	-25.9044521000612	-145.889454768347	20.8852724071714	-107.849301556333			-47.5883126810004	-66.8896141661312	-10.2864906304602	-159.099984897454
136437500	-25.9351866287393	-151.944748676901	21.0610304423519	-112.261984778089			-43.869216516755	-81.5895091789719	-10.6332648542365	-163.729097688245
137125000	-26.8593437214279	-158.92825163261	21.3000788687534	-116.117481321078			-46.4328676636834	-70.6438792046005	-11.0014164853325	-169.317510201411
137812500	-27.3318302558627	-164.708572542348	21.4372363021845	-120.336191997752			-44.0954841399735	-78.2584443218192	-11.3770538560478	-174.444451412848
138500000	-27.882554672231	-172.164698866677	21.6189256039814	-124.086237097035			-44.8627493190144	-101.201259993176	-11.6247947600765	179.532299226514
139187500	-28.4470581475245	-174.815810057504	21.7449904555301	-128.204710217476			-45.5707248033197	-77.2185158734645	-12.0546422215405	173.998282591547
139875000	-28.9006049884533	174.838458276218	21.9381785628812	-131.85212383259			-44.5358653009412	-105.425825951894	-12.2849895105794	169.192178147522
140562500	-29.8167131838442	172.36774611719	22.045741669889	-135.895141844966			-44.7918508880933	-84.9873224973516	-12.7403612903902	163.051563010005
141250000	-30.1851927724921	164.239366059694	22.1809008166645	-139.544628003905			-44.8650097747486	-107.958213085528	-12.8709415494826	158.084385682402
141937500	-30.8207743555552	162.077361039474	22.262756716488	-143.211963511022			-44.730473099778	-89.9453085796811	-13.1878680005183	151.430816056651
142625000	-31.2694415413111	153.927656822201	22.4139681937523	-146.841824115028			-42.9991352448472	-106.593215741556	-13.5385393426541	146.636186317078
143312500	-32.2400409593461	152.999709069969	22.4979294597431	-150.686335412637			-45.3678279013661	-110.314068279919	-13.8221894473879	140.183380940724
144000000	-32.1943691549334	147.408496058925	22.6123111128817	-153.759752446505			-44.5654678682446	-126.717553786871	-14.2147877690793	135.999687941507
144687500	-33.5729200780741	143.386433651432	22.6404029953642	-157.739708136359			-43.1820340927466	-124.450857496892	-14.3479458276786	129.409325362542
145375000	-33.4077411537084	141.310671158381	22.696246342079	-161.144062820349			-42.5282673718734	-127.619396589758	-14.5358283756407	123.742390675794
146062500	-34.7753939856282	135.271680289424	22.7528615251398	-164.704072141564			-44.3141531345954	-130.095816479923	-14.6454542003874	116.926855099566
146750000	-34.6566012759521	136.766956078723	22.8171724545949	-168.058050056126			-41.6725171761709	-127.920163081509	-15.0671192125041	112.598606996111
147437500	-36.0291685871343	126.15580532774	22.8395193471614	-171.345189996995			-45.9510862389163	-140.386190824766	-15.0973277118762	105.435430792677
148125000	-35.0152197962396	131.641364049289	22.851074710798	-174.584561299943			-43.1206987668593	-127.444070469546	-15.3809965400099	101.13163681689
148812500	-35.4254303721136	124.816192348756	22.8924760691334	-177.969822740393			-44.8115345053463	-148.887269255756	-15.3434253971603	95.2172467066079
149500000	-35.8545828386545	120.858088821684	22.9224719385784	179.1146124971			-42.9740441106817	-133.41105687629	-15.6777897737943	89.8732041476884
150187500	-35.541499273862	118.309019908543	22.9160247220531	175.780656845596			-45.3910641737018	-156.171517607978	-15.6636532018286	84.3652316856095
150875000	-36.1300365509879	115.023186874211	22.9471316004469	172.964180162948			-42.324838307569	-135.819656458168	-15.8919699503596	78.7104006118345
151562500	-35.6628043546773	110.9648035317	22.9212649354992	170.089155198553			-45.4250558415945	-149.307647463984	-15.7454991773098	74.4417982968669
152250000	-35.3175576175919	111.878353794264	22.945210300088	167.225494998684			-44.1999440680017	-140.71307245048	-15.8731161987402	68.4728210428775
152937500	-34.1897744993089	103.659509887535	22.9621368998189	164.397618998561			-42.9428449171718	-161.749328910654	-15.8056096335676	64.4050827337198
153625000	-35.2098594823692	106.219426081216	22.9577011373565	161.629852072985			-45.5250586753271	-149.881044201601	-15.9048142087501	58.6922142148775
154312500	-34.5201202054854	100.31271280595	22.9721777370788	159.051332361669			-42.5795215135407	-163.022244852954	-15.813633120536	54.7185573372198
155000000	-35.4535594528087	97.9211321031483	22.968737994307	156.138805694269			-43.174230214441	-161.596683522265	-15.7988093307804	49.4711362092369
155687500	-34.7230765149453	95.8657743737438	22.9659610073868	153.827961335201			-42.4395921182298	-163.100520664379	-15.7676629707942	44.663837413782
156375000	-34.2245414828731	85.4103986924538	23.0366714548598	150.936416424931			-46.4080503091162	-167.186201026605	-15.6749901751979	39.8334031384843
157062500	-33.527498962087	89.3166442591624	23.0102586734005	148.299800544444			-42.6570596797243	-170.861580417672	-15.770332694293	35.3937763595744
157750000	-34.7711697517193	79.9121434313794	23.0968248273128	145.864336408863			-44.9841300459535	-166.671737247647	-15.4649694935177	31.5516695541951
158437500	-33.4076944537781	81.7683062939478	23.041212456921	143.221726366899			-43.3527012771996	-176.212687800671	-15.489900920978	27.3092964964904
159125000	-34.5418962616211	76.3380930913834	23.0852616855674	140.777967021133			-43.7160441837791	176.01947884306	-15.343384475015	22.7326707660208
159812500	-32.9614965142675	76.45688577777	23.0954927628387	137.88551214479			-44.012613431025	177.860344315157	-15.3415895045302	17.4316639613244
160500000	-34.5783958458455	67.149003672258	23.1289771086249	135.495489174589			-45.0921981792832	170.529235969795	-15.112343441001	14.62689243692
161187500	-34.3102369450425	70.32804947874	23.0653963009798	132.998475632089			-44.3988897207654	178.274397781381	-15.0765812247566	9.78282386231021
161875000	-34.0535042442759	60.6675160409291	23.15823318107	130.56418364578			-43.1302526784977	163.900089118629	-14.9906502824006	6.91521234813721
162562500	-34.270933067564	61.8376089351882	23.1226889614818	127.647462673643			-42.8195614023407	-177.993829943933	-14.8818792806899	1.32226115352742
163250000	-34.4206424762724	58.7297444124066	23.1324743124553	125.205641131235			-42.0406397881708	160.573401564762	-14.672193629433	-1.08731015757339
163937500	-35.7194931619105	60.4368016191338	23.1241204614899	122.69749742262			-43.4613343463189	167.188751558256	-14.6250292781175	-5.58308951633899
164625000	-35.4722080623028	52.3591939535233	23.1168333919562	120.255173090399			-42.8219183041405	154.963537851845	-14.5885630811516	-8.98579202162811
165312500	-35.6703853324599	68.193959159918	23.0874657923704	117.712628330204			-43.5243202555816	159.4828258147	-14.4425117503664	-12.9485791784211
166000000	-34.2383656369193	60.942495502401	23.0841264762967	115.503384555104			-41.8205490018245	150.9344837577	-14.478508399166	-16.0875119635868
166687500	-35.1108083532774	64.7979487334554	23.0411256489375	113.140718907139			-43.3837782097452	147.571115587673	-14.3675349398668	-19.4594592708671
167375000	-34.4944627292318	64.8938607368798	23.089474426673	111.084258503924			-42.5441544878583	151.789281491995	-14.3760401329695	-21.9511352559507
168062500	-34.2639228319454	61.9518599904159	23.0312570861744	108.488315402489			-44.4148889182351	155.107375602167	-14.17848550212	-25.3610329987473
168750000	-33.3620701039982	61.5259138266278	23.0596496604949	106.351255355815			-42.4631396412669	144.966331843845	-14.1239624268594	-28.3858530923873
169437500	-33.2564520490361	57.0976119202086	23.0175441633034	104.146320186729			-44.7362064373841	142.945795413189	-13.9587975771683	-31.6279642847123
170125000	-33.0197282267193	52.011002829252	23.0447490815663	101.856694516348			-41.8052644801698	145.532904523678	-14.0306018725658	-34.8222699939533
170812500	-32.7706164061816	46.0084577312784	22.9829015216231	99.5719947794404			-43.1595024023197	128.641964402417	-13.7532793308785	-38.0499771450274
171500000	-31.0823230390927	53.8825323905966	23.0356264824113	97.5879888242902			-42.6253678137192	136.887513063007	-13.7829052143495	-41.3051125370844
172187500	-31.8873387244535	43.5458765149516	22.9751567303957	95.2455773251219			-44.519740215841	122.353736596472	-13.5333053491641	-43.7657153724398
172875000	-30.9872659936321	48.5386461746064	23.0142970947587	93.4373938961233			-42.3655955955101	146.112140181933	-13.5214851222026	-47.1401443123274
173562500	-31.0227054962782	36.2916419420776	22.9661179600732	91.2261155470672			-42.8678308288172	112.105071316653	-13.3957167774689	-49.531091106497
174250000	-30.9540986443426	35.9119828000384	23.0271553241905	89.2811882130911			-43.9490655813609	128.800064555433	-13.2544979364664	-53.7546637771185
174937500	-30.2582793001744	29.6599626342807	22.9972290118114	87.1052671975366			-44.657754527323	114.902268766325	-13.2370831993344	-56.1393553359893
175625000	-31.0266194313317	26.7283205614605	23.0171832916948	85.2068756598051			-44.1186992801465	124.639170553143	-13.1441831115198	-59.3282964276022
176312500	-30.1009425682284	24.6693404201405	23.0407018391974	83.0498347031483			-42.4099404467392	119.251617946275	-12.9865419897524	-61.8902582105948
177000000	-29.6723104413756	20.7040837255139	23.0831350627326	81.1831970921388			-42.9690524316427	119.16771720306	-12.8815835309817	-65.3064081369103
177687500	-29.4320726361895	18.6699522305222	23.0673064454847	78.9781194479432			-41.904656678609	113.958116847124	-12.8771214084199	-68.3192359463292
178375000	-30.3056751423122	15.3623869726711	23.1135177686644	77.001474887323			-43.6899724379565	129.698561406099	-12.6975741176378	-71.215073120207
179062500	-29.6568377632583	10.5227980329927	23.135639189902	74.5893032240412			-42.5613473441367	104.955984800067	-12.7541657133897	-74.6597163092492
179750000	-30.0543629056736	7.75144790038586	23.1514776639244	72.7963211735326			-42.7854511629634	111.283254639955	-12.5443913528716	-77.2590383094428
180437500	-29.5460532551738	4.43472728853986	23.2056166392093	70.5775594547642			-43.3118532015238	102.400849385085	-12.4828504487862	-80.7511472472541
181125000	-29.7936661562192	-0.569146322978127	23.2100143539307	68.3020206572301			-43.1308940654196	111.77786561047	-12.3468735139152	-83.5906601066444
181812500	-29.6277886903439	0.252420792820268	23.2129065430653	66.1016821566873			-42.9781986821184	102.341329417044	-12.4454642790246	-87.067742135559
182500000	-30.2579650744171	-5.82313145709186	23.291842966774	64.0656847893252			-46.9358413760406	102.95442193959	-12.3144045700051	-89.2559889984458
183187500	-29.7117013435899	-7.32596742297349	23.2974672654776	61.4812087204717			-41.4711224065368	107.539120621493	-12.2542111112418	-92.9105787692496
183875000	-30.2696118128043	-11.2038258988879	23.3104077259136	59.4684775928728			-42.692344411263	89.6967871367461	-12.3425711322213	-94.8465145749774
184562500	-30.8305891259594	-12.0229299769362	23.2909836594328	57.3883165874026			-42.1244660670317	105.403630908223	-12.1974499030026	-99.1138685895175
185250000	-31.0979450716873	-15.2519786578163	23.325569721614	55.0769281394353			-42.5866124708981	80.5325319383552	-12.1696044611542	-101.379642477018
185937500	-31.2650790734648	-10.1344139762063	23.300257732599	52.6737092952286			-42.3583887812839	102.35132944078	-12.1611696865225	-104.602033563272
186625000	-32.1890389884495	-15.8470534037626	23.2982374869422	50.5015352492224			-43.057341139133	92.3094231507359	-12.2894235290218	-106.906735774517
187312500	-32.4924559461173	-15.8674623717884	23.3077283078568	48.3197886454908			-42.7079971809167	90.3557887559974	-12.0751884334157	-110.069765370842
188000000	-32.6439340090004	-17.0700687946964	23.2945090144452	46.1897817253416			-42.0796811410452	85.3721715877615	-12.2395426953135	-112.632568004209
188687500	-32.0844135957458	-17.6899514160255	23.2774256185326	43.6995037758452			-42.9847243483608	86.4521179112598	-12.0911957344282	-115.217671804249
