# Hz S DB R 50
100000000	-27.7671431232509	-9.85831295196341	-13.812527858774	-12.2144061832727			-62.359486214068	-74.2561918970075	-3.53857569824226	64.7447685744057
100687500	-28.6128431853504	-8.30892844972244	-13.4699644689492	-14.0592961002343			-67.2565945457494	83.4076508036827	-3.49554649756639	62.2736898820074
101375000	-27.8442832339585	-12.1771593853877	-12.944778560925	-16.5687982143387			-61.845526595671	7.19895325527464	-3.52091897349106	59.0425231472724
102062500	-28.2164702402326	-9.85886595347538	-12.6448119029381	-18.8582276994739			-56.4910054477057	140.605198070186	-3.5605918043176	56.4362482791308
102750000	-27.8950642681441	-12.8823601184381	-12.1633091988656	-21.2253428638851			-55.9761535006132	-41.9066203659285	-3.57106682415347	53.4641090091574
103437500	-28.6213102860077	-12.1769063165478	-11.9718286558204	-23.5221154694586			-71.6851784372894	-45.0440241753051	-3.5603067020489	50.6049552266001
104125000	-27.8701461737713	-12.4448999693734	-11.5096226849527	-26.1701915764814			-55.407916177668	2.99784288592769	-3.58572646783224	47.6237977697928
104812500	-28.2454097411966	-15.375244366307	-11.2854079404239	-28.8229363469078			-59.8044817317983	-164.589328865674	-3.63680272920978	44.7731343612972
105500000	-27.8755451518077	-13.7995659095673	-10.869890769245	-31.2500020061424			-56.7868709188702	-11.8966233708907	-3.60550040133926	41.8240115912321
106187500	-28.3877450894475	-17.8191753870015	-10.6809639515605	-34.1352668734196			-53.7926028318418	-73.604171810472	-3.65707835123605	38.749833889672
106875000	-27.9218953289293	-16.511113858256	-10.3661710758694	-36.5305371865074			-58.7941183125987	-23.0639187122828	-3.67282943735832	35.4983399559416
107562500	-28.2659743408859	-18.9070385404291	-10.1898261037152	-39.6412158168778			-62.9664610983066	-64.0640949666987	-3.72599019851647	32.3416747825984
108250000	-27.5318760178795	-17.4261553241757	-9.90619807951557	-42.1438450984737			-70.0161412309726	15.9538966539373	-3.74590270856318	29.3235578155637
108937500	-27.858803748913	-21.9954488173864	-9.82325330393669	-44.82717473347			-60.8120698041953	-147.191840568093	-3.7708563181844	26.110367411962
109625000	-27.9751809998119	-18.6779348790044	-9.60921565824119	-47.2210670961145			-62.2847488443473	102.881568059586	-3.81676429941664	22.9392199002613
110312500	-27.9941282386174	-23.4545663103477	-9.55146654272403	-50.5393000162137			-58.4027687417951	-10.0036440631905	-3.86583767604245	19.7082470796191
111000000	-27.7772541145746	-22.2444595498463	-9.40207676995123	-52.758285511723			-55.5716632162373	15.2393239390261	-3.92815038232395	16.3781323049909
111687500	-27.8537078048278	-27.8074619215782	-9.44469574945174	-55.7137384189908			-64.8588381530776	174.444594447082	-3.95940626318449	13.0844773320177
112375000	-27.9174442764231	-21.6282828396428	-9.41250646204204	-57.8889164516534			-69.6239274201729	-178.754113611304	-4.02117596360892	9.94178511623806
113062500	-27.6050530388136	-28.2975403478295	-9.46661643901741	-60.2544447979193			-60.6792355328906	-62.8357421029901	-4.03319071444183	6.22002083864613
113750000	-27.9021975434914	-26.8220580935986	-9.5327646856865	-62.4336901076009			-57.3531304880422	119.046062904932	-4.09396860270634	2.78898005561033
114437500	-27.8557174011343	-30.0040023489133	-9.66942293526188	-64.6044497207322			-58.9036907366961	-35.0583207721365	-4.11946116531091	-0.786805829739021
115125000	-27.9746429915932	-30.0809739165446	-9.823934770388	-66.0653537869038			-59.0650375637161	127.770100702164	-4.15710461475122	-4.51861126690837
115812500	-27.6310170614461	-31.6573758433057	-10.0389934681803	-67.7178277863057			-66.0348020121814	-37.7497933930237	-4.21356674264529	-8.39409021477039
116500000	-27.8206754846262	-32.1942662341976	-10.3399772100461	-68.6163061129982			-62.0046658668426	77.2098432080054	-4.23737907969798	-12.3388113213541
117187500	-27.4887623613338	-35.5315399822209	-10.6392307005236	-68.7038268351112			-60.7737485556144	-24.8230830551361	-4.26132654373066	-16.1842928378531
117875000	-27.6382168558111	-33.8890134716018	-11.0592231971009	-68.4003963087697			-56.3876085750198	167.767239053167	-4.32917117370528	-20.3400061964223
118562500	-27.1178041735007	-35.9770593667901	-11.4737803662737	-66.429153102371			-62.9136128717347	-29.9810462687502	-4.39450325141623	-24.297418361946
119250000	-27.440057119654	-39.0790221440824	-11.872969429543	-63.6422267914053			-57.3545201007296	-117.434345726544	-4.45175011914488	-28.9367319859152
119937500	-26.8110275326176	-37.9178194333863	-12.1567046347651	-58.3570747560659			-55.2911283416411	9.05448801056776	-4.5252604743687	-33.6123870940174
120625000	-27.3222526123827	-42.8144612374373	-12.2418804971448	-52.3037976969938			-64.5986466411234	-40.3727931079499	-4.59629521880956	-38.3649782489296
121312500	-26.7093049023632	-42.7862098263128	-11.9212534699333	-44.1207858984837			-54.6474463766638	-56.3684711014485	-4.69901280877242	-42.9270625385905
122000000	-27.3405681417192	-45.1224894841538	-11.2250394620802	-37.0044115274288			-59.1045977929984	-143.081477046822	-4.77091356658842	-48.069732586948
122687500	-27.1366614555607	-44.8049828124428	-10.0697319822521	-30.7109981255361			-56.328427177903	11.2167674993815	-4.94651407668368	-52.9506575293279
123375000	-26.8453303867762	-47.6756344998304	-8.67746176369094	-26.9277725466873			-61.9216263047982	-111.119548560688	-5.0724419732604	-58.3616325003106
124062500	-26.5910034636552	-48.8096571651962	-7.29630114200716	-24.8967875635709			-57.1677269551373	95.5486476949739	-5.3009664301627	-63.583384487801
124750000	-26.6330772412728	-51.7104501441255	-5.768604810031	-24.9416090160824			-55.2950163418583	-101.059423128807	-5.47134661553798	-69.1285883660404
125437500	-26.4326039819965	-52.0645177385713	-4.48969663830954	-26.4086932423366			-56.3862544566076	39.2338237475067	-5.73902867452988	-74.652692618196
126125000	-26.6630853134568	-55.5428810339153	-3.18088817791466	-29.6307382077999			-59.1157231413406	-72.9349185832027	-6.00226627034248	-79.9406409754258
126812500	-26.6588715480928	-56.0216041112239	-2.08652582275343	-33.0425445510191			-69.0000551338898	50.6914873446062	-6.35027030477094	-85.4923613103749
127500000	-26.4724525309018	-56.8048848128621	-0.973033938517621	-37.4183691481257			-53.6936237646681	-33.9801182796486	-6.64868453179948	-90.6829008210494
128187500	-26.8045767141948	-57.0225981031797	-7.31538177111979E-02	-41.9004481256536			-74.4865735532187	3.36952405889262	-7.05759407954681	-96.3933366254606
128875000	-26.0021557795741	-60.7971206729736	0.80457471255049	-47.1244388909006			-58.7468810632168	-87.7555232857477	-7.47414012704652	-101.752803644524
129562500	-26.4460435880374	-60.0766250109613	1.46128422030971	-52.1855571290943			-72.7043885052691	-98.3455609960505	-7.92735123579287	-107.118285524043
130250000	-26.0549243878951	-62.487923625181	2.17033298512444	-57.793869154815			-59.0318750572493	-46.4563034065434	-8.46880076317141	-112.080410539971
130937500	-26.5519960827455	-63.8394279054057	2.68864399573082	-62.9913321794162			-59.2262664681442	-85.1063720030022	-8.81738365900169	-117.053889440993
131625000	-25.8345176583876	-64.8896681783426	3.20951033385264	-68.2680588866763			-59.1274756377202	-31.6993563993379	-9.43644999885266	-121.93790969455
132312500	-26.3944195156405	-67.5869859121369	3.58793023805955	-73.4697594584779			-58.3759083628644	-108.705154794506	-9.79165540193825	-126.542394637522
133000000	-26.1655250804357	-66.4841588829459	4.0159312107925	-78.7016990430735			-56.9738324298549	-59.3246539947915	-10.4475727984286	-131.056254205577
133687500	-26.1636815572989	-71.6306539435296	4.27111700930618	-83.587045646283			-58.9664944889478	-83.2184666413098	-10.8622687183093	-135.578573112587
134375000	-26.0761560179977	-68.9959009109266	4.65230549797389	-88.4199599457074			-54.4225741520795	-11.8933990354227	-11.4175513103217	-140.304870534952
135062500	-25.8064326566035	-71.0710177592121	4.83833632499406	-92.9518525159237			-52.9848552177737	-129.928207644103	-11.8922513935565	-144.843274740119
135750000	-25.9611780725733	-69.0462159854323	5.11979546326808	-97.733492726237			-53.9394823294428	-45.5405287330682	-12.4506977943302	-148.677469075275
136437500	-26.0543244410489	-72.975785188599	5.28535514193078	-102.281760057679			-58.2516151442607	-111.607689827878	-12.9353456894165	-153.161724028827
137125000	-25.9233504171638	-73.3049753322055	5.53505532034481	-106.381498251736			-55.4890740868137	-62.3365643526598	-13.4830439613886	-157.260434437901
137812500	-25.8507071199755	-76.2754719698206	5.64384831299839	-110.674329693137			-62.4853579582247	-108.737206317265	-13.871990064007	-161.408848251843
138500000	-25.9465881285984	-74.6721488282041	5.84982779861469	-114.739419564703			-62.3896750372148	20.5836593500652	-14.3026360642403	-167.313177635889
139187500	-25.6693043028505	-77.4585391791041	5.9521083697863	-118.903102420901			-49.9024726195289	-110.673324119267	-14.8787481784895	-170.977633807061
139875000	-26.0334251097997	-75.7917694595778	6.1257515945697	-122.714378843737			-65.9038553962963	34.6910359154315	-15.2180877933065	-175.685899293583
140562500	-25.9161697212332	-77.9842485497224	6.21077659168416	-126.635094947673			-56.635285956249	-76.4588402799479	-15.6687611135132	179.594374526443
141250000	-26.2343436228942	-77.7678432915432	6.3689243477504	-130.433152772564			-62.7290702530602	-110.239386430087	-16.0887165382675	173.898517135639
141937500	-25.9147609702879	-79.1181242070949	6.41905608744574	-134.292692055021			-49.4589103444184	-105.931514144634	-16.645644789037	169.643525090391
142625000	-26.2479380425947	-77.8253705403779	6.54586591504725	-138.105880475321			-58.7953867872167	-162.876300609575	-16.87648424623	164.452912450953
143312500	-25.6054070884313	-83.1613574422577	6.59075986328542	-141.738743241151			-52.1717995671016	-144.705725830312	-17.3613914265188	158.96460839328
144000000	-26.2006200068285	-80.5087270052847	6.73687194877546	-145.004841717639			-57.5425945627876	-148.696443210105	-17.5533038720389	154.109866826333
144687500	-25.8619024518947	-82.0859282240141	6.75421827879574	-148.712243724119			-57.0224524358872	-73.72673866197	-18.0863303895465	148.050916271335
145375000	-26.3582060158192	-84.2390973839265	6.85227409332314	-152.334183648971			-62.5197430891691	-159.533765662099	-18.2117007655551	142.858109835455
146062500	-25.7451375466017	-82.7729613014192	6.84835744313695	-155.679635653159			-63.5076758115265	-119.5189024715	-18.6081723224097	135.916697188964
146750000	-26.3914956738981	-84.4519479449539	6.94036467282261	-158.921633484168			-51.9030407656074	-130.674111686211	-18.8923444982175	131.456551834307
147437500	-25.9565493959652	-83.1994658624521	6.95812768208664	-162.150678469942			-56.1722400825568	-102.966653466048	-19.0451609358299	124.08691688237
148125000	-26.1805652884459	-87.1310493845732	7.00937689559055	-165.535563245095			-59.3341501381066	-173.751785756067	-19.1560491980655	119.486221123516
148812500	-26.2300248975689	-86.9088678273137	7.02810496762026	-168.788919861767			-56.6498411597359	-127.814215260056	-19.2952646212694	112.876903987127
149500000	-26.2617555479666	-88.4392135736049	7.07463335250604	-171.819772433111			-51.1324836765396	178.327351496944	-19.5628293081949	106.659978133966
150187500	-26.2451246853352	-86.2287025918912	7.08039432691096	-174.815381045842			-58.4878583621878	-143.050609699348	-19.6197976814924	100.340306891895
150875000	-26.1397732477275	-88.6200670380966	7.12098161507929	-177.785760548296			-58.7375775370125	-156.224982292811	-19.6975265831041	94.2485133577191
151562500	-26.2569960483939	-88.5708960146124	7.09475448137748	179.334614352841			-70.2912572873699	-68.0893512633958	-19.5276470017377	89.3431509378636
152250000	-26.3129642392452	-93.0625821071735	7.1353274097783	176.233792875857			-55.5580903176279	-160.714833001659	-19.6835323078904	82.7170265456799
152937500	-26.7450933451632	-91.3030651099526	7.1457997610746	173.624746330757			-54.9607095784591	172.846208815485	-19.5503666187397	77.9391575264665
153625000	-26.4708772043776	-97.0564037057466	7.15941533685682	170.682613052312			-54.6830122796851	-114.227558650123	-19.6291817999426	71.0920644295789
154312500	-26.7971670201811	-95.7529775386716	7.15821238546353	168.13514390836			-66.8729808814786	170.58652366321	-19.3069677322046	66.7546753533802
155000000	-26.2399884886023	-98.4508449079558	7.17304745910187	165.107313983789			-55.3949305693228	-145.301370484425	-19.3925832115503	61.1300299619409
155687500	-26.983377076643	-97.8896331994856	7.13411883505267	162.804011701945			-71.3656663669593	15.646335170632	-19.1160104447088	56.0823400116642
156375000	-26.5966958266324	-99.4403023487212	7.25642799377253	159.792142588553			-54.4862280118292	-138.943421509785	-18.9908759474053	49.5159336228182
157062500	-27.2574540976091	-98.9172466575426	7.18567762549407	157.450033408102			-51.8115918854813	163.244833244352	-18.9741605709094	47.063468416688
157750000	-26.6890319918415	-101.132884344826	7.28357233511013	154.696629871414			-58.5995272055558	-87.7764349067027	-18.7148762384401	41.4817975039866
158437500	-27.1534802085776	-103.045105200355	7.25146393538824	152.174407674894			-57.0271238955597	-177.15580017673	-18.5984645254318	36.9889742774429
159125000	-26.5042858087191	-102.373122901162	7.29700458523301	149.559647022098			-55.986664767348	-123.322137897662	-18.3516733040611	32.3651704465993
159812500	-27.5220469767273	-104.074261084338	7.28748096239319	146.983670166565			-58.1187632277794	172.199909545679	-18.2642312055792	27.4099341374742
160500000	-26.7040958733727	-103.992834664187	7.33586694216133	144.379896315875			-56.6963845528166	-126.170764650267	-17.9623679366388	24.442572101938
161187500	-26.9021777340677	-105.738633059244	7.27256678821098	142.072176989501			-58.5354014021357	157.562854568088	-17.8749844508443	20.118239728028
161875000	-26.7055552259461	-105.562924228857	7.37910732836653	139.385989368009			-59.0437736662679	-161.58011667496	-17.617561525579	16.8133974659842
162562500	-26.8777240100962	-108.73835797847	7.32418317027236	136.798057338673			-58.112681812887	160.024487927896	-17.4760911475978	12.1907924722666
163250000	-26.6951591877632	-107.431910574419	7.36267412683942	134.365155927397			-61.6035913556706	-36.562202890219	-17.1247676747448	9.1724180262633
163937500	-26.9845900136851	-111.899097791917	7.32545198430328	131.964481163366			-59.6150282640959	-172.484261919141	-17.1551418520812	5.12282162965915
164625000	-26.7810568311906	-107.20447549288	7.36447640538923	129.443684106977			-56.6504490095048	148.830238120101	-16.8025715341449	1.36309012079784
165312500	-26.8585514339521	-113.8109831506	7.33721057838716	127.002615784935			-56.0512288622386	158.958782803096	-16.7352063785691	-1.37082525436222
166000000	-27.18515825018	-110.094330349589	7.3719106577136	124.451278250319			-57.8369471895452	88.85029493106	-16.4276268778277	-4.77974306396995
166687500	-26.919531704524	-114.985390958352	7.32545113157276	122.140221062852			-56.2935686053182	-135.935567483817	-16.3505719764563	-9.02700920856173
167375000	-26.9480027330415	-113.124076435133	7.37316417082152	119.9987286127			-65.2246625187578	67.8601278136716	-16.1518800696617	-11.0298434184981
168062500	-26.7991606118997	-117.054681248372	7.32063671715634	117.621354413311			-55.1392520728816	135.758675758245	-15.9166300133524	-14.8731800703429
168750000	-26.9876267782122	-116.079291158801	7.35505643110749	115.193946648829			-58.0876974795639	133.121829929103	-15.8724730667808	-17.5404421359557
169437500	-26.6041655256768	-116.608310065498	7.27064371824624	112.936410217108			-55.6171209041347	164.6761108013	-15.6419538777153	-21.4578868958022
170125000	-27.0309259748913	-116.110571181967	7.34943904795818	110.623550256468			-55.35016547741	109.732145555373	-15.589639976331	-24.1105427856977
170812500	-26.6744212750664	-117.428358020419	7.25617594762706	108.403647782039			-56.1953709890418	-167.080799346205	-15.3763307955192	-27.5476929325857
171500000	-27.6817427652596	-119.151174471736	7.33476591904583	106.281144219828			-56.8023349392839	109.182204106441	-15.3576648833856	-29.7982982647991
172187500	-26.6987666736312	-120.532075024821	7.25723455240096	104.148516456488			-70.3022776133782	-53.9439978024213	-15.0828477113625	-33.2750865688181
172875000	-27.5997027184863	-122.620831533014	7.34180494465895	102.134931213916			-56.5327320095311	122.924230067769	-15.056809289332	-35.9742334666797
173562500	-26.9277861203032	-119.886067321254	7.25473207913557	99.8654106983664			-64.0963278223365	170.431561589814	-14.9153345722707	-38.8659483176157
174250000	-27.0364191194491	-122.252429496592	7.3190930765458	97.8077976255599			-54.8590468615272	107.841020346922	-14.8236253028609	-41.8486868757023
174937500	-26.8044393317306	-121.665314276476	7.27736547333113	95.7092400441357			-69.7460840571801	116.673131531798	-14.6869577951822	-44.7655387766964
175625000	-26.7777453691464	-125.158456895922	7.33485977908755	93.6137570344361			-52.8880946757133	127.882073498951	-14.6220711851895	-48.3938675464636
176312500	-26.7625380643061	-124.453548701627	7.31533489384289	91.6832671782028			-71.3683524826743	-160.97606552218	-14.4459257574229	-50.5795769666194
177000000	-27.1152762953818	-127.90374917802	7.38598326455196	89.5729800420765			-52.0945516851417	142.422621208185	-14.3554920837891	-54.2418801058733
177687500	-27.2554840478466	-125.609927887053	7.34827779839739	87.4908715994404			-59.028496979365	67.3048591790936	-14.3392773115972	-55.896728852469
178375000	-26.9979446499509	-128.839254298408	7.43520452110875	85.38409496121			-60.2571925682264	131.465758518383	-14.243243615404	-59.4914400432645
179062500	-27.0003820004255	-126.674336919616	7.38988133593744	83.1452893322014			-58.94055107538	-139.984664912676	-14.2143282087734	-62.2560634748941
179750000	-26.7997528819652	-132.371436000525	7.4330670999785	81.1004860823019			-54.0476032738793	172.230760011539	-14.0183947969279	-65.5095465485511
180437500	-27.0163943603485	-128.869038229681	7.46169921590754	79.0056683479428			-56.4858618567325	70.2169562728504	-13.9530383566065	-67.6720128800602
181125000	-26.7865014426069	-133.892512820889	7.48814866760232	76.8667918382314			-61.9723006476113	104.307862862953	-13.797651012525	-70.4962111506854
181812500	-27.4351797897476	-132.351859085933	7.50546583991429	74.6002427564947			-53.3299925858142	74.9748531239972	-13.8534116041345	-73.4575386542121
182500000	-26.6838790176289	-137.882922145241	7.57480597582939	72.4671655215067			-61.6868440416161	93.5190800122852	-13.7926532661127	-75.9064558996641
183187500	-27.0768568479476	-134.957126629175	7.57690584679279	70.211564575006			-57.7680318243214	81.8884856412465	-13.7154618104592	-78.9315166345964
183875000	-26.870288510611	-137.214762525217	7.60953403673178	68.005246677084			-57.0201053675201	-148.672712342554	-13.7033361802243	-80.9565746460864
184562500	-27.0061816696405	-138.663927064198	7.57140830688461	65.9301276603887			-62.5704343873134	49.8083925907971	-13.7160084839139	-84.2363872765877
185250000	-26.6881723025833	-141.514771975541	7.63024999006146	63.7342588395132			-58.5156819266165	-111.664726394973	-13.5132415064544	-86.5633858472627
185937500	-26.920203893929	-144.185418220502	7.59365386970416	61.433849133689			-54.4658182384681	98.5776593531147	-13.5899305126334	-89.4610475954049
186625000	-26.571845043826	-144.558957578171	7.61161132416657	59.2485780886803			-62.9165803749995	-46.9277848625378	-13.5399214181779	-91.2913206170069
187312500	-26.8343926745431	-148.536221313178	7.57872849067261	56.9982385571727			-54.0286814622095	85.7930736773798	-13.5196496724721	-94.4459340475477
188000000	-26.6446987759424	-146.520477603978	7.5939206751781	54.8381583636108			-59.6452347185325	-144.791463598057	-13.5012272207283	-96.187294323953
