# Hz S DB R 50
100000000	-26.9260508132462	-13.3132628624799	-26.9957059298238	-7.29250978720307			-73.9671418832055	106.312585201264	-3.51850538111374	64.6933065250799
100687500	-27.4019800311417	-15.2546898833606	-27.05971173335	-11.1499460547438			-56.3192649597875	170.60946569807	-3.49058884258636	61.8642093517749
101375000	-26.7078979546347	-15.3920555889033	-26.3137496330773	-11.675324544777			-56.7869981173878	7.43433364023689	-3.53412730160099	58.9237687307136
102062500	-27.0755404093358	-17.5108732081586	-26.1698496129026	-15.3031965310958			-67.0692007231618	-48.8888891735821	-3.55452432600507	56.0138739590942
102750000	-26.7762797229035	-15.8573606111065	-25.8567324541011	-15.4025264711894			-57.5828201459539	-16.397164408004	-3.5701680956319	53.3164950756802
103437500	-26.9898722210258	-20.1305093521383	-25.5434530643989	-19.7419579901004			-57.8434381887269	-149.785402001659	-3.57057671177173	49.9575317838058
104125000	-26.9126075025998	-19.4934595462023	-25.0891504430433	-21.8317302163643			-62.3153302047378	24.1310271214064	-3.60021791774558	47.4768885147976
104812500	-26.9572064091167	-22.0132735270397	-24.7794331912368	-24.8623567796223			-54.2674430873121	-30.8311804851211	-3.62155665483977	43.9897757792747
105500000	-27.0635155173805	-21.0827131250401	-24.4754373324467	-25.8413350396559			-58.3383969401961	77.9047142396715	-3.63552132767915	41.2583752326413
106187500	-27.0433429193238	-23.7369067258662	-24.0055171737346	-31.0064494285804			-57.8660744777117	-57.2244147485694	-3.67021318553642	37.9143035503277
106875000	-26.9941849402102	-25.0816493787542	-23.9374572925781	-33.2003467509639			-59.8397196197853	96.450843327022	-3.72845409502744	35.0413354229287
107562500	-26.4104646270125	-26.8575547318952	-23.5796021865384	-37.8450192288829			-56.2600140427587	-5.57285002516944	-3.68619726237868	31.4690035363272
108250000	-26.6544433055773	-26.3278769906192	-23.4173140297861	-38.4242498630622			-59.6834761519074	139.138703611945	-3.78877254346177	28.8422970483187
108937500	-26.6124004619009	-30.2354332165324	-23.3002068434982	-42.2721746779979			-57.0623988916856	-44.8096835149213	-3.76826430262024	25.2759244115211
109625000	-27.1823521130154	-27.0769983272951	-23.3555867891508	-45.3681509710756			-62.6278549407929	150.655117403344	-3.8707131110794	21.9992798802679
110312500	-26.5789956247306	-30.9533856350306	-23.0315647964128	-47.0690398141315			-62.3187150147757	-109.264746392563	-3.88886544285357	18.8307240332536
111000000	-26.8878771685181	-31.716899098034	-23.0418736868395	-50.3049164038205			-62.0835069447686	140.727594535882	-3.9781428164945	15.4667084750634
111687500	-26.4904208059901	-34.9500126437041	-22.8727605167929	-52.9757923090785			-54.6267901823364	43.6351575230445	-3.92926638822673	11.8577215904116
112375000	-26.7116607502624	-32.2175466666876	-23.0942718554723	-55.5117654381075			-63.2624322964383	90.2859311068374	-4.04507185028107	8.60454363762817
113062500	-26.6006020892412	-36.9303780647864	-23.1327761727307	-57.5458797957339			-66.8610297493822	-37.7247894738836	-4.00431852884702	4.90293537448448
113750000	-26.8864744288205	-36.3518535060699	-23.3075889896002	-60.9987443834913			-59.7290235812652	-154.146869318156	-4.10162711323082	1.49071753754205
114437500	-26.7595921316566	-38.6155352980414	-23.4031827061592	-62.1441475991861			-65.4347207437509	6.59517859364771	-4.09201220283675	-2.03871811862731
115125000	-26.7520640394417	-39.7758577866535	-23.6646425188309	-64.4198363485496			-67.8520445207376	-166.02349547314	-4.17249212086015	-6.203006353058
115812500	-26.5195212679816	-38.3020851940108	-23.9738945093487	-65.0962692973342			-57.7312369895431	28.6397998635034	-4.17905181999046	-10.0043335032269
116500000	-26.5397677927079	-41.8650454125156	-24.125746155907	-66.2943925444218			-59.9396722949468	-142.022303040296	-4.18390643881446	-14.0856978976617
117187500	-26.4268706606748	-44.2270065686908	-24.662267248337	-66.7877858242921			-57.7334918597046	93.3422388888908	-4.24534021190508	-17.8701680955699
117875000	-26.4653103532933	-44.888525876623	-24.8605390341114	-66.5689282650312			-59.3328164575947	-46.6484122687818	-4.30272299627348	-22.0526623243252
118562500	-26.1877213299311	-43.7940897038059	-25.5319326909349	-62.984939772793			-58.6192922996545	124.422478961063	-4.31253432819849	-26.2762459103607
119250000	-26.4899206084628	-46.8437296035195	-25.862320477336	-61.3897778373546			-56.6107025394833	-119.138314436263	-4.41993811420509	-30.8267854881323
119937500	-26.1757122678967	-47.5551068227999	-26.4031971879313	-55.2796514540311			-59.2857026257145	149.51229279188	-4.44988766570979	-35.5110352849008
120625000	-26.4229595737811	-50.4031782350619	-26.3618240577564	-49.3867477804424			-57.1096327540623	-11.7147329485016	-4.47887688807048	-40.3296519071045
121312500	-26.1115416035243	-50.7225562502987	-26.2601752973462	-40.340019569861			-64.999692006401	-25.3902798905601	-4.58372237213322	-45.2101512555926
122000000	-26.3445137690136	-52.6033175885314	-25.0155309787412	-34.3602422634822			-58.6959259938691	-35.18695569451	-4.64081129701796	-50.0541231829572
122687500	-26.2849456039469	-52.1666219191154	-24.2354207408819	-26.091708286606			-67.9598105918223	5.04590706007833	-4.79761195036054	-55.477986106108
123375000	-25.93539642864	-56.2308619354601	-22.8138103740577	-23.3240392868997			-71.4623399871749	0.905985125888938	-4.89640505904518	-60.8235887735805
124062500	-26.2030044602318	-56.1275884673561	-21.5008555791084	-20.5466575515279			-60.8935300879971	81.1712673446261	-5.06743388942725	-66.1530854264315
124750000	-25.9981253118376	-58.4674448356197	-19.884242345148	-21.6083124319741			-55.2129858224811	-15.468006529261	-5.23107414084021	-71.6461943480325
125437500	-25.8001650369376	-57.1300984207598	-18.7031854938706	-21.7606036334115			-58.2681473870741	-169.905212770216	-5.46085208239351	-77.7005875413574
126125000	-25.8447447337994	-60.6615859768594	-17.3289467484882	-25.1374425419287			-71.0415659576145	-35.1596046748527	-5.71866837454329	-82.9162455902545
126812500	-25.6546433668012	-60.699721777034	-16.2840571616979	-28.5018300301537			-62.6390244626885	142.561908414667	-5.97764705567918	-88.821119519695
127500000	-25.4471770800919	-61.4402627463841	-15.2151419486584	-32.7924103453094			-57.7521175268569	-56.0604804182576	-6.300943589931	-94.1487570788067
128187500	-25.5903890090818	-63.6476969859965	-14.2982265548914	-37.9172556336866			-55.5528839059649	-167.413580794332	-6.59254375828277	-99.9382567152799
128875000	-25.5169174095723	-64.0124368372809	-13.5035602572214	-42.5354701071344			-58.1439581891377	-17.1088174464164	-7.03429994558772	-105.536269104844
129562500	-25.504274205969	-65.9239527421724	-12.8036961181534	-47.3068193585478			-69.3688741274778	-153.149786124132	-7.2932903751996	-111.241098570234
130250000	-25.1420794130789	-65.6626135706964	-12.1505902773952	-52.1942621887783			-66.6303127483081	72.8249898903917	-7.84412160651159	-116.464725515807
130937500	-25.3565326669608	-68.7549027164104	-11.6403900869019	-58.0433605302217			-61.550970013368	-52.4545973869938	-8.14635502630309	-121.460556424457
131625000	-24.9782798708452	-67.6047302208729	-11.1383751427894	-62.4768939406371			-56.5053845521306	88.4707920343838	-8.71853052401121	-126.638580470104
132312500	-25.2329641636231	-70.4332083420266	-10.7065981611045	-67.7439216937781			-54.9607455798829	-114.020228651785	-9.06269771250908	-131.753686164205
133000000	-24.9769015305834	-69.8542934132577	-10.3595235555434	-72.1833038745966			-60.7332298602447	56.9185114091179	-9.62519722629105	-137.166200710377
133687500	-24.8161034383274	-74.0130246623314	-10.0018793863437	-77.3094591748033			-51.7553249487537	-80.9498824874899	-9.97625915891791	-141.63045565195
134375000	-24.7825687913812	-71.8246152794086	-9.70798602418886	-81.6481001037538			-74.1990833789876	-109.770874086206	-10.5144376613212	-147.303734213551
135062500	-24.6474390968609	-74.62766208077	-9.44545821632864	-86.3081223084156			-58.6923522011074	-50.5311141195063	-10.9613669703122	-151.764021234664
135750000	-24.8526221954217	-72.7542200983832	-9.22574059078989	-90.5467875685203			-57.4478007197749	141.128975466583	-11.3925296873591	-156.361235383483
136437500	-24.4517750375023	-76.1845265132848	-8.99555877990485	-95.1053236654719			-65.1458457400706	-88.4373939325768	-11.8410019973192	-161.355810437796
137125000	-24.7661104407438	-75.6303037452486	-8.76709286113979	-98.8901389381781			-58.574267009387	153.868825060819	-12.3287240107314	-166.448281380748
137812500	-24.2499231994857	-78.4712858116615	-8.60597197845389	-102.995996178882			-62.8932684331553	11.8041883598822	-12.7251709469736	-171.291013960365
138500000	-24.1632729062379	-79.1869242094353	-8.42367589634456	-106.997262378507			-65.4822323838154	-176.627837533691	-13.1340148467452	-176.530023053603
139187500	-24.2728840872374	-79.0826349273548	-8.27069526204597	-111.268671106169			-57.1231598297824	-21.9268766451528	-13.628412995769	178.728896160902
139875000	-24.5968941921025	-80.2875511200667	-8.11804553761166	-114.943688914268			-56.8441568964663	-166.220412841767	-13.9658650355919	173.776434422324
140562500	-24.2284940236239	-80.1758218812242	-7.98386529184833	-118.652017149988			-71.1377059689516	-12.9379405352019	-14.4496877512166	168.288987923393
141250000	-24.4206513116275	-83.2067539017709	-7.84023071733761	-122.419218222377			-64.6626026137371	-170.957899491091	-14.7637771347931	163.908804849068
141937500	-24.2257582698166	-82.4347213669732	-7.79712016658021	-126.29424582942			-57.4465904433681	-61.0139839193984	-15.1805998561507	157.311274276914
142625000	-24.4350030862117	-83.8549943773814	-7.65940197413038	-129.947789795989			-58.5971767150149	-154.721523692941	-15.5298322604725	152.685433619697
143312500	-24.0301989888749	-86.2291144398344	-7.57295921783789	-133.574077070097			-56.6065957596482	7.8895978741246	-15.9283775111015	146.203493420828
144000000	-24.1833198019267	-84.6959247818078	-7.45827621432413	-136.610533351267			-60.510601082814	-169.486864121988	-16.2225119287305	142.016377725757
144687500	-24.262654041965	-85.750050674256	-7.45424907529252	-140.443503946166			-60.8797362702286	36.2587724652747	-16.5189118582634	134.665622779688
145375000	-24.3087760998437	-87.7001190067902	-7.34346237099134	-143.976059549102			-63.761018919178	-79.3785395643511	-16.7225016425231	130.403096142436
146062500	-24.2357091778521	-86.7284222496942	-7.33752554303401	-147.486727800561			-68.709128187099	136.254543232141	-17.0324537657077	123.421717341499
146750000	-24.3406804676306	-89.5147411042788	-7.21070252146171	-150.511023905961			-58.182497496308	-150.021005871865	-17.4334281944098	119.240358236761
147437500	-24.0512485580808	-88.7598964283201	-7.23578645075213	-153.696121929553			-62.1585563047363	-44.3321805774471	-17.4533292311719	111.957481006397
148125000	-24.1427059179409	-90.7980960949371	-7.19124725849255	-156.801647573139			-63.8659168107126	-125.003081124044	-17.7085353901159	107.187348677649
148812500	-24.4042469488262	-89.8616351072711	-7.1925974545991	-160.01095936081			-64.03117994991	-157.725438231119	-17.767927782332	101.137111557163
149500000	-24.340153306897	-93.1976266674986	-7.13046646377725	-162.981217760747			-52.7249813971164	-106.739425163965	-17.9958094413928	94.9501857293219
150187500	-24.4997420776841	-93.0782240078986	-7.11698690598741	-166.300973512975			-61.4893066023605	164.659862496798	-17.9967090860366	89.1685779677063
150875000	-24.391002169742	-93.2175960365398	-7.07929599676666	-168.661220210494			-54.7254827079708	-115.299140774513	-18.2470236111224	83.7593630403557
151562500	-24.3730626877469	-93.5778972099963	-7.10668005469411	-171.776054889173			-58.862086947468	136.397441080909	-18.0310237973193	78.3507637152621
152250000	-24.3448883532399	-96.0055059183288	-7.07516931351634	-174.27171116311			-69.7109567183685	69.8888376521912	-18.266089932718	72.3267553816748
152937500	-24.924115885552	-98.1509771668742	-7.02233684516847	-177.285112011743			-52.9017335245887	131.059672441422	-18.1149793859395	67.400387067181
153625000	-24.799580218626	-98.7804728088767	-7.06902406833037	-179.755068408165			-51.6327711158724	-44.7009556266115	-18.2466046741739	61.0134357642588
154312500	-24.8146299797817	-99.7215267677303	-6.97809595289766	177.425735898681			-67.4191048145065	126.496172472496	-18.1046262506957	57.3957616460614
155000000	-24.4600453948124	-99.783475964795	-7.0092611167455	174.775947759745			-62.8756166832039	35.7470498012868	-18.0709633536387	51.7412798067042
155687500	-24.8306894705869	-101.841497562049	-7.0197257742213	172.344990458325			-51.1956360721181	165.650203901415	-18.0060068584961	45.9607382240987
156375000	-24.673201698613	-102.884117785386	-6.96256549618768	169.739788855682			-61.2489535758091	107.51996441932	-17.9154940318893	41.1310505513473
157062500	-25.0445513964884	-104.257185668441	-6.95683909561091	166.966907405455			-71.4906417317419	-177.54680182402	-17.9257509279994	37.1145657589883
157750000	-24.7048711259379	-104.048863361023	-6.87496214958663	164.529663840245			-56.4223799451246	89.9472519611997	-17.6658235949566	32.8293208605391
158437500	-24.9540730708605	-107.968228884372	-6.9043889110377	162.037655880769			-52.4349856275636	-179.081971983022	-17.6166846912516	28.4716531071507
159125000	-24.774125087346	-106.357580196589	-6.89253366686796	159.528370285851			-54.2162216055471	75.385099746561	-17.3472328739581	24.565316518899
159812500	-25.2716138446504	-110.973641257741	-6.86675743626009	156.841612892598			-53.0177149004752	-138.705632925253	-17.424779963046	19.2671829173586
160500000	-24.8421255995845	-108.554777747562	-6.82390456441658	154.48630838162			-58.6385754312928	121.803219862038	-17.0812288481907	16.2115078701289
161187500	-24.7485972667011	-110.300985511968	-6.88149792347345	152.328771657826			-73.52844667045	-170.252330191917	-17.1263890937864	11.8541765015073
161875000	-25.0168033784384	-110.853572413983	-6.78806103698973	149.601498872819			-54.8394873806376	-25.3343158448549	-16.9902891237904	8.22263084332247
162562500	-24.6195361342661	-113.903009503364	-6.82726922429566	147.117197970005			-55.380588417889	-154.390928241141	-16.8801853269771	3.65714010969892
163250000	-25.100855001345	-114.150134378128	-6.82470697247152	144.53160722544			-60.5123345488823	66.7107986145692	-16.6672714374447	0.970800474751546
163937500	-24.8084016569327	-116.451851392583	-6.80757649863016	142.612380576267			-71.9817965439385	-22.3324528050184	-16.5135597203369	-3.63790829845667
164625000	-25.0789666953257	-113.958803842749	-6.79633756831304	139.83847968455			-55.3822860223956	39.5918930789876	-16.3441649445975	-6.41626213422378
165312500	-24.9356868098938	-117.186658541307	-6.81665015789085	137.480186544722			-70.4514389727176	-86.83023147464	-16.0894936308899	-10.660499391028
166000000	-25.0167010175576	-117.062936316647	-6.79339742633949	135.144675003235			-61.2163748954679	157.56281709917	-16.0860505376628	-13.2318449961708
166687500	-24.6815761355964	-118.867635212202	-6.8495808301798	132.951876693603			-63.4996194363137	-66.0434905021759	-15.9110299720943	-17.0309409400051
167375000	-24.9369400280737	-120.014808364872	-6.77849969952382	130.784778028058			-65.4819280501472	161.99155087445	-15.9333769418225	-19.8279607433219
168062500	-24.4348996610716	-122.355254534122	-6.83061175786199	128.389990875209			-63.5365247517704	170.390547077205	-15.6052196508928	-23.4229298674458
168750000	-24.9348462183655	-121.582932575697	-6.7689507518364	126.398226079028			-61.3608529089197	-125.033661259495	-15.6464110161274	-26.8358037090471
169437500	-24.5790272822346	-123.517387409478	-6.87881106163662	123.73868841352			-54.9816892731133	-26.5635915966087	-15.3243172185277	-29.8673524360221
170125000	-24.6771946372639	-122.792203236405	-6.80571615605614	121.860787948837			-58.0121648800414	171.913992492155	-15.4904826760686	-33.4319003238162
170812500	-24.7022058424916	-123.219143309877	-6.86983066338084	119.544367225172			-60.7783520281223	0.955772828986563	-15.1552096802198	-36.0983137603914
171500000	-25.0506050450596	-125.614330017272	-6.80813553016996	117.620734338655			-56.1445946676917	159.36598151145	-15.2626935849029	-39.0919361403191
172187500	-24.5359701069825	-125.42454311526	-6.85277270360549	115.424940634219			-65.3830592498683	165.600452316839	-14.9224756189653	-41.5613507513565
172875000	-24.9055486931241	-127.552895006326	-6.81345188093063	113.60517019336			-58.0408346183764	173.427609399567	-14.9482278039269	-45.3099283000587
173562500	-24.5803161509239	-124.916370116113	-6.85430702045906	111.157817413161			-61.3395396136515	43.2063448122846	-14.8024788676064	-47.602069479155
174250000	-24.6699330023189	-129.320457725297	-6.79750905224998	109.475730161016			-59.0696100609078	-139.508106298083	-14.6767758969153	-51.6935518297562
174937500	-24.8183518692509	-126.363462889366	-6.80620950649245	107.109125756606			-58.1291577242854	101.393469158988	-14.6516271418535	-53.6557583375179
175625000	-24.7058072762239	-130.738068923768	-6.74387339136914	105.339718458177			-62.1972946244383	-179.470867683939	-14.468438797263	-57.3348245643087
176312500	-24.8734655264229	-131.141689791428	-6.7524390171617	103.266833230796			-57.089854951994	57.5682781923668	-14.4231188309978	-59.7826560377205
177000000	-24.9128416218945	-131.789672705517	-6.73791288510566	101.641022468812			-67.3071731923489	109.892975628086	-14.2364607171576	-63.7652164770975
177687500	-24.9227198658935	-131.368297789922	-6.73012841811329	99.2935696334959			-60.346550102488	39.830668232774	-14.3289105392984	-65.7119548611407
178375000	-24.4249274963459	-135.046251253806	-6.69840033179346	97.3909410230705			-59.6790012633038	-39.0902086659078	-14.1354464033104	-68.7443657348711
179062500	-24.894542652649	-134.178894186836	-6.65665562626131	95.2724903686615			-56.0927618491217	124.301753377833	-14.1538431986857	-71.7812835462127
179750000	-24.5645902917836	-136.155815437664	-6.67659837596295	93.3404692437119			-60.4887805039146	-153.624625233019	-13.9519130702484	-74.5678673933822
180437500	-24.6541122470826	-135.234276058249	-6.60380374561846	91.1151016545305			-63.3942765784759	-70.1180075607739	-13.9874269163188	-77.7049724322936
181125000	-24.5513750042728	-137.272832771225	-6.60416591616055	88.9884658802141			-59.1151384015462	-31.1103961858039	-13.8545489641371	-79.8163258840687
181812500	-24.8507361955922	-139.021223423868	-6.58749179928443	86.6590098592034			-61.3825569425841	132.912950107916	-13.9361376137991	-83.3849715180831
182500000	-24.5628903067479	-140.558539390464	-6.53007586314232	84.9844678717269			-64.399312415708	7.21567964845746	-13.846414414777	-85.3156489036568
183187500	-24.7990881906899	-142.419631025709	-6.49881828507062	82.4181529058782			-60.8654095747134	144.895843686604	-13.7286920404374	-88.8894786192834
183875000	-24.6724073754965	-144.179992263026	-6.48351297726372	80.4069986030492			-57.8757859824671	-0.555851611632172	-13.7760537987105	-90.1856903424757
184562500	-24.5275697297228	-145.85593816903	-6.47020283624885	78.4804714836233			-61.104735073632	143.470514323511	-13.7536415185086	-93.8469548607798
185250000	-24.646209310553	-146.21669989948	-6.47368404676314	75.9966042216855			-63.5108257176257	-3.49715241754161	-13.6693569478069	-95.954033272549
185937500	-24.6870342557085	-148.570366345826	-6.49334760984969	74.0521323086011			-61.7381325139473	-176.391410170216	-13.6414339358369	-99.5116329100395
186625000	-24.3481854753729	-149.945222880481	-6.48962721322965	71.7418312367244			-68.3346718953106	-2.07944283444064	-13.6775851787631	-101.234625408344
187312500	-23.9161768503546	-152.797698930252	-6.51504724121974	69.7618678761495			-67.4216438512184	-81.1733990237567	-13.5197757497621	-104.195589002811
188000000	-24.2856773959567	-151.801764550137	-6.514182607739	67.7786492365974			-59.282726190232	51.2661670760319	-13.5730054987202	-106.331893041977
