# Hz S DB R 50
100000000	-32.6035643846974	19.8630942520335	-6.17079839793797	-15.071761995225			-58.2101056411544	-158.19508054188	-3.51556545243278	64.5803995379465
100687500	-31.3021657653968	24.684430035435	-5.69552083663549	-16.7681120773665			-57.284631563078	4.93382051514322	-3.48824425028371	62.3137285997911
101375000	-31.788989845944	14.4725331323575	-5.33592185014337	-19.1791225266785			-59.5705770898721	-9.35443346009282	-3.56087383323946	59.0445363537372
102062500	-31.1177785929845	21.9300769735876	-4.94822693351994	-21.4333310934167			-69.1839289465155	-28.3246695417211	-3.55232399228707	56.4423737168184
102750000	-31.2031593186996	15.3164460030378	-4.56211965156917	-24.3287004017201			-55.5922990557734	-101.365533338911	-3.56483180239315	53.3897827183354
103437500	-30.7283978521842	19.837669526316	-4.23014394319526	-26.4187484527532			-71.4864023727128	100.126501533102	-3.55527791106636	50.5296927963327
104125000	-30.3978663386811	14.9257800941591	-3.8680948273984	-29.1730726649964			-55.2329149019785	-33.1216368078543	-3.61065357488449	47.6216021798881
104812500	-30.2674584763131	15.8829305999242	-3.56781437590415	-31.459637327229			-65.6743318360318	-25.6279159232177	-3.61372551739247	44.5784927598543
105500000	-30.0133489719161	11.6689943324806	-3.22424114333674	-34.551744183675			-58.8118461254873	-55.0512366663525	-3.64022422768817	41.4914169142384
106187500	-30.1978474888184	16.3412018801755	-2.97236228639495	-36.8486535378604			-77.2522153012975	89.648419420464	-3.64430593503255	38.6011939585397
106875000	-29.5306398555318	10.778957144307	-2.70819851907348	-39.8474678503945			-52.8230702156872	-62.3510378482175	-3.71578331577382	35.1460614286909
107562500	-29.4364543660665	11.8362290718336	-2.51458071054462	-42.4600652229916			-64.7171710946318	177.67903025528	-3.6929384039626	32.191260529102
108250000	-28.3782927500003	7.25321715602769	-2.25425643153298	-45.3248477486219			-55.1072277111111	-45.3500532113333	-3.76990423476967	28.8534364722021
108937500	-28.8602919875337	8.08095584362052	-2.12860362857194	-47.9419504519162			-74.0062559999501	-159.611701132297	-3.78306558805918	26.1241980796431
109625000	-28.4082639158243	8.17268149910079	-1.94707402896741	-50.7663065327445			-59.5287887025565	-17.7940003150323	-3.82928455725356	22.6573937812373
110312500	-28.2519865285876	7.27829884839313	-1.86108465229367	-53.5832240593481			-62.0171850649378	106.306718784065	-3.88505343073295	19.48002571112
111000000	-27.8684109548472	6.02363058388144	-1.77410165679489	-56.2426711691317			-65.4427432921008	-10.0391860937388	-3.93141154600676	15.8619523953119
111687500	-27.8047588740732	2.83533127432272	-1.7928004844556	-58.7656658760954			-63.9308007352537	-24.405974673651	-3.9676155018265	12.7314096688637
112375000	-27.2091372021558	3.62901168902583	-1.73320240075621	-61.3820633999071			-65.9299363002185	41.5222845760124	-4.03214392630512	9.35665646046923
113062500	-27.5320821039831	-0.285181394478761	-1.80806340806044	-63.8638743280196			-56.7863308055259	-128.662681710075	-4.00567423033991	6.05138520050088
113750000	-26.7807197646607	-2.09555603218408	-1.87435782091448	-65.9377260578584			-55.7020986876159	-54.0953250834427	-4.08682105178572	2.41243756447756
114437500	-27.2109964259298	-5.16293185372434	-2.02269804300333	-68.0282865634028			-68.1792062075214	-66.525372672136	-4.0748193344381	-1.09969782295965
115125000	-26.8568984448999	-5.08572713490302	-2.17496802766998	-69.8147808254546			-67.0660914433395	14.3797559044315	-4.16781178270165	-4.80704533616224
115812500	-26.4871508762063	-7.29407836005044	-2.41273267331542	-71.3144607180243			-54.9518112988201	-94.189016169596	-4.20020861429934	-8.89692585150225
116500000	-26.2531768331394	-9.35964491139012	-2.69345508821865	-72.2579596787168			-58.8046947323103	-4.06173543880778	-4.21739581037128	-12.878755415476
117187500	-26.2010544684831	-14.4025566574948	-3.05366337243075	-72.5884487028633			-65.3543002252406	-18.5834959074041	-4.27414629031018	-16.5218264560318
117875000	-26.1880832319905	-13.6429464003447	-3.47735955855717	-72.171799623172			-59.3718023046307	41.2323900764059	-4.2917179605717	-20.873777768677
118562500	-25.6100278245062	-17.5525338627657	-3.89698051236619	-70.4849994353906			-60.4400074367296	-73.4221096481748	-4.38628999324004	-24.9543120587079
119250000	-25.4340543707278	-20.2808376700534	-4.3119545754707	-67.3879623241941			-59.8525092982742	96.4780157565404	-4.44213013484869	-29.3796508334391
119937500	-25.2714026874358	-23.1455275561835	-4.6448817422813	-62.2936568235515			-63.7294207461645	-38.0329304845818	-4.48299657867921	-33.9151872964539
120625000	-25.4724808037039	-23.8544648403182	-4.71861249193393	-55.7399395432876			-66.24882854126	92.2630505672882	-4.53435861601866	-38.6919127544567
121312500	-24.7108785035798	-29.5629069729281	-4.4135677924843	-47.7865590151862			-57.9335210110936	-112.565750056005	-4.63614799559166	-43.4629615105685
122000000	-25.2350968492169	-31.2124217699645	-3.69813962519023	-40.3493973399874			-61.1156852424352	-176.598227192001	-4.75941332372147	-48.5998672053869
122687500	-24.7509821188578	-35.7827925728551	-2.53494855843308	-34.2182366374592			-65.5719759454962	-66.7864951485282	-4.89665505176267	-53.3867087305031
123375000	-24.8237039135018	-39.4034225031767	-1.17590918715942	-30.3225871042776			-62.0472021806605	173.069599607569	-5.02688674026737	-58.7911483601959
124062500	-24.3672820870592	-40.7756774768404	0.238323496584726	-28.0682023772881			-60.6020567100392	-161.330434766447	-5.22760896310576	-64.1349372862845
124750000	-24.6136590034718	-47.0297498675686	1.72977267490859	-28.6428976470365			-64.2683628661786	-163.253351119848	-5.41659515308095	-69.8129828840652
125437500	-24.3505837553218	-47.9066134023564	3.06543845802741	-29.9751724164568			-55.8042258704982	-1.46006516699029	-5.6111602317212	-75.0946467710597
126125000	-24.7476053268926	-53.5939211187025	4.35194029671035	-33.1637564812782			-66.8654528586605	22.1119854159833	-5.91925576310588	-80.7946978378888
126812500	-24.3553040433988	-53.001664580734	5.50428911372426	-36.5094148564279			-60.7385093469765	-28.6630406155549	-6.20035074760734	-86.2749951434547
127500000	-24.3377277325176	-57.5204119238738	6.54067391569209	-40.8474306907318			-64.0020207606673	-105.018473816664	-6.56839851573542	-91.7849250626168
128187500	-24.4593527954989	-59.5618725191168	7.4449441101238	-45.5664899274073			-52.9751081812427	-34.5940362706177	-6.908560150366	-97.0047065889578
128875000	-24.463872976749	-63.8801706374315	8.28824318583197	-50.7931650042672			-55.9180236626807	-63.0622364571578	-7.33142581016659	-102.822683308557
129562500	-24.7336336544134	-65.4210972472855	8.98366883454918	-55.6728731197314			-54.2981402020116	5.1556062988564	-7.7141569979008	-108.057471418975
130250000	-24.4598433164975	-69.7927556771158	9.67028212166113	-61.2270760595321			-50.0700129177504	-61.2453888065272	-8.20773169719543	-113.287539771443
130937500	-24.866286870567	-70.1291058572814	10.1930326720618	-66.5012884432847			-51.614212189772	-5.0738272885307	-8.5715602982609	-118.082400003972
131625000	-24.6774564612369	-72.9477163314503	10.6813090540869	-71.8378670910283			-52.5225120859263	-62.2510851966507	-9.19025193827567	-123.034883109426
132312500	-25.0330380268803	-74.1424658047864	11.1105101346258	-76.6227651209849			-55.3156459321985	-70.5210817172171	-9.59011122157856	-127.678629628965
133000000	-24.9716847814481	-74.9873411139039	11.4749123797658	-82.1490091834619			-50.9836142450838	-98.3210411882238	-10.0761648562673	-132.741798923544
133687500	-25.0899867529532	-77.6810302105778	11.7757507442782	-86.8419047228512			-54.0538418514438	-55.3530702961862	-10.5392421138148	-137.098024599117
134375000	-25.2671906327908	-78.1921883732453	12.1254141812828	-91.7699500393897			-49.9987036385194	-68.2410345354099	-11.0409930396293	-141.907189941451
135062500	-25.5159851728284	-80.4631861862365	12.3288056501349	-96.1212590724725			-55.0034718038103	-57.132898537117	-11.548811886775	-146.315809669646
135750000	-25.4885783625425	-77.7334709153424	12.5985517498165	-101.051731058044			-50.1003710217303	-73.8739730341592	-12.0176199047909	-150.950347762447
136437500	-25.549761880761	-81.5822440617952	12.7700304034644	-105.09065076582			-53.0898749513622	-78.7450045799433	-12.4867111808211	-155.543097725196
137125000	-25.6568617560383	-79.302855901808	13.0182474843608	-109.652655993091			-48.4345790405435	-84.327837897158	-13.0072037776802	-159.649457288352
137812500	-25.6851444727272	-82.856871298411	13.1549355508273	-113.763686654063			-53.2502806201259	-80.6806322900389	-13.4211708066656	-164.114439724877
138500000	-25.4744536630059	-83.0527339522494	13.3615225635356	-117.978275184042			-49.876782606863	-75.8585780021327	-13.844041028121	-169.903533749252
139187500	-25.6875304661244	-84.0451600664122	13.4735553959295	-121.947539144186			-53.82702191661	-121.21850721107	-14.3239544235447	-173.678534290172
139875000	-25.9586033768279	-81.5953741764528	13.6149368407492	-126.005599088288			-52.3858883927553	-84.2034727568594	-14.784305570298	-178.742078500588
140562500	-26.2196694186029	-84.542924882662	13.7386037968679	-129.702737459844			-51.943972326228	-116.50419907268	-15.1250235229926	176.541753173764
141250000	-26.2906478992279	-82.9598888872866	13.89741212065	-133.553324675275			-47.9610277397209	-91.3300992561681	-15.5930689125977	171.330392975794
141937500	-26.2368096575192	-85.2750464444768	13.935771907735	-137.34304778728			-48.3283890383794	-125.532813990338	-15.9747304193662	165.823300655123
142625000	-26.4939683950724	-81.4666444076077	14.0599149745362	-141.092158071897			-56.1619490353289	-107.815601594086	-16.4051659926673	160.659860799829
143312500	-26.0281703576946	-87.2116264252686	14.1466168173554	-144.733375799791			-49.0428974709398	-124.928900230092	-16.8159249003779	155.524886617885
144000000	-26.3213562058234	-83.5127040774516	14.2259956766514	-148.086829088566			-59.7744890341281	-81.2068600991958	-17.2029695946189	150.831042290801
144687500	-26.2811869816518	-86.2799448774554	14.2983302559821	-151.858473720708			-50.9045674658318	-137.797762894871	-17.3730372843635	145.147459239889
145375000	-26.9391060888734	-85.603807826445	14.3496767793037	-155.419988260819			-49.0082741853392	-119.778390645581	-17.6302166009901	138.524007960293
146062500	-25.9681988650834	-85.2921071862448	14.4044722164331	-158.555675261513			-48.4784906093468	-144.726542152857	-18.0045503762215	132.615761780561
146750000	-26.8332507932833	-83.8937614108069	14.4557874436619	-162.087055027467			-51.7776416120353	-124.930670348717	-18.1624644097244	127.106828699284
147437500	-26.1313566543828	-86.2112175213752	14.4902363415183	-165.306987135659			-49.0034808455591	-146.137235314583	-18.353274259156	121.234619145268
148125000	-26.7088546633057	-88.5058340506211	14.5139139012927	-168.764439663859			-52.5526286034376	-160.058354393042	-18.4929353093242	115.450720424718
148812500	-26.5908332635485	-88.4475996812313	14.5558527847621	-171.78002719018			-48.3049017666245	-150.968262063315	-18.6776763151378	109.539453671437
149500000	-27.1686734359423	-89.6991176351262	14.5851424562625	-174.98578921724			-49.58664249783	-166.067348290589	-18.8656649904658	103.194320548186
150187500	-26.6037925790698	-89.4923685862482	14.6021842224649	-178.084169854885			-47.9913418163628	-132.614453571134	-18.97744344635	97.0763929458787
150875000	-27.0358529868622	-91.4293914833994	14.6537594421259	178.848649888057			-49.5817099210698	178.795457765089	-18.9442431950854	91.6659446921426
151562500	-26.7944771982686	-93.0307448068981	14.6042957587579	176.032095943201			-53.5879831347185	-134.480203273044	-18.9748315772665	85.8560265965177
152250000	-27.3817502340759	-96.5817374318935	14.6270378475381	172.858502361657			-47.7177176727519	-137.225510722382	-19.0742537344515	80.3866547080505
152937500	-27.2921075748058	-93.945853428693	14.6682256992532	170.427773342529			-51.6500617056199	-132.69146479371	-19.0277898963712	74.695759713665
153625000	-27.4336470735737	-97.2739391525007	14.6678334663556	167.356669306212			-48.3025751994246	-173.388468683868	-19.1280980261854	70.1299672348866
154312500	-27.3485563505234	-96.5892777209731	14.6924005305804	165.11268808743			-48.6696157723778	-158.487277417529	-18.7898033327284	64.6722277488783
155000000	-27.1322945776123	-101.507732259644	14.7036205750529	161.951624376432			-49.8112111399029	-174.978963237262	-18.7590660730403	60.2796424609802
155687500	-27.4419456224655	-98.8937956000551	14.6869942448914	159.54396264717			-51.2917289440453	167.069385903664	-18.6445158865233	54.4211365829557
156375000	-27.343906419153	-104.367740470985	14.7352501016595	156.484126340426			-48.6672157763844	-179.617192789864	-18.5866216667326	49.422192870037
157062500	-27.9837973024839	-102.155072998529	14.7107510006303	154.261712004617			-55.6236032219716	134.790155469865	-18.4618075018097	44.9693462396434
157750000	-27.3501531056776	-104.154062295247	14.7897776104932	151.431398273251			-50.4207012408758	-169.666826417443	-18.2862983605594	40.7146318568959
158437500	-27.7500000246604	-107.217542024483	14.7486095616101	148.8877305722			-58.9150902742422	177.407044760233	-18.0385512817041	35.6329582050431
159125000	-27.3427112535208	-107.775778122032	14.8083356875491	146.259680715782			-48.4833201473486	-175.605265520672	-17.9926108068724	31.8442944239332
159812500	-28.1346797238917	-105.917277551558	14.8105910835425	143.850079056845			-48.1541567897707	138.906972207776	-17.8485072863646	27.5442718800023
160500000	-27.2315903192442	-105.750888350073	14.8478973950462	141.008277538554			-49.7253075380723	168.236578137236	-17.7126559424332	23.1097835392629
161187500	-27.472129964816	-107.677141652201	14.7909008421019	138.887952120278			-54.5921662220631	164.921431857449	-17.4022328572753	19.656149036542
161875000	-27.1002104459491	-108.559554352749	14.8788293167857	136.130344400485			-52.4817641395008	-161.973442762735	-17.3851951134152	15.3176901565177
162562500	-27.58957298948	-111.087989787931	14.8333812951779	133.543636603674			-50.1709776708496	146.403380927906	-17.0976304671374	10.9182426340883
163250000	-27.3143849562518	-111.612141227177	14.8644815131976	130.89629466936			-52.569626729511	168.837046685533	-16.8644684129041	7.54761802589736
163937500	-27.6087574832966	-113.778060238708	14.8686842870069	128.741323960696			-48.099382432312	164.340913050257	-16.7333996907252	3.63492386206855
164625000	-27.2648471507154	-111.942462327333	14.8534288243456	125.896145541525			-50.6571864972631	177.949854025343	-16.657451449183	0.151518730308854
165312500	-27.6945575981031	-116.138191941535	14.8423305650309	123.673428177599			-50.8674756218929	133.930778652235	-16.4366220700593	-2.94573431069289
166000000	-27.6947174821881	-112.191564456155	14.8703930607175	120.986297864042			-54.2642001040764	144.419210581452	-16.1483376012718	-7.08433308923105
166687500	-27.6025661101332	-116.623251129378	14.8374345255265	118.831679142078			-47.4693004935497	153.5231003264	-16.1292963783349	-10.2198874266596
167375000	-27.5740221409276	-115.710941121501	14.8848251631894	116.42408445475			-51.9646422897523	108.410150869298	-15.967975849835	-12.5942102194412
168062500	-27.3383109924122	-118.986340921644	14.8406305721185	114.187589362782			-45.4105241538047	144.715739403436	-15.7901371300796	-15.3103735813569
168750000	-27.3872951866523	-114.128261245258	14.8609926957534	111.909792850322			-56.244875790328	91.5648096591268	-15.568340705778	-19.8096212957952
169437500	-27.6800281876227	-119.804859500315	14.8016223981345	109.658683666894			-47.1407167837989	138.043999204252	-15.5044561690241	-22.5612387445632
170125000	-27.6547963569941	-116.376718690955	14.8435902431959	107.294037969398			-54.5455990741632	125.868187068354	-15.3054148263679	-25.8605476016592
170812500	-27.4483214555435	-117.849349557826	14.7944943236086	105.22470951599			-47.8793887014721	149.117183958779	-15.1504583534197	-28.7086736664245
171500000	-28.5618663256554	-117.777737192044	14.8195536018255	102.884826960317			-54.5713823155301	106.715429167294	-15.0862083338355	-31.613669951399
172187500	-27.4873754229194	-119.775684369375	14.7675168574464	100.848997663342			-51.6265357957714	141.973780014482	-15.0044744244776	-34.7601908992693
172875000	-28.3025292534006	-119.478841210838	14.8146190956944	98.703681156615			-50.5986108731646	100.074159986579	-14.8738688028334	-37.4880720544961
173562500	-27.8137366907417	-119.844739657616	14.7824146669173	96.6634847322302			-49.2020413371971	133.2714561058	-14.7722670001355	-40.7074544391586
174250000	-28.3007538623616	-119.927341734186	14.8162160477447	94.3579594128592			-49.0510889036658	107.365440503225	-14.5851283516874	-44.1081430240082
174937500	-27.9807987988982	-118.779789971272	14.8042629092714	92.4681482884873			-48.4419336289496	121.789062187974	-14.4942478319831	-46.0261791170665
175625000	-28.2301555397872	-120.737844156655	14.840758452316	90.2460887693668			-48.6890717413821	111.440208022777	-14.4222733940038	-49.3822752442236
176312500	-27.8766976751506	-120.351720734165	14.8313884857028	88.455904330436			-57.6770246368079	68.655437836005	-14.2425125387746	-51.9932501267161
177000000	-28.4233036935415	-122.837223056852	14.8621318542669	86.2491603332753			-45.6845987663786	92.3453861112888	-14.1782353736002	-55.3881456515495
177687500	-28.2269108986549	-123.293298945675	14.8385021667341	84.1595033638143			-57.7003537617747	121.175423779028	-14.0725449334153	-58.0700115788387
178375000	-28.2485404815612	-125.566401014078	14.9145751490099	82.0746452085566			-49.8375885124444	85.853497728309	-14.0437863669457	-61.042190273678
179062500	-28.002632876855	-122.513899173654	14.9314912084028	79.9164489088277			-51.5428513083732	91.4640958543984	-13.9508945407692	-63.6127785031593
179750000	-28.3332133055081	-127.890863147733	14.9419765006211	77.8161405047737			-49.6520224990051	102.441258917533	-13.8277482166321	-66.4634382383922
180437500	-28.1552826764169	-126.355935068624	14.9885931316778	75.9111800490768			-51.3045263414383	124.310102795488	-13.7686175211245	-69.4534263658611
181125000	-28.4636131091823	-130.10941431009	14.9923610662826	73.4067868335234			-47.7373574710514	121.338114280443	-13.6873892326187	-72.5775690966306
181812500	-28.3536538183943	-130.072187858859	15.0119037064143	71.3982995295285			-55.22894117921	59.0030357026491	-13.6499094012454	-74.7807328739621
182500000	-28.1475047925894	-136.254029175507	15.047339605685	69.1144746570159			-50.0499363938947	114.910774940165	-13.6156031354684	-77.644707419053
183187500	-28.5952127586402	-132.158081478706	15.0624708017266	66.9254402077972			-51.5068166074566	86.7773977043521	-13.5735715586385	-80.2649312756662
183875000	-28.3002889626071	-135.893921156987	15.0916871025548	64.5130891595407			-48.4647912683703	94.907131811268	-13.5465539686481	-82.7895033238195
184562500	-28.1862673014551	-137.746376226581	15.0950551700765	62.7564922732529			-48.5000986763168	74.3880961986957	-13.5213089653348	-85.7155808423386
185250000	-27.7101515404906	-141.689483882026	15.114571133834	60.2492908729445			-50.0354272985208	123.682042610409	-13.4257404803332	-88.8811746793669
185937500	-27.9448798475005	-141.797116929338	15.1036139027279	57.99509311263			-52.5112295053938	90.5444814431497	-13.4143831958575	-90.7696112397545
186625000	-27.2848425261611	-146.153811561002	15.0999746748318	55.6879490350358			-48.9457263814072	82.3476623094755	-13.4061974349487	-93.6752050234209
187312500	-27.155834298612	-145.902012932023	15.1011666080037	53.7197169650064			-48.1712700742794	43.375286519497	-13.3021043599649	-95.9003785735925
188000000	-27.1714679252108	-146.364122602442	15.0924071123121	51.3913254263922			-50.3391751797629	84.9535430575204	-13.3858660883253	-99.0949886660774
