# Hz S DB R 50
100000000	-25.5857302813399	-4.61111014093152	-28.3329209602664	-2.17942473836927			-59.8951093993718	-98.4722876137873	-3.524456840598	64.7634179580235
100687500	-25.6873502233034	-7.42982294036426	-27.9889141065227	-5.27941209811453			-68.7375515680756	-79.1023286325955	-3.50062956935574	61.9686626190959
101375000	-25.6766301071253	-6.43460965220648	-27.8732495715719	-7.93658171029933			-56.3371408254191	31.4890169915541	-3.50564083096574	59.1555788610602
102062500	-25.770183597085	-7.22413926274017	-27.3458296724634	-10.0832406506729			-64.8745449506978	151.007386140201	-3.56691016263565	56.3330904126986
102750000	-25.5126492738741	-8.64892142191989	-27.1012245927117	-10.1363061510246			-61.1950792051668	51.5182775835259	-3.57854412870203	53.5200310254693
103437500	-25.9548738969803	-10.9100768646548	-26.4663663319216	-15.3570176557611			-67.8526582724032	-171.092611790596	-3.5671950796909	50.3628964440484
104125000	-25.5944499680241	-10.7192901857932	-26.2471749676844	-14.1222646607986			-61.5591047441141	62.7393683127035	-3.61019778068092	47.6117896984962
104812500	-25.7970126845942	-13.3882433699534	-26.0323164004453	-19.3989166505732			-58.9753549863409	-127.13537433409	-3.65061159142679	44.473720432269
105500000	-25.7197397249088	-11.8480410685621	-25.5722373555009	-21.8836603621863			-55.9095807267814	27.5548215813436	-3.63082686082053	41.7826075634659
106187500	-25.9284498479735	-16.7083795687183	-25.3751819670679	-26.9218533705793			-56.2958920111113	-87.1913261249474	-3.65706012138854	38.5779355470554
106875000	-25.877664097513	-16.0520398792438	-25.122879624997	-26.8115979351101			-60.4457306464495	101.946263976881	-3.69284278068824	35.6888272177025
107562500	-25.6647450797234	-16.4158400536964	-24.6898886894488	-30.6488896841444			-54.7087012506536	-52.5080038144928	-3.68272375280748	32.2644821867525
108250000	-25.5428109504567	-18.0486624772398	-24.5864639656301	-31.5326264688503			-65.3793043088761	31.7361231630569	-3.75811729375593	29.2808752002374
108937500	-25.7007010771389	-20.7903607116952	-24.4154681067208	-34.2281408365033			-60.0683867101968	-19.4541453093226	-3.75475307903086	26.0087699955966
109625000	-25.9336064467346	-18.5041399168283	-24.2870606837848	-37.306169268042			-64.6675998621838	-76.3524336130723	-3.82220419842903	23.0372115679783
110312500	-25.4781196380227	-22.6307909670161	-24.0137640821296	-40.9068391036592			-55.9771219249212	-123.095766537397	-3.83529088779159	19.6176951238979
111000000	-25.8935049187735	-21.7343252723174	-24.3005958979734	-42.7552240232226			-62.8514854990797	154.647020895738	-3.96673774529723	16.4967244778094
111687500	-25.7841491133843	-24.395334089019	-24.0043038314794	-45.4378044725424			-61.0043143753321	5.23087875331179	-3.92744555245196	12.9085035784957
112375000	-25.9747857345545	-23.6711481002861	-24.1926366309857	-48.1416370256337			-61.5562370258904	137.053673145178	-4.03402286828157	9.80007990177826
113062500	-25.6554881403722	-26.9119978646756	-24.0860657769039	-49.2813416349954			-58.3269219724225	-14.2752763789848	-3.98366643333292	6.21094415602218
113750000	-25.8381907496029	-26.0058322115164	-24.2332267859042	-53.329337771736			-61.9772292642997	-48.9568387835422	-4.11664690119301	2.69863713557174
114437500	-25.8564569499914	-30.3624035666935	-24.3927330019068	-52.2434575004061			-62.4987896755556	91.5344734613626	-4.0972052783048	-0.611542510922379
115125000	-26.0217913546607	-29.6723151499436	-24.5168791592886	-57.3137199717148			-66.3523861181574	-102.003681316677	-4.16274760689506	-4.58262475236141
115812500	-25.6733488635866	-29.8578486959267	-24.707340828474	-57.2536726627595			-57.3747978457885	-1.60273245205051	-4.20076848765641	-8.52500725711384
116500000	-25.8107162371874	-33.9221239077203	-24.9725209685057	-59.4410789050955			-60.8483395139883	-129.87683309979	-4.23881742533014	-12.4141301865467
117187500	-25.7021261934861	-32.9113878287615	-25.2639384305447	-58.2015574809986			-59.3298844076621	7.4024804647899	-4.30358133390153	-16.287944284656
117875000	-26.0300037769766	-34.1582571746314	-25.6670040540839	-58.4736321312388			-58.00147324008	-102.171620973988	-4.32192910359528	-20.2922274003936
118562500	-25.5646551329395	-34.0340296481466	-26.118678751224	-55.8384629342392			-63.9093057573524	6.7177238043596	-4.41600962972236	-24.3880837900768
119250000	-25.6486728719494	-38.3247506941464	-26.4659214928464	-52.6957087764128			-56.0804972203645	-84.0840856715918	-4.47217388271992	-28.8633641913138
119937500	-25.4950414039625	-38.6293750140528	-26.8484439997747	-47.5732443581211			-64.3956918448254	71.8730315203109	-4.50797677896242	-33.5341675566868
120625000	-25.670166096228	-39.0896222487696	-26.799835959423	-42.715126077459			-66.3628067350959	-97.5217436872588	-4.57481285695629	-38.2227895892658
121312500	-25.5424127604671	-41.4458886798642	-26.6794806880805	-32.6558555288829			-64.3778415536444	169.611149626164	-4.6769623832545	-43.0985496836829
122000000	-25.7836169722639	-42.6193458798298	-25.5914871437298	-26.8715030215022			-54.9037316138502	-63.1815098732921	-4.81621071858421	-47.7543271789414
122687500	-25.7474620390661	-42.7043594678805	-24.6483526057818	-19.4584851346315			-61.9133284095032	-166.589947644583	-4.96606327729078	-53.0605785752002
123375000	-25.6064338419527	-45.6127903396152	-23.2128596590763	-16.8361017883523			-69.5626950387548	-42.73559920016	-5.10968236580031	-58.3145917871749
124062500	-25.4491531868147	-44.9674806408565	-21.9968469786289	-13.3141983745413			-55.7532758649463	164.829813577359	-5.31526077407518	-63.5729965841293
124750000	-25.2419747867118	-46.2240593003365	-20.2953279032348	-14.9021137049145			-65.4119057979639	-9.55565297141111	-5.49241283364429	-68.8951421504083
125437500	-25.3175018165773	-46.1895030171089	-19.2153945249369	-15.1237797556158			-63.8288045749911	-141.925581214685	-5.70456792913514	-74.7109139237498
126125000	-25.3991198982548	-48.8372840955416	-17.7789934474801	-18.1823777228959			-58.6290015198276	-52.1976613675782	-6.02775528216547	-79.7769358253192
126812500	-25.2004087135675	-50.640194813813	-16.7085169981426	-21.6827550213177			-59.5024057557363	-136.190853184616	-6.34344497218041	-85.8189046579653
127500000	-25.0658395416697	-51.251022225561	-15.6008586816828	-25.7097698463932			-51.8939041056779	-42.2061852525069	-6.71662093137338	-90.6101981407013
128187500	-25.2888892861757	-51.9024943412441	-14.762631425911	-30.5368355515572			-58.6195760978114	133.548915762263	-7.05325815362058	-96.5348184470638
128875000	-25.1288956005933	-53.8178952051162	-13.8216091864403	-35.2070515893324			-56.1239231590068	37.4622291958833	-7.49038752365659	-101.745351562599
129562500	-24.9508873236267	-54.8587638945707	-13.1553995710506	-41.0429174986784			-60.019600152467	-47.9862275934413	-7.90472647517861	-107.262366603548
130250000	-24.7133627768122	-55.8482949717201	-12.4555133734706	-45.5395601870847			-60.7890345013827	52.9215855434622	-8.46833969046842	-112.337958059645
130937500	-24.9836791640366	-57.3244324518407	-11.9080668466818	-51.6632801625204			-64.1273819102101	-169.558692678549	-8.81093814025488	-117.144169509794
131625000	-24.6680589331252	-57.0183983633932	-11.4130582826314	-56.3147412991014			-71.1294125509539	96.3782643707594	-9.42755604661155	-121.773794245011
132312500	-24.7040842592127	-60.3186263360316	-10.9720594174774	-61.6192410748664			-56.0928480372412	-94.6704924306016	-9.82881642255234	-126.51055327067
133000000	-24.6671166398325	-58.9795572946515	-10.6522073868334	-66.7737318475888			-61.3182181140703	92.5641924881468	-10.4372759756932	-131.25670203924
133687500	-24.5723227943266	-62.6932590029074	-10.2966971293985	-71.9685486442956			-64.607309190864	-8.21694285527896	-10.833596688574	-135.745452271674
134375000	-24.7007032099712	-62.8294217430197	-9.99586772617812	-76.052847367066			-68.0383650315863	58.1368488080441	-11.4252059087525	-140.839923296963
135062500	-24.3198160519497	-64.1718361232825	-9.72542264232677	-80.6885557224894			-56.740876723301	-41.4449798236541	-11.8998335208038	-144.693998694832
135750000	-24.356409038585	-62.7060240689826	-9.49505695659755	-85.3573412239282			-60.1275384659819	108.291620155117	-12.4542296672406	-148.94699887708
136437500	-24.1401345346157	-66.8204922237738	-9.2739292878525	-90.0643255077651			-61.5626949682189	-105.68406313589	-13.0182845296197	-153.283699310493
137125000	-24.3144440701722	-65.9928431632773	-9.0662828320813	-94.0483185035419			-59.3933838047263	-168.287969993016	-13.4601862493278	-157.284079379687
137812500	-24.1335796394361	-67.4979578789719	-8.94822914213415	-98.4183373658495			-55.758223457962	-32.0284942528938	-13.9793780671837	-161.58482199678
138500000	-24.1865387620197	-69.4644415529389	-8.77357041328904	-102.437547500688			-60.7040298124542	-107.469416880436	-14.3027097596909	-166.943423977248
139187500	-24.0467287309625	-69.1940191612693	-8.62130450868621	-106.371202267847			-60.1683367309182	-50.7944668093256	-14.9521314915023	-171.120903165354
139875000	-24.3468319473736	-70.2575632420013	-8.46028727707811	-110.34239812393			-59.2686612142907	-129.674247128308	-15.2302787305081	-175.22913517838
140562500	-23.9237596935651	-70.9990385538965	-8.31807497211373	-114.113571927794			-60.1608895085967	7.96752662594636	-15.8136366929496	179.520909352752
141250000	-24.4248635995578	-72.0379267975758	-8.20386590163249	-117.736868183994			-63.9261840803673	-162.179302036671	-16.1173560070239	174.916451462153
141937500	-24.1445492015433	-72.3318274373202	-8.18036383726746	-121.635183746764			-55.7510054820785	-7.09307318983299	-16.6387954464465	169.325039136395
142625000	-24.2163039433593	-73.8382472455743	-8.00237857162423	-125.264472648339			-58.9782311775833	-146.937170016276	-16.9919510448161	165.631709101002
143312500	-23.8868192360971	-74.8653949223908	-7.93522079910489	-128.830741433609			-61.5984892003925	-11.4909711831317	-17.4456241646546	158.831726063056
144000000	-24.2332058362697	-76.2403853661631	-7.85054493813489	-132.194935413953			-64.9592015395266	-80.6068199484668	-17.6187710641599	154.731399854418
144687500	-24.157876191761	-76.5495933583937	-7.82616370669036	-135.981218867572			-73.0085769686992	-178.538945931241	-18.0769367604553	148.123491625069
145375000	-24.1682454573354	-78.8203041138595	-7.73445165097291	-139.263270514818			-58.5554521146733	-121.452721411018	-18.3044618395676	142.757147886825
146062500	-23.8777271477311	-77.3976018319243	-7.70624532751374	-142.640570987552			-53.4705271112619	-6.3588145650568	-18.6629049284842	136.499988777689
146750000	-24.3059048350522	-79.6938221410047	-7.59882549105964	-145.875544864873			-57.5326919147495	-84.3029431642632	-18.988154896968	131.722050174152
147437500	-24.143513366363	-80.6398520674101	-7.61607408102519	-149.212993090573			-65.1030767513911	-28.7828007416863	-19.1659966486178	124.259050009157
148125000	-24.1560360415129	-82.0164961981092	-7.54005444323501	-152.226578180582			-54.1710240497245	-143.499027354344	-19.2620164860171	120.599631577967
148812500	-24.2815563648558	-81.4880367177974	-7.54405966727071	-155.526633271687			-60.4045948316948	41.6477439569141	-19.3085721274205	113.337167332111
149500000	-24.3136299588374	-82.8980046366858	-7.44771592657251	-158.163269136165			-58.8456403214659	-112.271739694232	-19.6391021402533	106.727621891355
150187500	-24.4122347934459	-84.2052320834871	-7.50321974294979	-161.662298633457			-59.2145603879556	124.467680134156	-19.6085374963954	100.205615393003
150875000	-24.4797269637617	-85.3015342131259	-7.41635538442753	-164.091453801391			-63.5442339533269	-81.5155567085412	-19.8173808479979	94.4290489967806
151562500	-24.5986317653644	-85.8679325874797	-7.42614345618144	-167.4396443464			-66.079707282352	-136.980224333672	-19.52520479879	88.7516434446755
152250000	-24.4834608015517	-87.894724983399	-7.42506637388574	-169.967756028835			-64.0553928224874	-55.3580180361617	-19.8650361244793	82.8305318192804
152937500	-24.7329513559906	-87.8038348378288	-7.37939898329769	-172.984534082215			-60.8025218276135	-40.3392664338453	-19.5407933716353	77.5486483164818
153625000	-24.3793873644699	-89.930259768209	-7.3819513687603	-175.383471211995			-55.8796135876121	-67.6019140119687	-19.7530190401909	71.5404012732293
154312500	-25.0166522513163	-90.2087896685441	-7.35396982190751	-178.393761260289			-57.2004941632063	140.580196943111	-19.4805324173073	67.2203460831034
155000000	-24.5288316052039	-92.1504352072395	-7.32747110565288	179.150546642822			-76.5000590838568	-122.255724212216	-19.3595004652236	61.0168870007945
155687500	-24.6480521700526	-94.1419260827023	-7.32648879926514	176.64997441586			-54.710527753477	141.269339555869	-19.3666710021538	56.246537505592
156375000	-24.5830509313443	-93.5299585577859	-7.26640455904612	173.894427985495			-73.9088431300383	-22.0981370145947	-19.1610060559153	50.2892719834297
157062500	-25.0598906567671	-95.4781847629733	-7.27579504853414	171.254505342238			-60.8133817187024	-155.106660335128	-19.1291469419009	45.8789760123634
157750000	-24.8075463313667	-95.1837201569912	-7.24737819378742	168.9178050528			-57.566178406551	33.1794540397142	-18.7150111666769	40.8650677023829
158437500	-25.149734616683	-98.3115507023061	-7.26645278398679	166.337712420344			-68.6438905174553	-120.004929796342	-18.6221386971014	36.6043325312222
159125000	-24.6275429703197	-97.6891733725836	-7.2214296967011	163.718636219299			-68.3377824784075	-48.1030999930435	-18.316341849966	32.3979306044942
159812500	-25.5040363866446	-101.487777804239	-7.21327247448753	160.997265745948			-64.7471797063111	-130.525979180983	-18.320793062839	27.5904469191543
160500000	-24.9454252837674	-99.9787375774017	-7.18101556010606	158.503420257573			-71.1569596883908	150.892063017205	-18.0863714034533	24.6804152462783
161187500	-24.9240999577665	-102.658881290344	-7.22291288666942	156.468648570266			-60.2939164741164	-123.630247840289	-17.9147394350463	19.3084951800388
161875000	-25.0232250017844	-102.005242947099	-7.11953170833701	153.802447817255			-60.2462395390146	86.8945201172896	-17.7328228219256	16.8813897579702
162562500	-24.9394049773409	-105.677846683373	-7.18104525197457	151.296207977412			-54.0338774195734	-156.422889522193	-17.558063423306	10.9090947461249
163250000	-25.1668533567807	-105.304461298961	-7.14914932359449	148.855280967916			-61.1585389497732	130.544734207	-17.2135786361748	9.48526095762612
163937500	-24.9319965092088	-108.984008066249	-7.14162742660939	146.314109096718			-56.4116419783923	-103.296203252939	-17.1496298865019	4.72387783347045
164625000	-25.1037260743542	-105.160653700967	-7.11476789324968	144.079068458405			-56.2645196862164	78.5468971509703	-16.8508532194348	2.23057470845266
165312500	-25.0698338175522	-110.727459272939	-7.15574278424057	141.677235200862			-60.5945890147819	-71.9470201521878	-16.6819204469845	-2.51387414257233
166000000	-25.1387229445678	-108.54267235501	-7.12423923790341	139.148154623796			-60.2340083097404	133.366907069101	-16.5340487033101	-4.83009695303094
166687500	-24.6732110269787	-110.571177928911	-7.14103980063414	136.957608364629			-58.554276827541	-49.4306995797856	-16.2714644210245	-8.54397826615816
167375000	-25.0352733189071	-112.723675398784	-7.08945666517334	134.639939952183			-62.0038464229886	-122.713052578126	-16.3303275034411	-11.647594222732
168062500	-24.7259700418707	-113.493579156052	-7.12349586430858	132.41168584575			-57.6217557865387	171.426948747076	-15.9760661168631	-14.5211657422164
168750000	-25.0594852000825	-113.966254450883	-7.1195241468447	130.3177159339			-61.0530000186062	108.920264598532	-15.9491206537324	-18.1240822480791
169437500	-24.8919129847462	-115.310622644364	-7.19103636662908	127.8813895119			-55.9218785058323	-83.1077915300775	-15.6268188401834	-21.2029665810783
170125000	-24.8466330523187	-114.450571506521	-7.12404960329594	125.824010340256			-58.6471010826113	95.8834897209679	-15.6895896714295	-23.841284686178
170812500	-24.8101067694816	-113.933413752461	-7.17391695053334	123.589069222172			-64.5115354202026	-45.2928426022678	-15.2846598432382	-27.0405794421311
171500000	-25.1900792772874	-117.549975745014	-7.10395414511044	121.69734360923			-61.3291647781691	174.194216979832	-15.4483788776722	-30.2561235491395
172187500	-24.6223516256754	-118.661267292559	-7.17013849061752	119.094986202529			-66.8608018140029	-31.358806987861	-15.1994871676402	-33.0530456392124
172875000	-25.1659583641726	-120.491052139588	-7.12422427459286	117.521102613082			-59.5923286988252	-169.544392523741	-15.0983783720088	-36.4780631849546
173562500	-24.7152261247013	-118.266759253963	-7.18437134320815	115.050320996448			-57.4324422702446	47.2596510512823	-14.9275805236005	-38.6183507517226
174250000	-24.8693669073845	-120.828178215758	-7.11747638870945	113.496470856819			-68.8774559071828	-52.3762312263302	-14.8210115424683	-42.7211549452753
174937500	-24.7175994722347	-119.718713068973	-7.1285592792637	111.053335040416			-59.0147929254693	51.6922001168591	-14.7644132931475	-44.4531151380551
175625000	-24.5708310758196	-121.856280162529	-7.10526314090303	109.349683486095			-59.7560620925831	-153.692157991567	-14.6754650905013	-48.4187048073968
176312500	-24.9136995581843	-121.651385416077	-7.12419586154696	107.070500794867			-66.6630746013587	-71.2209830104626	-14.5472437446794	-50.3551155447451
177000000	-24.8537222219528	-124.533472659471	-7.04362738804441	105.345761162162			-55.3808581805897	-99.2957656855592	-14.4446595316789	-54.0801880555261
177687500	-24.8873111873668	-122.498158792359	-7.05181466688777	103.076671479838			-60.4924699789867	104.640345994577	-14.4948491506396	-55.8715480408458
178375000	-24.6012902898568	-125.913457228506	-7.04664511991482	101.228707349786			-68.017079351942	-96.1970783144753	-14.252043030974	-59.1828154260072
179062500	-24.9134135249933	-126.280401585126	-6.99547053489304	98.9101979051142			-54.2021606881822	95.8233619211117	-14.3232262269822	-62.4625024401179
179750000	-24.5142792411843	-129.219427729288	-6.98764397577995	97.237088348831			-54.8994652165264	-101.394743654612	-14.0248335204169	-64.9536410981046
180437500	-24.9368571134477	-128.492549485207	-6.93788027329542	94.9745633379017			-53.9306994570712	105.421239264392	-14.137618141109	-68.141190071184
181125000	-24.7977687137342	-128.367117918684	-6.90135209610514	92.9950075715429			-63.7063288054318	144.080235005143	-13.9533503837823	-70.7974253387064
181812500	-24.8967065007831	-130.139745698212	-6.90188353512899	90.7039719024019			-60.4366252990987	153.443790908844	-13.9860828395663	-74.143269381524
182500000	-24.5367126473361	-132.763429142718	-6.85562585418442	88.6931762557711			-71.6818040797561	158.012978216179	-13.8610557823194	-76.0147012570723
183187500	-24.9431285086666	-132.743818652487	-6.83025196764733	86.3469255873454			-56.679238565905	156.223619788764	-13.8352313393936	-79.0594513483443
183875000	-24.7461386878981	-133.815699180479	-6.82138172056482	84.3034693865464			-57.6774053531732	-38.1594567953181	-13.8247394940898	-80.6430741953115
184562500	-24.7010822531226	-135.537095912416	-6.8187010766829	82.2144135159307			-61.7250396697111	-141.306263855158	-13.7654828935894	-84.5373570888758
185250000	-24.7340772793841	-137.67505341485	-6.80625136345028	79.8458983715462			-64.4692111354587	40.7975942058344	-13.6870611520136	-86.3149782453113
185937500	-24.8635836148705	-140.219493850575	-6.79463421558243	77.7575690088539			-57.1046436562294	122.66718207131	-13.6785192446057	-89.8536815185315
186625000	-24.65655125593	-140.903308514632	-6.78029296969337	75.6286289157022			-72.4241764040569	-63.6390566025746	-13.6934074263105	-91.3190493307355
187312500	-24.4093604392444	-144.333478859666	-6.78226386873245	73.5590406769948			-61.9400877461165	83.5260608119457	-13.5215939224839	-94.6896764540153
