# Hz S DB R 50
100000000	-25.9043912966581	-10.5557943303432	-28.1977131899163	-5.70434832772662			-71.0530665114954	-110.232575012525	-3.51332197156965	64.6145772387142
100687500	-26.3321882262482	-9.46655365412021	-28.001349634201	-5.3574295720129			-57.138520840051	177.752647914654	-3.50912294092935	62.1189743418091
101375000	-25.8295107431801	-11.6815081456041	-27.3498284114578	-8.8180968136042			-69.6942581744191	36.9596025290036	-3.5101510670824	59.0234425759481
102062500	-26.1605064414014	-10.4393745563405	-27.2487259295836	-11.3927881130349			-62.9475005524688	-137.470415872318	-3.55245904551647	56.1943015028182
102750000	-25.8541616344789	-13.7747101615554	-26.6001640767932	-12.949398491997			-58.241844421391	-19.251048507245	-3.55934361404441	53.3738103345153
103437500	-26.5281541219424	-14.6776432004376	-26.5467990696353	-16.2228093251294			-68.0045397044806	74.7352938403775	-3.53894246796291	50.4445435655182
104125000	-25.8549944447801	-14.5064530491136	-25.9285885637942	-17.9099192557075			-57.0924923182957	2.38311912932945	-3.58653609672336	47.4600833244003
104812500	-26.0858126195733	-17.6094855946093	-25.7073379440357	-21.8184889657157			-61.0526433781641	132.360213132412	-3.65703166802915	44.5199436848773
105500000	-25.8283658696849	-16.8551350635945	-25.4035944692371	-23.5474504236262			-64.3628733819529	158.188243797015	-3.60368537572146	41.5941584267061
106187500	-26.295153573074	-18.2913258920757	-25.1861070892673	-27.3480258480807			-57.8874971862023	-163.585404732887	-3.65379511829885	38.3772273801178
106875000	-25.7639551533158	-19.9599361437664	-24.8722554914192	-28.2673452242282			-59.3976648850651	29.749282287628	-3.67249541600897	35.4738319590204
107562500	-25.9930412487634	-20.3117766162577	-24.6844258740064	-31.8011318303265			-59.6193823144795	-138.065859191611	-3.71562236486092	31.9383364040724
108250000	-25.5908552255018	-19.7571518310347	-24.377810016177	-34.326273315186			-63.7998834213681	-15.0921530956336	-3.74819419701546	29.1146817495011
108937500	-25.7366304721283	-23.2080016828966	-24.1293802840789	-38.1023829153589			-66.0243428246237	-110.870777359941	-3.77749590274881	25.8035959082145
109625000	-25.92881482998	-21.8532915895219	-24.0714443213231	-39.157822223645			-58.0614679688194	96.1979015385859	-3.83016440797141	22.7531241857786
110312500	-25.9134890809269	-24.9278927443027	-24.0890924463894	-43.713940488922			-64.9055604099379	-108.587404515749	-3.87500409252195	19.4766230092804
111000000	-25.9727156461794	-25.2953391307339	-24.030292182925	-45.1779177073229			-63.0625798566455	16.2314998042144	-3.94843129803856	16.0804105472233
111687500	-25.7770396281341	-27.7342447515046	-23.8417961500142	-47.8695847739494			-55.9172956780926	-84.896903603434	-3.94998465888072	12.6271331678936
112375000	-26.0605383689926	-24.7384305499243	-23.8824853757311	-50.6507387891572			-62.8618732808109	-160.783991637626	-4.0385106178337	9.60295735490468
113062500	-25.7360624027911	-28.3725024656277	-23.8277334306215	-52.6434822064614			-68.3334256803912	-73.8835777353484	-4.01746028870923	6.08453210206058
113750000	-25.7977336295586	-28.2726346183821	-24.1822665066939	-54.4182573834729			-65.7412091525421	75.5451374407368	-4.08459953737764	2.41605339844352
114437500	-26.0240849094955	-31.5791123686022	-24.0179708304364	-56.1976354451347			-55.1643948435235	-51.3772092285106	-4.08852470532915	-1.34403474630298
115125000	-26.1220480371096	-30.0710077284139	-24.3124705765209	-57.8326144361355			-59.8740613018905	86.3232372816122	-4.14119793338571	-4.89027816889939
115812500	-25.857218833964	-32.5522845301479	-24.4182271713527	-60.2666780104386			-64.2723164532057	-79.2367956136372	-4.21682017394226	-8.8763893384614
116500000	-26.0305007239877	-33.2051896087173	-24.9142410744557	-60.614246863966			-72.8559874405547	-97.3010878203335	-4.20440765498586	-12.7640124519208
117187500	-25.9980242116544	-34.7960271235746	-25.1249617419811	-60.2651657983692			-69.3385997942506	-175.917394534956	-4.2677366280297	-16.6086610229983
117875000	-26.4395691754034	-34.9379912037255	-25.867341920008	-61.038126378136			-64.2693584706079	123.884606472509	-4.3193210908188	-20.744103049596
118562500	-25.8198173111894	-35.2542824501445	-25.9630619737798	-57.0366952912548			-60.4063705489612	5.83075302795656	-4.36744254517177	-24.9183614128014
119250000	-26.0995911951622	-38.6496683386964	-26.4836955186403	-56.3824742268726			-60.8319518900073	-173.374182552234	-4.44044652130331	-29.3963905231472
119937500	-25.7781949067161	-39.6321126892459	-26.624591936244	-49.4029241297865			-65.4190162857047	95.9920960258955	-4.50016618174971	-34.1793012433733
120625000	-26.2559307782238	-42.080776040578	-27.2418870477957	-43.882678607923			-63.0927808414099	-168.543138141802	-4.54413542208311	-38.7491079745205
121312500	-25.7626074421152	-42.936857784323	-26.446691647423	-35.1742873879119			-53.7178380847868	54.2374322145731	-4.67292799623844	-43.5606360678086
122000000	-26.0192339070115	-46.932131860625	-25.8134680139922	-29.577023582105			-55.6115926781439	171.938491128221	-4.75361540403494	-48.5670146453798
122687500	-26.0000143518386	-45.6441546176766	-24.911852389136	-21.5337405525741			-58.0679991789608	53.4748186199364	-4.90319209933506	-53.584655653925
123375000	-25.8188712669766	-48.2509845279756	-23.3024016774765	-17.6144168277859			-60.3853776267032	-130.632352589804	-5.01022451085182	-58.9398352412109
124062500	-25.8330730088164	-47.0838893688585	-21.8609880714606	-15.2762367902907			-57.5194589612225	10.4842935934647	-5.20472893851767	-64.1072599945939
124750000	-25.7198012112821	-52.7899235815336	-20.3476795600496	-16.1578079919118			-61.9651874069885	-83.328407583841	-5.37267188148482	-69.7481251337767
125437500	-25.5288224023898	-49.9885868153369	-19.0112750833952	-16.6028062731476			-56.231471803888	104.692797483289	-5.63210010599188	-75.5584319016762
126125000	-25.6760070246871	-54.0244121837184	-17.7755957777602	-20.2214351711867			-57.6130013507557	-96.5096666694587	-5.90455757818003	-80.6017920358953
126812500	-25.5948440858935	-54.2065004917642	-16.6566659772898	-23.0102977793762			-59.335299928947	44.428802684715	-6.23821578316014	-86.4559133393575
127500000	-25.3135604610324	-58.06767994868	-15.4345347445974	-27.2891025043779			-59.1590961735653	-86.6131718179614	-6.57008988353818	-91.791968001326
128187500	-25.5541823737177	-56.868646014306	-14.6602875926702	-31.8859733284246			-57.1756289736974	119.521310349295	-6.9600910979266	-97.1600093558254
128875000	-25.1470510295263	-60.2417768309713	-13.7600827349945	-37.456139471242			-61.4158622550381	-75.7955804016147	-7.32669542087737	-102.995055162255
129562500	-25.2644729679837	-60.0257042454829	-13.1538589552804	-42.2193155214681			-65.902258795568	150.670121557492	-7.75888145812448	-108.163587391422
130250000	-24.7988393994918	-60.8646018492214	-12.3912534596612	-47.4413019163751			-57.9838275170305	-100.261771014767	-8.21134983133213	-113.340222606197
130937500	-24.8524937406691	-62.2401885890878	-11.8747446676188	-52.6141307515261			-58.7515662493787	151.049848436202	-8.61684112478065	-118.460901729996
131625000	-24.5689127070355	-63.2080660994199	-11.3105032268884	-57.6685345381555			-62.9533799242941	-58.9964310472305	-9.18543784710733	-123.366135778698
132312500	-25.0210629653169	-64.6780632821685	-10.9792793451426	-62.7476975530883			-63.4791596958302	77.7115833297588	-9.61745218634254	-128.106003498405
133000000	-24.6560858032449	-64.2440602354433	-10.5172305845273	-67.8109419308429			-56.2688591415994	-30.2549011194184	-10.1724873156915	-132.807147736768
133687500	-24.4012071593954	-65.8031970790433	-10.2751331145043	-72.8455767565696			-62.0677146454319	179.226535461584	-10.6238792291878	-137.28358232651
134375000	-24.3737583114284	-66.0494135906668	-9.87954306198774	-77.7099457499443			-57.6875509143108	0.976984061020686	-11.1393190620882	-142.364286780653
135062500	-24.505542633926	-69.2962189875329	-9.72913791473438	-82.2260953715618			-59.9525023888595	147.702799618375	-11.5992377544382	-146.546618479579
135750000	-24.2609843111648	-65.4708810791447	-9.39709134864956	-86.5705123148256			-59.9954146356404	-55.3039532549602	-12.1711425187458	-150.734944905726
136437500	-24.2715491958946	-71.8429838745675	-9.2540729957401	-91.0460446591356			-67.4291965928515	-149.71680930979	-12.6605364527008	-155.628808759075
137125000	-24.1329859097313	-69.2322907228445	-8.96262987040586	-95.1182403060402			-57.0416039100651	-15.2439718137765	-13.2040896585745	-159.739543216258
137812500	-24.0365509177093	-72.9412594731084	-8.83028795256358	-99.4782375999955			-62.1472614601769	-80.8663589633791	-13.5995593441749	-163.943509966136
138500000	-24.0905805068243	-71.3703322680851	-8.6478418622511	-103.367924412717			-55.2353008058866	-14.8092837898129	-13.9670269527858	-169.231876344489
139187500	-23.9303145849723	-74.3511639594803	-8.54638299313007	-107.638684459938			-57.4580737145035	-93.38893162393	-14.56105835906	-173.948543177982
139875000	-24.1361582162209	-71.6742009018288	-8.37137984388789	-111.259413052307			-72.6006766216276	45.06276403296	-14.9885119270157	-178.162671747952
140562500	-24.135554878926	-74.0226041984787	-8.27423419236515	-115.056446741258			-58.9824974642511	-129.20316798167	-15.4409155048245	176.826534149165
141250000	-24.28993295163	-73.6763343316405	-8.11196630239423	-118.95706089715			-54.4244677862256	158.501707027289	-15.7579833957054	171.765786322181
141937500	-23.831532926175	-76.6388408861976	-8.05935373040995	-122.957859085557			-58.2155625312215	-51.0930384298951	-16.2506203774346	166.659732128679
142625000	-24.2167950569529	-75.0330635202373	-7.94882427531281	-126.425197702583			-67.4462213081314	33.0757723798489	-16.556396463391	161.527762841583
143312500	-24.0668690224809	-77.8164766354936	-7.82746753331104	-130.122358451356			-60.3994034185143	-123.067618071438	-17.0649239651886	156.45830585872
144000000	-24.3385160393523	-76.5308971186377	-7.75311592085943	-133.494072718411			-65.5190575572577	144.391853974356	-17.2027139535181	151.366746562147
144687500	-24.0608657235768	-79.872208002757	-7.7396404199755	-136.978374240895			-56.2443601930028	-59.8052309990451	-17.7286604410851	145.615066416917
145375000	-24.3642078159675	-80.3210845804154	-7.62946040108709	-140.476821899681			-55.0515336586747	-176.379154051579	-17.8125863369148	140.436944819344
146062500	-23.9661280794979	-80.1451256977977	-7.61671954495639	-143.522640142853			-53.7581625505798	-83.9001478510999	-18.3790180957684	133.548398065974
146750000	-24.4011828106303	-81.1618347059107	-7.50782982052593	-147.110305496087			-62.2171532237996	162.202440306542	-18.4621396381142	128.831675349615
147437500	-23.9267297730454	-82.1982537440523	-7.52771344689282	-150.055732243883			-60.2610567988367	-53.6667608194322	-18.7067399484698	121.736864004637
148125000	-24.4436276414221	-85.0232998678325	-7.44328681865194	-153.553664351157			-51.4043904752628	-178.569531061355	-18.9104805806003	117.840402293943
148812500	-24.247477405974	-83.4007198726572	-7.45497939504728	-156.536482391682			-57.8465770484795	-51.8532220538681	-18.9844732487849	110.023100580428
149500000	-24.4030901574677	-86.4859274232604	-7.3497459491844	-159.614015708111			-52.5798605112434	-170.888832406145	-19.2737087870912	104.630092717288
150187500	-24.5972791077549	-86.1083210151745	-7.41783162243921	-162.589341998179			-60.2590134388734	64.1091877235668	-19.1904207930878	97.6450221868263
150875000	-24.5157743632573	-88.8922130583526	-7.31496734519351	-165.576999130781			-57.7543795507849	-156.802008935151	-19.3511932466191	92.3059715069923
151562500	-24.6028939368863	-87.8081494414565	-7.38657155197598	-168.187758921426			-59.8875171674612	95.2858628842304	-19.1520798292508	86.9020287656211
152250000	-24.6559194581834	-92.4300599135311	-7.33400770695594	-171.385555090065			-57.0383010564919	-169.586056721518	-19.3805864963904	81.0483914515254
152937500	-24.8052898971966	-89.7578875827694	-7.31021175391429	-173.886496415449			-58.21299608002	122.884787712067	-19.2096100760723	75.9270140597008
153625000	-24.6886391392576	-95.1887087591403	-7.27946265851178	-176.726737001169			-63.4406232322452	-79.7526964989162	-19.4520931560641	69.5570697866373
154312500	-24.7171133147334	-93.1382485760829	-7.2706280198236	-179.253250493153			-59.4446986653183	75.2482927107061	-19.023929141876	65.47114691117
155000000	-24.4947030772007	-96.8326877352514	-7.22759524820597	177.914652283006			-61.6137442592163	152.512887492518	-19.0535890740042	59.8917865029559
155687500	-25.0051708198754	-96.2699698580432	-7.29490939714536	175.468032630588			-66.4958657156248	-155.162401954142	-18.977840512835	53.9296337354368
156375000	-24.6007851391251	-97.7212024335623	-7.20331279012767	172.633600149954			-60.331122681586	-138.19631607911	-19.0173054634133	48.3287626380572
157062500	-25.3401027196087	-99.4047237380662	-7.23733670558195	170.068223703973			-59.4036844434051	164.887891877565	-18.8233999946393	44.4288544140784
157750000	-24.6089230109695	-99.1851250063887	-7.15818544732505	167.960091971805			-64.6487901423168	-131.611795816567	-18.5506416575489	39.5372450753433
158437500	-25.0835391481107	-102.21088405573	-7.16197272755385	165.275627267049			-56.908655335047	84.49059755509	-18.5624635010356	35.9426540752825
159125000	-24.3142868941465	-102.255873296458	-7.15704192283818	162.580780818714			-58.3280313612675	-143.345452419272	-18.1588257715837	30.5750364853608
159812500	-25.3545577470155	-104.385212171944	-7.12734977551261	160.231305994596			-59.9588243954166	96.413624888382	-18.1428153743443	27.1143365400835
160500000	-24.5095895642078	-105.224306793156	-7.08933608917873	157.621481811528			-55.4881405210154	-54.6411349490496	-17.8815059331237	23.7271286917671
161187500	-24.7211189541478	-106.138704800209	-7.12907524266342	155.342782026906			-58.2823386595297	-156.426391989314	-17.8373154954517	19.0649137728685
161875000	-24.5819150397617	-104.054687116718	-7.05310869285775	152.865541378335			-62.5553959633355	68.2263497214057	-17.5563927851303	15.1362548612538
162562500	-24.8154116335252	-108.574271422632	-7.08901516963628	150.352023554041			-65.964452469126	-149.984547008503	-17.4123362124728	10.4617589576421
163250000	-24.3765879384182	-106.598051892711	-7.06369924323153	147.842033978305			-61.4125340192379	45.5636429279556	-17.2220115822511	8.11659917411155
163937500	-24.601161308191	-109.74584229045	-7.05306738173367	145.497842362906			-57.6425368065073	155.824627258275	-17.2104424651484	3.21276811828176
164625000	-24.5761633183156	-108.369041690599	-7.05847506767093	143.058817737696			-66.7315744377845	122.488461672883	-16.893650851431	0.730318303023359
165312500	-24.7322509135095	-112.504050892739	-7.05881536007302	140.775431306507			-56.7712315642036	157.270381159776	-16.7894975834449	-2.86137256961495
166000000	-24.9029465486285	-108.818048222978	-7.03344638761253	138.10571591068			-61.2030640192457	17.2924896929563	-16.4555224309277	-6.22950571937635
166687500	-24.3452729419496	-112.436534397645	-7.04384704737341	136.229469963683			-55.6009545828743	-164.976360166494	-16.3651099380114	-10.0125241613415
167375000	-24.6957210624608	-112.522865546901	-7.0426409753205	133.561923875847			-56.073688096785	108.510386997373	-16.2591941163412	-12.5171781724623
168062500	-24.3201675607085	-115.885006282904	-7.06846146192808	131.457523030899			-59.5745042645636	-139.046612907446	-16.0268733800135	-16.6163687896932
168750000	-24.6788391443092	-113.304660563917	-6.99787164379253	129.153227562607			-58.1341088124036	112.837056370892	-15.9213393548734	-20.2047928086833
169437500	-24.53036259951	-115.537114242702	-7.10407578962083	127.02427186682			-58.9186837379222	-118.316087921018	-15.6877922786167	-22.6411916301732
170125000	-24.8116895909746	-115.342089319989	-7.00809977309312	124.891547166868			-64.9445138079803	14.7052994110307	-15.8055638736113	-26.1823329486458
170812500	-24.4721802253803	-114.937595405409	-7.1301004319763	122.61518816561			-64.3094664543699	-120.487589824024	-15.4160867752301	-29.3247423732621
171500000	-25.3963571633733	-117.766938279887	-7.04916891895055	120.646728655308			-60.117597247571	163.219492562229	-15.5652279731343	-31.4208707150194
172187500	-24.4917732176468	-116.372272435575	-7.09457211108034	118.354870056046			-56.6866206288292	-27.7718205259806	-15.202612780575	-34.7124807193986
172875000	-25.0547331127135	-119.201550925268	-7.01842160170516	116.491559445163			-59.8454443085988	80.4176354253379	-15.2057184611889	-37.7776121259207
173562500	-24.6997246905522	-117.106983608005	-7.10414807651594	114.452642232155			-61.8592885024558	-39.1238476101585	-14.9686010628674	-40.0807970291543
174250000	-24.9045556423219	-120.562210936372	-7.00538283218132	112.170589469324			-53.1814783312955	77.3548514291448	-14.867084114362	-44.2888610347527
174937500	-25.0810240814492	-119.464068752943	-7.09133979235272	110.230045404283			-65.6845432480713	-64.2955016938239	-14.7558793848347	-46.3397195234192
175625000	-24.978628492874	-123.50802466483	-7.02279145862292	108.268194932014			-57.7030241272954	141.433239290904	-14.7585877842334	-49.8647975246076
176312500	-25.0176253280647	-123.020402667487	-7.05492045051042	106.246528850118			-62.3358720783122	-44.7697011465855	-14.4920978967479	-52.0063552964498
177000000	-25.0311558606072	-125.17197537857	-6.98079751403463	104.446222092006			-57.0379773247783	115.44562008222	-14.4828980162226	-56.4759590973274
177687500	-25.039588383347	-123.919159616381	-6.99058438057247	102.081190047459			-72.3643337743028	110.072336072369	-14.4197279431969	-58.1127312281166
178375000	-24.9625306335265	-128.269985794591	-6.92544270530497	99.9841364621208			-56.7478630038348	151.680873957839	-14.3517000038564	-61.3141583563187
179062500	-25.2556015322856	-127.473850657242	-6.92162513435721	97.9432262157042			-56.6731514051446	104.983376187217	-14.2951134197249	-63.6953874338185
179750000	-24.9371376561246	-130.193378297284	-6.89762590157234	96.2588870508642			-56.0175406895121	-164.126489866931	-14.0845999191038	-66.9330129269316
180437500	-25.1928960934306	-128.683782047099	-6.86378323877157	93.8720511829104			-65.5461908591632	72.6329503977826	-14.1254990652254	-69.65914900628
181125000	-24.9783872605716	-132.766860263855	-6.82288351108721	91.8630208805759			-56.1692921358158	-165.246723472759	-13.95055097894	-72.3435622058607
181812500	-25.388965361212	-131.606328420542	-6.87082300212632	89.7527940645817			-64.6273331611794	-49.7127383417159	-14.0057040144463	-74.8422936177653
182500000	-24.7607786255618	-138.200596441188	-6.76188625714701	87.7179096589964			-61.220376699094	174.1341670381	-13.8556132994809	-78.1588365325808
183187500	-25.256953894777	-135.086629827547	-6.74469269605701	85.2702251290419			-57.8115500731163	50.6457247333068	-13.8885097016055	-80.4568640698491
183875000	-24.8470976415992	-138.462083446182	-6.72286246797322	83.1828530382007			-59.2793207956056	-97.8492038846059	-13.826222464847	-82.5327499520616
184562500	-24.9605024547431	-140.072382444927	-6.72548532941643	81.4100693560682			-56.4530307458862	149.175093412783	-13.8227883091814	-85.731273522213
185250000	-24.7521363388253	-141.998541600574	-6.70642396384516	79.3115226906802			-59.564453527684	12.2509165105139	-13.7267954618743	-88.2885255475286
185937500	-25.1966878122474	-145.502525092061	-6.73347643482969	76.7410515433541			-53.9241715768975	63.8935992165654	-13.7924407382788	-91.1238548472614
186625000	-24.5764136075218	-145.075288838549	-6.68807151094101	74.6080570360865			-57.5005540948725	-64.225059877421	-13.6895897143994	-92.987940779073
187312500	-24.463588252409	-148.90928364288	-6.69502463382777	72.7330809493023			-54.599960575487	120.067301521155	-13.5987277098219	-96.2474798757453
188000000	-24.5400377227902	-146.930665256912	-6.73720293292386	70.4201326025471			-61.9284506936345	179.911267561103	-13.5865189219897	-98.2330824583137
