# Hz S DB R 50
100000000	-30.0430524200252	-19.0962261880576	-12.5447050652623	-16.4260556544717			-57.6941445390153	46.7391889723251	-3.52427002355443	64.674386127548
100687500	-30.8022083291463	-24.4190550738387	-12.1882585907309	-18.9652761390792			-55.2715786239939	-113.31852397962	-3.50899162692252	61.9590715334165
101375000	-29.9921719949838	-24.2100617339003	-11.7336220211645	-21.1354192374958			-62.4226106854545	69.1769472558018	-3.50929920671837	58.9494146471721
102062500	-30.2897031519025	-24.8848825828456	-11.3462258361142	-23.9813280443845			-58.374686502438	-111.49720467029	-3.56767353217506	56.034825536997
102750000	-29.6642910217695	-23.6574783377083	-10.9432086615324	-26.0539048589397			-70.1893059391136	109.246403149999	-3.54364603636909	53.3194690135613
103437500	-30.2455275678073	-27.6765704741075	-10.5896405716267	-29.0707315862917			-66.3461092972797	-57.1003950248181	-3.55912182286839	50.1714876018679
104125000	-29.7733798318613	-24.2911947028324	-10.2822518723791	-31.2661156130891			-54.9760269927538	70.2530880956432	-3.59148244163796	47.2649619475742
104812500	-29.9581426906216	-27.6463206950905	-9.9450646281042	-34.4127802071499			-58.0175786847999	-50.3043475439514	-3.64497082217789	44.0674608844795
105500000	-30.1367526034595	-27.1690046619551	-9.63886426174166	-37.0847129073858			-63.1360978758989	119.833040293677	-3.65828428317472	41.1996738759265
106187500	-29.6963439792297	-30.3339537254579	-9.35739701467039	-40.2424268438689			-55.4032726658693	-30.9977916984451	-3.66014873628413	37.9518696486786
106875000	-29.9367948917664	-30.1790752144872	-9.13655024305485	-42.9381803742327			-57.6195210474067	4.25245308716307	-3.72125498003537	35.1124093147823
107562500	-29.4861321795289	-31.7809862570824	-8.88736099056808	-45.6959300725647			-62.7628092836679	-46.765597949471	-3.68275341870412	31.4504034579448
108250000	-29.0515979020778	-30.6292271966789	-8.74042511892096	-48.6823508349769			-54.3108720909848	-176.524459296408	-3.78950126419307	28.6594766912663
108937500	-29.0197584642292	-34.2696969352273	-8.56937508088062	-51.5295253262305			-76.6872043647161	62.6330045061708	-3.77251275667653	25.222933950043
109625000	-30.0071766781488	-32.5770913692109	-8.37482814586962	-54.2188938835668			-57.3251767786747	119.584984829622	-3.85569841842411	22.2302103967587
110312500	-28.9006181451343	-34.3319386004751	-8.31872309126294	-57.4390707382072			-59.3417541214793	-46.223951498164	-3.86024014034299	18.731490528034
111000000	-29.2425009011665	-34.1759590815541	-8.23985431639828	-60.2661711266492			-60.6971430454485	-161.793455734564	-3.97572276047419	15.6300398085941
111687500	-29.1013281264719	-38.8549425410456	-8.24272150542364	-62.9265454863976			-54.224550758922	-1.41044952662206	-3.94624120025703	11.9067901848525
112375000	-29.5045325783518	-37.3702376780877	-8.26991859472208	-65.4350770274841			-67.2513723711672	-123.154593781312	-4.05998413253858	8.64748557816661
113062500	-28.6298544934926	-37.1998878014363	-8.35042786243198	-68.1883120199336			-59.4137195678898	-36.3415190290613	-4.02098211596026	5.02838263589847
113750000	-29.1246502088774	-37.7699001199897	-8.43688316262398	-70.4591229441841			-59.2394222600423	-133.482328318601	-4.10830102824748	1.65125033075201
114437500	-28.923494550131	-42.5415012755962	-8.62586664545833	-72.636793345731			-63.0423849435592	-44.0390673873265	-4.07610979545579	-2.15497796311282
115125000	-29.0312319948724	-43.1437837289175	-8.77892345720585	-74.4615513084243			-57.082966837847	-110.881294749684	-4.17266401723159	-5.80826008123089
115812500	-28.590050113986	-41.1411825697088	-9.11714402067963	-76.2556113227798			-66.8702155368588	-162.15594605363	-4.17005377288711	-9.89258910197372
116500000	-28.8125068396356	-47.2041879114886	-9.38976467947774	-77.0329724584621			-67.4260631994869	21.9933760375774	-4.21676885428788	-13.945785487273
117187500	-28.4966419791484	-44.7754132922559	-9.86925163988512	-77.5886806128403			-55.8086553715744	110.692938349572	-4.24474434334141	-17.8282849758369
117875000	-28.1999966633302	-47.9900505773437	-10.2512115652411	-77.1885151200208			-56.7967517969788	-108.860846197809	-4.29952603997473	-22.0466930004115
118562500	-28.2709296203118	-44.5876874600164	-10.7966155749784	-75.3194041290822			-62.6077910856785	-22.1985293025924	-4.31050664009498	-26.2135569084932
119250000	-28.1764158163746	-50.4026392639181	-11.1985773849739	-72.3310115305467			-63.8971483347544	-49.1732010965104	-4.40934590857663	-30.7937063517435
119937500	-27.8711981459702	-49.3685829083123	-11.6305170711191	-66.9032552789848			-58.963969854733	47.8705314861705	-4.42141675148466	-35.5946925206828
120625000	-27.8668793411819	-52.8040460554804	-11.7354666176721	-60.2154852931492			-52.9656006525547	-75.9177103399886	-4.49535249572561	-40.164799426601
121312500	-27.4509250008933	-53.7904414832613	-11.4910723822932	-51.8116224592678			-60.7669371722	50.2003254593177	-4.59771704645098	-45.2546233798967
122000000	-27.678504811047	-56.706596757536	-10.6650601889831	-43.7626026958885			-70.7560203646289	157.504071256172	-4.64935829057382	-50.1834301638991
122687500	-27.4658330163584	-58.1594978302109	-9.56345105314195	-37.2218800288554			-58.664115335341	-112.462433764787	-4.79169198086002	-55.6163919103261
123375000	-27.237190616081	-59.677310038449	-8.1319341885154	-33.5011160122793			-62.0285528719097	8.33858787694514	-4.89595017791748	-60.640339854262
124062500	-27.458346687731	-59.4460054585005	-6.70656886837943	-31.465427246589			-67.125336432863	153.337225401024	-5.04848557623623	-66.2846746573407
124750000	-27.1149655424414	-62.3922925055368	-5.18533019634771	-31.8929620178299			-57.7270769897112	-40.5931514302089	-5.22454463742103	-71.7092793728767
125437500	-27.205612498411	-64.6798717174591	-3.93966021186878	-33.4649692422557			-65.0350322535232	105.951132279196	-5.43865949884312	-77.842015482766
126125000	-27.2710971501149	-66.4008223022353	-2.6322537058975	-36.5285608735332			-53.882023604933	-17.2011568454293	-5.72034685666743	-82.7559894358327
126812500	-27.0048994368923	-66.6064202346704	-1.53122566705306	-40.1837364931275			-62.7811625330162	-102.286573155071	-5.95863351942465	-88.9107063061379
127500000	-26.5978125225483	-69.0613745041332	-0.495284746242694	-44.199321283623			-59.7361680805263	-45.093950828561	-6.30713202916786	-93.9689724002733
128187500	-27.0101115623108	-71.0282232970334	0.379139647839569	-48.9812573971776			-60.0597406774914	-80.9256799813258	-6.60398468618633	-99.8042473496718
128875000	-26.8723650250848	-70.4044683671087	1.22606138172588	-53.806227799289			-60.560847616226	-8.92898058563916	-7.04341041184798	-105.407193073851
129562500	-26.7213189726175	-73.4569371458542	1.88132256985254	-59.1655546454953			-60.4525180013739	177.134680440802	-7.31421438034077	-111.052023823104
130250000	-26.4366825695842	-73.9706801455719	2.56517176815569	-64.189308894294			-66.4758763529008	20.9803916523019	-7.85814929519429	-116.480299626945
130937500	-26.5850148091014	-77.4939520060058	3.08841002259612	-69.5682910638094			-56.9660822486278	-76.2890400097337	-8.14914239015528	-121.383377569654
131625000	-26.4280825361455	-76.331265018555	3.5611958953826	-74.4119271133565			-63.3650343544652	-76.8669359461743	-8.71015820410338	-126.766764679489
132312500	-26.426358911648	-78.7465508760603	3.98523168313193	-79.4995734917079			-55.3938886448483	-68.735080674754	-9.05295595773732	-131.767725322947
133000000	-26.5695102065662	-79.9831543488822	4.352887287704	-84.6000884264786			-66.5910736310449	-3.28063344909597	-9.64469682436109	-136.872638699855
133687500	-26.2320313431904	-82.3167115635266	4.65699568172371	-89.3537922047928			-52.4852821465999	-79.0750944543566	-9.988762833443	-141.506163637954
134375000	-26.3711732929122	-81.5198977425169	4.98252144803994	-93.9269354375144			-61.3357773922036	-72.1980031417537	-10.4729496980787	-146.862137307799
135062500	-26.150731415294	-83.5418444920457	5.22202567464253	-98.5715695884975			-57.5675279587565	-86.01403030096	-10.9383567936069	-151.653274649364
135750000	-26.2022175688475	-81.3534839576252	5.49053308066013	-102.943306693907			-55.9386387196333	-40.7974710923252	-11.4149780945282	-156.353597617493
136437500	-25.9929690482909	-84.4769719790415	5.65908632318236	-107.36977893039			-50.2692488392625	-62.9046848285387	-11.8321941566606	-161.486617051983
137125000	-26.2040771739855	-84.9706719562472	5.91387821574139	-111.384682184125			-70.6307332518503	-31.7973072369044	-12.3018904354112	-166.070415548026
137812500	-25.9310748407704	-84.4047959459227	6.05300012550406	-115.935504333394			-55.9071613184068	-111.39081912342	-12.6853519774811	-170.703672112374
138500000	-25.8858452545819	-87.7689270765676	6.2586992662561	-119.563873065721			-59.264169759264	-134.003635520051	-13.0521710228405	-176.46932510441
139187500	-25.7581778242366	-87.1213098278961	6.38421146409708	-123.864352805168			-52.9971821672703	-93.8607857844054	-13.6120516420979	178.586344958402
139875000	-26.3638189723575	-89.0530897018177	6.55729987546319	-127.622507052375			-64.0294295679687	-172.325534679356	-13.9353592611094	173.794122663715
140562500	-25.8868560871518	-88.2470895728806	6.66207291915097	-131.615937416908			-52.7225056988363	-75.8416253001227	-14.4107408917212	168.543304500077
141250000	-25.9352632585751	-88.5517516335446	6.79810852638037	-135.239683895944			-59.6356749109211	-132.357636541284	-14.7155154266883	163.50185358898
141937500	-25.8368037456199	-89.2884259661295	6.86845110568325	-139.227953295258			-54.8878578542187	-91.1268873369118	-15.1268235152185	156.899992853526
142625000	-26.102483464317	-88.8816227898615	6.99970059875944	-142.67636585386			-56.2277027126477	-122.486626400058	-15.457533186375	152.881154373294
143312500	-25.599237015546	-91.5332707789676	7.0656578524074	-146.465701688922			-59.02248662505	-37.9539162658161	-15.8120813765026	146.384553304339
144000000	-26.1035843792953	-90.7498924971535	7.17820378602127	-149.659778234691			-52.4806052196995	-155.658219952746	-16.1473318844874	141.680071972412
144687500	-25.9548736886049	-92.7526478036171	7.2190474394565	-153.657184594729			-56.0627690545862	-83.3127964608299	-16.4945064207033	135.365181865082
145375000	-26.3145228371103	-94.0938947793853	7.28958980012787	-156.932093123751			-54.3792438811964	-139.455544074003	-16.5832183270986	130.553161436516
146062500	-26.0497454563422	-91.1585698908464	7.30834399121219	-160.522445065976			-56.8898675964193	-133.340730238655	-16.9305849475441	123.251718160379
146750000	-26.2752638821888	-93.5065333886792	7.38980778877811	-163.660027094667			-57.6430571791038	-170.066808493584	-17.3262953913133	118.593762120423
147437500	-26.007961059952	-92.4296594839618	7.41838821647026	-167.140190677925			-62.5551922957894	175.827187498327	-17.325268271478	112.101401002196
148125000	-26.0118644658288	-94.6361292363565	7.42917431566927	-170.250411461512			-54.7587684748686	-135.783878503052	-17.6385346618822	106.710587292985
148812500	-26.3265407400453	-96.2657510293162	7.46767836970479	-173.507677816662			-58.8314699829718	137.04048845475	-17.6965809452277	100.791026431473
149500000	-26.4098388507963	-98.1227501925682	7.52008154783625	-176.520245854648			-52.7289522121412	-127.231191556465	-17.9892959437173	94.177186884089
150187500	-26.5189777658621	-96.8987139396132	7.502736278294	-179.667972041684			-51.7318226206602	172.787762120692	-17.8566597301527	89.1960307167177
150875000	-26.2697112398187	-99.3198339656273	7.54286320477103	177.51317382681			-55.9134277996264	-128.632911600296	-18.1616562150187	83.1849102225689
151562500	-26.393190436918	-99.2937980640489	7.53657990714074	174.515101755196			-52.9833798055388	171.919902908926	-18.0699747068504	79.2427806949842
152250000	-26.1664232206812	-101.245945703531	7.54457097565815	171.739522474357			-62.9402058339505	-92.8132019293647	-18.3005140100942	72.7847183246743
152937500	-26.9209875249583	-102.845565279674	7.58088742696781	168.955652931858			-51.4211606526098	-171.854969577496	-18.06554260657	67.849919128428
153625000	-26.3843068423948	-104.040785025376	7.58749941156204	166.083192508028			-58.1693141813195	-123.193168687238	-18.2067608212888	61.6297233656786
154312500	-26.6452708197219	-106.330611872185	7.59742317699935	163.445439322964			-50.4007829266607	178.16647930529	-17.9470362756597	58.0462195297892
155000000	-26.545933721927	-107.024693025114	7.59734053435468	160.621679929378			-65.5779458050325	-82.4492846781087	-18.0052141786217	51.3714235107093
155687500	-26.794727069284	-108.746280062734	7.59154432846213	158.239428386989			-56.3693687036914	179.938444709371	-18.0069093300835	47.1967543240395
156375000	-26.7688362631516	-108.257228166418	7.6491756950693	155.406055720927			-64.6739587658146	-122.668638824747	-17.870013753415	41.676207268976
157062500	-27.2402494897929	-112.037411571865	7.62486753403102	152.833854460736			-54.6833434611641	-177.16306078663	-17.8258770856875	37.0903547557337
157750000	-26.6457546994967	-108.764977917168	7.71559366645652	150.357887466173			-63.1778488317622	-56.0594121302926	-17.6001543819002	33.2835172548106
158437500	-26.9414430926425	-113.736778045681	7.66547565651231	147.649759470068			-52.2038452323183	-166.789804518688	-17.6242474900949	28.5791137477563
159125000	-26.7152056097291	-111.578752467473	7.70299417303835	145.378352631269			-72.3845075989682	-120.529699031509	-17.3038870744831	24.2440618730723
159812500	-27.3051254361142	-116.074700109256	7.70344176684227	142.46454185742			-57.1383292152548	-166.450458303204	-17.3442307105407	19.1561078447714
160500000	-26.9713833514503	-114.250907880269	7.75653141051371	140.026525563012			-53.6789349061059	109.302810124184	-17.0961239310608	16.7493660576557
161187500	-26.5639467675645	-116.644851858949	7.69875919021121	137.671751468456			-54.5643184678493	-141.307022710491	-17.040158809769	11.7269385673232
161875000	-26.7384264712597	-115.964276658599	7.78613312714398	135.126543562894			-53.0664480252739	110.694036823743	-16.8862124211995	9.19354403887485
162562500	-26.8611788891106	-120.324606856631	7.73677837194267	132.208198739487			-54.0503634660695	-175.847041793118	-16.7160517573669	3.46520727414133
163250000	-26.7304264386138	-119.172394777152	7.7866218249479	129.924780248732			-61.1908106886624	100.530981419916	-16.6088651550623	1.21306796938238
163937500	-26.8371534872482	-123.23215985773	7.73651044166123	127.372907928176			-62.9033134856278	163.854910351665	-16.4417337718559	-3.58991814745714
164625000	-27.048206278437	-118.806648162139	7.75587796382161	125.172145762657			-53.5131206477763	-169.753427381887	-16.349610232594	-6.50431668399748
165312500	-26.8182886645985	-124.369275661306	7.73637119154494	122.490653436535			-58.4896659138926	-164.583898079298	-16.1236327883386	-10.0294535019786
166000000	-27.0725389068394	-121.551154626791	7.75463040276746	120.27616247767			-58.0137938192715	127.871225873858	-16.0104872649183	-12.6366470703363
166687500	-26.5504657243161	-124.581693752163	7.73337424679103	117.713420623066			-62.94151212583	-129.483558435762	-15.8023368182581	-16.8945428844194
167375000	-26.6544279781897	-126.182498305905	7.75261736241379	115.551043767179			-51.0333458739273	149.17610696214	-15.7836448612207	-19.4784964475644
168062500	-26.4780565852495	-127.894942306932	7.72055359835462	112.984094237587			-57.1861679903867	147.823883142168	-15.5586509013309	-22.9897915836775
168750000	-26.8975443303067	-126.169263314198	7.75678650540844	111.104224122796			-50.1780573187744	133.12085073472	-15.5982204607268	-26.637207249872
169437500	-26.6421686307842	-126.711563510461	7.67514786861756	108.552703875387			-60.8349270801012	56.3166902809593	-15.3173848705036	-29.153165931108
170125000	-26.7769410028626	-127.762478527749	7.72389927137127	106.43924195362			-50.9920798271743	179.346875151151	-15.3818758843836	-33.2388655646966
170812500	-26.6495985529322	-125.86452586679	7.6834390253237	104.12683819343			-63.9056450078455	126.175439394185	-15.069122684369	-35.6874931658568
171500000	-26.7564898492188	-130.395297954985	7.70240740651521	102.182557475156			-59.6689629752469	158.103225848661	-15.1412752629954	-38.9521761391591
172187500	-26.3175194850215	-128.627452757802	7.67593354765008	99.7910444902204			-52.5048961371925	117.895307033317	-14.9323353950309	-41.4114073194929
172875000	-26.9636334869097	-132.397645232092	7.71878579927078	97.9537026736122			-63.1781254660414	122.840418339624	-14.8391395007136	-45.0815028634498
173562500	-26.4140970135499	-130.120855044239	7.66404475250234	95.6743469138894			-59.970612452182	162.945753542585	-14.7014717510606	-47.7180793674334
174250000	-26.7058356094725	-133.762757553838	7.72101956758276	93.7738164027803			-53.1094269212891	114.269345743942	-14.5463883645998	-51.281264583915
174937500	-26.6350954416928	-130.177616559534	7.69540182793105	91.4696573433592			-51.4142701859971	103.42071058731	-14.605691599698	-53.0008950726284
175625000	-26.5046926629906	-133.439692918928	7.72659388864521	89.6568472609186			-53.9566570527672	125.911684105889	-14.4550532158899	-56.9543225634513
176312500	-26.8620812198475	-133.995020300442	7.73248634642148	87.5402262894918			-52.7650092160055	113.367895035231	-14.3409400869612	-59.1363098561655
177000000	-26.4458142893911	-135.561384310263	7.78730283667043	85.6012520466975			-69.0061055168813	98.4076990829282	-14.152081018871	-62.9706157788451
177687500	-27.0819597384558	-135.087496243745	7.75871728053639	83.2388506406069			-55.7720938726102	69.1596780287807	-14.228499217503	-65.1748873889274
178375000	-26.4964836672837	-136.952481071606	7.82753408513873	81.3532526533519			-61.7336675423187	164.849602526199	-14.1058137279666	-68.2395214378691
179062500	-26.8558572767194	-136.367356538587	7.85325860574049	78.9211441048559			-53.5027785664774	112.444400068759	-14.0872898635238	-71.7092521494079
179750000	-26.8147354179198	-139.252934466765	7.85135268671142	77.0442624342668			-59.0231927313533	168.71783746675	-13.8988253299458	-74.0985817562518
180437500	-26.8836090038085	-138.1042721574	7.86607803699993	74.7598605156731			-50.8289918610149	98.2739278695653	-13.9242815157364	-76.9463458026747
181125000	-26.6886327921685	-139.680700257324	7.88921815450554	72.8102055800351			-65.499544522638	-5.94662001100591	-13.7840405496962	-79.5316848520466
181812500	-26.9632177701477	-143.566109833445	7.90628867093006	70.5885506095368			-52.9392948313141	97.8106614036199	-13.8201219561677	-83.0932548819993
182500000	-26.5152759887804	-142.479108177626	7.96786165527312	68.3776115367796			-71.6007441240942	-82.41550784341	-13.7210647230448	-85.483248517988
183187500	-26.8914364710205	-145.923031074097	7.95246834267782	65.8981364528224			-52.126350645152	110.533662127572	-13.6998502121948	-88.5859259734898
183875000	-26.7521980594969	-145.554613687662	7.97040806095514	63.8910193767664			-61.3515317148461	58.2544321362678	-13.7034318500102	-89.9140909339733
184562500	-26.5390759933357	-148.063613177255	7.95983539412997	61.8398011071168			-57.3023366383062	88.1886216616448	-13.6770295192415	-93.8152103490275
185250000	-26.851254956212	-147.69951965201	7.99680799923613	59.6177113231542			-58.0116502052007	2.59954763505416	-13.583503159558	-95.7663604308332
185937500	-26.6708132571759	-153.452534683747	7.9653491697205	57.2566930451991			-56.4844623015729	154.432526648454	-13.5886520816267	-99.0446682947995
186625000	-26.3459580620531	-153.36317167374	7.97628333062169	55.1917483324762			-55.3652583631488	62.3431885651088	-13.579549233695	-100.995958818103
187312500	-26.0018816562267	-157.498479048903	7.96187845612382	52.9220289429411			-52.2851713603094	100.395395022187	-13.388720520522	-104.235659451265
188000000	-26.5319832752702	-155.326141363094	7.95200862185684	50.7052329394078			-52.7477998475919	50.913065915847	-13.4543168028817	-106.242521529258
