# Hz S DB R 50
100000000	-30.9749368667256	-29.7138309769628	-11.7006460768454	-16.0132735233593			-59.1764278613685	-1.66847090722479	-3.49548319040588	64.5358392481252
100687500	-31.0757175062862	-31.2642718844102	-11.2826185546067	-18.80536053287			-59.7625730320277	159.442714974392	-3.46832803662335	61.8306497488727
101375000	-30.5049387710992	-30.9905607225893	-10.8236561267325	-20.8072149670983			-68.7818298055609	61.4923641102877	-3.4978759790175	58.9326168045811
102062500	-30.965898807318	-30.9196446112996	-10.448518624458	-23.6391704760369			-68.0997217947998	106.823459563006	-3.52996041290846	55.6640442238576
102750000	-30.5113523726986	-27.7205622401939	-10.0548194918977	-26.0978540466316			-63.3080302180945	52.3040747309855	-3.55062164795767	53.1484126863159
103437500	-30.9718473433365	-35.3597830272818	-9.67262325030223	-28.9511793484142			-60.5526913359891	-86.9252443510275	-3.53268166327092	49.9911139466655
104125000	-30.6870249358211	-29.2954953276125	-9.37668205336189	-31.5467813991448			-64.476239412143	104.31701392651	-3.58834197191287	47.1414730136433
104812500	-30.8955956816227	-35.9254872950449	-9.03056934721591	-34.9282642300815			-63.1646215325304	-95.7267757837757	-3.6331396123806	43.8056738935506
105500000	-30.6739515320477	-31.9313182011746	-8.72778374154268	-37.4343607082993			-69.6433919271133	-141.929504562695	-3.6311643542411	41.0505151906706
106187500	-30.9423707489861	-37.695855524936	-8.45502784081942	-40.2190645858109			-55.0102003265666	-14.2633515192686	-3.63942772104772	37.5519119374371
106875000	-30.7469827895868	-37.485459465857	-8.20437436303868	-43.3543550103079			-60.6743019437823	83.0469498126537	-3.70181766966966	34.5884302535239
107562500	-30.2775458340385	-35.9621770923916	-7.96836999601327	-46.4320854336264			-58.0801775065131	-67.2555920242036	-3.67634416222704	31.1193892818856
108250000	-30.0167312017359	-36.9014716145877	-7.79130049769154	-49.2514755373816			-59.1568107939521	108.019831883027	-3.78202147688237	28.3049024743401
108937500	-30.0356033060934	-42.7927326375929	-7.62541302861006	-52.1680160721776			-62.7250456776691	-25.6442220677665	-3.75638567783288	24.8015124467361
109625000	-30.5151096490912	-37.5194110838293	-7.471636021452	-55.3698252318518			-70.69651759891	-76.2561778388196	-3.84744789948565	21.7484384968404
110312500	-29.979079812156	-40.0750146951356	-7.41107565946846	-58.7313437970117			-61.6415672730631	-17.6486747332004	-3.8681260866021	18.2847197827918
111000000	-30.2886619085524	-40.5780104256225	-7.33280416227441	-61.2721973974912			-62.3347729021453	112.849151796671	-3.93342829540773	14.8544432554443
111687500	-30.0338774232633	-43.5905921579306	-7.34847571335652	-64.4487198763583			-94.1561305035646	-53.9931265986804	-3.92161102100233	11.3678617735074
112375000	-30.2849273272759	-42.3414804135041	-7.35673139781007	-67.3126985707444			-69.7559916446312	-28.2801939802847	-4.00429767304664	8.04730519129773
113062500	-29.8064622672074	-45.5516333022126	-7.48152985442604	-69.9717370855971			-57.7570434105554	-17.6014266411542	-3.99017884504155	4.43780825814873
113750000	-29.9425581811726	-45.3519517844645	-7.56503098826508	-72.447302976022			-60.2749079998587	-138.029137405584	-4.09748943091197	1.03345747231826
114437500	-29.8850562242542	-47.5217455510793	-7.72756986692764	-74.8530842828763			-65.1991401435584	-64.7635866786076	-4.04092308240087	-2.9743599253784
115125000	-29.6457445524362	-49.1929963020476	-7.87969718986867	-76.9030479800118			-56.4126651048188	-90.2773743080595	-4.14790514411218	-6.6954313524145
115812500	-29.1671880164501	-49.4202163085594	-8.19097258042602	-78.6595738074405			-58.9236835173927	84.5576351809357	-4.12397713401089	-10.7150983640286
116500000	-29.0616118848955	-53.2689347893219	-8.55297037470318	-79.9888795274706			-57.0328051743296	-86.074210090444	-4.15467287416854	-14.9927725923323
117187500	-29.1472594697433	-51.8914712683719	-9.02427385315507	-80.4980691641661			-58.6547946164553	1.57845601759239	-4.20188515289529	-18.4572282827691
117875000	-29.216975477109	-53.3597069875069	-9.49905681439983	-80.290794379147			-58.2099357982387	-150.959729114114	-4.21421681062792	-22.9943831029393
118562500	-28.5885569526901	-53.1392371286356	-10.046957412913	-78.0848787269773			-66.3104083924105	15.692964445526	-4.28100296825413	-27.156134135315
119250000	-28.3624192964393	-57.3028478194794	-10.5242363899198	-74.7105554322991			-58.5286666017551	-26.5339401612056	-4.30341282716455	-31.7594031329254
119937500	-28.3813194530188	-57.4907996572308	-11.0332543590392	-69.7845096249691			-55.9512800614018	110.715599882556	-4.35577383508277	-36.5879750058018
120625000	-28.6576906152411	-62.4338745013507	-11.1472048502285	-62.0383706197008			-68.8106679551334	-103.347503387502	-4.37251995578949	-41.174656906111
121312500	-28.0618398132525	-62.0359344417744	-10.8633097078117	-53.5021847047553			-60.4184703043728	-26.6714571390533	-4.48692696412685	-46.2924063652361
122000000	-28.0342579626334	-64.9660688219395	-9.98259661360587	-45.4942511109843			-58.7264457011414	-67.5940363061024	-4.53074689420415	-51.3077737081504
122687500	-28.0215136845014	-66.200406921392	-8.79086225217035	-39.2563025650586			-54.1593162297382	-177.426742264812	-4.66963661146952	-56.6574636343283
123375000	-27.7219919252704	-69.1128925218089	-7.34305090900591	-35.6336655860824			-61.5570425683798	-28.8811544382873	-4.78341470343772	-61.7038814324376
124062500	-27.4839490066791	-67.0249512189364	-5.9300776390969	-34.0407103294191			-69.8916924673182	-149.360637051118	-4.93065287976767	-67.3657404509666
124750000	-27.1837047928133	-68.318704882811	-4.41678163105054	-34.4637381427967			-55.4552506311822	5.7543625502777	-5.08168144274273	-72.7352613614416
125437500	-27.3188181185356	-69.3907825056436	-3.1615112205094	-36.2943109597731			-60.8149239052485	-65.2193388254361	-5.25403875463462	-78.9462794528174
126125000	-27.1680167368467	-73.862710223336	-1.91524136890867	-39.5391249001102			-58.1338475597292	3.22948924205735	-5.52703690285523	-84.1687641190452
126812500	-27.0011329171949	-75.1959638051184	-0.833163723427218	-43.3056044102008			-63.1513109100456	112.245085414	-5.7702784595491	-90.1994802704384
127500000	-26.9416179642723	-74.6300118793061	0.178689089812105	-47.4949534532434			-58.2962016504115	-38.0811445576609	-6.07077658633414	-95.4748738970311
128187500	-26.9457806812935	-76.4332131589708	1.0158723672126	-52.365625408402			-54.681632128252	-161.578650023415	-6.33501343035113	-101.517399074051
128875000	-26.6681819852555	-77.1890522628429	1.81436916636594	-57.2652397672683			-58.7899508552854	-8.55368636123472	-6.72010210989797	-106.89507325724
129562500	-26.8591546183922	-80.2324037764232	2.43544954881169	-62.2893091354485			-61.5644609237309	-56.0726441925921	-7.01908024062167	-112.792241466161
130250000	-26.345241669485	-79.7211714894095	3.10053544704792	-67.2999510432991			-56.1207798089956	14.6316280983092	-7.46274617720792	-117.966555835675
130937500	-26.6352840545028	-82.1342001410815	3.58571857294907	-72.7255082235882			-56.1356595453463	-76.8742846728203	-7.71590317730951	-123.166527551602
131625000	-26.3482453519209	-81.9476046256735	4.05983935644979	-77.4303276434371			-57.1955607692237	23.1324444593339	-8.26672574409853	-128.609675511484
132312500	-26.3548050434986	-86.2001365453636	4.4368774297298	-82.4561741555046			-54.2478176493875	-84.6458494742717	-8.53336360473725	-133.85185552592
133000000	-26.5948826185732	-83.4582066975364	4.79305180721199	-87.3585524535218			-58.0245161803725	-56.4863370773605	-9.04340573668886	-139.176264900489
133687500	-26.0273641703343	-87.9516271317278	5.12189625341286	-92.1490392086108			-59.3089505555457	-43.3979978903254	-9.40741237024368	-143.781856271795
134375000	-26.4419205547326	-86.9509242164784	5.4411682421249	-96.5062372167446			-58.7445699110356	67.9515612233742	-9.88543543369618	-149.708892766434
135062500	-26.2798694359162	-88.8689497911383	5.64172746125428	-100.873416802168			-55.4728010580703	-80.071591726887	-10.208335678223	-154.702784904454
135750000	-26.5571775480135	-87.3684088025188	5.91104146331233	-105.361800507231			-65.2052573289741	34.7864900548988	-10.6440485255682	-159.941560919877
136437500	-25.9534414679541	-89.7763185983189	6.08894285059163	-109.797384332713			-53.7812814833671	-67.3444026056895	-11.0499460534849	-164.841088681203
137125000	-26.4966821566479	-90.361869651425	6.33829948562882	-113.770663539598			-62.9298712998121	-166.667325071004	-11.4364149506162	-169.610138158357
137812500	-26.0925793765076	-93.2359125407769	6.47857376921511	-118.126930255595			-52.9964492122235	-68.7015306058693	-11.833531066264	-174.966183831803
138500000	-26.0700829705893	-92.6803905166792	6.68065226667305	-121.829967131591			-56.1971268912369	179.571061398853	-12.1102782971909	179.671896755288
139187500	-25.9305908034337	-92.7744525298827	6.81530743746097	-126.087345985716			-53.4088404915453	-66.2167889235648	-12.6658848745325	174.296564025767
139875000	-26.3496322852676	-95.0677988325983	6.9994364950614	-129.782261470837			-53.0119721632503	-146.963064522074	-12.8811881290469	169.216446088163
140562500	-26.353767021076	-94.0759258523374	7.08000529929002	-133.671495628362			-53.5143712849787	-50.8983508290316	-13.3521965875243	163.592287964598
141250000	-26.1801831363855	-95.2365451193042	7.24139595575402	-137.425691646966			-56.6402359255649	-130.957841468201	-13.5876557086745	158.555533738734
141937500	-26.1741376388049	-94.8427248380555	7.30862532933628	-141.359019879699			-50.9928516399846	-83.4942097608275	-13.9588618784233	152.213040016508
142625000	-26.2159995459045	-95.7896941871726	7.45669432002703	-144.778551688961			-53.5427156037164	-124.54572983822	-14.2081761243475	147.785382047982
143312500	-25.9488011115329	-97.6555651937718	7.5252477254204	-148.598800729796			-57.4310027526146	-90.4389425403117	-14.6062201953117	140.838222956522
144000000	-26.0928838105675	-97.4618798576162	7.6380390793769	-151.864458189692			-52.067209589978	-111.507040916298	-14.8337048473341	136.828967797263
144687500	-25.8692277427528	-98.7144069836958	7.6378569057758	-155.749391879629			-70.8766917402262	-72.0677262161478	-15.0967807241554	129.722629925575
145375000	-26.0413449351535	-102.362555663555	7.73432279763033	-159.090725543578			-51.6188648398459	-162.739881775982	-15.3530458358531	124.896481080836
146062500	-26.0378296231533	-98.5228411428446	7.7582953442689	-162.659117313297			-67.694138155244	-140.698841700121	-15.6233412812282	118.388617508786
146750000	-26.0461130750123	-101.683415111206	7.81302441348079	-165.833497367393			-51.9888020549215	-132.086156019287	-15.8801371824379	113.702948186713
147437500	-26.0358075399004	-101.054083602937	7.81395271647931	-169.304788603671			-59.4920371407144	152.951117019312	-15.8698817836351	106.700653037758
148125000	-25.9123360035423	-104.073307718746	7.87897873145001	-172.441214069872			-53.385959805086	-130.673312927824	-16.1448435354881	102.392028951012
148812500	-26.0814990407272	-103.850141637935	7.88104223351289	-175.807678991385			-55.7055017259039	-158.170938988798	-16.1993918413453	95.4993551966777
149500000	-26.3783340265562	-103.901233531837	7.93647013325824	-178.622670996932			-54.7680878128351	-138.308052203885	-16.4339802532225	90.8301067535054
150187500	-26.2682748689951	-106.459773351561	7.92276501754991	178.126918547802			-62.1414859826868	84.7585836705277	-16.4134765618884	85.0347155013458
150875000	-26.3712730215062	-105.669147095287	7.93549847261381	175.400158518681			-55.9626509742534	-120.647394909343	-16.718493703837	79.4430035688388
151562500	-26.2036123981327	-109.044738310741	7.94339844449019	172.317271520886			-58.0700417624492	-152.546391987073	-16.4816321913967	74.070651162505
152250000	-26.0388543986398	-108.956822967821	7.9535129012433	169.566597707421			-55.4442595646229	-141.065211628236	-16.7629551141358	68.6134299669866
152937500	-26.3588209513105	-108.998706233868	7.97395430388382	166.651485949804			-54.1419757113095	-172.932360735127	-16.6804923355592	64.1200546379974
153625000	-26.3017617732314	-112.713437209276	7.9883674385153	164.061785422412			-66.9136069165173	-162.945170527907	-16.762589216026	58.0108539283562
154312500	-26.2136239140403	-111.959006208138	7.99813918129022	161.261829087237			-62.764836067618	-129.628158397637	-16.7531065785061	53.4952017388409
155000000	-25.8535933850723	-112.30136193558	7.9960495913007	158.487280934964			-63.3411053171004	-114.142243322767	-16.6163778902842	48.7705142079695
155687500	-26.359203824954	-115.143885591161	7.99250797013804	156.0359502037			-52.2399332100845	-174.295807332596	-16.6323306074823	43.8130692503235
156375000	-26.387081217868	-114.555913905426	8.05517173654422	153.211416797396			-63.3294094602786	-118.682009956299	-16.5371216544079	39.0832460571933
157062500	-26.6494705169698	-116.472811575762	8.0217699457767	150.613737521595			-52.628719205759	-162.369252345128	-16.5863416907752	34.272483418691
157750000	-26.4654942159153	-115.029550124452	8.09134020719657	148.222846149778			-60.9897061273763	-179.578173639761	-16.3858390868653	29.859850755244
158437500	-26.5400263683396	-118.646066331944	8.05600661335213	145.70938513937			-52.1897314727233	-148.329313663782	-16.366486903665	25.2347171742213
159125000	-26.2126991662348	-117.638106826592	8.09715432650344	143.166605695184			-70.4802811249097	-35.819391096156	-16.2770196468974	21.4744336750242
159812500	-26.7730141604583	-120.232064410085	8.12037807138043	140.48649990664			-52.0685280918186	-153.202145958306	-16.2296324078334	16.0191844299878
160500000	-26.4482953235217	-118.807547230563	8.13669506202974	137.995175911519			-59.1227566950647	140.724015292802	-15.9709966278498	12.7987615353907
161187500	-26.3686994409819	-120.368421210751	8.08304462580654	135.618992463323			-52.8754050207758	162.919337031063	-16.0039131232396	8.22852812245605
161875000	-26.5350452640374	-118.758589919005	8.18294217615861	132.821659582704			-58.0015294976201	104.121501135396	-15.8921064021179	5.25156462695726
162562500	-26.5590355972675	-122.972688615921	8.10735534045479	130.211072596663			-51.7586033114231	-170.303342804761	-15.7657773496525	-2.36535678598821E-02
163250000	-26.6116801293662	-122.010029696418	8.14140187919043	127.896564317774			-62.2678835979855	56.929362037991	-15.5627763352044	-2.42179579023345
163937500	-26.1902000535494	-124.683922851376	8.15527086157116	125.552027842119			-62.3986481158808	-121.011459596365	-15.5692956627663	-6.25600404132175
164625000	-26.7750315456342	-123.20430676174	8.12935263963716	123.052710675877			-52.5853083613975	159.936224631868	-15.5179593290737	-9.79620637050116
165312500	-26.2482077560955	-127.024647114438	8.10708267009015	120.427458180391			-56.5391590565707	117.412576160601	-15.2898485353932	-13.3134727093649
166000000	-26.5591977146851	-126.947638547906	8.14096123066111	118.174411139786			-53.938248544652	124.106301543595	-15.1589142024514	-16.8479652782113
166687500	-26.402089476802	-128.288882283982	8.10134150402366	115.874056463062			-77.6489290839554	91.8028351227939	-14.9139782221373	-20.6328642736617
167375000	-26.624579569771	-129.972585844084	8.13128005885186	113.692672602875			-53.1082756263516	118.585635745527	-15.0315155779659	-23.0774843319082
168062500	-26.2292936679555	-130.62823697833	8.08859280672778	111.186823886411			-51.5019308699998	134.480691373095	-14.8343379788922	-26.4569204548458
168750000	-26.6783652504239	-130.610448638785	8.10372336751819	109.139316160093			-49.9794672602073	144.587730986625	-14.8227669724026	-30.2578445852962
169437500	-26.466358474686	-132.320314664066	8.02120491453604	106.607786504947			-63.5427621684145	-135.808321086799	-14.5455291547192	-33.2719827367756
170125000	-26.6770879270309	-132.019740409995	8.08483285267759	104.693139893839			-52.2213877595489	149.778468436739	-14.6720303982966	-36.6622399377459
170812500	-26.4177370358903	-132.175190855295	8.03563933897868	102.301507990877			-61.5275200143952	148.906624040602	-14.4059653979129	-39.8996948746043
171500000	-26.796665634615	-136.350191208647	8.06514757245864	100.23932613967			-53.5390680351081	153.109380811862	-14.4904495280906	-42.484336534806
172187500	-26.5514592183285	-133.714596046638	8.01977820263428	97.9420737016017			-57.8660692682385	83.6577729299008	-14.2561938261357	-45.1770023536676
172875000	-26.8502607070304	-138.484533631303	8.06046763309973	96.2263162997888			-53.9722076548185	149.125802258631	-14.187700956815	-49.3183488152389
173562500	-26.4861605909999	-134.819139565723	8.03410839492594	93.8523565139004			-57.719531043744	100.815703177201	-14.1167803737434	-51.7175594775457
174250000	-26.5750012386566	-137.631409072678	8.07741871477036	92.0327578488239			-58.8715631022411	112.663107000081	-13.9653496830827	-55.825371513704
174937500	-26.6888100195636	-135.937255159208	8.05405235572897	89.7743016241312			-62.6726498642373	48.4084634659763	-13.9384107138283	-57.948605306436
175625000	-26.042766216703	-139.601598459693	8.10779616467536	87.8857494612968			-66.2659273063213	152.80863800585	-13.8621682360033	-61.5821180783995
176312500	-26.5909835642982	-138.930187449278	8.07528062192731	85.6322196955708			-60.3141875477454	49.2797764268704	-13.7370309037816	-63.8177907322548
177000000	-26.3628525332671	-140.272639384114	8.15531909619334	83.9003719929345			-56.5112610233152	155.28876177334	-13.6076764158216	-67.7212133556128
177687500	-26.7199755575842	-140.42235143361	8.11222699282022	81.5461796159445			-54.594404690466	121.878913505996	-13.6973204660757	-70.2352271392044
178375000	-26.0372482632577	-144.451719564112	8.16972114884937	79.5431242863517			-63.5755144911139	-132.371386625099	-13.5094358813169	-73.3943694185842
179062500	-26.459699532417	-143.657040193105	8.17591948706458	77.1767925709016			-55.220558183143	113.347910623657	-13.595731255212	-76.3782953687963
179750000	-26.2665038463868	-145.753539045206	8.17437220370079	75.4863360127802			-59.3915320554717	105.027493035137	-13.3787560385755	-79.0167979122107
180437500	-26.6614621986759	-143.855949577847	8.22933406029078	73.0592627321022			-55.9461783468869	105.928147967455	-13.4610753756049	-82.9113911793757
181125000	-26.1760030127789	-146.180484652126	8.21979945720562	70.9371574497267			-60.2099970427456	51.0988107409267	-13.2773155772934	-84.7131099789739
181812500	-26.4560090411296	-146.984685871308	8.24550562423759	68.5914203761122			-49.0636009318782	119.438737131696	-13.3137706733297	-88.2502263779289
182500000	-25.9921457838404	-147.713846914231	8.30638685995276	66.5810749787772			-55.6500196146568	50.5504190918867	-13.2733523782276	-90.3380127442407
183187500	-26.3662202836292	-150.588990388443	8.32734581419811	64.014502226216			-55.902921575279	117.237206456402	-13.2287592058301	-93.5142632882501
183875000	-26.2497865927	-152.031115695114	8.33495774374644	62.0260102564634			-55.3147974136396	10.4515583889216	-13.2144324336422	-95.4030767705823
184562500	-26.212216977033	-153.367490630911	8.29852532760679	59.9051546285756			-54.6886111038393	119.384016129235	-13.1965968928607	-99.2680713495967
185250000	-25.9799224019498	-155.127365212912	8.36547822236164	57.7079540265831			-58.2498648478664	94.9809908399727	-13.1720507345961	-101.393167700286
185937500	-25.955980447495	-155.293468446423	8.30153589016096	55.3959481240464			-63.7112904642485	81.0893301744669	-13.0856201458537	-104.508565200069
186625000	-25.6844319507535	-157.18441183016	8.31433707969656	53.2078947027313			-55.6399107726561	84.2354045854973	-13.137556180197	-106.87524801757
187312500	-25.3861711018921	-159.528692132808	8.31302683469381	51.0127735790179			-54.3285771864301	119.186519897624	-13.0111774946581	-109.649104264135
188000000	-25.6842598274178	-158.365985068566	8.27764346509788	48.8594585998859			-54.7315328203523	36.1276578483016	-13.043579275402	-111.819442730183
