# Hz S DB R 50
100000000	-19.0324541944646	125.390172704226	1.2168143641478	-14.2224399209982			-55.5576971537474	95.2850568526918	-3.52169351006331	64.6885755725209
100687500	-18.8949239336182	123.019401094733	1.65949350021156	-16.5129277542519			-57.1475005598126	-27.2173711726295	-3.49360047734751	61.9868758137513
101375000	-19.0117727859267	119.616791360779	2.05651899613861	-18.7735280700965			-64.3119013863046	152.978426796396	-3.55941430036304	59.1603017931307
102062500	-18.9090347654881	116.492181187797	2.46379339323371	-21.0638460237516			-55.5911523597496	-19.4866673092389	-3.54312791349988	56.3198041929557
102750000	-18.9046202409394	112.733460714061	2.8411288130675	-23.6120627509868			-54.7267884707871	12.6840519854724	-3.58837721634333	53.3788645144394
103437500	-18.7010597163709	109.473699780626	3.19694881084359	-26.0888001474059			-56.8616124964059	-18.9720240258674	-3.52850086801499	50.4818314946984
104125000	-18.7420008536097	105.706482068413	3.5387459488476	-28.6257268700769			-64.7700257893519	-59.6000750497464	-3.616589680109	47.4587786323992
104812500	-18.6673677508863	102.034600739328	3.84944966195795	-31.2677623436674			-53.7318588927037	26.9162305972679	-3.60550504127292	44.5270428727781
105500000	-18.5945947517409	99.5147669645073	4.14743357870002	-33.8762716197598			-61.7807137393025	-44.2699409214021	-3.65479843496207	41.5759518242574
106187500	-18.5987500721516	95.391433803769	4.45563709112691	-36.5995200641461			-51.3693261809234	-15.0509774805102	-3.64068214619151	38.5405641838933
106875000	-18.5578672989201	92.4921976213686	4.69990315696899	-39.4569058085763			-72.9683531715961	43.5198444610088	-3.71903233069016	35.4591293447806
107562500	-18.4057394335931	88.1648604657787	4.93310045265765	-42.1792340007657			-56.3364445274674	48.8602172754615	-3.67775368849628	32.3071781244607
108250000	-18.496643193771	84.4027466997694	5.12369252211906	-44.8028090403478			-61.1042045462829	-76.2231990298868	-3.78311052588269	29.0018262374858
108937500	-18.3440920521432	80.8161637250892	5.29252559702102	-47.4853127393265			-60.2099833050948	-7.86597666800928	-3.74791886825777	25.8413861782797
109625000	-18.3096296657324	77.7012610467836	5.46476158186797	-50.1773141974097			-53.3406723976404	-61.4133269180995	-3.86012530317246	22.5221104536051
110312500	-18.1823154494867	73.2338773964888	5.55304888253756	-53.2511472220391			-55.2537047496907	-3.97076656533097	-3.846496520654	19.5689873193081
111000000	-18.2750681846822	69.0400808140545	5.65818435325552	-55.7653978359368			-60.1624657300126	-74.9756024536137	-3.95769240112757	16.0956750419747
111687500	-18.1657489608763	65.0317028275987	5.65735898359497	-58.4332493763722			-62.6259074102673	6.62216633462032	-3.90800395880214	12.8340840098482
112375000	-18.0254600444513	61.7620035080786	5.69840012206959	-60.8822843234206			-56.1699592344332	-114.214223448255	-4.04360957843129	9.20559819484366
113062500	-17.9962447953767	57.1693507006207	5.64183722007645	-63.4476929081207			-54.1856763841365	15.8435111895335	-4.00083645237981	6.17647494141225
113750000	-17.891205828781	52.9384677664581	5.56090523781523	-65.5186913817316			-54.3333567701314	-76.3662162123877	-4.13092481598446	2.26357407000866
114437500	-17.9875552914733	49.0541548521533	5.43907568669235	-67.6961965971438			-78.1392231860189	16.9930148236141	-4.08256633143499	-1.12282806633028
115125000	-17.9607546683248	44.0808416631437	5.27876786891663	-69.3764533133739			-56.9001911606758	-42.5450404418258	-4.15668990506124	-5.01345916605469
115812500	-17.773174541232	40.0267633682946	5.06194477938399	-70.980821058732			-62.3818383214403	-6.64576327109652	-4.21979228913859	-8.83367368143519
116500000	-17.7656666209084	34.6226830011279	4.76996842915185	-71.8195433638353			-54.885778942728	-10.5925936367281	-4.23816254148827	-12.7886502222819
117187500	-17.7518161408567	30.1465688827668	4.4084618204885	-72.3097570614515			-63.8073362719841	-85.1774221058894	-4.29309377802201	-16.4574782967354
117875000	-17.6260521525622	25.1080475801225	4.0044147447178	-71.7960064018313			-59.5174583276944	-13.3201798012356	-4.32070876906066	-20.771482041341
118562500	-17.5488144733303	20.502578522136	3.59863863031706	-70.1838078576635			-57.2657865856102	-155.573442403611	-4.3744506566763	-24.929181695041
119250000	-17.651400880735	14.9041035954511	3.18052666314527	-67.0460399833891			-54.6748138056391	-34.8120210926252	-4.42783113919156	-29.3643765914641
119937500	-17.6358539275019	9.56262484170644	2.8659855578936	-62.1418779692974			-62.1756398845696	2.09398937611983	-4.48910085220085	-34.112467524588
120625000	-17.6373371199433	4.40508820952744	2.777428969755	-55.6855721106725			-64.9910745862541	-178.054419214929	-4.56861332204755	-38.7423148530436
121312500	-17.4956576431228	-1.90056725129542	3.08913601406027	-47.9351568925937			-62.4937987559445	-110.937260997736	-4.64831607020581	-43.559445035828
122000000	-17.6176164857476	-6.65427861542542	3.80952040779699	-40.1669580116396			-58.8816163967437	-29.7367249996406	-4.75245580708002	-48.2712333659896
122687500	-17.6573939798861	-13.0317071691942	4.96477611567582	-34.1424408472796			-57.7208033352669	39.6949336924391	-4.86409231101159	-53.6706561106542
123375000	-17.6445716976187	-19.2173367852667	6.34668749484565	-30.2956808581891			-59.8364245987648	86.559041179316	-5.01934296956551	-58.8391193723059
124062500	-17.5735649645323	-25.6704969585007	7.78615849120271	-28.3618465441183			-57.4334264425426	-33.4847790178027	-5.19089033721328	-64.0651283860317
124750000	-17.7936309376607	-31.6428613693844	9.27277339280889	-28.5252598781768			-53.2686429475299	26.9517106334031	-5.43321952154385	-69.5765124735057
125437500	-17.6841156881266	-37.9862788301247	10.6133365880898	-30.2088691387214			-51.6494221970485	-33.0159763050222	-5.58414158467081	-75.3390283864302
126125000	-18.1906888920727	-44.0949870930671	11.8634946180797	-33.3319756314365			-57.6169052262348	-3.34384735608253	-5.92679159225432	-80.6009172956107
126812500	-18.0727930037682	-50.8038472702917	13.04573378467	-37.098425901114			-51.0658338016042	-39.9757292980225	-6.17505215508511	-86.2888123018064
127500000	-18.4806610052501	-57.4951881283584	14.0554294728009	-41.5022719188157			-62.0564927908037	-41.6076799688724	-6.56974059579953	-91.5641299562313
128187500	-18.6754618904338	-62.7457333412083	14.9987334284578	-46.0901282603083			-45.5447053200615	-26.8850805793604	-6.90129434835095	-97.0105438205531
128875000	-19.0565150124793	-68.9406206250179	15.8129895534827	-51.324664868431			-54.8894970485049	10.1429279705488	-7.34483666766418	-102.550146119102
129562500	-19.2454155256974	-74.444100472482	16.5243790550515	-56.4454487828687			-46.2176761971159	-23.5607739701468	-7.61570238022292	-107.661877179329
130250000	-19.5453931505479	-80.738355718851	17.1752374572883	-62.0015691001612			-49.7230135291944	-43.5028221315448	-8.18558361202229	-113.076887055895
130937500	-20.088366628049	-86.2738886698736	17.707677085466	-67.3206449327452			-48.9816450635735	-25.9115141898711	-8.5127673921107	-117.655703361262
131625000	-20.4096254419081	-91.1511924441783	18.1579424184122	-72.6497988869489			-49.656007663485	-65.3412134387046	-9.12173184477487	-123.043898358585
132312500	-21.0696369010921	-97.1475883096377	18.5995612306584	-77.9065330211636			-45.2234916262812	-50.9941121200738	-9.45480974205699	-127.202718416488
133000000	-21.4515153058649	-102.028987310967	18.9284912856246	-82.9394549854358			-47.5520902778134	-78.7639337126893	-9.96092374091622	-132.60602647376
133687500	-21.806860374995	-105.976952970348	19.2316584435126	-87.7695406688605			-47.8511064426614	-54.2328630951593	-10.4085466344051	-136.41023891075
134375000	-22.6760570453939	-111.839259886923	19.5679676501589	-92.7349560238819			-47.2637019947639	-74.380707441439	-10.8196182439355	-141.844795162059
135062500	-23.0076681426625	-114.567031335069	19.806151079295	-97.1399096007019			-46.9164132253367	-59.148912261896	-11.2698369546202	-146.172883555967
135750000	-23.6528524618443	-117.465933983476	20.0375680041845	-101.908447534524			-44.3164217140555	-70.5076887860964	-11.7452169875718	-150.571421481879
136437500	-24.2476088605275	-121.580426594756	20.2289411141659	-106.245341720896			-45.7452588626189	-69.4215684978075	-12.1734628354706	-155.669997135878
137125000	-24.9382700085696	-125.136785781118	20.4453084061069	-110.512125306413			-45.4771643765196	-98.4102676506006	-12.6211848914213	-160.162763066288
137812500	-25.6398307437919	-129.485277111068	20.621871940326	-114.755041030271			-45.0232881372655	-86.8740037924379	-13.1018866087941	-164.8888249812
138500000	-25.8957206597803	-132.562275812756	20.7876995831402	-118.713011055333			-44.9816126605008	-88.1296990481854	-13.4563618294947	-170.757562282968
139187500	-26.9291496203222	-133.703903493398	20.9017185244716	-122.863475387635			-45.9833039056505	-95.5233278963266	-13.9427694251712	-175.351458221097
139875000	-27.7217005893621	-137.13119379186	21.0538966798924	-126.556654457126			-42.7318150504665	-97.9234404668129	-14.4358619342803	179.767683129579
140562500	-28.4135884735846	-140.466213724452	21.1780254612473	-130.540847708244			-47.3401186863836	-99.5608092778036	-14.734613757889	174.575175053297
141250000	-29.2635001494145	-140.605499931197	21.2798691577059	-134.233637500206			-44.6611531855233	-96.2321808110031	-15.1353780944327	169.790810512315
141937500	-30.0190776327818	-142.371924593107	21.3639528321757	-138.110368691257			-44.8146724619031	-117.151938835732	-15.5758497932442	163.721481600192
142625000	-31.0933856296793	-141.056734845203	21.4861891452054	-141.851301872301			-43.8539827216741	-107.654761550773	-15.9669172263119	159.660414822883
143312500	-31.2954183987782	-143.474834577694	21.5839892301601	-145.349319215809			-44.1253255687019	-131.462994414093	-16.3454932166462	152.992971775579
144000000	-32.1762294812259	-139.39847041401	21.6924858243847	-148.711697566919			-44.7077579625436	-112.951765300652	-16.8419597108655	147.106282832617
144687500	-32.718446019585	-142.03705633835	21.7313881537595	-152.570919844606			-42.243604258349	-143.121629124858	-16.985668474546	142.112314098646
145375000	-33.2741323976695	-145.055238681755	21.811994440566	-156.065476752822			-42.0414652525109	-110.836192208315	-17.3666978676428	136.441554063624
146062500	-33.5648473833883	-140.896799646919	21.8714368666573	-159.380625431993			-45.3252085128341	-141.91888532855	-17.4857841030984	130.243769152847
146750000	-34.1604327157298	-141.1457693471	21.9018533535841	-162.889325246253			-44.1882384295795	-126.338092715078	-18.0895479180934	125.056177267793
147437500	-34.2677225458407	-140.622376880362	21.9734015490012	-166.205285591065			-42.883541043637	-144.577761962454	-18.0260489377593	118.874651326579
148125000	-34.7706800010526	-142.029185994495	21.9652299442938	-169.547854183713			-44.6844069427048	-137.571684336982	-18.156151361657	113.482245793328
148812500	-35.1460946257223	-148.801279699844	22.0236079111652	-172.698269137101			-42.0863626934075	-149.814716749855	-18.2588301540145	107.400853243226
149500000	-35.9083694575616	-150.970991359719	22.0328486860206	-175.759442248624			-44.906270439222	-145.305389408703	-18.6269782493732	100.691612368529
150187500	-36.3147921681546	-150.918311796424	22.06841648533	-178.86066906372			-42.1473061808526	-142.555949954699	-18.60222211829	96.5306933459157
150875000	-36.2229900941585	-158.336520633772	22.0623606146316	178.16285985641			-44.6910025423121	-153.820319896347	-18.7000502839878	89.3465774288776
151562500	-36.1596499761166	-158.806838372295	22.0777859930288	175.202412257534			-42.8162424367296	-146.176403446307	-18.5979425156332	85.0885050337219
152250000	-36.6633957648194	-169.340330207931	22.0637830699319	172.254642304253			-45.7229762021702	-168.35611358506	-18.6659348430747	79.146548512844
152937500	-37.6652403782776	-170.946603616205	22.1392608960166	169.560392802256			-42.4306263665574	-160.307775498895	-18.5295773618248	74.6248608977355
153625000	-37.2683311496186	-174.471802280311	22.1123395957318	166.63377913239			-43.2154804049802	-172.422769366266	-18.5167825496976	68.7406541115415
154312500	-37.2223240526668	-178.518618870039	22.1332340020806	164.017059457177			-42.8529035401218	-162.517429422118	-18.4595293726967	63.9780914830645
155000000	-37.3791978233788	-176.439222308504	22.1265838208234	161.059603705324			-44.1042361424197	-179.512654840485	-18.2810468776078	59.4121540861865
155687500	-39.5017153367464	175.453518646595	22.1487168849783	158.678131795759			-42.0021090630336	-169.795882403572	-18.2858883165093	53.5281633248122
156375000	-39.4529621837666	168.813630396574	22.1863444570977	155.752479922032			-43.6880096053967	167.202213006497	-18.194465435996	48.7561774764226
157062500	-40.3621326525796	165.196924131041	22.2034537831862	153.291963419633			-45.1948753855635	-161.831133728241	-18.01670816858	43.2572199451772
157750000	-41.2129883127307	161.316805336165	22.2312946687079	150.728524842542			-41.4510923122949	164.115998473921	-17.7814975621337	40.2686629274491
158437500	-39.9407476796215	151.278656201625	22.2118050668339	148.095323372073			-44.0370446331898	172.537590607426	-17.5992261140598	35.271911748656
159125000	-41.7848259937889	158.17476531432	22.2711077592724	145.499306275608			-43.1844489469629	163.476482129065	-17.4302566659057	31.4141052554477
159812500	-41.3608102912901	141.683655237661	22.2863093516358	143.120804924175			-44.1140224312842	-172.147211064988	-17.3135731372222	26.4907913610317
160500000	-42.7975488081855	145.709503139386	22.3001159313895	140.334834462522			-41.6608017079324	170.603754074366	-17.2144074375883	23.1712858394743
161187500	-42.8026561597615	163.619747337109	22.2592383882246	138.046255625921			-44.8865977880326	170.002759737131	-16.9516330192059	18.1985214839516
161875000	-43.2997281915212	151.027154993637	22.3460986549073	135.451759991187			-42.194424118832	160.802012297738	-16.8509604982394	15.6638264164936
162562500	-44.2711992573818	144.438330577474	22.2987580142597	132.732230622749			-45.1720337754521	162.647125593044	-16.578362399106	10.2880470792544
163250000	-41.9605050717675	156.583652624718	22.3252967637632	130.199824002502			-41.9316403030232	161.825345989218	-16.4911159054151	7.71298072820388
163937500	-42.2752174825997	141.217955365308	22.3400799142617	127.932598991252			-43.6629753718153	143.481304328398	-16.2712100967335	4.48132889043544
164625000	-43.7298413062397	131.119193054662	22.3311293160326	125.231672787116			-43.1816164052986	157.681957199275	-16.2015817233024	0.363843606167005
165312500	-41.2796472149793	135.221039062905	22.3344249971917	122.860406939558			-43.8190256410206	139.58305911066	-15.8988360350228	-2.75579037663242
166000000	-42.3764534121008	121.697569146869	22.3321043506431	120.270926488114			-42.3556626213576	146.700118332609	-15.7980377813357	-6.80537386283799
166687500	-43.5942570438116	122.111714774574	22.3123020033625	117.862593684116			-44.2630509532001	139.156610291151	-15.5888126073117	-9.55203187439474
167375000	-43.67863978495	113.606450616957	22.3298581574655	115.781095168722			-42.4773491225465	148.392975238572	-15.627499492137	-12.7523408361603
168062500	-43.3802360928026	112.760972650872	22.3066462410345	113.190810665204			-43.5250271099464	122.598336632118	-15.2780841490143	-15.6746919305267
168750000	-43.9456023393012	102.543808029561	22.281570823918	111.052791280403			-44.1723140492486	153.499744945247	-15.1973769800991	-19.9466601914328
169437500	-41.7268381324041	100.283354355775	22.2586428230927	108.523371506167			-44.619979544801	127.655451532601	-15.0377459100649	-22.3637960420549
170125000	-42.7819045644199	78.7860892619293	22.2847038026613	106.383159540981			-44.3990908047825	148.474266732651	-15.0068995339643	-25.1942603860823
170812500	-39.4742124338606	62.9429901856417	22.2442756470226	104.172481223562			-43.9138029817111	126.427003502952	-14.7884776497655	-28.0108631211143
171500000	-40.3246744005566	68.7766721351672	22.2474783838867	102.13446590239			-44.5091148783015	124.497917800693	-14.7780055142877	-30.9052715796274
172187500	-41.2110335819053	61.9209202091228	22.2185989139898	99.8945065421574			-42.7658796946026	117.19278243839	-14.5629011708302	-33.9234511232163
172875000	-38.7838879711994	53.6954619009285	22.2428184849826	97.9356570667105			-46.7877669378137	131.901232067	-14.4576528458764	-36.9724706558652
173562500	-38.8408854799747	44.100939258314	22.2191608883435	95.7526894065571			-42.5573122286812	109.618311884942	-14.2691449131079	-39.3268190619972
174250000	-38.0894567892854	30.6398390744425	22.2440754885821	93.6446696709148			-44.1491018998589	115.442179408493	-14.1439032004721	-42.8951000235745
174937500	-37.4613623114527	34.630666395805	22.2420798602991	91.4459110107165			-43.1881083274393	125.035950320649	-14.0958333739316	-45.1736962928637
175625000	-37.9008582787692	24.5975855065353	22.2488132479929	89.5376574049293			-44.7893844317233	107.796509729785	-13.928258526581	-48.7991831005066
176312500	-37.2824147552647	25.5014574928794	22.2699329991337	87.5237569993561			-41.938578592801	116.868430053486	-13.7844729585887	-51.2845712457701
177000000	-36.5689073846886	15.2529980045094	22.2849723952095	85.4818074926483			-43.9376031299979	110.011692754996	-13.5930533206234	-55.042283485598
177687500	-35.3507315457894	10.9826433029609	22.3051704245462	83.3523159830112			-43.3845077058794	122.557254725167	-13.6193235716774	-57.516650030499
178375000	-36.3473963985562	9.46665609286721	22.3557801374109	81.3801197809537			-43.08545301617	98.2800169733652	-13.5213848804846	-60.2817716888303
179062500	-35.4331966866137	2.07522753245664	22.367025772427	79.2430600868177			-44.0031018142406	96.205702700668	-13.4148403734373	-63.58885643339
179750000	-35.7340149951529	-0.374093942673773	22.3747003621379	77.0893469338188			-44.1496782037352	101.981566553047	-13.2961784237447	-66.0321556439653
180437500	-35.1373050421774	-7.35759016396247	22.4438242395469	75.0195954396666			-44.0092626943835	101.474733802819	-13.1918351294832	-69.4704229761808
181125000	-35.4497803049635	-9.86474685498682	22.4222597896786	72.759957463929			-44.5959600355469	87.237098300445	-13.1599778277815	-71.8501539686871
181812500	-35.7558428184664	-12.687815252748	22.4549769944613	70.7239467560697			-44.6451820648352	94.6466384738107	-13.0736406427399	-75.3385647069506
182500000	-36.4328097453245	-20.9310811160601	22.5015980388617	68.4661202034389			-44.1328274037445	92.1459054808056	-13.0874039102996	-77.5210085002607
183187500	-36.0173522535209	-21.7786668084613	22.552822586202	66.0930330450652			-44.3168835363036	100.532152453045	-12.924916641181	-81.1920091237142
183875000	-36.9162218869486	-21.7177804987564	22.5369600493739	63.9423462157855			-42.1779648228153	89.8060533376871	-13.0553649622461	-83.3764623176934
184562500	-36.594873216438	-29.302104197586	22.5613398368998	61.9967732358713			-46.2466670302336	79.71766125705	-12.8799318892963	-86.9508993363205
185250000	-38.4925095633519	-31.3526822747921	22.5624270888245	59.5677770950623			-42.5227475262441	86.0486328115718	-12.9689922410627	-89.5425827961495
185937500	-37.947675985337	-25.9502763728335	22.5717019622029	57.2624921023739			-45.3946425374554	92.9027338007969	-12.8519676947748	-92.762928995044
186625000	-40.4878990767503	-39.0031938636522	22.5526784802438	55.0506114229926			-43.8860514352598	88.5505523025639	-12.9343182895525	-94.9857686496813
187312500	-41.3402641637052	-37.5544831516439	22.5775311141378	52.8730149422485			-44.9230260565825	67.8244006766952	-12.7799179757591	-98.1477306539914
188000000	-41.1205844123236	-39.2314175935025	22.5349290433647	50.7102994849705			-42.7400651259895	82.1024336804087	-12.9335342935667	-100.679520254092
188687500	-40.9074366387608	-44.4255927397968	22.5480177013823	48.3790230758992			-43.6968138679982	64.4244451256514	-12.8413252255394	-102.668887263822
