# Hz S DB R 50
100000000	-29.5692860252933	-29.3254073660599	-19.9405153418903	-13.5941455945184			-59.80977240402	-16.2438350212089	-3.51194436202398	64.6145844239969
100687500	-29.8671045695532	-31.1195058790613	-19.5048707877027	-16.3558571588756			-70.9182666872933	-153.201424035062	-3.48867143821203	61.7815952229318
101375000	-29.1510749223112	-29.9025805683611	-19.1823757250676	-17.9144769279779			-58.3444476991389	63.7309629184697	-3.50643114319734	58.882227650063
102062500	-29.3946964527717	-33.3418726536275	-18.6816065671975	-21.5628090916758			-62.2192751098391	8.09069136654819	-3.54623241433653	56.1538292782668
102750000	-29.5656947819439	-33.1355150430143	-18.3405165211497	-23.3266182364703			-63.8531823000209	79.3337793987171	-3.55595816244491	53.1591935542689
103437500	-29.6110224182458	-37.1439512429303	-17.9908165864384	-26.8966101126955			-64.126751113019	-59.9824175278905	-3.56569473257921	50.1612156687969
104125000	-29.0125853647157	-32.6767302622182	-17.6444777938607	-28.6248771316711			-53.8798848852828	50.5136317798653	-3.60862475428019	47.2411657418433
104812500	-29.4504616959945	-37.6983185191028	-17.3563536673799	-31.5232958643806			-57.0710232398137	-57.749618669935	-3.64577728172387	44.0160252956189
105500000	-29.4221500377531	-34.9250617036781	-17.0528781089951	-33.4746347533672			-61.2413132783346	111.786394341644	-3.6309848616676	41.30744631899
106187500	-29.5152153309715	-39.3258714459009	-16.7523413012005	-37.0206158691119			-59.1404132533836	-36.1743589636196	-3.63774725436975	37.9172359383888
106875000	-29.6514853470202	-39.7447263010515	-16.529792207019	-39.4234234273894			-61.3389047998623	82.1650011991072	-3.70132516356158	35.1219933488166
107562500	-29.0256149582341	-42.0879907550377	-16.2391340297332	-42.8229461450746			-59.8868062979481	-110.537119374312	-3.69433761121659	31.6688957107832
108250000	-29.0024905926222	-40.9026733422214	-16.13801712486	-45.5140057940723			-84.2989203708009	87.5989556585123	-3.79040715120479	28.602797319711
108937500	-29.0295528456628	-43.8829028070519	-15.9619463155613	-48.5836661005721			-56.2460947463079	-23.9073901349856	-3.79384872628645	24.9905380927636
109625000	-29.4257537722238	-41.9296585187105	-15.8184134072324	-51.27156861751			-59.9632589026134	-148.853836507968	-3.85665680860722	22.1383424094059
110312500	-28.8423068623916	-44.0141192475612	-15.70428115574	-53.856090987725			-61.3931904960266	77.4145693065612	-3.86986487623619	18.7806049462275
111000000	-29.2562857810176	-45.8716730671768	-15.7127520189465	-57.018166722946			-69.7068104014372	174.370061765948	-3.95350167565243	15.4373206925937
111687500	-28.8154839377655	-48.5083033454606	-15.6540762674246	-59.5327668046255			-63.0998448547365	22.7074753970496	-3.96164907558742	11.8245961543808
112375000	-29.5505876345831	-45.4519603476889	-15.6537332183416	-62.6485392799146			-64.371061578918	-174.798491301857	-4.03030609113007	8.6705192778445
113062500	-28.5928844817395	-48.1203416822315	-15.7683954718223	-65.313274868932			-57.3633594826785	-22.3686234439693	-4.00868383646517	5.04583095170134
113750000	-29.041701881455	-48.5804319851495	-15.8964335235517	-67.6735972172955			-55.3780907152571	-67.2175578561601	-4.11604885700678	1.62739667593899
114437500	-28.9964089120832	-51.8673022067784	-16.0028960051291	-69.3237072329011			-59.4836232629711	108.085168626814	-4.09147784792867	-2.05908330400524
115125000	-29.0953349017121	-51.9233875456694	-16.2444932157674	-71.7758953004195			-68.6294617703685	88.7872511942837	-4.1806188847364	-5.92275499924106
115812500	-29.0859269265119	-51.4278612770531	-16.4562561224012	-72.8957331599818			-63.31740486999	24.7450289989204	-4.20332340248661	-10.0273196024262
116500000	-28.7674839578645	-55.0817240376236	-16.764865345239	-73.8468479663374			-62.8037452006772	165.218473916969	-4.20772725673155	-14.0781245756957
117187500	-28.4364678577124	-56.6746902540174	-17.2580592937987	-74.2698287483741			-62.5202278111538	112.112506709597	-4.26876154858901	-17.801164985501
117875000	-28.9150396540464	-56.0020480570335	-17.6158105817951	-74.438097143978			-60.6904618092163	-107.753056223705	-4.30458022799313	-21.9733265568821
118562500	-28.7596122141415	-55.2050815303248	-18.1947038963116	-72.4151805599			-53.2007862009642	106.161531828838	-4.33225050197279	-26.2104600334505
119250000	-28.4564160080823	-59.2614184563375	-18.5472067068268	-68.5823106175379			-57.8988740303171	-84.7565131428239	-4.39093336024093	-30.6759338428138
119937500	-28.3251094137547	-59.6444278274929	-19.1465414312103	-64.0921670129713			-60.9430616575085	95.0354466199116	-4.45000785550954	-35.5837270087136
120625000	-28.4987006235553	-60.7814584403594	-19.0609273544448	-56.7140627877821			-65.9555516297627	-25.3125656615095	-4.46461001668543	-40.1914610976294
121312500	-28.1692855339254	-61.8234494404812	-18.9943365599862	-48.2476167897933			-55.0401541827115	68.2945699538731	-4.58423185276416	-45.3198550857968
122000000	-28.4285649416053	-65.497054980719	-17.9885886300759	-40.6631908596486			-61.095429216368	-105.430514826771	-4.62676755919447	-49.9827912250988
122687500	-28.7671109102267	-64.5460379833509	-16.9700542584556	-34.1113661324336			-75.1006758546016	-84.6138939528953	-4.80665189419748	-55.4504613953912
123375000	-28.1416027132962	-67.4112796537793	-15.5084977693366	-29.6916883484878			-67.0773706536257	2.04811098842384E-02	-4.89395239473414	-60.7823161324691
124062500	-28.0082381480263	-69.0494445675573	-14.1271369443873	-28.146023650842			-56.046847842378	125.091412481669	-5.08695006119843	-66.3587200630683
124750000	-27.8929024839258	-68.1111368504413	-12.5941255602727	-28.4328592208336			-63.1505434882113	-121.611572172308	-5.22142008930359	-71.6765094191218
125437500	-27.8223830908785	-69.3996011903344	-11.3359540054932	-30.1094121061804			-57.6181634387171	-176.984923432426	-5.46723104029534	-77.73503423563
126125000	-27.755963283087	-71.1448713545508	-10.0255203912617	-32.7213298394131			-57.1014698504259	-14.7817294831192	-5.72696196910215	-82.8565886387928
126812500	-27.5947962429308	-74.0756127412832	-8.96701153512702	-36.6608480600787			-59.763068084601	154.615044139178	-5.98839719997371	-89.019038684518
127500000	-27.4040117128803	-73.7686805685418	-7.87624829372469	-40.6635041386363			-58.5560610370506	13.9843066848355	-6.31608759472276	-93.9894155163499
128187500	-27.8823069571224	-76.4144183261315	-7.01766209280551	-45.4169258843535			-56.4379486987676	-164.511818579279	-6.6034876244168	-100.089616673939
128875000	-27.1761103189494	-75.4836505637694	-6.19451896468151	-50.0652770676333			-60.213609612167	54.9918552699155	-7.02403884669427	-105.267433504609
129562500	-27.0510236610994	-79.8189866518237	-5.52378346391786	-55.427616235879			-54.9929131726112	-147.931442696775	-7.33249700280915	-111.242846812024
130250000	-26.8832874088925	-76.9454107714902	-4.8395309289212	-60.3760108233687			-58.4585601495171	93.7541743823833	-7.82665741361176	-116.303843001698
130937500	-26.9072964514737	-79.3165868168088	-4.34713397771036	-65.6836062339023			-58.4747825571634	-143.890843674452	-8.14635732322496	-121.334467115075
131625000	-26.9564758773032	-79.142718583853	-3.86567487028466	-70.5588150865763			-63.5133091294583	122.810518286969	-8.73506862413809	-126.71428786097
132312500	-26.8614322437966	-82.6248838571104	-3.44333280827892	-75.6717655265058			-52.8509189623499	-52.107654960632	-9.06276186636568	-131.757958648552
133000000	-27.0059335998472	-80.7265317996682	-3.06449791607199	-80.596641826515			-63.8828764508938	129.601995000002	-9.65335422673692	-137.013659207358
133687500	-26.2490209593682	-84.7969436190902	-2.74889881024983	-85.5272090742837			-59.1585456001842	-66.151517960624	-9.97105758481607	-141.496354117108
134375000	-26.8247469681531	-84.9306370798281	-2.426624633201	-89.9889011519325			-67.1037737544536	55.7667342074646	-10.4758283645557	-147.172175174163
135062500	-26.3769409682625	-85.2155211487371	-2.17755705517996	-94.507619177307			-63.1247695514878	-50.6922712848877	-10.9278561685937	-151.699760226963
135750000	-26.7930273736623	-81.7658017978704	-1.91659329078404	-99.0619370668325			-67.7176045505831	166.15336981242	-11.3800620550072	-156.767668998366
136437500	-26.1966851041368	-86.7914489440923	-1.72083922360919	-103.572794782287			-58.3991943388623	-69.5237709399027	-11.8662513632494	-161.475848837561
137125000	-26.296222369398	-86.941795118073	-1.51848145201738	-107.572486707948			-65.9600709684254	154.239315623678	-12.3263213952362	-165.583146367085
137812500	-26.1467363606461	-88.3800804861671	-1.33418340978934	-111.851652817222			-64.5735109024026	-162.725988762596	-12.7293843324011	-170.599916022685
138500000	-26.1148575190869	-90.4345892790166	-1.13956799463597	-115.737790978123			-72.669983279867	44.3209722047132	-13.0660744095757	-176.585076606828
139187500	-25.9353027047833	-88.8411098388197	-1.01109583158958	-119.88187793615			-58.4562020800063	-4.43314387818351	-13.6642067616521	178.724366722405
139875000	-26.3062061874588	-90.9387841802149	-0.841832603602036	-123.651130215104			-67.8630486098136	-149.435853661729	-13.972926296158	174.312887341299
140562500	-26.3470909622847	-89.9687979968248	-0.727572802205751	-127.593529462261			-63.5173533526039	-37.6607191444019	-14.4984099728278	168.446201561021
141250000	-26.382528313259	-91.9604318284817	-0.568718182769757	-131.39116520886			-55.4614871133551	-151.345018278341	-14.738001447347	164.18276682246
141937500	-26.2214284012077	-91.1848923244809	-0.526921030071879	-135.227120751737			-67.4363787569966	-118.267516166442	-15.259905149815	157.586980005476
142625000	-26.11587921129	-91.9604811921182	-0.374341613710836	-138.590767458365			-55.436211039982	-74.9681541892064	-15.4483699458973	153.252229756773
143312500	-25.9566653276631	-94.3184225990725	-0.331974816507787	-142.381796880497			-54.8010031630333	-27.2501524562346	-15.9706025223663	146.23946584408
144000000	-26.0822792450153	-94.6957970816869	-0.200486368073443	-145.608303491066			-56.6746551593625	-144.526385715397	-16.1873251642898	142.203603468214
144687500	-26.0905219970108	-93.0418894219506	-0.176916664280929	-149.557429761533			-58.9112831672199	-67.5504928773924	-16.484562553514	135.095977766895
145375000	-26.3196163673949	-96.0797976156166	-0.11048446040127	-152.919748171852			-53.1521984564578	173.167317578675	-16.7364215791391	130.726343058069
146062500	-26.2158616874255	-95.3819810359986	-5.95511433373122E-02	-156.361358957696			-59.8453008078634	-166.238375500015	-17.0348419114808	123.760876758276
146750000	-26.1282350975286	-95.9335940839444	2.22339474981131E-02	-159.560736305111			-56.5704593827719	-88.4760099601592	-17.3734169781898	119.309486678991
147437500	-26.1730227059389	-95.7778220833403	1.31943399121563E-02	-162.895577428534			-64.0332037011964	-131.343018651591	-17.3838594137515	112.178866054757
148125000	-26.2053097810911	-99.9189320368317	0.047550355631215	-166.00447301192			-57.603903046469	-85.1670420300638	-17.7166530074595	107.742087232291
148812500	-26.5323658156382	-96.4142936694264	9.53248935047109E-02	-169.353267640473			-57.3000362564751	127.076130676418	-17.6733868748197	101.301335435841
149500000	-26.5206777583323	-99.9322360686472	0.114699056395555	-172.015247391405			-60.2609254781821	-76.5541149589858	-18.0984322460411	94.5360210586153
150187500	-27.0019472261397	-99.7562750272433	0.111798854383336	-175.513047254155			-55.8246528110335	142.313611659581	-17.9718707882646	89.4437892301391
150875000	-26.4202272602433	-100.649678550407	0.145687910200416	-178.118902648557			-63.3693144307681	-103.264169858267	-18.2328385078113	83.4423398109032
151562500	-26.7146445176892	-103.316874815608	0.164378887436695	178.70940507901			-55.2550446335147	163.003897830724	-18.109712251634	78.8758161460814
152250000	-26.7144632777292	-104.702864314469	0.174189234064219	176.003477708093			-60.4153612110931	-119.368706566571	-18.3195105794217	72.8290307658826
152937500	-26.8603874207742	-106.073194932639	0.189619288543518	173.256242094066			-55.0335302796984	114.799034325634	-18.1841290338548	68.1341100627985
153625000	-26.8074628126436	-106.302174012189	0.1716990752674	170.565023578834			-60.8151011100559	128.766067344446	-18.2786706547322	61.3650725168995
154312500	-27.1292034438896	-107.224708517356	0.211928480327127	167.790621334081			-54.5361840949076	-141.28195339697	-18.0801022090947	57.6563358986437
155000000	-26.487096490229	-107.979485545388	0.239441040500914	165.118170569869			-70.3613302373464	174.183496295463	-18.0313067810303	51.9852695801305
155687500	-26.9572710127512	-110.405169909151	0.220117739689029	162.676125875775			-55.1556071915032	-130.690643425972	-18.0089369709379	46.8662688430842
156375000	-26.8622641289432	-109.175220725331	0.262786546839326	159.940126378304			-64.4859471728315	-122.752904341495	-17.9531539700992	41.3428887523251
157062500	-27.341313018756	-114.67204488865	0.257655051302852	157.251615256518			-78.4510819486951	123.653169187109	-17.9919305643073	37.3868023166487
157750000	-26.9977691690391	-113.326574495091	0.300836276522604	154.781571531281			-55.9645486982067	-163.114760977956	-17.7317297230973	33.2151092907733
158437500	-27.3918816909276	-116.74411641302	0.281276389680559	152.193420936905			-54.0157357863266	-133.899973411714	-17.7267564889704	28.7209380159565
159125000	-26.9206386602569	-114.84131772651	0.32830797639824	149.812932209588			-56.812250758846	49.3628175908999	-17.4195915490422	24.6275963064581
159812500	-27.4153172057972	-120.631210670706	0.333779863498412	146.974723270377			-62.5739216164433	108.881642854462	-17.3861619867181	19.3474907443079
160500000	-26.8356870843705	-116.715104368173	0.366430115860112	144.444697680227			-59.24189379368	178.301171346294	-17.2105792104426	16.1565748841909
161187500	-27.1389568585409	-120.540174995284	0.304345126312091	142.209454687999			-59.3639173179205	-155.117853288167	-17.1349221430532	11.7589064455301
161875000	-27.307183152108	-117.325013409679	0.385869776951197	139.709213282536			-59.2906187427117	45.7690647914703	-16.9877075333194	8.40193026474372
162562500	-26.9440643542974	-121.245440166044	0.350039632401541	137.0851990235			-55.7238550459822	-139.563647254222	-16.8068667470225	3.350753119062
163250000	-27.09783664267	-121.062049025842	0.382851966749514	134.466782372822			-56.3612367736643	94.2304993250553	-16.6606171579664	0.608310114725164
163937500	-26.6371056286046	-123.917360715996	0.377429729647797	132.192195191524			-54.5856545297027	-113.92552483607	-16.5311089478727	-2.81281229062121
164625000	-27.2549194006392	-122.320700727172	0.371234200448097	129.624637944584			-60.7457792548316	156.469630743067	-16.3696658584922	-6.30299437932655
165312500	-26.8248382810982	-127.386727494565	0.353292162226087	127.154322654607			-65.175271160245	-119.964263607656	-16.1932823119413	-10.5061883244781
166000000	-27.0291364351571	-124.778523981221	0.409650592336587	124.871976298838			-66.8081328259504	127.46728796069	-16.028099571635	-13.0641967305097
166687500	-26.7251878355588	-127.50062639344	0.348633695649071	122.407471711037			-62.0594896272508	-69.0315845594855	-15.8142055297608	-16.9945022474823
167375000	-26.9805070061422	-128.016452779133	0.402605261213599	120.362180685815			-55.9874353375658	118.31037715599	-15.9588111521384	-19.1902275459586
168062500	-26.672958460601	-127.233133435489	0.3411798048216	118.071764361245			-64.5835137431404	172.429875513656	-15.5482300415818	-22.7048522022465
168750000	-27.0384040851016	-128.520821716892	0.392334288664755	115.796034361397			-54.1164098540493	-162.94133554125	-15.6065614029293	-26.6375150348644
169437500	-26.5815221387773	-129.24423724509	0.318329088650935	113.31615145979			-59.101721572924	-121.406853165727	-15.3225659261871	-29.6698845787567
170125000	-26.9444442850871	-129.068300731421	0.340008205002756	111.352337329897			-59.0412964552119	133.415505483349	-15.3781975286442	-32.9812595600407
170812500	-26.8676383289853	-129.686529832496	0.296742775701323	109.02218174586			-60.4246717298594	27.9441273648128	-15.1336168284429	-35.6478601611605
171500000	-26.8425582192551	-134.150850638853	0.332773021967724	107.15340133295			-60.4844990450666	162.264951120247	-15.217496867564	-38.9006434975661
172187500	-26.5835589377095	-131.435684184538	0.289895566216167	104.695716014753			-62.9789978313246	60.2275167414072	-14.8740327414706	-41.3968385742105
172875000	-27.0577636022238	-134.02645470094	0.342656036119585	102.851189035487			-55.3378482233636	-162.235195237375	-14.9720009409787	-45.271852573267
173562500	-26.7443651363662	-131.125219450156	0.287602790680443	100.543957262959			-56.9412301075915	114.080093666644	-14.7038570226225	-47.5365868456059
174250000	-26.7411580862062	-135.523941687981	0.346071399164789	98.6979126944366			-67.4476814823779	155.602450875332	-14.6882107776083	-50.7999774449427
174937500	-27.2409739693614	-132.648038793156	0.34786865508483	96.3985257190379			-59.936465840321	157.353771390716	-14.6504810261292	-53.231210725608
175625000	-26.6538041756292	-136.252837258325	0.357971965963133	94.6027589234668			-53.7736914846098	149.40727901411	-14.4996063153531	-57.3787086821992
176312500	-27.0570989315351	-136.532039621445	0.367719885335985	92.3243073144116			-57.9390178711467	153.678572861684	-14.4041466480126	-58.8232458125704
177000000	-26.8942160415099	-137.797828841644	0.417788808434742	90.7320151478065			-58.9389318253831	-65.4855608980914	-14.2567351380574	-63.0476033923122
177687500	-27.0903080597683	-136.661297965429	0.396553775055126	88.429250162514			-58.8816414577073	94.5804137492833	-14.3715743259988	-65.5186565256423
178375000	-26.6880991719763	-140.794567544014	0.433757939321544	86.3784628731242			-66.7196657696031	-130.838938486707	-14.1744492168668	-68.4061699523687
179062500	-27.1079001703022	-139.656381964775	0.470212356292331	84.1391561343937			-51.5290695321819	126.329555415329	-14.1692718739544	-71.4375639339484
179750000	-26.7589788888261	-141.437994611068	0.44012084154984	82.1689338929253			-66.3898712389577	-177.722681301352	-13.9315625344034	-74.1054755307492
180437500	-27.216721087801	-141.005749968627	0.515795907700815	79.8091170879483			-52.7265959759531	142.46889808156	-13.959773570265	-77.4179051435137
181125000	-26.9035487098475	-144.036888106832	0.542018123698365	77.8255617847358			-70.2490720556926	-117.282435034216	-13.8177579503575	-79.2361244145882
181812500	-27.2631691403258	-145.542055141508	0.531178903293984	75.6547032173958			-55.0878918566969	88.455618212522	-13.9361453522407	-83.157675867749
182500000	-26.8130064863063	-146.231788883719	0.580836070417911	73.5539854959636			-58.1476901004821	-98.7743819678538	-13.7985595857018	-84.9733881593623
183187500	-27.0306206353251	-148.814373700146	0.599337232473481	71.1361558395827			-58.5793611461898	158.680787512872	-13.7639324003915	-88.5775894193394
183875000	-27.0242494538872	-149.963393903446	0.605844361964803	69.0462982441858			-62.5332276528733	14.6705980174756	-13.7639528372934	-90.2695540901704
184562500	-26.7988670782159	-153.66731023821	0.599859268108242	67.1278386837194			-56.9373115394754	166.200525542501	-13.7086698608409	-94.0062850128819
185250000	-26.8109176733926	-153.510506950724	0.640274792375601	64.7915795872029			-55.9339536523027	27.6973581617677	-13.6603697174974	-95.7555310996724
185937500	-26.7142656480733	-156.068736698144	0.583157109857046	62.5659734647671			-62.9960296160772	-158.814588666145	-13.6743965146477	-99.4866425264572
186625000	-26.3043172674241	-157.076474488638	0.620100009769264	60.4499075557919			-61.2647402412541	50.7201462424967	-13.656346587948	-100.933876956132
187312500	-26.3670165359346	-160.194307649468	0.599503297311743	58.1073184666992			-57.0574453785701	129.657638938625	-13.4623280920654	-104.196917296044
188000000	-26.542966966965	-158.610627578309	0.58727185889241	56.0214286452671			-58.7237552944567	50.5566012154973	-13.5670009167763	-105.87383900624
