# Hz S DB R 50
100000000	-30.4801432922343	-25.0513035203203	-12.0717306817708	-16.9434522588539			-63.6331792156085	-104.920163609853	-3.50322308631782	64.5003175654742
100687500	-31.0226540935503	-25.115761855611	-11.6725855655685	-19.3691503864071			-66.4457852547979	133.181717131699	-3.50301350447243	62.111087291295
101375000	-30.288062085207	-26.7167638784181	-11.194369867787	-21.7272655897488			-61.2989268985144	35.5870498373023	-3.50066057847151	58.7479820337631
102062500	-31.1576676290962	-25.7009383975304	-10.8476668960709	-23.9415863469837			-61.3494651239732	123.801349304223	-3.56521889920784	56.1469220182014
102750000	-29.851902873885	-28.8253494617637	-10.4243339241929	-26.7856768712106			-57.4984293393848	-58.2751210741585	-3.56308867436595	52.7943273772133
103437500	-30.9313991745117	-32.5502949088034	-10.1523972722561	-29.3624195947907			-64.5353647511984	106.292344103384	-3.56393413590309	50.282335128996
104125000	-29.9665966513816	-28.2157543531166	-9.74773950419909	-32.00180069943			-61.6101572621414	17.8144885320238	-3.60108983377904	47.0449004663909
104812500	-30.5065263248894	-32.131268751347	-9.42769866884286	-34.9208461143053			-61.1992786463589	-160.906297473521	-3.66364234497	44.2285933282319
105500000	-29.8886300103318	-28.3556542215961	-9.11369787653077	-37.5660968185435			-69.9412965462459	135.800766985143	-3.61884129729974	41.098832236157
106187500	-30.7569172648327	-33.0367854109571	-8.86910746617558	-40.5598741291323			-62.895402329707	-116.663794112813	-3.67907280737436	37.9035895158651
106875000	-30.3566411799541	-31.0652821539746	-8.58803900111419	-43.4347096261662			-62.5160169669071	8.79170079539503	-3.68825728540872	34.9591286839101
107562500	-30.0388990426126	-34.0368669543323	-8.40779829560082	-46.3640050681213			-57.6695863459439	148.450209956204	-3.73132443195477	31.5124246869129
108250000	-29.5467946922847	-34.1017988840205	-8.15077677985253	-49.3089280271526			-61.7962751512244	-5.50279043283244	-3.76741936184629	28.2771029262642
108937500	-30.1015196915473	-39.0499864407428	-8.08647333213359	-52.5070131491604			-69.2525250904268	1.22470601421817	-3.79647116168727	25.0030120772291
109625000	-30.1878771652908	-34.0564273611361	-7.90985031351189	-55.1699244491448			-63.5647534753213	28.6711433409769	-3.83769593724353	21.7865287033054
110312500	-30.0513055677308	-39.3592454160541	-7.83510196197731	-58.4594845074698			-60.4266290950465	-69.8306095430406	-3.88100913473349	18.5651844481511
111000000	-29.9173400119497	-38.5599414485982	-7.73159272657683	-61.1515963104449			-60.8739797043977	-121.392102176548	-3.94824835240321	15.090201125441
111687500	-29.8237936229194	-41.9765199930188	-7.8096956124996	-64.2143075719191			-58.9136045636342	-37.5901946338674	-3.95116993727362	11.5782092204572
112375000	-29.6209472504794	-37.8412130225164	-7.78043142591844	-66.6710599787547			-63.1262033566648	107.215486406279	-4.02631616181773	8.38942051951599
113062500	-29.4362457821996	-45.2607097444281	-7.86247699121452	-69.5042352920867			-56.0606236282879	-99.1269392139343	-4.0236364773377	4.79974967666098
113750000	-29.6134383909253	-41.8970339699753	-7.9807218945403	-71.9663020400847			-63.8163589076718	46.9392274175322	-4.08073553956158	1.25465498199008
114437500	-29.3129672544779	-45.2955720000619	-8.12722440426614	-74.0992816194573			-56.3016268821524	-80.7078527434669	-4.08171002613616	-2.60039684944375
115125000	-29.3827131925205	-46.1817732841435	-8.3614810422544	-76.3466993788243			-64.9063821582809	80.3263488122486	-4.11815590512494	-6.27618919253564
115812500	-29.1510464046784	-44.609690749792	-8.63937152368376	-77.8136694804165			-57.68711370036	-28.1993911026704	-4.18451335230996	-10.2969868241575
116500000	-28.8489550454767	-49.4397660306708	-8.98538069289126	-78.9724599449654			-59.5349354251583	-133.969733301715	-4.17908994743022	-14.4069324161016
117187500	-28.4373708848778	-49.7875408501356	-9.42779905489705	-79.4818555709742			-60.385690893776	33.9180450759631	-4.21550455219559	-18.2840104515977
117875000	-29.0951285252166	-50.1311330925089	-9.92049309239609	-79.4587052330068			-65.0720899607886	58.1590987166997	-4.26245410257737	-22.4919691301773
118562500	-28.3218784244569	-51.7750093090524	-10.3909066784192	-77.3646845413146			-62.0280205147239	-42.258725909285	-4.32591657103706	-26.7128420573992
119250000	-28.3714564188563	-53.7227671097018	-10.8993460753617	-74.0996579916155			-66.1445381956044	173.088078791606	-4.35577389896034	-31.2718354351813
119937500	-27.8614565211664	-53.2650806744218	-11.3074607584339	-68.633626052465			-56.9742923086357	-8.65191063604464	-4.37615256986495	-35.9951638748284
120625000	-28.3577427730044	-58.6809828788459	-11.4630635106016	-62.0779437126709			-60.0617359907869	166.864109933663	-4.4400828070176	-40.8507621090665
121312500	-27.6259550935753	-57.7965840363851	-11.1531919236743	-53.2847424074307			-63.7235426181184	61.4122747633617	-4.52237729884144	-45.801106163554
122000000	-27.812936044329	-62.083763282757	-10.3810552154725	-44.9763178670348			-62.3557569325254	-99.9663773383263	-4.57086464504673	-50.9725075683672
122687500	-27.6827016055798	-61.0275119431079	-9.18473922161917	-38.7543421846183			-59.6822180829746	4.00506266049742	-4.74534610200906	-55.8628827257428
123375000	-27.2180182189712	-63.9592676800442	-7.76578397036515	-35.1934339330184			-64.4616827891726	-86.1085085083151	-4.83412244092981	-61.514288909787
124062500	-27.5583991917667	-64.0208405986099	-6.36793153059724	-33.2018437611493			-54.4551058346068	68.5814270486201	-5.01136318364503	-66.8400755749288
124750000	-27.1156951982656	-67.408019708035	-4.84336184280562	-33.8355577826472			-55.6862250919635	-59.5184256584628	-5.1430134386281	-72.5644478615807
125437500	-27.0386914007493	-66.5885493390475	-3.56537178735816	-35.3797587947198			-55.8174017262906	41.5980997551337	-5.38044364954356	-78.2818927494705
126125000	-27.1093807122069	-71.0460297683884	-2.29357156732472	-38.5083462701691			-60.9266416051239	-71.5845150082911	-5.60262386038822	-83.7836933160347
126812500	-26.8827656868756	-70.2582239693099	-1.2217801641028	-41.8583585086586			-58.6087097435188	8.66161453879805	-5.88222644338015	-89.4794737639279
127500000	-26.6481842163875	-71.9193930272071	-0.172558184562213	-46.4704495317639			-54.9230955471592	-69.2379031123887	-6.16197501536547	-94.7979084199242
128187500	-26.8039772546093	-73.2986662915601	0.659235123674482	-50.9477559489431			-61.301967989942	67.2929634582597	-6.48096682267508	-100.579649931774
128875000	-26.5047636021657	-75.7209420302428	1.50185625255131	-55.8815994132463			-56.0467698628743	-69.0015505028034	-6.81794044054258	-106.291431831075
129562500	-26.9197341227068	-76.1829875503562	2.13213937996254	-60.8783300716746			-60.4900345366799	143.026905490555	-7.194109614346	-112.035587151999
130250000	-26.1354609367176	-77.0190112243634	2.82842999442294	-66.1167055360832			-57.7587849189132	-38.0706234656199	-7.62957367438898	-117.162473987417
130937500	-26.653720680761	-80.0374543738558	3.3036661663514	-71.2672422263278			-60.6802345255529	-102.737646898828	-7.92926802692854	-122.592093977904
131625000	-25.9943602818397	-79.7472149502645	3.80088971900449	-76.1340298629684			-53.7161158660733	-26.0754201784634	-8.44270622400839	-127.824529581605
132312500	-26.4943013727144	-84.0192664386988	4.19761221377458	-81.2421074208785			-68.6106054117788	-92.260682710389	-8.78921649261453	-132.902901407071
133000000	-26.0928195593073	-80.534688274272	4.56645174445383	-86.2289262205163			-62.9787412251109	10.2189827833511	-9.28180651058469	-138.13592210282
133687500	-25.9375918837555	-85.5998643890971	4.85383960058878	-90.8795031568588			-55.6636832821937	-89.8903995790467	-9.64722528602011	-142.972181286796
134375000	-26.1855512120897	-84.2946450105254	5.19901770972949	-95.5033748444644			-57.749473003223	-47.5216283338908	-10.1416943951838	-148.271906824988
135062500	-26.124355630264	-86.1149813291513	5.39970007514192	-99.9541981779698			-54.9890621285029	-77.9371887331753	-10.5000015439325	-153.335735987645
135750000	-26.1480844219784	-83.25542543297	5.67970203916209	-104.523748617893			-60.1891254571854	-22.0407481521628	-11.0080593642676	-158.098418721076
136437500	-26.1581523097389	-88.5481206092912	5.87237455236575	-108.831743466346			-55.6975268859824	-117.36915448476	-11.3853083786571	-163.238529697656
137125000	-25.915481961431	-86.0033340816922	6.11429440741836	-112.740646003601			-61.7908330848024	-122.498161112449	-11.8325896553839	-168.545774667398
137812500	-26.0696294421861	-88.8189645569418	6.24478804016268	-117.121551257767			-58.5964685625552	-114.746337204551	-12.2585157358365	-172.839357058791
138500000	-25.9380987342798	-88.2078523698014	6.48443968057172	-120.970086365086			-58.9371281882618	-56.6376053995343	-12.6075868813205	-178.941455543461
139187500	-25.6836990926578	-90.1139050071513	6.589300244856	-125.050637845231			-64.2149573968843	-143.783735202106	-13.1257696866576	176.392495008178
139875000	-26.1845579556694	-89.0916344855933	6.77235039417707	-128.835067633944			-71.4517813538057	86.6865297852183	-13.4515820022341	171.006108737842
140562500	-25.7584262712017	-92.7548383001744	6.85698057605913	-132.725780654059			-53.7993358609793	-115.251446418414	-13.8801443995624	165.620829541892
141250000	-26.1591857708498	-91.6484784492456	7.03698241340005	-136.56377207529			-73.5271869218296	136.96216992011	-14.0979685411944	160.596772433857
141937500	-25.9081501315461	-92.8742751676873	7.08281309203128	-140.441876361403			-54.76154836747	-93.385451095184	-14.597073153998	154.841334677477
142625000	-26.4103558121948	-92.0944496536036	7.21708910762036	-144.134817753794			-57.7206178836878	-117.680370029882	-14.891823980401	149.842676058598
143312500	-25.6991506360736	-95.1448693984031	7.2863381050957	-147.723102289894			-57.2568149072704	-110.092999756735	-15.301974452069	143.641519367965
144000000	-26.3833825201705	-93.4378691223684	7.3909092910748	-151.016989973573			-53.9090839132061	-161.644681757074	-15.4507354540787	139.050720694675
144687500	-25.7915729111116	-95.4517235018435	7.40697041137753	-154.842180800439			-53.1335841210551	-120.964931518515	-15.8513242979363	132.67008188863
145375000	-26.2069921343611	-98.5869227575593	7.49717778584673	-158.320458481548			-54.1821622040072	-134.355568479728	-15.9920943045149	127.214996178937
146062500	-25.4620615507376	-94.6207221529633	7.53027455020609	-161.593449686255			-53.555597352068	-109.336126286918	-16.4300945249374	120.506660966044
146750000	-26.5619457310263	-98.6488332317378	7.60833826070693	-165.097525783009			-60.312402722336	-145.065097023997	-16.6068160191784	115.554454285989
147437500	-25.9671901398233	-97.2448328596834	7.62039705194737	-168.287627424529			-59.8651325782708	-115.659783642936	-16.7698543849962	108.87838233224
148125000	-26.2207912089749	-100.474191928962	7.67295031918869	-171.607084909798			-53.739111525442	-149.609885109172	-16.9243552389004	104.221259990855
148812500	-25.9457077182612	-98.809363154618	7.68480067949423	-174.754314124226			-57.0259622815832	-91.2936255058212	-17.0909803537282	97.2402666726104
149500000	-26.0472301967721	-102.850171522763	7.7241116503062	-177.758015717667			-55.9713366460516	-163.066514451665	-17.2464622666532	92.1813418058242
150187500	-26.3953397549642	-100.006235508718	7.68173004134084	179.234946996704			-58.6050614604521	-114.546284119598	-17.1859945625086	85.788796672725
150875000	-26.4442930558238	-104.796766669487	7.73793931561543	176.177357282644			-53.837545656279	-162.554536508435	-17.4404059023871	80.3559796779033
151562500	-26.1210015906698	-103.318294315125	7.72260903477638	173.342020307052			-55.3801182048181	114.211702309484	-17.3517110775008	74.9054194106849
152250000	-26.2777279911553	-107.359863661644	7.75400525152	170.325172934913			-50.0950909696102	-148.267450972388	-17.5731602285915	69.831609175976
152937500	-26.7648031651879	-107.07493781246	7.7542963508584	167.762789838667			-57.0618587711246	95.1926598277654	-17.465661963303	64.2187994800252
153625000	-26.2666545239947	-109.182414842293	7.78024955535119	164.866453249972			-50.8454010232329	-137.031154662266	-17.5548754726754	58.6626165545549
154312500	-26.5976949664595	-108.182061124773	7.74630919563959	162.329349728391			-54.8061846668859	171.011027801157	-17.3813865671634	54.3050756664541
155000000	-26.136744348513	-111.858439722854	7.79859841115917	159.317775125507			-54.3967814040406	-133.814137819275	-17.3793326422868	48.9889925648376
155687500	-26.6493014258263	-111.326540617135	7.76898526346482	157.046381277265			-57.64267825978	138.157710085851	-17.3134605190752	44.1075651035278
156375000	-26.2990600862459	-111.542086949546	7.83926380210059	154.196428683133			-53.9943012604372	-148.034815182946	-17.3201296381674	38.4959602905788
157062500	-26.9621410216604	-115.350630007702	7.81212599803569	151.57519421446			-55.3407246361613	158.202213725081	-17.3000405538349	35.1544742901003
157750000	-26.3483645411354	-113.13453272041	7.88225451131725	149.08900072269			-60.429276626412	-120.062881432061	-17.0414682133756	30.4723493711243
158437500	-26.8252939224263	-117.203272311628	7.84254096656968	146.498917675411			-48.3242489493194	155.416641719504	-17.0075157410844	26.304365485218
159125000	-25.9427983239992	-113.626311680299	7.93531888772423	143.975602249063			-55.9204494020609	-142.131900625665	-16.823572759882	21.3028465034207
159812500	-27.1139028110866	-118.209794356169	7.90257403118901	141.351818894403			-52.5033346472731	147.317748838344	-16.8302824288821	16.9555131711056
160500000	-26.2528504298166	-117.278514603586	7.93118934846569	138.741996055829			-59.4247537874427	-175.169439946609	-16.6572240134371	12.8445890670434
161187500	-26.7893838354275	-121.487750443395	7.87261476904945	136.489615854922			-53.2254971493449	130.89599036713	-16.5091844563256	9.82898443767699
161875000	-26.3138732764683	-119.379037355838	7.9741728445501	133.700135530477			-57.1251994391218	-145.74583101441	-16.3325937823832	5.87608904457498
162562500	-26.4617041982318	-121.95516894635	7.91987406175553	131.224777799696			-58.2841576127367	142.889947835591	-16.2706321632853	1.38316246825485
163250000	-26.295230594453	-120.304651180384	7.96713105284696	128.653859412835			-71.3179718417211	105.070658915171	-16.0641461716867	-2.13831226909973
163937500	-26.6660951611922	-123.775153695574	7.92397667463626	126.422211151871			-50.308794619525	164.573433168738	-15.943109052601	-5.94645272637648
164625000	-26.4991609891155	-120.297212054503	7.96365369031398	123.624649507982			-67.4099117727116	135.407910200069	-15.8416283551793	-9.36816676360721
165312500	-26.4936765754921	-126.654311540718	7.91994069177644	121.559560243775			-53.2980475414609	170.768307977499	-15.7972974940225	-12.5837518071219
166000000	-26.7092847887476	-123.834023291611	7.94658117272262	118.909122174155			-71.3698410595448	-115.94739218154	-15.4855540183056	-15.8273862756533
166687500	-26.3065950524453	-127.82322988678	7.90383090175653	116.687470952332			-54.7710673686816	-161.869410374098	-15.4859801345243	-19.2386808052763
167375000	-26.4392278728488	-126.044735455036	7.97391301603709	114.505680353312			-54.1279868588423	99.4330831153961	-15.3978788135149	-22.2202931788693
168062500	-26.09904575425	-128.482285050283	7.89289518069144	112.118405652779			-55.0793348011564	-140.058494629001	-15.1618570845482	-25.6414921046795
168750000	-26.7019729105214	-127.100695097722	7.93298012089351	109.791352361008			-64.2586167068973	42.4228580536176	-15.1254749683637	-29.0881524689882
169437500	-26.2314162384024	-131.875149640865	7.85483401900971	107.661513077083			-56.1274410283079	127.865507742206	-14.9352884087387	-32.3878756948804
170125000	-26.9032419036091	-128.362639240945	7.91761610338168	105.416857452426			-61.6644961469372	104.019064276719	-14.9543076725865	-35.74063181387
170812500	-26.4027253479939	-129.430538406709	7.85488339708651	103.12725640603			-59.7391330737215	175.973049689608	-14.681588827881	-38.8614599611819
171500000	-26.6677063104494	-131.42721266975	7.89628472885701	101.046262044822			-56.361926456423	135.852877446641	-14.7718754224299	-41.219926041901
172187500	-26.1978341907271	-132.524272023661	7.84391905384086	98.850959742754			-61.6111860309614	140.431113892493	-14.522523008422	-44.6011073988306
172875000	-26.8465606313899	-133.924542318614	7.89952948039528	96.8981641111074			-55.815654167048	97.9306313882003	-14.5544932874138	-47.8363331719534
173562500	-26.359588941258	-131.666786227974	7.83963110746493	94.8183839312647			-67.8393314818514	-151.648676173102	-14.3651815448617	-50.25456244595
174250000	-26.5049921065642	-134.643865849399	7.90655848716149	92.5548167009239			-52.2582474337937	134.390374626132	-14.2026308772246	-53.7172727356573
174937500	-26.5485819621452	-131.744848391728	7.87760153722203	90.6518202608671			-54.7648046386445	-134.861727682388	-14.2150392167466	-56.2391849188594
175625000	-26.4391855677795	-135.70813462029	7.91366103889262	88.5781860012531			-53.3263867421547	117.220896352464	-14.1501332591799	-59.7814580256038
176312500	-26.6543893217553	-135.208603283546	7.88420486316292	86.4719801456955			-57.4093760552193	133.586948363385	-14.0055549842929	-61.9393204557805
177000000	-26.3200556081958	-138.824395718493	7.9555079215818	84.4588393322818			-51.0393923403995	116.37953224144	-13.9501106213804	-65.7606275402794
177687500	-26.5364862581553	-137.814722359735	7.93134889195213	82.3732070657647			-74.9536371690613	51.1381206511836	-13.982955189048	-68.3651527807523
178375000	-26.3544509554216	-140.001206929177	8.00836025986129	80.1589647892933			-50.9132459882519	147.826523772641	-13.855143498232	-71.6242400048793
179062500	-26.4633453175762	-136.914905551789	7.98531729378751	78.1121844617761			-59.8876303247969	89.0363398157826	-13.754136701793	-74.274596190163
179750000	-26.184669312944	-142.771077271974	8.03623783064988	76.0170830569969			-64.02160882877	-173.104862320536	-13.6224582568004	-77.4627536986241
180437500	-26.6956639421131	-139.827067926046	8.03274201462679	73.8769295341977			-58.3972360437645	90.3872572877672	-13.6967898105692	-79.846830067714
181125000	-26.306753409837	-143.292790769997	8.07263418212644	71.700361315406			-58.2287976799123	-76.9367866494386	-13.4743097969299	-82.8682690116481
181812500	-26.9041789817345	-142.174572090098	8.05256031998551	69.5009232832104			-51.103497855737	101.908936998053	-13.6056487302596	-85.4765840640573
182500000	-26.0196390371059	-146.191407916334	8.13068634321548	67.3888018590995			-58.6738044937034	-143.104397943857	-13.4785150667751	-87.8709324212489
183187500	-26.5266421091091	-145.329651771234	8.12355382064811	64.8950748721037			-52.6276743308715	78.986124824484	-13.5120451205213	-91.1576627562457
183875000	-26.3518429496797	-148.132809507587	8.15875713584669	62.7882624940395			-62.3680445893773	-155.17135368007	-13.4348879049451	-93.3571861926674
184562500	-26.3575480043828	-150.925375388205	8.12877875777548	60.8320874028681			-51.9157996995147	40.4123745420155	-13.4429075626147	-96.6288880589584
185250000	-26.1138810415589	-152.38051773918	8.17971881261551	58.5440613643221			-65.2240276780054	-139.195227669156	-13.3098192994466	-99.0835882035648
185937500	-26.6005609781079	-152.541051099623	8.12538099649676	56.2602748201033			-54.5497646284931	87.6279832965275	-13.3220755080816	-101.994288007033
186625000	-25.7224772129891	-153.892078974611	8.15379101739325	54.0469884140482			-64.4448508766837	-15.6921230735634	-13.3427356052116	-104.100288293188
187312500	-25.6528085595024	-156.74799297566	8.12994697909649	51.9631401912436			-51.4127019120518	123.725052431036	-13.215697088848	-107.120441277507
188000000	-25.565680031976	-154.871288873273	8.12238170409782	49.8026947858232			-56.5704980718603	6.62476327047875	-13.2427757913142	-109.2772570423
