# Hz S DB R 50
100000000	-44.8700215762515	54.8964572010715	-4.20174097308171	-16.4795241794492			-63.075973689217	-42.3974234883787	-3.48159714962246	64.5839633612281
100687500	-43.1417302006043	74.1065852784073	-3.84450810193628	-18.6373818194087			-60.6928881970459	157.721720316281	-3.47560970344486	61.7785507003523
101375000	-42.4208463505031	48.1774470919047	-3.38781831299385	-21.1529816920695			-56.734914340683	19.2398666366531	-3.49379077638924	58.8754982746338
102062500	-40.1310296239793	63.472035697956	-3.00358738152634	-23.747006698779			-57.957615122047	150.301545809711	-3.54745380669882	56.0393079350883
102750000	-39.7431666422502	45.556687236857	-2.59812936059709	-26.3522902921024			-59.2165291456748	-4.98719842416648	-3.53004196061318	52.8828893314919
103437500	-39.7783423754878	53.2626313466041	-2.27902080772248	-29.0369700248127			-63.1633830265146	62.4914712093224	-3.54740462519347	49.9129553350369
104125000	-37.4571387871785	40.044216003875	-1.87735319345477	-31.8490420946336			-64.8563426966142	-8.6327981812708	-3.57970690819693	46.7941780245487
104812500	-38.3885450951254	46.2513126142402	-1.62471948485822	-34.6048928872662			-59.7207950531956	91.4935663229774	-3.63617715465248	43.9816039441986
105500000	-35.9125553267504	40.4587851817835	-1.21136493084777	-37.5517616219194			-66.9511764588577	3.45929083964261	-3.61951607763343	40.8366952636308
106187500	-36.8059551086018	41.6410140244518	-1.01721309846248	-40.5144721383097			-57.7932475813977	-143.196706857277	-3.64579912813682	37.7664549248959
106875000	-35.5371440976443	32.6182883789683	-0.673946988181321	-43.542797716473			-61.5492854537766	-16.6372703597556	-3.67105018688567	34.427214520809
107562500	-35.1442072288929	33.938324519835	-0.533032159866921	-46.6337823658053			-56.1308990256097	-160.00244751128	-3.69721721863587	31.2463736490571
108250000	-33.4267832994267	26.1221267852587	-0.264947546639484	-49.4995554427193			-55.2324683776245	26.01197501817	-3.76668412886542	28.267069630158
108937500	-34.2952396631076	25.4328823573289	-0.158595257520838	-52.6100571384686			-63.045664694007	36.6804026340841	-3.77522700161755	24.8628927402447
109625000	-33.2042575780609	25.6653659343553	4.39218156770592E-02	-55.4484770738805			-54.8378820985765	100.594000452685	-3.83230686609702	21.6599794470006
110312500	-32.8445865173488	19.1113435336308	0.081144066754763	-58.8894359702455			-63.3368529539489	-104.491870647889	-3.87125777189782	18.2468588486924
111000000	-31.9936497659959	17.9910792483129	0.224187406320282	-61.7048849136819			-60.2861079168132	-139.050721716511	-3.9362938927943	14.7777303531311
111687500	-32.1260795847583	12.6052440268153	0.18314956388491	-64.7104250551652			-54.4417500808313	-26.3068101976869	-3.96230357546573	11.34307713587
112375000	-31.1161009105331	14.5093957477976	0.197643927479438	-67.474677229072			-61.5231443340425	90.9491435957331	-3.98357550009884	7.86530854950468
113062500	-30.9514892428422	6.32866003712297	9.15529670479177E-02	-70.2487802409417			-67.7736970048833	-82.9728800779363	-3.99549240036912	4.37806149665228
113750000	-30.4968661429938	6.49480441722285	3.11235848141704E-03	-72.8762156112733			-62.3066157476821	-23.3969597251064	-4.07183374501742	0.87407837409284
114437500	-30.3446303573597	0.799628440681199	-0.198821016225543	-75.1970759233851			-54.399172557035	-53.4432197582314	-4.07447694545169	-2.83575707284607
115125000	-29.9413340075265	-1.47118547547858	-0.381867517078052	-77.4613609031628			-60.3396529122958	-114.991902565737	-4.12738527830826	-6.7142728627596
115812500	-29.1632703733528	-6.7173557692391	-0.686893804662891	-79.2179484132613			-63.469637325849	108.582460435049	-4.17797292716999	-10.6047589731038
116500000	-28.959353871335	-8.87709636402585	-1.01657889890596	-80.3856091871222			-67.4915339440481	-110.025464211332	-4.15992589308229	-14.8014301259068
117187500	-28.1331750968306	-13.9083744077135	-1.48149804869927	-81.1835291983375			-65.5852399733913	-113.130329758627	-4.20050346284072	-18.7958741749576
117875000	-28.3692275345726	-14.5311173859295	-1.98540331150428	-80.9318533054098			-60.0262913319553	148.671940276009	-4.22462939242948	-23.1047315896266
118562500	-27.1422402410195	-19.8946196806265	-2.50297816928956	-79.0874866118361			-65.8487053158343	67.3189181225645	-4.25733418596477	-27.1926541556925
119250000	-27.392162111012	-24.4413703851548	-2.99304881960767	-75.9022252206971			-69.8507417270185	-171.362677882177	-4.32679707292392	-31.805073787687
119937500	-26.6625514953149	-27.8458664417695	-3.44623121993256	-70.4391114290976			-61.9582258000694	51.2544157705854	-4.33972109274493	-36.6087946856709
120625000	-27.2107322802168	-31.4633328263992	-3.54752146035081	-63.1202070985364			-54.3207445630858	-118.628673331079	-4.37474914264357	-41.4137967946708
121312500	-26.4376357786857	-35.5898980037528	-3.27611002886242	-54.7034320885334			-56.5418685943766	-77.7770106002279	-4.46633679036264	-46.3415813747744
122000000	-26.5942416574998	-40.5927314138367	-2.42083456398964	-46.5241434404811			-61.9200311991456	-0.986004487299189	-4.55905836802786	-51.3672451166242
122687500	-26.2158359931305	-41.3408394263807	-1.21667363481792	-40.390834091206			-55.3123289690788	23.9070382318159	-4.66087719069082	-56.6952618640281
123375000	-25.8104230180065	-49.2674908645322	0.242779163661179	-36.9312796781738			-58.0481287922175	-117.887853868367	-4.74315963576852	-62.0415988851331
124062500	-25.5167307802557	-49.7465718892197	1.64831652714047	-35.248733534409			-63.1670857928511	39.3416689132559	-4.93271828580329	-67.2603540037922
124750000	-25.483921303697	-56.0127164746165	3.18564804610146	-36.0045419469064			-59.719609438011	-103.421118667275	-5.03613779975205	-72.8302695844644
125437500	-25.5450590022733	-57.225592393444	4.40145271075594	-38.0225862502547			-56.1613212784502	-0.14483942023686	-5.28850618168816	-78.68122576856
126125000	-25.3972683012138	-63.8041840530377	5.67030976428481	-41.4812710026687			-61.6629910662817	-65.3931862041882	-5.50312310234798	-84.3359096767936
126812500	-25.2508791307385	-64.33484222158	6.76832901836029	-45.0935446876937			-58.0630508191039	58.4459595234695	-5.7640484914636	-90.1414055902203
127500000	-25.1938038855043	-69.1674773594832	7.75464438156794	-49.4186067285091			-59.0760165034262	-47.9900471020289	-6.03038588798784	-95.3221966978403
128187500	-25.6036014266186	-71.3861774160327	8.57717740355999	-54.1892249704783			-57.0707706033441	43.8912188682636	-6.34759638528382	-100.991318372956
128875000	-25.1910913138574	-74.5393673003302	9.39129209675203	-59.2483672896401			-50.7266116727033	-8.56416237784375	-6.70529566956217	-106.728126959219
129562500	-25.7401171135753	-75.340879775906	9.98499939514973	-64.038928386638			-55.505236301387	43.5331893302681	-6.9768212009451	-112.50040909457
130250000	-25.2834606779599	-79.0904824841429	10.6556107919974	-69.4095553423943			-51.1139045750431	-18.7219076887685	-7.41470163099047	-117.593906607832
130937500	-25.726624336929	-80.3486604785065	11.0915909099825	-74.5000753266373			-59.8002173395832	-91.5893867540373	-7.74083385829678	-123.044662679091
131625000	-25.4776223058455	-81.7403096343724	11.5915127539945	-79.4332465030641			-54.0897139371587	-38.3701674387213	-8.20647494788638	-128.201277783791
132312500	-25.9922679687254	-84.7404494308243	11.9553899999335	-84.3684425957362			-55.3649342462142	-65.7528338179139	-8.49010187637703	-133.518835342029
133000000	-25.9244878468897	-87.1642502435127	12.3364725083612	-89.4180213487537			-54.3042083637833	-31.3282309575447	-8.91812548431905	-138.695200754711
133687500	-25.8225046676272	-90.9199900601181	12.6052171355533	-93.8850363346396			-56.4212253648969	-84.3161207325853	-9.27035519557425	-143.847190203258
134375000	-26.0495090169906	-89.505972222201	12.948647163019	-98.5148182853137			-56.728665864752	-33.9541147752297	-9.72041502720739	-149.226472174593
135062500	-25.9708924411262	-93.510916637544	13.1654476269308	-102.869528786325			-51.9522523772472	-118.964287740349	-10.0709696420204	-154.164468651409
135750000	-26.3794953426406	-90.3779682637035	13.4135531517499	-107.392459292415			-51.5503957853724	-32.8660809831459	-10.4911481185176	-159.096169902169
136437500	-26.3678252753326	-95.4363730691533	13.5876579672253	-111.821708453414			-51.0497968445208	-94.8174656971834	-10.8666841658949	-164.667398544869
137125000	-26.5628447162006	-94.6387202383016	13.839025228992	-115.748516553851			-53.4695010855853	-46.7756212328515	-11.2942902045385	-169.697249457059
137812500	-26.435448214152	-96.6609415906502	13.9696393130098	-119.787524534375			-51.3571020580501	-98.3432222114368	-11.5968275375146	-174.480812038133
138500000	-26.8279074531658	-98.0660500438059	14.2108735792708	-123.796090477869			-54.8477272325643	-83.9352178968728	-11.8639437439199	179.446003010244
139187500	-26.673346675846	-98.4531632437281	14.2924985982008	-127.938103253364			-48.6088804608945	-101.802764339337	-12.4035596994322	174.464247322161
139875000	-27.4490642775801	-96.2973985843039	14.4928926311727	-131.679927625966			-55.3170152287139	-84.3089856623825	-12.6103023056123	169.132187308549
140562500	-27.0830624800131	-98.7304577011486	14.5747727368775	-135.549242080332			-47.2498693167551	-90.1581701347949	-13.0086809625348	163.220880138191
141250000	-27.3597036499957	-96.9656188100731	14.7431115369667	-139.282473195466			-52.6640524847364	-117.370791022983	-13.2566416013409	158.059249499624
141937500	-27.1639237291818	-98.5775551903698	14.7845009809604	-142.972786545478			-47.3544095362906	-118.10377075672	-13.6791335820553	152.92395982412
142625000	-27.7912733865334	-98.6837072668522	14.9449340455054	-146.777603654011			-53.7907175314426	-121.004815971002	-13.8582092702035	147.457788530329
143312500	-27.0667224614467	-99.7773992782181	14.9939571781274	-150.447794259606			-47.5962686509697	-115.252848042147	-14.2727790022871	141.32173073041
144000000	-27.8152765799084	-98.6989294348431	15.110177318609	-153.718803874016			-50.9782663874856	-112.729659530824	-14.3865234310557	135.485773266165
144687500	-27.2741959627744	-98.7542435197379	15.124457393061	-157.658903425561			-51.2926759561132	-92.0563586544292	-14.691563198384	129.773073530726
145375000	-27.7627983808818	-100.8719403639	15.2498177050702	-161.160066265094			-51.6454990046653	-127.869460703876	-14.8888512253406	124.607276724446
146062500	-27.190120267198	-97.1547181525219	15.2477916271315	-164.452040815899			-51.8873020461412	-91.3531650633031	-15.1877917236667	118.00989348315
146750000	-27.5309638627748	-100.055290750699	15.322302946619	-167.8619875498			-49.7248228689189	-134.915619680376	-15.407726005538	113.5493672096
147437500	-26.8791459826531	-99.3524853551688	15.3118196089326	-171.107822670183			-50.2719810106375	-101.800978210429	-15.5443850375137	106.965702229335
148125000	-27.4770875322083	-105.062848799007	15.3759616490015	-174.415586384957			-48.3210321092077	-139.741163357972	-15.6774990139064	102.136910159083
148812500	-27.4057611113837	-99.4681272135946	15.3850431932707	-177.605120465032			-52.5687109905272	-99.9330528042977	-15.8095950960323	95.7199992416141
149500000	-27.4179066335535	-104.80180241991	15.4433828903164	179.299285957613			-49.0314378867989	-141.789045530394	-15.9604077539765	90.1889844002049
150187500	-27.2198638297493	-103.834120550648	15.4042496541334	176.301670622939			-52.7023637890443	-134.761720232266	-16.0221273968937	84.3982763145609
150875000	-27.3738627516655	-105.856590161839	15.4692639978376	173.245474025626			-49.6589094879646	-153.468246053914	-16.1865960327446	79.3305409566769
151562500	-27.4094570420542	-103.526269598549	15.4341885654814	170.483458510026			-57.4143970076126	-145.588484514767	-16.0898995124522	74.2497872612936
152250000	-27.2901005911101	-108.922525643023	15.4640788432455	167.462265467825			-48.9324366031667	-148.901017622087	-16.2276955742351	69.3621534696915
152937500	-27.9195656459282	-106.487265393654	15.4680140400449	164.799541821619			-53.9271680518994	-155.241022045656	-16.072489966666	63.5974089799308
153625000	-27.2739256829735	-111.418283072535	15.4677848337393	161.993303854889			-49.476491810025	-153.96608920563	-16.2708514828324	58.3573285368418
154312500	-27.7469606528022	-105.91753131593	15.4792442691748	159.469127930507			-54.6644853309984	178.989990726041	-16.100285003199	54.1104730444581
155000000	-27.094388666218	-112.329733294914	15.4910943534952	156.275531288803			-48.0755179116892	-149.305713523053	-16.2163400485653	49.1346042202907
155687500	-27.8711021421672	-109.507899553534	15.4573342357134	154.168079803489			-53.0271618256281	-164.838905482625	-16.1278660626158	43.9384064668011
156375000	-27.4067236164179	-112.926772688644	15.5587610746209	151.219894145387			-50.2164145603638	-139.056028279992	-16.0704798052889	38.8954924376554
157062500	-28.2138724938204	-112.704835740998	15.4977549210756	148.824241424075			-50.2533720543929	-163.679993539218	-16.031469082106	34.7205794424878
157750000	-27.3029018815062	-114.058070448969	15.5986206890108	146.187232740537			-52.7117036903529	-152.307903513834	-15.9028390577365	30.2324243098818
158437500	-28.3258923828509	-117.138056268889	15.5423078930866	143.688270347886			-51.5617351466134	173.910115546776	-15.9247619355303	26.6061905679673
159125000	-27.4802357784729	-114.356166786928	15.6124028695095	141.014922984487			-50.4469377262379	176.324171127728	-15.7616784594725	21.5275127018211
159812500	-28.4649206597065	-117.465006857036	15.5891714076802	138.408308800175			-50.6702572616211	178.457110493584	-15.7093736658526	17.3239419681635
160500000	-27.810866448355	-117.609422398687	15.6484318019762	135.870550749611			-51.707874368053	156.151957157535	-15.6037435011191	13.8815170688693
161187500	-28.091409037637	-118.243641112826	15.5911550351327	133.467834318617			-51.4209388190699	167.935719869135	-15.5954795011462	9.55735991938722
161875000	-27.752661371707	-115.862806276603	15.673764731632	130.793977554117			-51.7133673919478	-174.826026395125	-15.4173902653255	5.72171279580481
162562500	-28.1746797649842	-119.603837696926	15.6064510351804	128.235572155258			-50.597522971723	168.213878919978	-15.3119943461899	1.1730617945979
163250000	-27.8354331437776	-118.570355534116	15.6387800964742	125.574352100385			-54.4248020275337	168.547490229112	-15.1174061127521	-2.10499028980447
163937500	-28.0146583838205	-123.605231660509	15.5886618453421	123.327744205645			-49.7720721072341	164.766585954965	-15.1397467908625	-5.8759104234034
164625000	-28.1703096049591	-116.33037545658	15.6328544762063	120.719594766469			-54.0765744132996	146.573830933115	-14.9590563055589	-9.44500145826881
165312500	-27.9961602538104	-124.549700328408	15.6016360008621	118.349856263848			-48.3713036181365	157.002682640988	-14.9105224317333	-12.9702130072681
166000000	-28.0974574175652	-122.082750653621	15.6241519231455	115.829032092516			-49.8758642136591	135.202540703815	-14.8201332160221	-16.2276843805785
166687500	-27.6758504549719	-126.743156104899	15.5514138786194	113.576292932507			-49.198053247181	171.689209783916	-14.6623987214251	-20.0648504506792
167375000	-28.0374594928582	-125.034873592981	15.61868120962	111.434342676324			-54.2291191877506	136.808382101019	-14.6234990051888	-22.5887605020882
168062500	-27.6683232709813	-127.811244356163	15.5491951284974	109.011381480886			-49.1508091653573	161.561535830607	-14.4268454317661	-26.1593202454048
168750000	-28.2408347799792	-127.421154890896	15.5842891117199	106.912641089775			-47.7488851160623	131.715175415598	-14.4209015819986	-29.7526321620904
169437500	-27.9048078525033	-130.06900687041	15.5018559844623	104.580597203879			-51.2591323275773	169.444517874201	-14.2807346478442	-32.8129289391262
170125000	-28.4795794109514	-126.730827815381	15.5749471694581	102.389497898204			-50.2088356676067	144.792396761784	-14.2754070769544	-36.0030180130525
170812500	-27.9046516503862	-128.595162241933	15.5113616516893	100.040542189482			-48.9086252733604	163.23859751585	-14.0701116786858	-39.3843644512406
171500000	-28.6996103073296	-133.189842725416	15.5195233102655	98.1197229966272			-47.869567279841	131.614860954225	-14.0594211527356	-41.7515099525687
172187500	-27.7482276208872	-130.835998114726	15.4716078169819	95.8651923223292			-54.1871277041743	145.370389891997	-13.8030996418036	-45.2584962488142
172875000	-28.8464019338749	-133.777752288148	15.5530264202358	93.8680462222116			-50.600810205382	121.167458679037	-13.8722323245673	-48.3657115276749
173562500	-28.320361671496	-131.463517862559	15.4853223667445	91.5925710648807			-52.0140347605197	135.294391220951	-13.7416275961646	-51.1155597599303
174250000	-28.3324628788345	-134.574618059559	15.5643744592882	89.5919367296664			-50.5336786025533	150.981477152223	-13.6054999790568	-54.8517019989417
174937500	-28.3780129915486	-131.989665987112	15.5302487380526	87.5564894126714			-53.9391891069342	161.26113311244	-13.5785138220923	-57.2259628651542
175625000	-28.1175756965638	-135.98678461675	15.5524120025586	85.4956934357448			-49.6938059868712	114.712261789828	-13.474701725473	-61.3246549276092
176312500	-28.3533935565308	-132.715164677485	15.5651938766811	83.540160726986			-49.7983305750406	111.980211859645	-13.3824425924771	-63.4639569481488
177000000	-28.4092121142447	-137.623394470169	15.6095784479952	81.4951189123516			-48.7457474971329	117.851542898578	-13.3149681608274	-67.2025412964918
177687500	-28.5941504559782	-132.196033082318	15.5606279612667	79.2725899066625			-51.5239990094188	96.8830931189605	-13.2856475772451	-69.8428793294076
178375000	-28.1665716911309	-139.508016344207	15.6576246813687	77.2641355620044			-48.594559215406	125.425456186671	-13.1960826729809	-72.945784744688
179062500	-28.446866431714	-134.081649080976	15.6501564199106	74.9928671345618			-52.5789301260168	90.8120671257814	-13.1854223202302	-75.6267068281715
179750000	-27.9480281331749	-140.027577719633	15.6946820002143	72.8845584677794			-49.5492743924441	120.042066206037	-13.0193024151649	-78.7987988737382
180437500	-28.4720376381439	-133.943725411313	15.7097476235654	70.710525040395			-49.951222190096	87.6783186346491	-13.0310094467753	-81.6512696933492
181125000	-27.9829179685172	-139.631318036626	15.7329628073176	68.5626343670305			-51.9654659959805	113.528503802366	-12.9605574903851	-84.7578586915675
181812500	-28.4681086337247	-139.876521635491	15.7331408075906	66.4240158979408			-50.3090834843495	76.9477724980011	-12.938264820751	-87.3311853477714
182500000	-27.6159482135514	-143.813489481712	15.8059133091729	64.1582561203776			-52.0809097974395	104.389011485435	-12.9388074121902	-90.5918967832369
183187500	-28.2810704372874	-142.181653587709	15.7945527194619	61.8881518650031			-49.5915591296428	92.8607551357455	-12.8217442949757	-93.0088168966127
183875000	-27.8911915269289	-145.238259334804	15.8395066414284	59.6017205167704			-48.1184473205173	125.171615436472	-12.8556346864971	-95.5419622881781
184562500	-27.886819894766	-146.083689839036	15.7883467842399	57.6666546024885			-48.1040671520789	84.913821336374	-12.8397973092873	-99.2522652873151
185250000	-27.6225227470385	-146.939549742117	15.8238892517596	55.4309260615474			-63.2943420630976	141.187538466472	-12.7269412716969	-101.596578666766
185937500	-27.7205204790229	-150.161749637417	15.7725398022473	52.9485212120106			-49.3430495440162	80.7401644491318	-12.7712532499469	-104.761561996092
186625000	-27.2536111532435	-151.526669785971	15.8225104139204	50.752843995557			-49.3641569040624	89.3693827961132	-12.7130749165819	-106.729719461783
187312500	-27.3043206257777	-154.53922409202	15.7815381535053	48.6714299579101			-46.5279326559808	103.390596197446	-12.6318688910605	-109.610671510749
188000000	-27.1927840461518	-151.502038037325	15.7788313349968	46.4769531508908			-50.4360059080503	66.755160529966	-12.658157269621	-112.075629042947
