# Hz S DB R 50
100000000	-30.2570342890854	17.6019809907429	-6.48236670662731	-12.7625812394855			-61.1975183936354	6.7364220796551	-3.49624956869701	64.8339608177416
100687500	-31.2202891239176	19.1690129933626	-6.07644926037953	-15.442696683013			-55.8926038740182	-81.913234884294	-3.49685945006074	62.0504647263271
101375000	-30.2140037905017	16.7284252882237	-5.62932665135894	-17.1197112614616			-57.0127221647758	9.37512500340929	-3.5070357317166	59.2804414819921
102062500	-30.5992674119346	18.4412109446503	-5.22769695446585	-19.7916924092596			-65.1858592456767	-176.521761916535	-3.56036344375842	56.2041461522542
102750000	-29.6981155797504	18.2521570204248	-4.87029060967822	-21.7577798530194			-56.3066005817483	71.2103120764745	-3.57805209154189	53.4912616120632
103437500	-29.9320352365811	17.0363565671944	-4.52263555634882	-24.8678001399508			-60.3372315148639	-61.8583930042634	-3.58701300132257	50.4461850507844
104125000	-29.3871610390857	14.8861090609767	-4.14311447889356	-27.0758823991142			-58.9204289014773	102.319296133105	-3.61053330552767	47.6503838541379
104812500	-29.5967412965312	12.7446833915705	-3.8653409778545	-29.8377453228696			-58.5221298340919	-67.507189798841	-3.63703043474673	44.6241763840842
105500000	-28.7632989650467	16.644958279069	-3.51833060060418	-32.0721585991175			-64.6720243727148	58.9295068465118	-3.61535055256739	41.6919709142429
106187500	-29.1182748258124	12.3289144947118	-3.24116198341884	-34.9048252666258			-59.9051757245827	-148.544493888406	-3.6594325470243	38.5918030421607
106875000	-28.8231520829034	14.5595445541957	-2.99855005011645	-37.5818478026133			-55.0891262405056	52.464099159717	-3.68992440147912	35.7212384895573
107562500	-28.4435806913882	11.8875088947048	-2.76032161542274	-40.5211327120934			-61.1565137217235	-36.7085005790439	-3.679038938784	32.1722152774904
108250000	-27.924381834844	8.7998453951465	-2.54602741815015	-42.9378101372891			-71.0004150649803	-151.944520880425	-3.79681439693816	29.3896717837046
108937500	-28.0264345971429	8.61455098636359	-2.41703663218034	-45.7169647460223			-54.519105770024	5.62704539930455	-3.7596411450916	26.0333013724267
109625000	-28.146403679977	9.23546398061107	-2.23638722752944	-48.3253463325155			-63.6281701369322	79.7990519692665	-3.81485161793827	23.1081511033349
110312500	-27.679140611288	5.56305599871936	-2.12948912492425	-51.3291132676186			-59.4003498339024	7.66612488838648	-3.83217591659079	19.6495564582403
111000000	-27.6661274835633	5.89363941323339	-2.01021713812408	-53.8326387243432			-68.03589510397	66.8573983980057	-3.94068660634897	16.4890331969422
111687500	-27.3079436886223	1.22023354279114	-2.01286029493499	-56.4365435272691			-60.8608234658624	12.407164147371	-3.92446538421966	12.8547776480306
112375000	-26.9961373124431	4.8936195237794	-2.00110256311875	-58.7803375275216			-61.8387794636464	155.252611885274	-4.05665825602259	9.86272910027726
113062500	-26.7414136482206	-0.692863960333414	-2.06330907341555	-61.2713893038719			-57.3937320309888	9.55578915644093	-4.0133609385532	6.31951502971235
113750000	-26.8485527801207	0.528235239802996	-2.11429455727677	-63.3152490506711			-58.8863674261438	-113.740049454773	-4.11096487140763	2.81376459792208
114437500	-26.7410971012449	-4.32951912621211	-2.23774607710763	-65.3823630486571			-64.8422103202737	-30.3535270930585	-4.09238694994961	-0.67157512435906
115125000	-26.571137652918	-4.66529149201607	-2.38535931768704	-67.2312387717547			-62.5476729319929	-6.58472498469756	-4.1727240862907	-4.53255974285974
115812500	-25.9603003810153	-6.38396661509593	-2.60564029597826	-68.7449255319752			-72.0106510297194	19.6427603400741	-4.19045889452677	-8.57598596363839
116500000	-26.1780352016311	-10.8146733220965	-2.8661261016871	-69.4183804747083			-61.8015529594315	-120.915265788982	-4.25361966318057	-12.3935554995188
117187500	-25.842390663251	-12.4115833252229	-3.23993813729473	-69.9885302242968			-58.2658662397236	111.541288718296	-4.29885026835473	-16.1304391395427
117875000	-25.8274794151708	-13.9103467712118	-3.61001932531592	-69.1252405228962			-58.188367221918	-91.515139661608	-4.34734876517501	-20.309552506985
118562500	-25.3688633448479	-16.3957568771176	-4.02813896618677	-67.6995873826651			-66.7406931145591	80.2251346825247	-4.39084907099258	-24.3728372034932
119250000	-25.3036730710762	-20.367574980293	-4.41203053201471	-64.6146764275503			-67.6421535668034	-132.223569858053	-4.47239065876585	-28.8537856341461
119937500	-25.1031722711591	-21.9183632428746	-4.73439495875154	-59.6818839320055			-77.2474237801535	-173.005211182328	-4.5413586307233	-33.6717845502859
120625000	-24.9974066620244	-25.8084629007452	-4.77051741287097	-53.2906455575895			-58.1814642857896	-30.6443085784699	-4.56884266075796	-38.0288965346978
121312500	-24.6742165139662	-27.6524324235878	-4.48035492748933	-45.6729561397314			-61.0607245598809	106.704887715169	-4.66335735608282	-42.9901187472241
122000000	-24.8556983766303	-31.0997924839839	-3.70143569306653	-38.2512965512945			-60.5619505384579	-27.1683737657525	-4.7860886356075	-47.6677932882125
122687500	-24.852904266319	-32.6911661349899	-2.61852939829641	-32.3156347991481			-59.3704534791817	-80.6121843630671	-4.96889752959924	-53.004713986767
123375000	-24.4196695328059	-37.8896651034368	-1.23300629495097	-28.1105739268941			-58.3233581975868	-1.41892137968232	-5.08349626130454	-57.9981680015382
124062500	-24.3378744817878	-38.9421298840773	0.146199957403176	-26.3846510911791			-82.5857801863251	156.888864228975	-5.28501967290149	-63.4723267290223
124750000	-24.3876395269448	-42.6302979387292	1.6591002249598	-26.3121079913647			-61.702794334755	-60.1818777702073	-5.48107565182551	-68.795007176351
125437500	-24.2763397132675	-44.8808438667223	2.97366566919293	-28.0597971880358			-73.8452959019376	140.721085860879	-5.72697811243979	-74.7883461867059
126125000	-24.305679250698	-49.155008244606	4.27377223029834	-31.0838549577712			-64.3860136822047	-17.1814881155338	-6.01656669274351	-79.8200310801539
126812500	-24.0340697743975	-51.8284101347263	5.42904941126322	-34.6178624442942			-63.4176843996285	-114.668555713951	-6.31695392907695	-85.6259817327361
127500000	-24.2030343024308	-54.0206552878313	6.47128113427199	-38.7400868498941			-50.2730545676461	-15.1367276811875	-6.72470962708716	-90.5945072967692
128187500	-24.3956875933992	-57.4934233217254	7.36799955374495	-43.8282670662745			-63.953538098997	-153.942263876693	-7.03033212254883	-96.2761725289379
128875000	-24.2635084591536	-58.9614541544261	8.2191120049006	-48.7820510126113			-56.2638433673077	17.7187971571082	-7.52998085688148	-101.506626050843
129562500	-24.4995462058215	-63.8545649250317	8.89856756451988	-54.0726609687992			-56.0740888420692	-60.201020502466	-7.84843113045697	-107.056024512998
130250000	-24.2822625919513	-64.0021644524666	9.58978423216114	-59.3702607634193			-57.3914196933248	-36.8248816017915	-8.41636149778987	-111.942423449895
130937500	-24.591238219179	-67.2105385727015	10.1119155929504	-64.8960199631777			-52.0745935946864	-66.7555644180452	-8.78646036586486	-116.79657662818
131625000	-24.5520547298324	-68.3435482849386	10.6253325232367	-70.0220659365724			-63.6268924986818	-66.3424553461146	-9.43086051333023	-121.744211595107
132312500	-24.8430535979899	-71.8652503660791	11.0627109460381	-75.3525795119972			-51.1179619309767	-62.4190203377609	-9.81770384846581	-126.349512329331
133000000	-25.079571329613	-71.986723520236	11.4092675596263	-80.463643208433			-58.5472075263076	-35.8300802356608	-10.3529883685154	-130.803793287857
133687500	-24.830353203782	-75.4772963475593	11.7179280351925	-85.5537870018891			-56.2773978700559	-68.8344663573785	-10.7932164135687	-135.109132338849
134375000	-25.3433859529938	-74.191272405914	12.0521946167259	-90.221979514583			-55.4758586603691	-43.2777996757838	-11.3742056249296	-140.231803848573
135062500	-25.3155235698718	-77.2213312993079	12.2697105681519	-94.8081115055067			-50.5076688802205	-95.6299084042982	-11.7783144891302	-144.118343434093
135750000	-25.652979391629	-74.7910586087175	12.5091535449976	-99.3944207045062			-55.2144460659836	-87.0199861441206	-12.3850130016802	-148.524757733086
136437500	-25.3960895445193	-77.5467394397349	12.6982239780004	-103.902787672976			-49.6079347361632	-65.0677971035299	-12.8394860325663	-152.966416366374
137125000	-25.8558882887552	-76.9960428727537	12.9284270053965	-108.145320002313			-52.2116305655417	-78.4630188299884	-13.3426032749977	-157.064227779523
137812500	-25.6250414621598	-79.4371395026266	13.0578003466543	-112.624555148417			-51.0868627225149	-95.7611401811731	-13.7674295382246	-161.152220876085
138500000	-25.7892858085434	-81.1475105434627	13.2557527999996	-116.481386430748			-59.4518944936162	-78.9751921641301	-14.1494704639393	-166.866432397434
139187500	-25.7658320972838	-79.5409696196225	13.3656867320879	-120.727390578008			-52.010410918749	-91.3041232733943	-14.7177177052889	-170.737255935334
139875000	-26.1955025001517	-79.666665897182	13.516615155978	-124.444583066379			-53.8057918389369	-128.638785858362	-14.9948794763095	-175.694695409577
140562500	-25.8853425050409	-80.3977556313852	13.6247280044637	-128.498202486405			-49.584695392848	-104.848202375943	-15.5780420352245	179.100203812325
141250000	-26.3742156747754	-80.4445643391216	13.7427318367701	-132.274494430089			-50.2052436073436	-123.289167865447	-15.8954281437723	174.255615812265
141937500	-26.262399626022	-82.6021425084423	13.8259504974348	-136.292863634355			-54.1532766561478	-86.5224516727996	-16.3182607392559	168.358486665925
142625000	-26.59650454361	-81.8545170419133	13.9514090455452	-139.705643380978			-51.1000858177571	-123.999128611934	-16.6296560604455	164.37738324335
143312500	-26.3392183735316	-83.9028234033588	14.0280840897948	-143.576716635608			-51.0969994854198	-108.926446147181	-17.1054134070548	158.050231637017
144000000	-26.6385495182944	-82.9214620149604	14.1220819219849	-146.651450716916			-52.3113056624538	-133.920174927144	-17.4628666187237	153.029995559289
144687500	-26.320773020809	-83.1994864314097	14.1620815425701	-150.588643100492			-54.3526818491203	-120.556995390818	-17.7167137513706	147.578923152798
145375000	-26.8668559741967	-85.4009051390079	14.2412511590721	-153.891921884223			-50.4901075925107	-139.938209686666	-18.0426159298006	141.909376013385
146062500	-26.377642576611	-82.5864637585832	14.2961249195392	-157.522905316335			-56.5400272108809	-164.380440900091	-18.3371677313078	135.006311510008
146750000	-26.7365299448671	-83.7110020762176	14.3368305626368	-160.590710260781			-51.3181538097925	-125.745949926382	-18.7472730468987	131.058964189537
147437500	-26.4133605546482	-84.715997487682	14.3718788061037	-164.077064962882			-54.5595547345967	-143.175288118583	-18.6737251172615	123.829671094758
148125000	-26.6450301430361	-87.4746424009682	14.4083991982397	-167.350931807623			-47.1979165989337	-133.716610654325	-18.966363981301	118.977216753337
148812500	-26.7458373404543	-85.6192389456954	14.4295607028539	-170.608922413667			-50.5160769159749	-166.074087764542	-19.0112415220369	112.495113789024
149500000	-26.6161299355742	-88.0442873455346	14.4720843103077	-173.428119906261			-47.5908010133659	-128.843177153708	-19.3561547983934	106.150342740783
150187500	-26.7852527734071	-89.6322160799922	14.4711453841071	-176.702868279956			-53.6673780309237	-174.546432054324	-19.2106681590339	101.019830878695
150875000	-26.7603078312532	-90.6745394607992	14.4971122495867	-179.652475878539			-47.8041140396558	-147.665082013621	-19.4807760041283	94.5283650134618
151562500	-27.1047392815001	-90.3957927863892	14.5057148269998	177.321425394633			-51.8807395862965	-155.391439841659	-19.2351334947274	89.8007374887266
152250000	-26.8426448900804	-94.3613285051044	14.539714326356	174.48039408863			-49.1021463359102	-155.693323607471	-19.4951122768255	83.0530447347893
152937500	-27.3719961058495	-93.0407665058302	14.5590173806576	171.603067886193			-51.3001736373393	-176.914142223348	-19.111734854511	78.5947164124349
153625000	-26.9260627825174	-94.6792712202107	14.5661077535167	168.892143478799			-50.9293651442992	-147.238046910512	-19.2385752946109	71.6685954000824
154312500	-27.2001445581231	-96.3812853202634	14.5958212529397	166.138677193144			-50.3646968248211	-174.994342056382	-19.0447988737341	68.3724576571803
155000000	-27.0230393547102	-98.3685887846469	14.5761448233935	163.132951474403			-57.2551405295524	164.513736768943	-18.9980792130359	61.31002444626
155687500	-27.4306408663154	-98.7372397465925	14.5687258474758	160.77208752244			-48.4660205842143	-179.893322573176	-19.004376681592	57.0099933844525
156375000	-27.3116961399778	-98.6030397577516	14.6236734977801	158.019166346946			-51.1830553707869	167.84558484346	-18.7782885102341	51.3447204949606
157062500	-27.7740361387937	-101.489644228044	14.5934131118623	155.377561173234			-49.6407205406512	-170.428246678888	-18.7779299546509	47.0699157159723
157750000	-27.3017559430006	-101.830900872995	14.6659237675303	152.909120610167			-53.7560660524709	154.165834356995	-18.3353989028164	42.2915255737607
158437500	-27.6603504607536	-104.11915722273	14.6375696459218	150.282023977976			-46.7532190819726	167.278581458984	-18.3035716236917	38.3746182034694
159125000	-27.2021223296494	-102.626251983724	14.691801227375	147.690412026058			-60.7459996413707	155.056189263476	-18.072212159399	33.6198819565444
159812500	-28.07956177477	-105.897689944076	14.7184645238081	144.90606464732			-47.1122839619045	167.406045887369	-17.9499723973333	29.1923302681055
160500000	-27.6363568478025	-103.351328434737	14.7407976522934	142.444600462967			-54.3803966549834	164.174207180605	-17.6985210335729	25.4693069162356
161187500	-27.2884022494724	-105.267587444385	14.682216909611	140.105044136236			-50.3450411847718	175.929482296464	-17.5290141139526	20.8410541449104
161875000	-27.612277689932	-105.27879654773	14.7711297675444	137.451410192245			-52.4141748636167	137.448005299939	-17.3779281307467	18.1633305732162
162562500	-27.4685691914189	-109.289209088871	14.708185989036	134.795579457181			-48.946863510344	177.50217831524	-17.0445018306017	12.1957291847314
163250000	-27.798918546773	-106.442047264858	14.7435823423583	132.280479795749			-47.2028486246324	150.017682095623	-16.9600933894791	10.4965356425293
163937500	-27.5355156842885	-108.523120234394	14.7392019053664	129.965899705654			-55.1739964592273	-173.002831769884	-16.8663684851687	5.84289931176835
164625000	-27.7078767175617	-108.511538558547	14.75915392356	127.382247910752			-48.5693355329774	135.806655426047	-16.622378191921	3.17281927866455
165312500	-27.6386124587538	-111.605613223725	14.7398642424249	124.915677897299			-51.9233030900109	158.194774621585	-16.4546215698332	-1.63444806352364
166000000	-28.0032008155216	-112.379886580404	14.7650386440651	122.605749680976			-49.7508991527387	128.482200256379	-16.2692178525731	-4.25145737280481
166687500	-27.728489944015	-114.140496897972	14.742821115089	120.132946703298			-51.4697948885188	122.055596596448	-16.0771187265174	-8.18746612555996
167375000	-28.0396051373764	-115.253259437016	14.7574127113471	117.940066293551			-51.2804352251625	138.519384326633	-15.9363775924411	-10.4750562733721
168062500	-27.299368071853	-115.989248650193	14.7248495980707	115.474085630447			-62.1685794551138	152.691940322917	-15.6579595764752	-14.3855962345128
168750000	-27.667464469223	-116.715746225801	14.7493913312214	113.265548909419			-47.8976793433887	143.121686574995	-15.7172381369374	-17.7142969589708
169437500	-27.7146954651514	-117.628281765625	14.7050273740565	110.622617471635			-53.7341313450233	131.817443831352	-15.3762652338297	-20.0123760368345
170125000	-27.7723908061529	-116.855539797791	14.7347410569435	108.572936378079			-48.7784237792163	158.206724035051	-15.537791250005	-23.2529249220551
170812500	-27.9462050729179	-114.659318915376	14.6925832487324	106.199862111441			-50.1572334624819	130.753605084824	-15.0672937242451	-26.5204753026313
171500000	-28.4050728161146	-121.431323043888	14.7116768383771	104.187150732795			-50.2185868383454	153.583250108556	-15.2928490344981	-29.2981927068393
172187500	-27.4793240339878	-118.007764371332	14.6627567655516	101.736648843037			-49.9355261323427	130.59775452491	-14.9381036672611	-32.1632197847129
172875000	-28.3518943730393	-120.743216940715	14.7064579374591	99.9613573131572			-52.6849348726469	130.796542310567	-14.8515676058673	-35.7083564493222
173562500	-27.5949331621297	-118.28093505671	14.6542571411758	97.7392778914465			-50.7120216245458	97.7408628869044	-14.697968171427	-38.2183270662053
174250000	-27.8955772864277	-120.452176518549	14.720420449198	95.7185932762941			-51.022202205693	138.309508951502	-14.5832433670317	-41.9756932599708
174937500	-27.9762708111179	-120.125867199756	14.683310500095	93.4744090552499			-48.7588322902066	103.454441506331	-14.4301854432292	-43.9169081300864
175625000	-27.3768862025434	-123.061245267706	14.7222808726671	91.6809933953674			-53.1214720033462	138.042111346697	-14.3708496772164	-47.9259142871645
176312500	-28.0836242204244	-120.644073155778	14.7310419810619	89.3995539160166			-49.9462892899763	104.245623115913	-14.1890474072828	-49.6257629161538
177000000	-27.9781752867503	-124.21078784961	14.7531428399836	87.6836268133019			-53.0151363019487	147.038005170221	-14.0717292221809	-53.3675056082295
177687500	-28.4520845653983	-121.370695526243	14.7640117375936	85.143155396196			-52.871650611478	111.697182475654	-14.0960018124225	-55.5615279106102
178375000	-28.1392716108976	-126.030064909371	14.805029466632	83.2925533940062			-54.9149170180067	105.15971337003	-13.9521496500898	-58.654043275091
179062500	-28.0504397370714	-122.139644270796	14.8056292355878	80.9133320900093			-46.4793841977547	103.595323591123	-13.975467404791	-61.3985438367428
179750000	-27.536670098824	-126.257512364619	14.8167272587852	79.0443509850654			-57.6210804136125	82.254043806343	-13.7721006830759	-64.6199679205022
180437500	-27.8692386200621	-124.788285122399	14.8853198469517	76.8380845470511			-51.357932995862	119.58164414394	-13.778205891272	-67.4837136082352
181125000	-27.4682229246569	-128.28097779204	14.896486261479	74.7894903856831			-54.7999513591704	83.0857300652094	-13.6062816904068	-70.0315506824638
181812500	-28.2372046819987	-128.29090946209	14.9056194721369	72.6505451435333			-48.4682216032024	98.4548320847656	-13.6401088995705	-72.7445693057007
182500000	-27.4470171381693	-130.35033725766	14.9460223542308	70.3611562215503			-49.9546034765697	84.9692917575873	-13.5487839894627	-75.1704211111184
183187500	-27.945999828288	-132.050433515993	14.962262447519	67.9616665356207			-50.132100272659	104.331370380204	-13.4660205033149	-78.4753978990519
183875000	-27.8911481335263	-132.858741573702	14.9735800492732	65.8012724494816			-52.2838128532908	63.7722806077329	-13.4763604643365	-80.1997033332543
184562500	-27.5700310688085	-134.55802361101	14.9725737535145	63.7814126859481			-49.1027648506604	97.068872737563	-13.3919608954771	-84.1676194519502
185250000	-27.5671978864282	-137.689826043989	15.0110122665409	61.5439433010555			-51.0243204391238	80.7011537891482	-13.3503595340547	-86.0103863814985
185937500	-27.7528036083024	-137.787560064803	14.9802185092476	59.1603374155517			-48.9580720319303	83.4321531426902	-13.3557891416778	-89.8118620343427
186625000	-27.0869657736058	-138.406973894746	15.0060513119157	56.8953655397903			-50.4658185187631	93.620500966122	-13.4050137609588	-91.1945215184783
187312500	-27.1358528464161	-144.574963517752	14.9874862545444	54.7631904691347			-58.3424376504298	64.571240436185	-13.2030904561746	-94.2831457202585
188000000	-26.987954790952	-142.372458283557	14.9782208888032	52.7106034793598			-52.9900657050559	74.0437079734757	-13.2406135280365	-96.6601716359651
