# Hz S DB R 50
100000000	-20.0853359228434	122.674509281838	0.890410927236709	-13.0794463911262			-66.3280132672404	-162.958773395587	-3.55055500976551	64.3638242602061
100687500	-20.0278050978696	119.350486321325	1.33890924719598	-15.343393492022			-56.9689714418068	-5.73199068322762	-3.49155236846523	61.6617965230185
101375000	-19.8820221521631	116.528397911079	1.73665884145634	-17.2322632529709			-54.331928444965	124.915157710551	-3.54977848667614	58.8222369806333
102062500	-19.8833297987969	112.858940021963	2.13963918900845	-19.7431264334318			-67.3427969967147	-62.5835401699459	-3.53774989313354	56.2003541009207
102750000	-19.8127304192246	109.654371378176	2.51892840366442	-22.1067960039824			-60.3658294068992	-46.146001012207	-3.55521255088302	53.148994016853
103437500	-19.6723615322891	106.756311544052	2.86645199920535	-24.6516373474726			-67.4363723106254	19.4201910622087	-3.54159367109452	50.343435962569
104125000	-19.5170541825866	102.723351989377	3.19532636952848	-27.0042155449297			-60.7090260425167	162.57871015127	-3.63199135803119	47.5168233111518
104812500	-19.4088665066585	99.8124938266441	3.54682355826988	-29.6404084114465			-54.5494493381673	4.86459909350872	-3.60244529259955	44.5087868717053
105500000	-19.3610086446705	96.1698814562806	3.83813615045416	-32.2707391832305			-69.0977140089417	-138.140152188211	-3.66519215388127	41.5291215560102
106187500	-19.2574613834406	93.5296391154826	4.14628607749587	-34.8445106777304			-56.1128085173336	-11.8572496293122	-3.61209162252651	38.5130555555493
106875000	-19.2679583551093	89.5810629660305	4.41136986629923	-37.6731282470554			-59.0026631907624	-77.4823789310854	-3.71727512824249	35.4496539707824
107562500	-19.0447760458691	84.4740746164253	4.63579840157338	-40.5012494517158			-52.5859407667208	16.1809006721391	-3.65622809172355	32.1528173863954
108250000	-19.0411310203232	80.6139016882933	4.82740158867257	-43.0658103608336			-65.8815740410111	-72.9579898068665	-3.78305551902535	29.2087664100712
108937500	-19.0377470856561	77.4488786076023	4.99077256993017	-45.7166145829671			-57.4307253297461	36.5028803484142	-3.73978586211519	25.970503578539
109625000	-18.9167438747544	74.4517170228579	5.16310430902062	-48.5001999965131			-59.417737524075	-86.1418345037796	-3.87405614617201	22.7554698336674
110312500	-18.7120618870842	70.6470811885967	5.27566110200631	-51.2330867416291			-65.8625103137767	-57.683293578761	-3.83968766450184	19.7693537833571
111000000	-18.8455596511092	66.1216166594669	5.3857981065063	-53.8281503428349			-54.9828472653788	-32.939695313077	-3.96617007291499	15.9220940013634
111687500	-18.7238571925274	61.8848587274637	5.39558089974597	-56.5326375646034			-56.721206423091	65.4654300563943	-3.92161651472166	12.8350672734162
112375000	-18.5170719885351	58.767540780296	5.3972317388918	-58.927545126545			-56.2852284410624	-103.901407489594	-4.04125260929288	9.40880332250753
113062500	-18.4766671967462	54.0498088422138	5.38498743485237	-61.4237979218741			-60.1535335651078	3.1320145763704	-4.01075865521897	6.16858088913722
113750000	-18.35392142879	49.705828410607	5.29887551370167	-63.4975884731338			-55.1586447764852	-39.8006539392115	-4.0954104721476	2.62109895958447
114437500	-18.3680059677389	45.9578649431306	5.18154755793544	-65.5556948829459			-57.7015768638826	23.0807975013664	-4.06969677229039	-1.04458244216399
115125000	-18.3142134923187	42.0320411740541	5.01862246431424	-67.2726831261175			-53.2200736299421	-57.8848794349949	-4.18823381985353	-4.9188971010545
115812500	-18.0850325185364	36.8711948355996	4.82354528604112	-68.7310402895181			-58.601882897563	130.489928618583	-4.19061718226023	-8.55874804523499
116500000	-18.0858162053682	31.7895717552803	4.53190328969333	-69.5410598516859			-58.0049836258544	-27.920765975449	-4.23588965206326	-12.6552793956262
117187500	-17.9966096895351	26.9867501909953	4.18042613635889	-70.0622818256331			-68.4034094857806	-160.509318771387	-4.28118767563028	-16.2912634594752
117875000	-17.9735942117917	22.891270293365	3.80489916902751	-69.4394933255814			-59.7647394224489	-34.3690256946046	-4.32451698670108	-20.327787665518
118562500	-17.6548647830403	17.7783905441426	3.43719317372059	-67.7617045287543			-65.253735442648	131.890807536144	-4.36711973275793	-24.4934573061661
119250000	-17.7254850624271	12.6391788252411	3.05145545868765	-64.6867434506586			-57.4849502317533	-53.1680439076266	-4.49374544691853	-28.9172817118081
119937500	-17.6284870693815	6.53188857289322	2.76564443090222	-60.0665546422411			-58.5153113772729	-101.917967246665	-4.51029417320808	-33.5209854866988
120625000	-17.668044641941	2.24956851045432	2.70011379233109	-53.5078677072632			-58.1254683971733	23.2417068669434	-4.60308258367549	-38.3866446936033
121312500	-17.5160811565918	-3.30453348048991	2.99779195367466	-46.2108836907332			-64.6719117753955	143.199536589906	-4.69069851258308	-43.0951429436175
122000000	-17.6354434282901	-8.7836485945799	3.73858018515229	-38.6331329598156			-61.3073574236739	67.9302041404545	-4.8005186533803	-47.7624294141293
122687500	-17.5462317447617	-14.8248562275806	4.87799452425593	-32.8250255757774			-61.2749424182015	-79.3445752810131	-4.91514379317397	-53.1355502764858
123375000	-17.5254765468279	-20.2703109415621	6.22360321016289	-28.7899360004759			-54.9324121258887	37.7710538902125	-5.12340149327118	-58.0756586458539
124062500	-17.4637043323139	-26.9312835082573	7.64433184977595	-27.0325076239352			-62.1413824658777	-23.4945950446856	-5.26969469177802	-63.4580912504262
124750000	-17.5585854633141	-32.0097427303546	9.1247689900962	-27.1826274803318			-55.9609367897594	-45.0710079180196	-5.50059648042023	-68.8303974358396
125437500	-17.5826151230756	-37.8470832432485	10.4771821062943	-28.6379926004187			-53.1497817937514	-41.5408348209388	-5.69210400394156	-74.2652134715582
126125000	-17.9699628881667	-44.4576931084069	11.7341974621242	-31.709234159282			-54.8969312796228	53.7622551091164	-6.04500095951398	-79.5169941312902
126812500	-17.9733475629305	-50.2766329818899	12.8819441556516	-35.5777297951649			-55.8397238067796	-52.4951620066353	-6.31826193081615	-85.1266642783599
127500000	-18.1905504949378	-56.8790390970176	13.9271374449322	-39.9198132717171			-59.6929808155201	-21.4722563464419	-6.74535629899474	-90.3038128280679
128187500	-18.4592728025864	-61.7973171626901	14.8834239650577	-44.6318122614382			-50.0300601566083	-37.0406016393707	-7.03233292911964	-95.5121511210507
128875000	-18.8322138541399	-68.0998028339704	15.665837291138	-49.7944875902891			-52.0623292911959	-19.3732674686528	-7.5039219967061	-101.24919958014
129562500	-19.0850096995024	-73.2264068577649	16.3788649449112	-54.9753042137328			-46.7177933347455	-39.593568424194	-7.86800335975235	-106.115011179874
130250000	-19.4489889511996	-79.3326385962781	17.03933429688	-60.5273012186775			-52.8016803746158	-47.7842376977458	-8.41763766840475	-111.596929790521
130937500	-19.8190513502862	-84.7540514879012	17.561491117006	-65.7612009999624			-46.2149773279335	-31.6842784582243	-8.78250505900702	-115.855601399056
131625000	-20.1986588214302	-90.1364449157486	18.0356179962135	-71.120376660961			-49.6906213752518	-36.8231804283803	-9.39675869546423	-120.913175886159
132312500	-20.6427552753749	-96.1101214172967	18.472043007739	-76.2719091122076			-45.4992065683551	-56.5706660655194	-9.75565663945715	-125.366365036113
133000000	-21.3091931412433	-100.315287131583	18.8159866450217	-81.6700101377845			-48.1614133484782	-57.5921502126943	-10.2899177977024	-130.362978524625
133687500	-21.5004692819713	-104.899660409443	19.1346019374378	-86.4125049228213			-45.6831807670859	-56.7369486166428	-10.7726047903698	-134.62178544511
134375000	-22.1987241372876	-109.768750207332	19.4159302074271	-91.2446854941118			-45.8636320844644	-79.2476865164144	-11.2996913824766	-139.587487534248
135062500	-22.5820383657097	-112.734174398621	19.6651313886228	-95.7434366438646			-46.1132478788233	-58.0488149108382	-11.7190455309695	-143.439098611736
135750000	-23.1847271143856	-115.670192766918	19.8977101211172	-100.443611151547			-47.5325002517345	-82.786985278482	-12.2054916776804	-148.413918917209
136437500	-23.5591244870069	-120.568543864583	20.1019518144902	-104.982703086004			-44.9752721170297	-68.5760409318577	-12.6661277753538	-153.081216643388
137125000	-24.179198250466	-124.627152611714	20.3180723042393	-109.087130012859			-42.7306558640928	-93.0883073079743	-13.0942741637712	-156.814821956457
137812500	-24.8519158051334	-128.963248389025	20.4662973262245	-113.476544335372			-46.1135411767582	-94.9343579128312	-13.5198464892109	-161.850189888184
138500000	-24.9790507010153	-131.842896951007	20.6397743328372	-117.333733672059			-43.8813829146667	-102.986382999194	-13.8651658485686	-167.246446183485
139187500	-25.9386014586186	-133.714825905367	20.7659136584653	-121.54869018478			-47.7920189512846	-87.78508729304	-14.4720517291078	-172.004055646698
139875000	-26.8379308206455	-135.494859558599	20.9066384540423	-125.283601636575			-42.421271142187	-107.669314060395	-14.8336210466683	-175.998467552538
140562500	-27.4578692509537	-138.613610521952	21.0050328869653	-129.136769169119			-47.8214890495675	-99.8704805008592	-15.3013848905884	178.018297722939
141250000	-28.1573801903391	-138.720732937207	21.1447393518505	-132.893148940915			-43.2935696905858	-112.328847104667	-15.6730350346641	173.688064394917
141937500	-28.5722578188545	-141.493568419487	21.2142023432296	-136.811148254309			-44.9168543076962	-111.21902605297	-15.9447543136601	167.240859431404
142625000	-29.7407869426906	-139.383063075372	21.3096018841407	-140.353518398684			-43.9721611087861	-110.868868249723	-16.415920957187	163.243622277418
143312500	-29.1971322851296	-142.036709949445	21.4122351310672	-144.053325117098			-45.4884400273319	-117.248931756307	-16.7263192306702	156.820659161257
144000000	-30.0644709156946	-140.513963534387	21.481805470193	-147.35749965347			-43.0715530519989	-120.766072802305	-17.2269629999667	151.739876614213
144687500	-30.3132176389802	-138.229823801536	21.5788167732853	-151.154827608643			-43.2945351211088	-133.122953814388	-17.3984217220987	146.304494910865
145375000	-31.0803932964081	-141.98316253258	21.6102090254456	-154.675967187835			-46.4666793011404	-125.243592151003	-17.6710101485397	139.92349795651
146062500	-30.9778844492848	-139.795693829175	21.6955449321723	-157.940823667649			-44.353146185152	-140.790875616396	-17.9342870950925	134.545589654692
146750000	-31.6579533591127	-141.63732570183	21.7391747139684	-161.406380079528			-44.6840927631826	-134.454484692846	-18.3389502474878	128.899357164457
147437500	-31.4700398548274	-139.668996127761	21.7993695790479	-164.707871836665			-43.2934102568069	-139.809981786897	-18.3414442834555	122.948607046089
148125000	-31.7884013513002	-141.425819886681	21.8036225303606	-168.123765127744			-47.742459182481	-142.29821496646	-18.5770762379815	117.576391101635
148812500	-31.9776823017283	-139.557614585134	21.8556846433465	-171.083335125974			-44.0996219683683	-155.02500642818	-18.6099628751316	111.694401430747
149500000	-32.4435323751588	-146.581336144842	21.8696447353714	-174.280474401476			-44.8586198022956	-149.135721226433	-18.8852837256266	105.354108442616
150187500	-32.8999446926262	-147.416038966242	21.8848538878721	-177.474638186307			-43.3899380784155	-154.514604641101	-18.8698338636192	99.9323676213131
150875000	-33.524686221291	-145.627065433677	21.9061254359317	179.528117720772			-47.5012815124407	-133.931775018212	-18.9283928944055	93.4361483900368
151562500	-33.3427657894425	-147.481481547878	21.9206135088906	176.660429223886			-42.9909033927134	-162.345310475733	-18.8381533889065	89.3107730325321
152250000	-33.7528350852963	-152.87734059017	21.9209260105239	173.694839543674			-44.1990466710109	-165.891291186682	-18.9719542126587	82.7611644687906
152937500	-34.1933112829034	-157.577940957425	21.9578738187842	170.86612929823			-44.7034089988387	-166.061091153464	-18.8437942861241	78.5670278199898
153625000	-34.986860601233	-159.633867415267	21.9532796443927	168.055747117904			-42.8038731294821	-172.873439225741	-18.8503254447425	71.6282768579831
154312500	-35.9773566951012	-165.297801315151	21.9850996797046	165.510227384802			-42.8950915826468	-164.027916420425	-18.6539648553775	67.1879683782172
155000000	-35.8302751358623	-159.344041161649	21.9939913493422	162.467095029735			-44.8667946059062	-173.888324313922	-18.5388839877404	62.1539660316332
155687500	-37.5944974345384	-161.29437251259	22.0014633666949	160.266861891895			-43.4643387357033	-168.159847800852	-18.5484137806507	56.0095885725368
156375000	-37.6985244889456	-159.942394988295	22.0269574724557	157.279137011375			-44.4439094771992	175.080674774612	-18.3685376465889	51.5463639355303
157062500	-38.909261462878	-166.730574462851	22.0212692121778	154.581981253687			-43.6960751655794	-172.108855132942	-18.252348507529	47.1076402266162
157750000	-39.2485105251093	-166.879508176595	22.0594359468739	152.289932131341			-44.8386802272449	168.248798227652	-17.9396506646223	42.5909465860781
158437500	-40.3411065611425	-170.612265440577	22.0634112602833	149.625836428327			-43.9031905474555	-174.100382521018	-17.8988886137439	38.7170643423886
159125000	-39.4800657011187	-163.339574053695	22.0842366893721	146.954737211966			-44.5878913736016	169.803623954929	-17.6632017063426	33.8964204254305
159812500	-40.7778264724471	175.572123393968	22.1344343971003	144.352615483873			-44.9342986018989	169.190293877546	-17.5366050400684	29.1497314932718
160500000	-41.9416536184549	-179.843193902337	22.1363673379465	141.790749355183			-42.653014841565	168.79181906134	-17.3721571030101	26.2516427713584
161187500	-40.8149705313031	-168.954149456348	22.1157409724671	139.397008176195			-46.2796324302952	164.6301883433	-17.0988820867103	21.1535968161201
161875000	-43.3132426288988	-164.309829595576	22.1703069370864	136.76860196797			-42.5822615594577	164.830438421599	-17.0657695168321	17.3517459941513
162562500	-43.863638134042	178.370813322946	22.1472605912928	133.988640468762			-44.8152757138588	156.837675088379	-16.6968363609455	12.4740680904534
163250000	-42.2611751260371	-179.178688463521	22.159594697768	131.514893755947			-43.9925943551446	157.431633221017	-16.6168056220546	10.0026178045827
163937500	-43.9317600984585	167.978417046388	22.1875739537975	129.106760711346			-46.5193752095454	139.508385929147	-16.3377917107027	6.09009810984965
164625000	-44.161520625639	169.027990050279	22.1406655966196	126.55078000413			-43.0993404428345	155.181177855719	-16.3536703087218	2.59197868868748
165312500	-42.4697594573601	161.92836155779	22.1861737105236	124.119767340192			-45.7770934984289	137.161950264004	-15.9935116960305	-0.732365820640845
166000000	-42.7911337132711	160.552721406963	22.1803326042314	121.665366331429			-44.4395675242631	150.700679363164	-15.9741882159484	-4.27425154706687
166687500	-41.9413745947335	142.773803701511	22.1673255339249	119.158474443293			-44.3883692114468	144.35689378891	-15.7586478261548	-7.43042579301654
167375000	-42.1391836626577	145.016416166739	22.1759205482159	116.928249433849			-43.3211263700944	153.51632588359	-15.7559544943618	-10.5587467408405
168062500	-41.8569366513572	143.616599852999	22.1462237415648	114.571706787631			-43.300520278948	139.417271715996	-15.3484248382994	-13.6006507958317
168750000	-43.6706524257314	129.501077928045	22.1530742043399	112.210007535236			-44.1265242146519	142.298294254402	-15.3411713824799	-17.9101773337864
169437500	-41.3147785234194	119.616334709727	22.0940243274097	109.918775872811			-43.2302712036985	118.787996913075	-15.1332564020467	-19.7298077801327
170125000	-43.5054573462545	110.999371905003	22.1316975629619	107.680662574735			-44.3091079914576	142.73497297799	-15.0998916773996	-23.6591129684471
170812500	-44.1788819335332	94.4811381328491	22.1188013271169	105.396174069598			-44.0629200005258	121.173947288135	-14.7279764620955	-25.9769147654281
171500000	-42.0631907137117	98.2946183796161	22.0918850129841	103.141498598192			-45.0195095893023	122.298533512016	-14.7791391284795	-29.0726690228193
172187500	-42.4317982019624	94.0935192606019	22.0687648872804	101.04911289849			-43.1640614536653	125.977257515035	-14.5940035015881	-31.5734517786986
172875000	-41.8248411980445	77.2836943350083	22.0876512208211	99.1484348147864			-43.4045677251207	128.736108706965	-14.5235351813733	-35.7067980181633
173562500	-44.5357049680679	64.9845363383389	22.067809223589	96.9697055598612			-42.3458319258376	117.612127283621	-14.3661470308057	-37.8681494841253
174250000	-43.3898830843628	68.7779391565493	22.0900386505961	94.938519726076			-47.4352428702149	120.844425823532	-14.1997541097806	-41.8553640011673
174937500	-42.6647573569398	39.8327285214139	22.0897470075356	92.933386331188			-42.3411966236293	119.222846795676	-14.1494393216853	-43.3184176614097
175625000	-45.3637300700162	33.7399944999672	22.1172953643764	90.8742647606917			-44.1133598646995	112.14474860113	-14.0400877770804	-47.1255383202914
176312500	-41.006253258877	37.8281903221878	22.1030758448021	88.642846262657			-43.4292270227418	123.180038850675	-13.8351804011508	-49.4008992757587
177000000	-41.0673372689486	22.0082543112739	22.1222687577204	86.8162480573822			-45.1086641856543	105.990146908325	-13.7069771549704	-52.8864935953237
177687500	-40.0046664902927	13.7996071061488	22.1531859388626	84.4915546069514			-43.4679854372068	112.355801817954	-13.7368149953197	-55.7802067704476
178375000	-40.2837423903482	4.97146686429325	22.1735332262729	82.5442644194357			-46.0437137463772	92.6175427597452	-13.5803274254272	-58.2082467270526
179062500	-38.7962319123093	-9.95512063493205	22.2142772936531	80.4238034344482			-41.4545097281969	116.187767660465	-13.5319908661052	-61.8463008731272
179750000	-39.7390271504606	-19.105390479401	22.2092810241285	78.3294588992423			-42.9884793729202	91.6225572268242	-13.3208677041343	-64.3541941354549
180437500	-38.4181420613372	-23.6649476619701	22.2881401522561	76.1663666303555			-43.4057480766737	105.166519845933	-13.2500688018232	-67.781937802316
181125000	-38.660649046473	-26.0931680718085	22.2702933074556	74.0671062142992			-42.8932294571418	92.2432405405923	-13.1620676764321	-70.3530348578657
181812500	-38.1305027027137	-30.7924800316779	22.3106512396976	71.8309714356185			-46.2232193640911	99.2688522779958	-13.1434497215711	-73.6609959662904
182500000	-38.51672367654	-44.1670961065763	22.3598769814718	69.6508028538429			-43.8566251460708	97.1277840704752	-13.0771364624822	-75.9276846980667
183187500	-37.8641342523439	-41.7553093479518	22.3881145269833	67.330157589752			-44.8634299624473	96.1981894888519	-12.9303189497742	-79.4953703276304
183875000	-38.9160567418988	-45.6218609869686	22.396258760897	65.1428047889213			-43.7938741281681	76.160063246272	-13.0859195929672	-81.6996828846674
184562500	-38.6305439330812	-52.8054735880599	22.410471421003	63.0786210370141			-44.3000607716696	92.4153154400934	-12.893011839118	-85.2181859188876
185250000	-39.4923294552738	-46.8242846819019	22.4400109808045	60.7762676445527			-42.5265932694427	72.1528325922309	-12.938059425205	-87.5060729592479
185937500	-39.3421290635817	-56.418763191034	22.4245570250988	58.4518184145914			-43.967587690895	84.0992882913904	-12.8587077543812	-90.5207694722264
186625000	-39.9914377423705	-56.8105230434277	22.411887724082	56.3470803582192			-43.9217114127568	79.2452031673367	-12.9463287952661	-93.0981961242679
187312500	-40.9359642667216	-74.2679307501815	22.4427317052213	54.0529762955299			-45.2854828225889	82.9727129507421	-12.7663412249937	-96.0268342819262
188000000	-39.9912843051824	-62.1461528976884	22.4030008189903	51.9173991848827			-42.0166208243991	76.4377281395006	-12.8758276181854	-98.7650527697459
188687500	-41.413972924825	-67.654773284252	22.3995456634893	49.5810844145509			-43.5526321826268	76.4660833436353	-12.7811271835431	-100.587542080174
