# Hz S DB R 50
100000000	-28.8699080649025	-13.2725984409628	-13.6015561419757	-13.7061534504418			-55.8085656206172	179.794136268916	-3.54341378825962	64.7765723890418
100687500	-28.8822368068007	-12.923747523727	-13.1267767938662	-15.6805044400331			-70.3909381384959	33.1357887963029	-3.47538376850366	62.2923912922737
101375000	-28.6656067377608	-17.47207189955	-12.7815470788083	-18.3512254365392			-61.521988713546	-90.387442639626	-3.54956276862529	59.1651486689934
102062500	-28.8512670903504	-14.473323794815	-12.3475066748418	-20.2153159684317			-63.3346974316657	16.424902956847	-3.53291117915345	56.4317602777669
102750000	-28.6583792934211	-17.6648416110765	-12.0281439802905	-23.1109588010429			-56.1108806093665	-78.5825244200692	-3.59723045810532	53.4004897644612
103437500	-28.8057538128057	-18.2332574709877	-11.6421783391793	-25.1208187858337			-57.2039251581068	71.9092479367739	-3.54135767549739	50.6604792364987
104125000	-28.1723257754319	-18.3548174659986	-11.2872575716779	-27.996020962835			-66.2757909695354	-31.697696695736	-3.61596102929245	47.5015796598533
104812500	-28.625290635952	-19.6516584384825	-11.0096316557573	-30.3861720077149			-82.7083499195093	-10.3084619560593	-3.62617457700048	44.6982804041231
105500000	-28.4199627855409	-19.4876707102727	-10.6504604732038	-33.4794947226057			-60.4593004551713	-120.168422267649	-3.65254129106791	41.304738360432
106187500	-28.8773512081688	-20.7096341952584	-10.4105447803576	-35.7012611713481			-64.5549356377664	37.1628334244989	-3.63858012919418	38.7532245244045
106875000	-28.3619217309114	-23.3980927764811	-10.1413330216726	-38.7304421858714			-72.7837700625817	41.8461229716647	-3.69370446082722	35.3727728550983
107562500	-28.6494391122655	-22.0138274501263	-9.93016617556068	-41.1443459562801			-68.056328327563	144.86518290697	-3.68680892932882	32.2840048733503
108250000	-27.8042951740471	-24.7241681799601	-9.67810114162901	-43.9320089925168			-67.3475131804135	-63.8914331658764	-3.79287978104309	28.9408137020519
108937500	-28.3789847465343	-24.6439468554658	-9.57901782651791	-46.7294376008387			-66.1670996361446	158.247318087084	-3.77512208817989	26.176394359789
109625000	-28.2360810714661	-25.5803927463523	-9.35347623041331	-49.5085544905347			-63.8381070573001	-81.1030823694507	-3.84406113498022	22.721355501797
110312500	-28.1444454851039	-26.5325974117749	-9.31617350764934	-51.9976987250317			-58.603995080428	145.190056775412	-3.84963281315846	19.5231156290438
111000000	-27.8849796558916	-25.3146805896433	-9.18956718129581	-54.6713767766073			-61.8030206498885	26.0631157840906	-3.93560313650597	16.0363497325831
111687500	-27.9637524446767	-28.5202724251033	-9.20097595688665	-57.5043801170779			-63.3246475175383	119.202341146199	-3.94292586946324	12.8408020540392
112375000	-27.9508842414489	-25.6436189350187	-9.19789548677963	-60.1229667651427			-58.4472480243671	-101.476380533689	-4.01415118700642	9.34070510023765
113062500	-27.9755192397191	-31.1294885976994	-9.27961537384674	-62.540817951213			-63.4723726869104	-146.044709050984	-4.0025479824775	6.12592109310322
113750000	-27.8926257709026	-28.7004632957161	-9.29536544395126	-64.5511708585181			-65.8052482724907	105.385065834457	-4.09030243840396	2.41856122626697
114437500	-28.2545439956624	-34.6271661473355	-9.453887098386	-66.9414703277561			-66.9728910943603	-116.941842035842	-4.10228729832716	-0.982083453105547
115125000	-28.0330695787617	-33.8601020701922	-9.62144932097572	-68.4943334955749			-56.9458321094861	17.9549137857644	-4.15673957651086	-5.01997485432724
115812500	-28.0910990902475	-34.0237292741356	-9.88208723368017	-69.753333874104			-58.704138406616	-134.148391899241	-4.20041480868084	-8.81714571845035
116500000	-27.6312392268834	-34.8816279801303	-10.1804211450012	-70.3938256699743			-61.5965150888174	123.448654793129	-4.21104929016857	-12.9304983079307
117187500	-27.5848392625932	-38.578873709371	-10.5175617013403	-71.1307462027576			-65.3562378370033	-71.2766979401134	-4.27507343418623	-16.5714014554571
117875000	-27.6554016609218	-36.8130189693122	-10.9625561278374	-70.6539333584099			-60.4469264670071	19.9797127697584	-4.29353946710727	-20.8575400891593
118562500	-27.5068089921164	-38.9576162891834	-11.3372402892664	-68.9346323416395			-65.0987564345665	-148.429882037361	-4.36395339477515	-24.8273434134392
119250000	-27.3602553148126	-40.5905074581564	-11.7435405492147	-65.6768735166578			-58.0531916151339	71.0056122958723	-4.44399818069616	-29.2831371105257
119937500	-27.2534475489369	-43.0175783286836	-12.0868302775612	-60.8704121102905			-57.6655379180338	-82.4007472072588	-4.4553220976652	-34.1635544747916
120625000	-27.782180496367	-44.3379675358453	-12.25723739123	-54.1250244958516			-56.0673737627023	79.7423380267452	-4.53788116942894	-38.7281791738966
121312500	-27.0523951724828	-45.8453454924407	-11.863504157598	-46.3201027341335			-57.8730468139684	28.7149141502765	-4.64802886812278	-43.6017637232528
122000000	-27.5804521195896	-48.9842247331176	-11.1696108546346	-38.6809805762444			-67.7971996899286	60.0356659710502	-4.76043732257203	-48.5466825288366
122687500	-27.1394141385976	-49.5771683517356	-9.98513494339135	-32.4725796284679			-60.1913273783777	-41.704251786449	-4.89620105137767	-53.4439748204193
123375000	-27.2762588431586	-51.7861500062366	-8.66099561734841	-28.2814646198493			-56.8036982741786	109.563144995254	-5.03752492391092	-58.8225354029687
124062500	-26.5978158249418	-52.376452974963	-7.22580702879369	-26.2959647851251			-55.1114366756214	-70.9652922259758	-5.22078932496107	-63.9442681797826
124750000	-27.1379959818095	-55.663002625421	-5.73751857701312	-26.3559167850511			-64.1979624436031	65.9024505365415	-5.42554573014435	-69.7865315186135
125437500	-26.8311527319327	-55.2527214430909	-4.36868023769645	-27.6191283101804			-57.5287163308916	-19.7910362538526	-5.62517203775547	-75.3511493597556
126125000	-27.2378107313338	-59.4496391572539	-3.11318855947289	-30.8191083115473			-62.6943992531567	60.4351943840015	-5.94973684890629	-80.8052802926506
126812500	-26.6082012687154	-60.1311950924247	-1.93425173718269	-34.243368681215			-59.9640349183476	29.913823234886	-6.21858143521182	-86.1995123461401
127500000	-26.5007814132324	-63.2035875039674	-0.902194592425945	-38.8767077802067			-58.2856968391518	129.199361704628	-6.59256052955311	-91.7975955192846
128187500	-26.6552059744341	-61.5550872201441	3.20166304105352E-02	-43.4025648501534			-56.2342340819892	1.14631698677362	-6.92288995129048	-97.0161550849407
128875000	-26.4152443282371	-66.1339778340333	0.857661998874128	-48.6255409259323			-63.1662986286541	-96.1045191850984	-7.33390420436768	-103.01206262986
129562500	-26.4419685223714	-65.3796308447457	1.54941942048614	-53.5323933312983			-55.3024745871905	16.33797311006	-7.74635885637683	-107.859019093595
130250000	-26.0981712814882	-68.3398246618019	2.2327754892341	-59.1575997992251			-61.0252849695412	-102.894384743096	-8.23886763668045	-113.665501189402
130937500	-26.4480429878742	-67.4349718022525	2.77824310758635	-64.2600680724992			-60.1085493015159	15.5917915229039	-8.66298789210384	-117.778742580119
131625000	-25.9557915238765	-69.8242382691178	3.28355818375271	-69.5811732086946			-61.1716526530596	-99.0389510108693	-9.20270419578971	-122.986587614106
132312500	-26.5366727963935	-70.6102573977455	3.69932750654141	-74.552377718004			-59.6491098590928	-60.0206462365242	-9.61489238802036	-127.986914066899
133000000	-25.9169971593906	-72.9087105657887	4.07160277241658	-80.1585999385559			-57.0089084879233	-88.1805446407089	-10.1916343425445	-132.6353183742
133687500	-26.0185040552404	-73.2063100364468	4.35796330446913	-84.5061046450091			-58.9454507503524	-38.3774524739252	-10.6251648198552	-137.194625500814
134375000	-26.0378003875398	-75.0808096236239	4.69946839586354	-89.7476287762921			-51.6590816801434	-79.7043063873786	-11.1103136706276	-142.237207644458
135062500	-25.9573805450103	-74.621112398713	4.94100763478064	-93.8700872796377			-57.5792946696503	132.519619062563	-11.6368595532751	-146.464360297231
135750000	-25.7829310788062	-73.9682062862882	5.21033570734446	-98.9959765071826			-54.2452799571792	-53.6852054326693	-12.1744171440279	-150.888915558313
136437500	-26.0012889556276	-76.1919195244026	5.38315731391151	-103.082273800101			-57.5228168162097	-149.111101298222	-12.6275964872554	-155.223046302786
137125000	-25.8295421383211	-75.5975238755324	5.63370919203635	-107.614596546657			-54.6636087846568	-64.8364174113077	-13.1472309075307	-159.56684234981
137812500	-25.9131182667307	-78.5054443891332	5.73257899987641	-111.696408909002			-54.4287780554127	-149.215579301146	-13.5696321993395	-164.244566911092
138500000	-25.7381718651569	-78.3946040012247	5.94993309700691	-115.899490818893			-54.552506267753	-83.5924954053658	-13.9751353152856	-169.191452335383
139187500	-25.604049566355	-79.3643541950967	6.0547800116508	-119.900582671927			-54.8456906805743	-149.664700375139	-14.4922745989445	-173.480480671952
139875000	-25.7009377443946	-77.9290840616065	6.22682257350354	-123.888823705445			-51.84249285827	-70.2790495397464	-14.9151059592915	-177.812539534526
140562500	-25.7897138424803	-80.6862314114684	6.32767511017099	-127.784335783584			-53.4444608057234	-128.277971540935	-15.3360977881515	177.339256563648
141250000	-25.7417375134571	-79.2898125205475	6.47552454424154	-131.631575942721			-53.8066690205359	-77.9736055883358	-15.8002905342343	172.073141650023
141937500	-25.6277577077631	-81.9493124297895	6.53267099806904	-135.363160487337			-53.2831910589645	-134.600253006753	-16.0656727293042	167.193093308402
142625000	-25.8945921716447	-80.1570874229964	6.65910477891245	-139.124440855319			-61.0252104279199	-157.269378383805	-16.6303133640697	161.777219944596
143312500	-25.6119327835652	-84.6326673136543	6.71624629256713	-142.773132760742			-52.7328351596119	-130.98158419796	-16.9487267228797	156.742935448531
144000000	-25.9781153653268	-81.1466568247374	6.81884701752243	-146.141856864964			-64.0282461420109	-70.5516919996219	-17.2482168656083	151.406981575903
144687500	-25.452132202032	-84.785168575378	6.87120060950365	-149.686319500679			-51.9792982160044	-104.914068460448	-17.5959041316673	145.988879024147
145375000	-26.1025352702723	-85.6613266527156	6.9531100288608	-153.317388418895			-57.0973258818873	165.663938877333	-17.9188078179152	139.916169702356
146062500	-25.6866880921969	-84.0379723037335	6.9956486166517	-156.69295438623			-49.9493224318844	-116.496086873825	-18.2126295778217	133.732376414389
146750000	-26.118279343624	-84.8681445260341	7.03236627967189	-160.114574804053			-62.064802335455	4.1571474251435	-18.5564187933458	128.423739086855
147437500	-25.7578584994191	-87.0211784764461	7.08257284282266	-163.370915554061			-53.5696235231127	-133.047684173663	-18.6488670653799	121.652330160494
148125000	-26.1093619512155	-88.1069319172957	7.11268255050997	-166.848204981644			-59.3157531590802	131.21970237182	-18.7578121711908	116.760274833652
148812500	-26.1187608267236	-89.1435451043903	7.14850127425311	-169.676071556248			-53.2698720790882	-156.662751735821	-18.9624517280654	109.985192895143
149500000	-26.2815149848917	-88.9044927948403	7.16532293699085	-172.824794480878			-61.33650268739	-153.109722454348	-19.230144983057	104.216099677377
150187500	-26.3973193920343	-89.9926711264661	7.16501273820557	-175.892788940496			-56.503440425359	-92.2181550778479	-19.2241286206763	97.6838666055247
150875000	-26.677222519067	-91.2547953886292	7.20959753517986	-179.165510555425			-55.8585162823383	149.954675455716	-19.2955810369172	92.0569828929739
151562500	-26.1173323183688	-91.5434999156419	7.22105818740195	178.163900962698			-51.8992591001543	-131.073862386803	-19.2749760412669	86.6033244089617
152250000	-26.7903858070992	-96.1165281449765	7.2214125231655	175.070947250923			-53.8396221178041	172.79913535553	-19.3624742727246	81.2300297134998
152937500	-26.6971634469169	-94.1071887353011	7.25686314026533	172.609988497427			-57.865682894779	-98.5101793889578	-19.2575714011856	75.1876901531792
153625000	-26.8666518039376	-99.385651422236	7.25203896627565	169.522822123768			-53.8935575726304	-160.018529433307	-19.2834091193727	70.3821613085631
154312500	-26.53558737302	-97.4111851516765	7.27609909879306	167.014650523037			-63.0642150250432	-92.811482861619	-18.9958941846125	65.0167835687762
155000000	-26.4943812420609	-100.793481332568	7.29798695693974	164.049124781868			-54.2970241576677	-169.070172356408	-19.116816406138	60.5348678428269
155687500	-26.8295202905204	-97.38585328291	7.31038017089173	161.823730528356			-56.4859037805396	-145.790376628822	-18.8790145585333	54.5229181877355
156375000	-26.7391245839948	-103.506967319783	7.33279093955628	158.787616411856			-53.0464747330031	-158.817384707061	-18.7897963009392	49.6621382308747
157062500	-27.1955639928522	-101.696935677411	7.3120486723012	156.387262585034			-73.4390810103802	-31.7953370034647	-18.7150992359787	44.2003113940865
157750000	-26.5370061806065	-106.256578984379	7.3894285233886	153.70719376866			-51.3822482811303	-165.255894199314	-18.5848510775998	40.9617192034414
158437500	-27.0970819254169	-104.249028931066	7.32830818415386	151.244167749415			-56.1839990974422	62.025012679547	-18.3258035044153	36.2315568438801
159125000	-26.5330301438399	-106.767306809574	7.40392493883954	148.494532689893			-58.0325379297279	-167.201221519609	-18.2377968650566	31.83339628969
159812500	-27.3588441814873	-108.375328963207	7.40007326204748	146.123837343453			-55.4562726100489	155.181917073053	-18.1062953223524	27.4709055814905
160500000	-26.6117101916325	-109.879829841608	7.44186784380223	143.357076522106			-52.4437254437254	179.524308316393	-17.9186948512066	24.0909778526804
161187500	-26.8600568101472	-109.659700613034	7.39450082963219	141.239009180694			-61.6994579919697	120.683627590245	-17.7194860617784	18.9007506899967
161875000	-26.4698816696744	-108.871587262204	7.48550163143687	138.319605707013			-60.5979172440429	-164.695286338544	-17.6617225550162	15.5082706876436
162562500	-27.0642997143404	-112.624060431844	7.4225686913779	135.787468565194			-56.013924450583	140.566401459585	-17.3175195513322	11.2250328751851
163250000	-26.3825520592707	-111.638534552186	7.46192173772207	133.229356033698			-58.0582690603252	-157.849001251047	-17.1010866858314	7.86168069710338
163937500	-26.8297281903967	-115.545674181671	7.46475137137171	131.121624519151			-51.7681551639412	132.190952523958	-17.1090230719727	4.6869248681949
164625000	-26.5558435896652	-111.299137004965	7.45697564625717	128.326088807973			-61.5897743541291	-135.160881970742	-16.756120366828	-0.044064786163134
165312500	-26.8079240885957	-116.840838763044	7.46410327074419	125.997958616797			-55.8179114650448	156.31077317851	-16.6429140670416	-2.77699228778954
166000000	-26.7399939236176	-113.260711199901	7.47554587577724	123.371459322409			-69.0123676233928	148.057298079047	-16.466219868531	-6.28923473179025
166687500	-26.8106160761421	-118.793912230798	7.44550085863247	121.224945909069			-58.8318557178256	116.62296363923	-16.421151522625	-9.40374018396427
167375000	-26.8530972600626	-115.968398512301	7.4836743938956	118.808327576177			-65.2352553530058	146.931678704254	-16.2017325063415	-12.589040371376
168062500	-26.6025251506512	-118.788861872978	7.44208286823321	116.542372186753			-55.3129116068218	122.807865421871	-15.9081702749154	-15.6678859593505
168750000	-26.6443129517735	-116.520459615258	7.46581127043715	114.196095458177			-54.9557644397471	172.058850012703	-15.8707127907581	-19.5106971462622
169437500	-26.5270905929006	-121.294495271246	7.41787364922965	112.059961979364			-52.4235724582019	141.323355225108	-15.6781613696559	-22.3537434272534
170125000	-26.7666551831051	-118.007354497461	7.42480941981575	109.65505042203			-69.4481046176233	-143.437988292382	-15.6171525764236	-25.7677097485569
170812500	-26.5315396353187	-120.591641098955	7.38468452523541	107.449827760462			-49.4992014610368	155.040200179698	-15.4672029596938	-28.6000786408866
171500000	-27.1129828763236	-121.476361546269	7.40598294644373	105.159625971976			-55.9804192248141	102.251646714994	-15.3798168770869	-31.416309605429
172187500	-26.5427645719897	-122.147914265431	7.38311455933846	103.07361590377			-56.7707098629145	-137.489639301458	-15.1688628751306	-34.5843872686856
172875000	-27.1990282045743	-121.89485218968	7.41616203340957	100.911804305282			-60.7299914542915	95.3125504094683	-15.0597439208042	-37.5664475295651
173562500	-26.7636541087193	-122.789089353551	7.39486174120947	98.9819686292349			-52.5251215062141	153.922935981063	-14.9181292327689	-40.4055409523649
174250000	-26.9999806300363	-122.807334060303	7.43098593693922	96.6353364629631			-56.929254010681	133.177112108765	-14.7196737146217	-43.5589133351218
174937500	-26.900919432978	-121.147261611404	7.40597759116155	94.8460202621045			-53.9273296805242	179.59632185181	-14.6951144036757	-45.8844017637058
175625000	-27.0348773182822	-126.009849548444	7.42197507083335	92.5006342174551			-53.3209525088212	64.6267051849915	-14.6214726068997	-49.1760609325696
176312500	-26.7704111181651	-126.826833695317	7.45309743607367	90.7824841556709			-61.1004336946169	141.797733364229	-14.4959900776976	-51.9330648544857
177000000	-27.0912117370325	-127.029967745597	7.46673671509625	88.6375809565698			-55.256279945045	123.387510086194	-14.389484386943	-55.698986862226
177687500	-27.1278680086458	-126.069639771014	7.45275852376019	86.4994869492914			-53.7188657124964	162.398238212803	-14.2841156147426	-57.9798089054543
178375000	-27.0516209252969	-130.218437674134	7.51318026184982	84.2894434751107			-51.4373288781325	122.426123400304	-14.2461881286906	-60.8747784751309
179062500	-26.9348745628732	-128.286498423722	7.52100550582741	82.2969583834173			-60.0463409242575	-1.52916056153982	-14.147074671741	-63.508628560048
179750000	-26.9994864558667	-132.756840137819	7.5320241676368	80.0190391937893			-55.2685028349789	97.1324735466633	-14.0475690290452	-66.3952266305875
180437500	-27.1563474249768	-129.37207741041	7.57788930441665	78.0815366538306			-61.5290997764265	169.613792913556	-13.9694533210393	-69.5055397194527
181125000	-27.1302686266844	-135.070014145297	7.57304712963521	75.743764754866			-53.0643299317817	99.3961845877352	-13.8348461814531	-72.7547905532676
181812500	-27.2769799328921	-133.98660384561	7.62711905622788	73.8007483298591			-66.4995375980163	-77.5937095150152	-13.9191077726169	-74.6954656605698
182500000	-26.955097598768	-138.66055415336	7.65674319048097	71.5310921272127			-55.7454447278172	133.213824753448	-13.8714242803835	-77.7302430154364
183187500	-27.2884510116425	-137.525099777472	7.66948357735608	69.430289184754			-55.6301101639479	76.1949131834975	-13.7399247765917	-80.0480686381851
183875000	-27.06404290829	-142.619308819513	7.68763874361211	66.9270397542877			-53.7268447771493	127.059643932968	-13.8059975522496	-82.4238639863521
184562500	-27.0645240665429	-141.050206467278	7.67814699662841	65.1189681751833			-84.0360723768091	-39.4842401544657	-13.6522244399217	-85.708032147728
185250000	-26.8592837700765	-146.549879373646	7.71759966079017	62.6339072295842			-55.0275617314087	89.4219662079133	-13.6655796175557	-88.3098301504987
185937500	-27.2343652819784	-146.198762899567	7.69451240425946	60.4254156620616			-55.1552186632433	62.9143327419696	-13.6350350165083	-90.7891107225351
186625000	-26.4314124410732	-148.356815924917	7.69902020800381	58.1521519274773			-61.6549963453341	55.8026069069485	-13.6931609802036	-93.2519456480899
187312500	-26.4217984578855	-150.534282881536	7.71041624833049	56.2252711641727			-52.2929847652523	45.7004577159666	-13.5078154821779	-95.7034910217518
188000000	-26.3192334333798	-152.365960274338	7.67726741081209	53.8381766038234			-62.5807575704017	104.755194256987	-13.5698096991287	-98.7121273501846
