# Hz S DB R 50
100000000	-36.283552266969	30.1849896401483	-5.21405944125422	-17.152516356565			-55.41998612163	93.3976862061068	-3.50962442246919	64.6835101041813
100687500	-36.2762096940517	34.1504137743041	-4.75440525071211	-19.4932505232084			-54.081579524471	-8.8718460152435	-3.50641570649112	62.0465773949146
101375000	-35.8348483768485	29.4071412824514	-4.35683698074953	-21.7081162669901			-60.3167298670589	85.3312200390822	-3.54096347971886	58.9712199226975
102062500	-34.9642649629255	27.8918307177506	-3.97139287646455	-24.4466393264622			-59.6163236181473	-28.9660922244514	-3.5235052326604	55.9222034557693
102750000	-34.2155055069548	27.3350777177883	-3.5932180324529	-27.1700484088684			-63.871773088093	-170.265797986731	-3.56953148803664	53.1194349917548
103437500	-34.3040175286951	31.148995665565	-3.17494511588103	-29.9189547712054			-51.2490742498836	-29.1588151585578	-3.53872283288607	50.376307477757
104125000	-33.72005663029	26.7722331228122	-2.86517699153457	-32.5029867878962			-62.0280494961192	153.311074373444	-3.64050574431476	47.1896325063824
104812500	-33.2516583127964	25.9084603390934	-2.5330358999825	-35.3187450776826			-54.2827826290278	13.4961036641353	-3.61414856091251	44.1820004817311
105500000	-33.1004262332909	25.3706264975214	-2.22722815854941	-38.2760742688803			-58.9167496815077	-112.797511349422	-3.68202261795054	41.1454076397159
106187500	-32.5377022569819	28.7673763258289	-1.93775519895832	-40.9606483295871			-64.2944281454114	-40.4701611562575	-3.63756447354143	38.1010957231807
106875000	-32.4223361477263	21.3263833942893	-1.69783181552808	-43.9583547747797			-57.1766007374679	-90.1611039149818	-3.7376958673653	34.903815692064
107562500	-31.7923291947856	20.980089229582	-1.45687853794201	-46.5907812341312			-57.7077655123803	64.6445106199918	-3.70003438005108	31.6868771618799
108250000	-30.5780219551966	15.2364990062643	-1.23171526575106	-49.647097857041			-55.6980260919746	-101.430934356226	-3.78967090760208	28.7299357026387
108937500	-30.6888746554008	17.0403882993865	-1.08645113266633	-52.4027770023303			-64.2373102949881	130.955560115064	-3.75334496416807	25.4451121188395
109625000	-30.7316809944437	14.5003586998117	-0.964934600952636	-55.421679232456			-59.8637560527149	-76.8793346653598	-3.86221490038453	22.1764509214645
110312500	-29.9024575150007	13.2344081418295	-0.845547879104092	-58.4308955243258			-61.0859122971253	114.516343017966	-3.8641956468536	18.8922840477047
111000000	-29.8398953600307	9.77247826689198	-0.773868449808873	-61.2527515901895			-58.1570077002962	-74.5059831631955	-3.95680380295472	15.3190194815708
111687500	-29.6827004570013	8.68868400289494	-0.7764191405341	-64.0174169467536			-59.4772253645222	19.0578558056499	-3.94319403603209	12.0235527458034
112375000	-29.1128895244278	7.7243528510833	-0.780678136586935	-66.6933175758906			-59.6364557885284	-89.9257241069027	-4.05861849061711	8.55405083405955
113062500	-28.955978393775	2.17675212954982	-0.833399850612614	-69.2995463225473			-62.3591426013151	62.060473325328	-4.04214495992459	5.22024701005551
113750000	-28.5023126804679	0.820481851992386	-0.965247329628724	-71.6403644642841			-49.7988375699652	-67.3186878862165	-4.08824511672718	1.40097696027692
114437500	-28.6847096577454	-1.02975542223339	-1.12413068750568	-73.805024550062			-71.3237627861184	20.5435324724761	-4.08599933879048	-2.0028132325382
115125000	-27.7805670006489	-4.75684201346671	-1.29128599377148	-75.7862647655282			-59.0087045352636	-52.7483063962347	-4.12676612965836	-5.98324186857328
115812500	-27.8123565151016	-5.31571846897918	-1.55033463914226	-77.4965124835432			-57.5919691707672	174.432739347833	-4.19714871288751	-9.85936043086483
116500000	-27.6360677287609	-11.2680976007931	-1.91215793880704	-78.3476729049534			-63.7125695901281	-123.133288837774	-4.21196449557897	-13.9800887771593
117187500	-26.9734852015476	-13.5119707085793	-2.28448576068174	-79.1600089923946			-66.3869917049286	143.581423315152	-4.21732294641211	-17.8838964466326
117875000	-27.0148149736819	-15.212262740769	-2.78847753001906	-78.5115687022562			-59.1652161363688	-7.36554243816702E-02	-4.27115576223386	-22.0680458147262
118562500	-26.807854944102	-18.8064359787777	-3.25885922484268	-77.0231992078335			-52.7729463064959	-83.515381270877	-4.32735469012963	-26.2496891143363
119250000	-26.4781753837597	-22.2676914984063	-3.72066664443179	-73.3655459151049			-55.9227599800955	-27.8567445773413	-4.40734119945925	-30.7030471425442
119937500	-26.3312943177117	-27.6704736072549	-4.10328724346389	-68.6544249014973			-61.9174738371081	-174.959129495398	-4.42057807043972	-35.6279872477534
120625000	-25.995293865486	-29.4975103367602	-4.21702189420709	-61.4267204349106			-55.632352360001	-39.270275065807	-4.48914151276948	-40.2148856291307
121312500	-25.6249530797467	-33.6435371880138	-3.96556550565087	-53.3182327641047			-62.6721993173764	-88.2411475231886	-4.56743641426695	-45.1501084542914
122000000	-25.7980641356562	-35.5326571748223	-3.16765358955925	-45.189253442699			-61.8691844965335	42.1765169719287	-4.6517762578702	-50.1798574337927
122687500	-25.5790533486648	-40.0434793894524	-2.00246509795746	-39.0619399426601			-64.2569643122852	-113.651584322216	-4.7727649587713	-55.4065689455716
123375000	-25.2727795987656	-43.3843259743356	-0.630961576774984	-35.0076919478986			-54.4505975254272	2.78897388554543	-4.91855807898239	-60.898192490006
124062500	-24.8892362961629	-46.8166706787639	0.818547886989171	-33.2337138462333			-75.6365707570307	13.0003721228384	-5.05229868201465	-66.0773501744186
124750000	-25.0775346272411	-50.947474472487	2.25773382206557	-33.5750016029714			-60.2801729644131	65.3310051403273	-5.24832727840874	-71.5902283272526
125437500	-25.05571379384	-53.7932468060527	3.60043976511993	-35.119657668375			-53.2312991298735	-82.9031901594053	-5.40926990558606	-77.4486274742365
126125000	-25.1904229373974	-58.5407589117348	4.82444136856685	-38.0838659109938			-58.2874407791752	58.5343046294716	-5.7474629184187	-82.8636348174799
126812500	-24.8158813901815	-60.0893749550254	5.98756647338875	-41.5312160828457			-54.4416422315323	-62.8269472815786	-5.93842092646128	-88.3324697276151
127500000	-24.8894068921036	-63.4743952624067	6.95428800581883	-45.5646348149441			-54.8264685484101	30.6819411728988	-6.33287827948664	-94.0914700439285
128187500	-24.7412314406735	-64.816568797554	7.90510953765301	-50.3205489524534			-48.887441476733	-42.8036295197897	-6.58435092815844	-99.4704047406839
128875000	-24.8041948277037	-69.0367562083135	8.68115481297128	-55.439086540945			-74.1046609497842	144.014792179616	-7.00308750212911	-105.36561404148
129562500	-24.8945713601131	-71.4610280725968	9.37736228118986	-60.5796018557063			-50.5154868034748	-51.0416139980631	-7.29572039826442	-110.775798224583
130250000	-24.6916586288405	-74.1611307184994	10.0107903312187	-65.7808491888826			-58.1815246872579	21.1638086114675	-7.82100705278069	-116.252550755856
130937500	-24.9751360850634	-75.0130537232179	10.5422409931602	-71.0178833913629			-68.257203087397	-16.5557247921728	-8.13659924790435	-121.103067011394
131625000	-25.0100363257396	-78.4458583768882	10.9919902199048	-76.0914723075433			-58.9317168187832	-101.331408051654	-8.65106150898673	-126.450747842731
132312500	-25.2648924415605	-80.0035668683754	11.4435366606179	-81.2272051744145			-51.103487410776	-57.2441882775231	-8.99062675043133	-131.414758770684
133000000	-25.5054179212739	-82.7675397973944	11.7909251880789	-86.451554067951			-59.2248034630386	-64.5100196069707	-9.54614346527738	-136.550575101231
133687500	-25.5251470076326	-83.0767595951405	12.0885077316296	-91.0327691289179			-50.9359277470702	-40.1225873249237	-9.94067799740191	-141.178956991568
134375000	-25.8989097857954	-85.2064406896133	12.4404048435267	-95.7306794776615			-56.2188513368114	-59.3885784789313	-10.3515908519793	-146.545462379388
135062500	-25.749917658946	-86.1556562523883	12.6571887665017	-100.291763569221			-51.304262499289	-44.7006480307605	-10.8228653476503	-151.302756380453
135750000	-26.1673815012024	-84.3864410932044	12.8950798727319	-104.927323132307			-56.1069750936301	-83.7858103583621	-11.2992222556853	-156.035872674641
136437500	-25.8709988671769	-86.8841847472944	13.1138667740825	-109.211263886468			-51.0878839580194	-64.4724065284631	-11.7217576459153	-161.241939979903
137125000	-25.9339511764206	-87.2961041584661	13.3458805601387	-113.337447454123			-48.1480081342027	-82.4985878079619	-12.1845728564199	-165.664366902452
137812500	-26.4793273619574	-89.1523329748007	13.4942391539542	-117.454416659837			-58.9627568505967	-84.2355289348816	-12.5714132614984	-170.819232775478
138500000	-25.8243985967579	-90.066319719978	13.6920360761983	-121.43903511985			-52.1875720648804	-96.7995590800199	-12.8549081219887	-176.044153122591
139187500	-26.4368568241968	-89.0660880561143	13.810125049738	-125.561393402786			-55.6024467309358	-70.6035141442609	-13.4041335178207	178.535296477406
139875000	-26.5264043696155	-89.2285108095211	13.9556942466981	-129.396363700895			-49.9352163692893	-87.9535152719391	-13.7112101460395	174.251205002964
140562500	-26.8164988272352	-90.9999446702632	14.0864301256785	-133.232254494604			-56.0989905365443	-99.8822931591216	-14.1488339044967	168.081009503324
141250000	-26.7171877872713	-89.8906753424549	14.2286391003395	-136.997042539107			-49.8082941994239	-92.4634183677812	-14.5235101771515	163.624005144701
141937500	-26.7420639532416	-90.9368489710766	14.2950951901088	-140.955947598141			-52.2128187739549	-122.518221724198	-14.8746193676784	157.545551431522
142625000	-26.7002928195354	-90.3833114731054	14.4081683772819	-144.571978849092			-49.214042110543	-126.233828707765	-15.284221997267	152.686257306589
143312500	-26.6234504215266	-93.835892155021	14.5001011827066	-148.267060263503			-55.0633111290424	-155.738531695526	-15.5387928530044	146.312775210232
144000000	-26.9591148264769	-90.2334612679669	14.5704899302062	-151.552774936593			-50.2086316664964	-114.373295272394	-15.9920713169233	141.089358075562
144687500	-26.7410954120146	-91.9053392662382	14.6425912365752	-155.39515386205			-48.8251567862177	-147.071363822626	-16.2178142179461	135.581392561574
145375000	-26.9567811753788	-92.8492330289817	14.7185549363905	-158.774763692831			-48.0202019175722	-103.163981755904	-16.5372880535789	129.347440566779
146062500	-26.7345173821935	-92.2188309334645	14.7639912632679	-162.194348238924			-49.8661611845093	-149.039673882657	-16.7011156237572	123.476277798447
146750000	-27.1159004933914	-93.2643207787326	14.8099591602809	-165.631706611266			-58.9215251584168	-128.963392569787	-17.1341982570957	118.342604818565
147437500	-26.9098444428895	-94.2344785359641	14.8565367634822	-168.887384058999			-49.5055750500021	-124.170105383322	-17.1265853701735	112.311300017907
148125000	-27.0023804607811	-96.3169117121328	14.8537623404851	-172.178022568238			-53.0742790406102	-140.197316662993	-17.3674587042749	106.747325022032
148812500	-27.1876574783873	-95.2112506913213	14.927366990594	-175.325480891857			-49.2640380403088	-148.446901437306	-17.3885246764644	101.25424761156
149500000	-27.1636181363546	-98.6206426913727	14.9270024599106	-178.28966496754			-49.5623503821453	-131.816117717318	-17.7174403510543	94.1674705601782
150187500	-27.3364668211504	-98.1136660885532	14.954113514894	178.570861465654			-49.9427223280432	-149.957411172809	-17.7067889458165	89.5176948296051
150875000	-27.1325815104361	-97.2494579665099	14.953757529884	175.492202446444			-52.5654592241293	-171.684650491831	-17.7843121010823	83.0522806863522
151562500	-27.0815757192957	-99.6706860532152	14.9777056748493	172.700083563107			-45.8355173166051	-149.036242827941	-17.7965741851553	78.6014262069969
152250000	-27.4854596063697	-100.473986336949	14.9773685238358	169.868241879401			-53.3550051319408	-162.039299359083	-17.9813354521425	72.9969810877361
152937500	-27.3340999837104	-103.562652670802	15.0115192213235	167.003559336073			-47.4799084100811	-145.420122811848	-17.8643962453545	67.592548704426
153625000	-27.8431274030764	-103.612794056468	14.9761951247252	164.293896336857			-51.3824942015858	-171.401928014765	-17.9000365150773	62.0271752994724
154312500	-27.5810177765017	-105.918386151734	15.0287903751888	161.510111072595			-46.5232300958686	-160.993896766157	-17.7980637464571	58.1352706467278
155000000	-27.5361893964958	-106.088371658109	15.0267378447508	158.58853474656			-49.0564187597548	176.270564388423	-17.6875654027118	52.6144321774969
155687500	-27.7949019816306	-106.898371687209	15.0061032244633	156.158518055844			-49.3734192945318	-139.280746969201	-17.7830400153184	46.358432376051
156375000	-27.7516032815992	-109.453954485994	15.0507184022905	153.329896079963			-51.1003371065975	160.910633390788	-17.6872488358249	42.829554735409
157062500	-27.8159152222108	-108.194553663939	15.0874848090984	150.812034475961			-50.8374690517479	-138.923915265738	-17.5604170188203	37.9729339882594
157750000	-27.6898291237439	-109.897265864989	15.1376423580312	148.360284690556			-49.6459474257548	176.864265306304	-17.4287800706402	34.3877581046801
158437500	-28.0276688387453	-112.111236134047	15.1118978183447	145.920356964456			-52.2187408992287	-159.40391013166	-17.3279941453934	29.3082148954583
159125000	-27.5489522409538	-111.654940960867	15.1369578542179	143.151389414378			-48.697179104445	149.220147187081	-17.1487614952436	25.6936540006086
159812500	-28.4445854720478	-114.397194255345	15.1540587802014	140.587637509407			-55.547259652144	-177.878941317755	-17.0208089205114	20.6150798532296
160500000	-27.9889583737258	-114.2092912113	15.1802789946285	138.005395939604			-51.1848321917483	165.808059494573	-16.9319958888109	17.7584601559752
161187500	-27.8717447229492	-114.970742466058	15.1460373206092	135.687120097621			-54.0118309652154	145.082202620499	-16.7401506137285	12.7695673722364
161875000	-28.1801272741743	-114.463436968888	15.2109605209042	133.035794524089			-47.4586833535163	164.537507478496	-16.7937223873195	9.62540435100388
162562500	-27.8954275456604	-116.147490482208	15.1727408221446	130.419351066351			-61.7041535553007	106.069707970363	-16.4527608836537	4.95756296886687
163250000	-27.9962743363948	-118.122242081289	15.1916896856589	128.007066519174			-48.2241373528895	158.834763030173	-16.3283949405578	2.11864470504197
163937500	-27.7488161445412	-118.754787260511	15.2145734837174	125.419094898744			-51.2950342833893	128.514554773035	-16.1708932928152	-2.18960857658602
164625000	-28.0444352137071	-118.546733665473	15.1822537307307	122.901668441864			-46.6971261913302	166.751019273811	-16.1319184415467	-6.15431922659463
165312500	-27.9971601331104	-121.642202886799	15.1839239822358	120.412078286503			-50.0750566274545	156.089403416169	-15.8744951188259	-8.95905151756967
166000000	-28.1670106106167	-119.758272969416	15.1883384342625	118.006087763105			-48.7615022558686	156.289587457602	-15.7742716730682	-12.79328700675
166687500	-27.8632901966467	-121.517739795003	15.1847024840808	115.574085058064			-52.2553573030292	144.950847328386	-15.5822449470816	-15.5498138606503
167375000	-27.9456788569484	-122.18297885	15.1860584470781	113.491713536343			-50.176935655975	155.520595175815	-15.6246221131938	-19.5632092789737
168062500	-27.9793692086435	-123.489824912871	15.1681267807726	110.995490271758			-53.5991238910003	146.749047636612	-15.2426964798691	-21.611859559393
168750000	-27.9779362355867	-123.583683514523	15.172199673142	108.832489371403			-52.7639271822969	173.542396916856	-15.3357856830613	-26.1771100484705
169437500	-27.9357586556608	-126.777204699947	15.1145761204712	106.63252054038			-53.6997613524621	122.027508659694	-15.0283337771829	-28.2485246778327
170125000	-27.6534704470536	-123.789962188071	15.1457137315981	104.308540077543			-52.8487294300373	142.38800755158	-15.0808572727811	-32.0096075767783
170812500	-28.2259449129238	-125.394653373978	15.1171218499486	102.027017515931			-50.3229599435517	138.607355919964	-14.8449503206527	-34.540082305718
171500000	-28.0697375046224	-128.327169689194	15.1355707476262	99.8652961180875			-55.1965131885224	128.834372174179	-14.8635983703927	-38.0748827349661
172187500	-28.0188057403734	-125.237391200797	15.1011335424887	97.7008441540728			-48.3864551160859	143.791730673396	-14.7003570841859	-40.6430788862306
172875000	-28.5788105805299	-128.136519794739	15.1189191606814	95.772502046994			-51.536841965835	120.178048973879	-14.5135540914294	-44.1300355831018
173562500	-28.2794388302485	-127.63986393264	15.1124821802724	93.708277096107			-49.46071776222	117.161057535671	-14.4184154024403	-46.5940455592751
174250000	-28.0621657299789	-128.127924146051	15.1201375293089	91.4112469071532			-59.3201811336997	144.76843324933	-14.3321366082119	-50.4500440081069
174937500	-28.3951363759014	-128.733522886687	15.1434765230047	89.3718012840158			-50.6778165040772	106.110811536067	-14.3509587340559	-52.568277495286
175625000	-28.2106848984611	-129.362479842219	15.1228244455605	87.363323015897			-50.8890009757798	85.3442539637645	-14.1512091368754	-56.481690783559
176312500	-28.1667899418564	-129.838416933468	15.1597442145224	85.3926837901412			-51.0951023681174	139.986335182101	-14.0206006764253	-58.9023527292174
177000000	-28.3661124895003	-129.512025384143	15.1744787680346	83.4120178289387			-50.6390742033409	97.5859392619371	-13.9008646745319	-62.2896335380597
177687500	-28.1465605738804	-131.250526020093	15.200029111594	81.2102077708262			-50.4949068072777	116.698095897997	-13.9539416407039	-65.1382919343991
178375000	-28.0806649069949	-132.87085803968	15.2040126436945	79.0858766403562			-50.2925072031098	75.8451482093648	-13.8132677867229	-67.9277953435456
179062500	-28.0223193160802	-131.343138006752	15.244816933397	76.9270498952467			-51.5344433532882	133.650336065061	-13.7687365753964	-70.9166167099642
179750000	-28.1193655892936	-133.862165717226	15.2533946479632	74.8606290129277			-54.018411500874	116.576123758577	-13.6382470274611	-73.6274315740515
180437500	-28.1218841751523	-131.864670638468	15.3012137907561	72.7369215414866			-50.4521017885658	112.904833362969	-13.588594706055	-76.9587323610989
181125000	-28.0415954032439	-133.117016526975	15.3047683936992	70.5772863862176			-50.3173433168492	103.666992093015	-13.4803525838891	-78.7602954741072
181812500	-28.1151001049361	-136.206133600923	15.3251028091805	68.4070881324607			-52.0820592781598	129.322962650974	-13.5104888953664	-82.1110227470166
182500000	-28.0279530586848	-139.120219165673	15.3882523772735	66.1922403811004			-49.7682810815392	105.811880645635	-13.4970729504235	-84.5975997717933
183187500	-28.2887202443271	-137.831350065666	15.3995656792067	63.7432649237218			-51.2724032074835	116.226266536603	-13.3664715196912	-87.8717810412268
183875000	-28.0346998667135	-141.134727436147	15.3980472935367	61.6787854699859			-50.8531677704628	75.6750396720625	-13.543905688016	-89.737402968996
184562500	-27.5542317113512	-141.839107627112	15.3820392480014	59.7311207876625			-53.7554141227455	127.226264222449	-13.3012421209502	-93.282043584829
185250000	-27.6890380025229	-145.494418307989	15.3892044196944	57.3965841937423			-50.534526264532	71.2749739699767	-13.38336321721	-95.5312419620148
185937500	-27.8134331679452	-146.298312886766	15.3950914621521	55.138628697406			-50.4169719248956	79.303219492284	-13.2349609423892	-98.5606710670783
186625000	-27.5206948178163	-149.722149842517	15.3944300261786	52.8941551316908			-48.4453980816304	102.132506941998	-13.3317254537299	-100.767616056281
187312500	-27.1115282948689	-153.207848312813	15.3870063177817	50.64932604992			-50.447702630211	94.4042584835287	-13.1526793683881	-103.730731940407
188000000	-27.1887895417335	-151.604651718365	15.3702903076693	48.6072742862495			-49.3176565157876	95.4085493204923	-13.2642149469318	-105.814385606486
