# Hz S DB R 50
100000000	-30.4343811204081	19.2884794075085	-6.50663246112401	-13.1813763701809			-63.2886949223135	58.9134074791986	-3.5567574787709	64.542513526186
100687500	-30.7349236376723	18.3231407381563	-6.05328188303226	-15.2587139436096			-58.325915441566	-40.4053851157073	-3.47149516227624	61.8280036695368
101375000	-30.4624910859606	17.7000343553363	-5.67058247303318	-17.5286173689866			-58.2209138960495	164.561859825729	-3.55067606054795	58.9316857102117
102062500	-29.8383204165829	16.8451795047817	-5.2477780495806	-19.8727375575127			-59.1956139379129	-76.2790356254777	-3.54644675328826	56.0786097414592
102750000	-30.0503201868372	14.4117614959139	-4.89613253446271	-22.1817278067205			-65.4782397350678	-157.169130437285	-3.5987169654768	53.3836480809795
103437500	-30.1557401683437	16.6616758458447	-4.52140457758438	-24.7427108086025			-56.2724836486779	-4.43131602260336	-3.51720984067965	50.5082837313972
104125000	-29.4705887689802	14.7712477621529	-4.19317743713281	-27.1724073523404			-93.8977863362625	-130.990155552553	-3.61253337785564	47.4625221626
104812500	-29.2631806160912	14.0706476356938	-3.86523154006175	-29.7453044181091			-57.7356761790034	-17.0674506837671	-3.61955709428318	44.3738268942342
105500000	-29.2182002689249	13.2825998112132	-3.5605580675035	-32.481657886878			-65.0247234327967	-142.463616727777	-3.64217829163919	41.4625760598809
106187500	-28.907300518111	12.8282833861917	-3.27439560731342	-35.1008298700919			-56.0696828858848	22.1064729877346	-3.60984593836012	38.5270456151263
106875000	-28.9217826442304	10.7840386520921	-3.0474966038007	-37.887091843531			-68.7601726750335	-135.916811270953	-3.71438553447467	35.3112855164977
107562500	-28.4171299775851	8.84146818888172	-2.79480011519338	-40.5254458708741			-58.4401847192052	67.1290912701283	-3.66692887573099	32.144734395543
108250000	-28.1121830948829	8.61387656210398	-2.58765997190635	-43.2184712110351			-53.6650533609129	-117.937680127251	-3.78636509740347	29.0390841606357
108937500	-28.1857809679655	6.94636890601029	-2.4306312931148	-45.9238810236124			-55.808530813479	0.311303238286272	-3.75576044758054	25.9784199675275
109625000	-28.0537811522049	8.70046338906591	-2.23709611989771	-48.6821639871998			-60.7991573749203	-43.7434469952632	-3.85791668486196	22.5176165457798
110312500	-27.6392995223036	6.049112776088	-2.12893952488147	-51.3813704481855			-54.7982730817789	57.0325943607172	-3.84789093295963	19.6739048115139
111000000	-27.7258146689613	2.73240841513308	-2.04394392383561	-54.0030163635048			-60.3777528753393	-133.574118622453	-3.94187721522847	16.1744898340108
111687500	-27.4184537716319	2.09485408137986	-2.04182868510391	-56.5887662894114			-61.0949000334776	111.260647339997	-3.93620501722291	12.9988447503902
112375000	-27.2401373332098	1.99821081175129	-2.01526391824308	-59.1505520565479			-69.9945147136741	-75.4820895324853	-4.01230991294359	9.56542000916569
113062500	-26.9662783199197	-1.31091142477482	-2.07299134798615	-61.3639313025289			-65.02203549337	-57.2955426062267	-4.02145135312232	6.11614014829869
113750000	-26.8079569418177	-3.00865160204567	-2.1524272578231	-63.4967490765459			-56.8522870242015	-43.3541933070517	-4.10389247527243	2.53659858497127
114437500	-26.9092569093074	-5.34061211518696	-2.28514688818586	-65.5656549354871			-65.1527352208439	120.129842313641	-4.08321587122053	-0.707693116821169
115125000	-26.402785845873	-7.91426316402216	-2.42711172422716	-67.2162983306713			-59.2867624267714	-78.0852250435701	-4.16549694700308	-4.74713530909872
115812500	-26.2115470630075	-8.90617385686747	-2.65466102479911	-68.7349763991309			-73.9709429545488	-122.261886012725	-4.19596619866938	-8.46087965318531
116500000	-26.0205874910313	-12.419839605749	-2.90350895721717	-69.5535646524476			-62.3475297654543	7.91058545684777	-4.22936319061573	-12.7146002418549
117187500	-25.8011313951096	-14.3794807487188	-3.2778460509886	-69.9989071040375			-67.436895462579	100.474119550908	-4.27817575685424	-16.2920711974932
117875000	-25.5245482289991	-15.1972233902287	-3.64505464888169	-69.2918080137837			-64.3998896550465	-4.4082294046196	-4.34107006620018	-20.3137373419883
118562500	-25.2384164864349	-18.1101400902929	-4.04102191766797	-67.8586675302769			-70.3835990154295	-100.378662209421	-4.40937554100136	-24.4369459659724
119250000	-24.9709776453875	-20.8245185740375	-4.42070278294737	-64.7191509686298			-57.0725479595307	23.403072945048	-4.48389271577357	-28.9093508336791
119937500	-24.737331371761	-23.7512457033454	-4.71161565449857	-59.7780135578752			-55.7281771248194	-137.351427424891	-4.51306336226699	-33.5237100959154
120625000	-24.8188670669302	-24.7661039586572	-4.78621581251376	-53.2683410248192			-61.9826480150488	-23.1630252427039	-4.59088081555816	-38.1595037972915
121312500	-24.5951154870695	-31.1967623709885	-4.49598135085856	-46.145627868671			-69.8458345351493	-109.023393537699	-4.67146516081664	-43.0574054930221
122000000	-24.5593496128179	-31.6641112555439	-3.74087477825146	-38.3928079809157			-59.5530575430147	43.5931389572672	-4.80080439773253	-47.6772556146825
122687500	-24.4421453345681	-35.0718586473504	-2.63243185397632	-32.4620624289584			-56.6582245182008	-68.3605731510066	-4.95371064947879	-53.0087402167452
123375000	-24.1963838551202	-38.3805492188271	-1.27602137233007	-28.4720539303769			-60.7773045506064	61.5817128888536	-5.08667875585949	-58.0473350844209
124062500	-24.0144876401406	-40.0297411678369	0.130528007061255	-26.5317072720414			-54.0010110339565	-142.465951346907	-5.2430252882273	-63.440142341272
124750000	-24.0679832802214	-43.6688025560884	1.60482833132799	-26.7171477614			-60.778889726596	-0.724842389097511	-5.52958181029848	-68.8437466054132
125437500	-23.7796198636869	-45.9570644146318	2.9446757443973	-28.3122180788453			-53.028034058996	-41.982695245046	-5.69706680108506	-74.5166821341576
126125000	-24.3209893617271	-49.8984712616232	4.18941370041916	-31.2658548586505			-64.3813796019295	72.7738291645368	-6.06176026609332	-79.830317086596
126812500	-23.9258523455285	-51.4831528952557	5.36902642093281	-34.7612983109973			-60.2799014825425	-14.7203759633605	-6.31167953175141	-85.160563052225
127500000	-24.1512057076636	-55.5096128790997	6.40486387919984	-39.1725763470023			-63.1183646478999	83.0874427875778	-6.7551694904681	-90.573746180413
128187500	-24.1321775962478	-56.1945561148963	7.35363648033628	-43.8480816142717			-56.8401048949811	-53.1725597415665	-7.04811263225585	-95.9218174829232
128875000	-24.1637391722492	-60.8737057534607	8.16136009973786	-48.955856217731			-61.399775282985	53.8101786524378	-7.56653784890637	-101.527991502396
129562500	-24.287407577352	-61.5206883609901	8.89060621418352	-54.2081083123836			-51.1697702361544	-32.8833947146819	-7.90048659752033	-106.55354277366
130250000	-24.3671723881667	-64.9029921706396	9.51494119533603	-59.496360558674			-59.4177208307469	-75.5509598306393	-8.46905113737065	-111.795558747919
130937500	-24.4030064745802	-65.9565459004258	10.0723912847398	-64.8458838420238			-54.8819022474388	-9.188084074327	-8.83799150648093	-116.345351888727
131625000	-24.5753693980776	-67.7917208497646	10.5535856180208	-70.187709624061			-55.4466375678191	-52.9424141504556	-9.47000027518766	-121.314359616
132312500	-24.6521493396328	-69.3950248512491	10.999052648207	-75.2209209935101			-54.5407605845648	-19.6786405969405	-9.89158388916135	-125.805488303334
133000000	-24.9615597920489	-70.6010422439417	11.3484851265581	-80.6078148395487			-66.999539851531	-123.340147227967	-10.4614702727641	-130.698923357978
133687500	-24.659486806692	-73.9038200004074	11.6759106923728	-85.4893519072549			-50.1500001694522	-51.2473706190249	-10.8795941438273	-134.903058091993
134375000	-25.0602081603693	-74.6347698979533	12.0023544477648	-90.2635678667533			-53.4704234662141	-60.9692252512595	-11.3823892342242	-140.044578051318
135062500	-25.2555963886668	-74.7111433650339	12.2025965711257	-94.8316356212395			-53.8738190144492	-76.4200576241848	-11.91754210585	-144.085484518223
135750000	-25.4237375576795	-75.0569793312928	12.4736308051877	-99.6500343532463			-52.0751953111634	-119.534781750846	-12.4337535515511	-148.473657129538
136437500	-25.4066665345958	-76.7613358404964	12.6499034032901	-104.126127488314			-55.3392544820357	-46.0250299141809	-12.9046687173385	-152.896269343546
137125000	-25.825035615775	-78.7937679543339	12.8732891241109	-108.231788632272			-51.5128496485739	-97.9470983175513	-13.3680971055059	-156.725759804386
137812500	-25.7627365163547	-80.7901817714894	13.0399966825397	-112.589217606663			-57.1000875638497	-77.4277382910835	-13.8126928829754	-162.093475289319
138500000	-25.7302137021145	-82.0641862168542	13.1985833237468	-116.569574853309			-52.1738505864166	-108.363648728326	-14.2658946355278	-166.815485842613
139187500	-25.8640137324219	-80.3006413588575	13.3471862296797	-120.752684624865			-51.9482604625387	-100.666320304665	-14.7677347845839	-171.396415710745
139875000	-26.0461522053391	-81.6759755048005	13.491357806242	-124.569467792648			-47.8407024627252	-115.542919499182	-15.1517375783322	-175.133404141113
140562500	-26.3093041699111	-80.6767694879936	13.5919880272057	-128.518512972091			-53.6549935082923	-106.867576433654	-15.6379033627316	179.076406016441
141250000	-25.9953275996097	-83.042558720009	13.7334730117798	-132.428941841363			-51.1046722738546	-106.701911049199	-15.9486662406145	175.225809412083
141937500	-26.2159510373189	-83.3806527987382	13.7975298632097	-136.258019488746			-58.5851859452259	-113.900541195001	-16.3722977114062	169.279080613015
142625000	-26.1643789458818	-83.1099341025006	13.9081593348975	-139.781810263906			-52.6470713915605	-104.837798491013	-16.851926713985	164.879169089404
143312500	-26.133363006278	-85.841837678421	14.0103579272403	-143.619026642363			-50.591102709591	-147.857914133393	-17.1299696842346	158.650054878099
144000000	-26.262448016013	-83.3562217003344	14.0672276151665	-146.792251403386			-48.1651278823722	-95.85347791015	-17.4736879950972	153.92401521144
144687500	-25.9890394643578	-87.05152389959	14.1288700500348	-150.602697029203			-51.4169331071779	-124.545911003802	-17.8433689685128	147.864875760362
145375000	-26.3553602747697	-85.8627328682225	14.2025770796016	-154.107844010471			-52.3436386503403	-101.387599777013	-18.1262693823427	142.3093905581
146062500	-26.1503437143239	-86.3676914103286	14.2420481920208	-157.547263840243			-53.7610200638707	-138.89864112411	-18.4732438075982	135.890275066139
146750000	-26.1838953359364	-86.1726977585017	14.3072397020173	-160.876086929118			-51.7119984084357	-106.29175145878	-18.7647934634372	130.591696695487
147437500	-26.1301394799178	-87.7845986341718	14.3309545187894	-164.189869031127			-50.5618583983956	-152.687267942912	-18.752901085151	124.122020383822
148125000	-26.0574370576069	-88.3043685133992	14.3407542593229	-167.485481655408			-52.0227431383911	-116.594421658012	-19.0319676961007	118.615420768297
148812500	-26.2059454778847	-90.0393527952292	14.4233824866953	-170.509598893289			-47.0588198446215	-158.059487107974	-19.0790617563515	112.514626196556
149500000	-26.2924004947429	-89.9844383424291	14.4247864454485	-173.576640117371			-52.1312957510808	-144.528313941219	-19.3177771295097	105.551520540949
150187500	-26.4533348522437	-90.5570687019123	14.4392540883667	-176.708212572663			-47.7783341156929	-148.623998661109	-19.455796086475	100.319727377603
150875000	-26.3008103176132	-89.6620209829127	14.4685407343193	-179.790235175761			-53.5495469079931	-154.94163713621	-19.4433569431367	93.8968916058735
151562500	-26.3683952375949	-93.2480548793558	14.4795228111004	177.287869507157			-49.8344510338465	-136.466371135449	-19.3575911996026	89.0912232511048
152250000	-26.5219824587649	-93.3042076733841	14.4722342422711	174.396684635336			-50.4112106587121	-167.581921202513	-19.4174474823095	82.6682758551439
152937500	-26.545388359415	-94.3426761538342	14.5091827721471	171.65675175215			-48.4132476337652	-160.044272720908	-19.3334157660465	77.8473272191124
153625000	-26.4472086096005	-95.395641883609	14.5050331506399	168.823034936809			-49.3668737152303	-172.929018949336	-19.336228960338	72.46321091885
154312500	-26.5129507399661	-95.0156309145612	14.5532669744158	166.213228563214			-48.414732531365	-158.430063839311	-19.2033513902923	67.2869273076159
155000000	-26.4883421570652	-96.9260401488665	14.5391954511055	163.068016949965			-49.5983991804593	-171.149050378664	-19.0892757953923	62.7058170543064
155687500	-26.5302745311367	-96.3256253159735	14.5422812334004	160.821649529217			-49.2898392230451	-150.095123279597	-19.0859386598357	56.3771736063634
156375000	-26.8458807625522	-98.8475928402686	14.5984034903258	157.795698845125			-52.1421188882337	168.671716567126	-18.8785629333339	51.0261706053267
157062500	-27.1055339575034	-98.4401650217503	14.5909490275671	155.34327432601			-51.3001825803052	-154.031016778916	-18.9532679099139	46.3329751235535
157750000	-26.7880464769193	-100.883520524959	14.6302627742971	152.747198756248			-51.1032967907516	155.089969992459	-18.5525588232631	42.6403759365696
158437500	-27.3834995167876	-100.739500094564	14.6207979408472	150.357478426032			-49.3322541634478	-143.745731981641	-18.2956910762241	36.7510420740494
159125000	-26.578262622052	-101.162386297319	14.6508571405918	147.588102047658			-50.2107722671489	158.722505743643	-18.2589273175332	33.8075257784851
159812500	-27.5694894831266	-101.260534943875	14.6852165910354	145.005476273896			-51.4706119638841	179.172119465015	-18.0627760009215	28.1608574502669
160500000	-27.042020032502	-102.521881172465	14.6949415232032	142.281950043045			-49.1121539047867	162.631012688145	-17.8991608606387	25.0018539402952
161187500	-27.1514356417436	-103.09114284145	14.6713968127592	140.068657649741			-54.52984911954	156.760237835575	-17.5962388259583	20.3076643041401
161875000	-27.2620499286187	-104.001994061561	14.7281476445131	137.535063234147			-48.9597220623146	150.168959094381	-17.4964992100922	17.9021300606848
162562500	-27.4874547834312	-104.758504460091	14.6967132116743	134.810196452293			-59.1216647348886	-175.553659082833	-17.2136047004167	12.4281884410599
163250000	-27.1339263512592	-106.994232824848	14.7124560969179	132.276377447			-48.3295665089145	150.557837456989	-17.1039877665537	10.0936967454876
163937500	-27.4246535059024	-108.198870740928	14.7324390807651	130.003256806857			-52.3113227143788	128.171911003296	-16.8560362762451	6.49664196405944
164625000	-27.4350066024704	-106.099852914543	14.7093213162741	127.328698684991			-48.3731196322393	-179.016563845473	-16.7512708150689	2.62161442919144
165312500	-27.8016450128914	-109.997527934477	14.7296387365954	124.892491444624			-49.8452058133754	158.043237505243	-16.5073439401858	-0.727711879253563
166000000	-27.5358706116544	-108.45568152931	14.7343959510171	122.43671384529			-49.0963880615669	161.924706171739	-16.3976371612052	-4.73912889887275
166687500	-27.5859781708259	-110.120994042436	14.72458388515	119.986972585948			-50.3470464194406	144.376363998774	-16.1872510947422	-7.66211003383985
167375000	-27.5694668988348	-112.932972455462	14.7196843295306	117.791007814835			-51.7529364392186	145.46059939316	-16.1169166403538	-10.7062320024468
168062500	-27.5335149197718	-113.934964164928	14.7246090522433	115.312055584284			-50.2519102926278	95.8227752903819	-15.8433122597944	-13.5547231608155
168750000	-27.6189702738725	-112.923739283208	14.7262973786599	113.140427689285			-49.8513893223016	149.407239324492	-15.8145176977774	-18.2165528749118
169437500	-27.5716722038706	-115.353496919904	14.6831898987705	110.663825215857			-50.1403013102253	136.051992188451	-15.5636455311209	-20.0909488314601
170125000	-27.6239078496792	-114.159581474917	14.6914910526013	108.514944443985			-54.4028904102927	175.079154786482	-15.5560028645283	-23.8416646063756
170812500	-27.6475219622659	-115.262510594983	14.6782790733697	106.345462480966			-47.9313520299287	127.734138882621	-15.247469083002	-27.0825303119498
171500000	-28.0194516937351	-118.059160006256	14.6563047472311	104.118071715458			-51.2053520235023	149.877766905655	-15.3274309165603	-29.6475012302719
172187500	-27.6666645439412	-119.678998487013	14.6641790026557	101.969394092232			-49.6209189734178	101.748959378843	-15.0649172119353	-32.8528689665821
172875000	-28.0405979241433	-118.707043534742	14.6733481636098	99.8699726002902			-53.7890920516532	128.557277999305	-14.9896886973951	-36.393343513456
173562500	-27.5380243818205	-120.357489962069	14.6422235263469	97.6675742286473			-54.0131701351452	133.45994340589	-14.8508174551953	-38.4545801557253
174250000	-27.8018875510282	-118.443640342785	14.6679014470194	95.6375799136276			-50.2108615425368	86.5955527713007	-14.6853426604786	-42.2395054255971
174937500	-27.835464418084	-119.355678937073	14.6641242611059	93.5147412382665			-49.8755472174521	126.001253518378	-14.649091376723	-44.3304424292965
175625000	-27.837170821747	-121.284292734268	14.6883698770377	91.3417885529394			-48.6548485812349	98.0997016841415	-14.4966224002071	-47.9887113659781
176312500	-27.8091434898026	-123.531227025341	14.7038247271617	89.4994895891625			-48.9838197777769	118.826306363857	-14.3200893018552	-50.1526721367018
177000000	-27.9150442094381	-122.446426727036	14.7140641994198	87.5527045969087			-52.6070393944769	78.3044485907953	-14.1682576859561	-54.0631309113263
177687500	-27.9575921001218	-123.691768971526	14.7301155485898	85.1626610167326			-51.6269057011331	125.941153532044	-14.2148946060979	-56.6705173889132
178375000	-27.7825936561769	-126.645411225673	14.7685757805054	83.1808565217431			-50.4344472667326	87.0278157226833	-14.0829133398053	-59.1483510190175
179062500	-27.3687983684494	-125.616724250493	14.7952652457314	80.8942221501656			-49.507285021001	128.559246477298	-14.0802454451832	-62.840599739967
179750000	-27.6261209612077	-124.052278938988	14.7922825638386	78.8158914819605			-51.5227261592545	87.7874929757078	-13.8511583605238	-65.5286835143713
180437500	-27.221602482889	-124.679501176708	14.8603808159047	76.8183660848341			-50.3909175076203	122.026837930809	-13.8183564128234	-68.8023321852572
181125000	-27.6725926898841	-125.992110507257	14.8562222346035	74.563037029619			-56.3644792288742	101.00757267303	-13.6839331432999	-70.7121195469294
181812500	-27.5093789701644	-127.916531679289	14.8968815386547	72.443184161258			-53.0941743785792	105.648237639772	-13.6703746546108	-73.8809112465843
182500000	-27.4293719117794	-130.780031321292	14.9144824638269	70.1496406276829			-47.7282988729183	75.3701737355178	-13.6509639377727	-76.1100834999899
183187500	-27.4963396644106	-130.598083593642	14.9530153797985	67.9625974286946			-58.3827106701038	133.496535277237	-13.4475475731603	-79.2268679037901
183875000	-27.5199248809849	-132.266750939935	14.9671584385544	65.7064051705531			-47.1759426634279	84.9905176689264	-13.5443067622483	-81.0516001165846
184562500	-27.2365769337555	-134.419743192041	14.9584320897033	63.8182749535397			-50.3708802935328	77.855177621885	-13.4514580019809	-84.4865852695513
185250000	-27.128646611038	-136.581338402863	14.9838218676781	61.4634093313864			-47.9484652136139	62.2888497280636	-13.4141731370953	-86.903476326302
185937500	-26.958348445173	-135.436499565705	14.973659716737	59.1486703622971			-52.3045783255795	66.8913298436829	-13.3211535437358	-89.7500343871756
186625000	-27.0940152706624	-139.971852481411	14.9836522432238	56.885626377164			-49.2429612453541	86.1445779050631	-13.4066118764523	-91.9778221292664
187312500	-26.7530795806025	-139.761748983092	14.9942475298017	54.6388205455514			-54.2570405911937	45.6770072046832	-13.2093564477567	-94.8791512799968
188000000	-26.7843061482634	-142.66908436169	14.96847496678	52.4831040807264			-50.107491714061	94.4677270341886	-13.3281800884472	-97.1171643982974
