# Hz S DB R 50
100000000	-16.7334544370262	134.542757093007	2.27871620800965	-16.8435887407204			-56.962644556365	41.6088895475164	-3.51704598825339	64.7059856813014
100687500	-16.6176290604758	131.602691662933	2.68536612775301	-19.3946236640806			-65.8769479628889	52.8620404674538	-3.49825821843485	62.0170313239346
101375000	-16.6938645101452	128.563518299718	3.13116127135394	-21.4341456944182			-59.2729640464748	-4.34084337293715	-3.51832897329316	59.0427930126842
102062500	-16.6852555237367	125.032688877355	3.50263376856742	-24.2783872943503			-68.1367105482129	-89.916847192932	-3.54532158278803	56.0458259243541
102750000	-16.6937447900033	121.992400372934	3.8983543244657	-26.561995413352			-53.4317521855208	26.2004158323182	-3.54817689877603	53.3616003461443
103437500	-16.6904909222907	119.227720943806	4.21246009579899	-29.3159967128804			-59.2851563481465	9.05994921153678	-3.56764138653069	50.1138159412238
104125000	-16.6670255145989	115.194459501327	4.60683242948888	-31.8855219650746			-60.209138263176	12.5515928008415	-3.59937580476293	47.3973603418925
104812500	-16.6907776987228	112.019168216216	4.86571105498438	-34.8486341916903			-55.4947142516568	-35.6194816795123	-3.63494558447465	44.0179411811972
105500000	-16.6062724510934	108.211074388097	5.21726765159196	-37.4588118591754			-59.6378448743267	57.1497430194744	-3.63814889368777	41.4010822180386
106187500	-16.7064285423536	105.04142180772	5.46831870154905	-40.4146534305974			-57.1416577801771	-55.4222060263708	-3.66808122872871	37.9405590179434
106875000	-16.7561530529011	101.339662349458	5.70594183846789	-43.1009536052281			-63.79429066054	71.3269119010254	-3.72650221182927	35.1287417338893
107562500	-16.7800186514636	97.5785868508211	5.93436234361007	-46.0063077753112			-59.6833893153324	-61.9264087368702	-3.70437313006312	31.6654740062461
108250000	-16.7635702723284	93.7182685795462	6.13832996254531	-48.8572535513026			-57.4159953458709	54.9472703502698	-3.78111699854153	28.7421818810252
108937500	-16.8370482535283	89.7836121848397	6.24953452501936	-51.5745091140553			-60.7941836388365	-15.6242950528642	-3.75961897600634	25.3240865919969
109625000	-16.756047214701	86.4987866664597	6.44185522384257	-54.3857223470722			-67.1695231621981	47.5578954060532	-3.8512290944985	22.1492007748332
110312500	-16.8408192623846	81.4330982830568	6.50916637131829	-57.7447008949564			-54.1168934954228	-7.55919243618341	-3.88188701800821	18.6612524730482
111000000	-16.8417919490226	78.1861782232286	6.60775522609496	-60.3841068585812			-61.6917458399602	-123.840545622694	-3.97606771365887	15.4561367650444
111687500	-16.879985866061	73.169264442876	6.59341198469392	-63.4000986738571			-58.5010571953537	-12.179237855259	-3.94754493790528	11.9806594963367
112375000	-16.7656324791006	69.959539917034	6.59167992400003	-65.7803291123322			-65.6078336119166	-133.151241216857	-4.03340481122351	8.72414277566708
113062500	-16.8677986942491	65.1322902884055	6.50491832512488	-68.5917078375088			-56.323391454873	-6.0263505744795	-4.01808598870228	5.0968608836745
113750000	-16.7978261795023	60.9353600428562	6.45726623482202	-70.7661055909195			-54.4343261516322	-133.352301830853	-4.10626644157538	1.79393932203467
114437500	-16.9313886886075	56.2419127835591	6.27224667586155	-73.1753746544788			-59.4329021460456	-31.793513196733	-4.11459859744757	-2.06403474760005
115125000	-16.9984013313778	51.6751210532473	6.09726434252819	-75.1085002064674			-57.4334794077264	-86.2887217072519	-4.16202179251269	-6.17713944166118
115812500	-16.9456962447987	46.7052117256996	5.83875570319918	-76.8709303963869			-60.7199230277619	-39.8406910208294	-4.20972595177782	-9.97713014043032
116500000	-17.0730096131795	41.9623093453543	5.5363764252839	-77.6489445739828			-57.8634626746277	-84.6742143272056	-4.22819045704899	-14.1221254224189
117187500	-17.0500125298635	36.863807401832	5.12313230958556	-78.275913438476			-55.659326086674	-11.3451801292907	-4.25952652998563	-17.6834697196088
117875000	-17.1554964656088	32.011666534208	4.67480202435713	-77.7094612992059			-53.336520000102	-51.7587437464472	-4.29892146254266	-22.0148249438804
118562500	-17.1131716894562	26.231798383836	4.19545988565463	-76.1730418513305			-57.856756382805	8.50611298636637	-4.31881726923215	-26.295528912282
119250000	-17.299013334413	20.3819297102057	3.77216796189777	-73.0477630503713			-53.977085753839	-32.8145571935081	-4.40651041380877	-30.9089059536566
119937500	-17.3019365905197	14.5127764390971	3.3820758320679	-67.9896724657447			-62.1038931697704	-11.8171976337454	-4.43987987920742	-35.6382002430448
120625000	-17.4402624037124	8.76138192555547	3.27453312607285	-61.1594994128077			-64.3930166420452	12.0505334915592	-4.50066566859794	-40.2948013739369
121312500	-17.3864471880534	2.74501122320503	3.55251478914471	-53.093943587808			-59.1466236736449	73.672068964424	-4.57047264773428	-45.1025359187712
122000000	-17.6671189899646	-3.90288948472393	4.33505649163429	-45.0647020708916			-53.9418849960826	-15.9795235853727	-4.64613118239939	-50.1052111161835
122687500	-17.8046097750956	-9.73360966375087	5.50670954111654	-39.0431919890205			-59.3734965804003	63.2137776165784	-4.78234336620365	-55.5617771099203
123375000	-17.9862422163238	-16.9953189017839	6.91399339572179	-35.1891295081874			-55.2258905954815	-0.941421296706277	-4.89882778449298	-60.5442943433511
124062500	-18.0675631888823	-23.1683761195523	8.35085158049815	-33.4868626392706			-69.3300791049473	-41.6790239758558	-5.08159990535153	-66.1185481700792
124750000	-18.3023281116571	-30.1270949823833	9.8375888172805	-33.7428212639781			-55.0366029966285	4.18501204540915	-5.23031686510144	-71.4464637215595
125437500	-18.4546032808654	-36.4208565270377	11.1573801291602	-35.8171478486844			-54.1626451075338	-4.18319234527283	-5.44235614022059	-77.5791860173621
126125000	-18.8422242698771	-43.7414434189327	12.4216450235478	-38.7857883580889			-50.3740361557024	3.91985593795772	-5.7310931516539	-82.6834838528758
126812500	-19.0576381734144	-50.1508922730344	13.5264998111644	-42.6311783018824			-54.4112688608096	-25.9717472623868	-5.94677592071813	-88.6570763720819
127500000	-19.4045019425285	-57.1541644739388	14.549269444361	-46.8746070912714			-51.1009179150565	-13.3435167471869	-6.28774897288937	-93.7928566919974
128187500	-19.7918894037925	-64.1262354259712	15.4111689072498	-51.6784552390678			-56.0088748334936	-49.7523920782673	-6.57032523506538	-99.4822495500505
128875000	-20.0100512718885	-70.4673389129304	16.2331621133074	-56.6317084951251			-48.1029902433339	-36.8995695224034	-6.98144475577214	-104.799314675457
129562500	-20.5223002419896	-77.1802174680085	16.8977209419845	-61.977542306336			-49.5213031773456	-36.7055785558763	-7.28102373935599	-110.4949736167
130250000	-20.9367806697043	-82.65843997595	17.5504636348742	-67.0732605148314			-48.0483099864142	-22.6845583363165	-7.74859275375718	-115.522447418863
130937500	-21.3735899494036	-91.1251439494877	18.0619114604829	-72.4011163380717			-47.4038539396798	-45.8621283407622	-8.01949006040316	-120.961876824797
131625000	-21.8296595396557	-96.2647972382975	18.5361691504444	-77.356386814791			-47.4337637509967	-27.4007869189158	-8.57838369911492	-125.806058522111
132312500	-22.2745274080708	-101.921270999756	18.9667836403522	-82.5105451055944			-45.1936422873549	-49.7253465603825	-8.86177840864813	-130.976551818459
133000000	-22.9835046816787	-108.136476187536	19.3268478781397	-87.6136567358297			-48.292785046065	-37.5457928519799	-9.35768638961194	-136.164494465962
133687500	-23.0818795021425	-114.094332598619	19.6005766803338	-92.172874587503			-43.7251793609214	-62.1170169627207	-9.71868407086876	-141.1087441051
134375000	-24.1626219734194	-119.567458104727	19.9182892160146	-96.8290193765868			-45.1207381320624	-55.5790702577345	-10.1498181878895	-146.363954113067
135062500	-24.3748871108697	-124.588284935669	20.145166304887	-101.426670080401			-43.6474766168993	-60.4668269926571	-10.5599098988493	-151.273021098775
135750000	-25.5051040013816	-128.200387663762	20.4040912671876	-105.851120806797			-48.0533056706756	-74.9281137411599	-10.953449511198	-155.945170233332
136437500	-25.6815929910194	-132.79178636544	20.5905170479643	-110.272557395834			-44.1503293611276	-75.3141711875389	-11.3511561253436	-161.524074009306
137125000	-26.58311883801	-139.368213157814	20.8068784135797	-114.174323913788			-46.5041883409802	-89.7120997793692	-11.7997229459489	-166.560081628825
137812500	-26.9420146684182	-141.82360971078	20.948022420205	-118.405842289875			-43.6121779541326	-80.7668565674251	-12.1947908814793	-171.480702083551
138500000	-27.5735525126517	-147.294835013013	21.1275079313233	-122.25744521851			-45.5014400212455	-89.7731865191915	-12.4497087948485	-177.3041415327
139187500	-28.4796169848529	-150.501337930831	21.2701848866326	-126.431546330779			-45.6748146411625	-85.8230250648683	-13.0509022496299	177.6077925892
139875000	-28.9515108478486	-158.518273078871	21.415562511864	-129.787844684722			-45.4312059180357	-104.435143661403	-13.325475698369	172.555885672599
140562500	-29.5599304940727	-159.116521240164	21.5413712178192	-133.842677069932			-42.7170016900017	-96.7704258850748	-13.8332671118621	166.797779323545
141250000	-30.8138828928722	-164.075463594217	21.6972140504989	-137.439182259216			-42.6622603340929	-106.342915848102	-14.0612366745779	161.648436884849
141937500	-31.5830861529957	-163.016962934757	21.7513565113824	-141.465440569012			-44.2212752095511	-102.913526268307	-14.4939857681274	154.776444928687
142625000	-32.2419961125271	-166.797377079645	21.9040396285245	-144.824084714847			-43.0943955455524	-116.622043268502	-14.7477555039613	150.434250175652
143312500	-33.1188955232504	-163.152711256781	21.9857205881223	-148.632631914172			-44.8955947858036	-125.330207043733	-15.1035371533689	143.793696913981
144000000	-34.3468753776868	-171.477331246392	22.0786467758194	-151.84991358933			-42.2705641219317	-117.959132184098	-15.6059060416391	140.080261932082
144687500	-35.3301090084252	-176.326016671337	22.1143069065562	-155.812503208627			-46.1151786068772	-118.716800983322	-15.6857663018696	131.878212579079
145375000	-34.9496156818982	-177.366389081082	22.1874162494802	-159.268870403929			-42.4426516035319	-129.054946135626	-16.0099232436456	127.18309855129
146062500	-37.8728531669892	-165.408743486334	22.247881854259	-162.681117144161			-45.8417423893933	-133.761016184247	-16.1783245319765	120.150781801625
146750000	-37.5984025639342	-175.761756913918	22.323605284306	-166.062467373802			-41.9051326898889	-132.393498857347	-16.6009715969051	115.93389542293
147437500	-38.622293690979	-167.958782502002	22.3309687670597	-169.435414555936			-43.8802112977311	-140.595895065	-16.6992332708894	108.988709271228
148125000	-37.5810458306506	-170.670087246658	22.3581816731687	-172.592542406898			-42.3222232330778	-140.396879801768	-16.9500803214132	106.028365973208
148812500	-39.0855318860445	177.044541154997	22.3975279652985	-176.042358591428			-43.998955446964	-135.188157618614	-17.0390350427165	99.0362746382978
149500000	-39.1940737084663	-176.520996531595	22.4180167889199	-178.902260504425			-43.0543997925751	-141.697612324461	-17.269816129456	93.3123262950537
150187500	-37.8714850999098	173.614585600961	22.4219992671129	177.740729573845			-44.1085981980685	-156.139415354316	-17.278669702736	87.8955448012112
150875000	-39.3742338085021	171.543750735444	22.4531080924844	174.865868724196			-43.7610941770664	-137.421468262622	-17.5272862187494	82.1117820186102
151562500	-40.7468554410855	163.464226263139	22.4548573317865	171.803960156301			-43.8035859845337	-152.266235338146	-17.2760248096125	77.7807437384993
152250000	-39.5660870519423	158.221431828244	22.4815483742618	168.883196530513			-44.8326319869196	-155.452489305878	-17.637558981873	71.9811378024773
152937500	-39.6010225794795	139.346967644593	22.4968836122159	166.231340149704			-42.8433175877688	-162.714319414194	-17.4591655764752	67.7590897905558
153625000	-39.1680541156158	145.951000223852	22.5049811268398	163.503779099456			-45.3205085661291	-155.020004310467	-17.4352035063019	61.2610777279088
154312500	-39.4029525726489	132.633019809119	22.5247324738412	160.660279129682			-44.1110263409153	-174.283410581523	-17.2483451789473	58.150255201517
155000000	-40.6080911193049	131.15864756581	22.5313535048277	157.862319789247			-44.229432706372	-165.228330681111	-17.3022907460503	52.3585006748248
155687500	-38.2479869334839	121.746270090102	22.5132311409763	155.344305506251			-42.979368159061	-173.282262049576	-17.3017579543421	48.0718208745153
156375000	-39.4607458621225	112.476521323563	22.5790263346783	152.61584291561			-44.796490545161	-169.436047031962	-17.127632533236	42.6355618100952
157062500	-37.3704427365168	103.783722164277	22.5309446088298	149.874581618984			-43.7039481417733	-168.174626910932	-17.1465718766573	38.1233624515991
157750000	-41.0135882790642	101.947931779837	22.6324787372715	147.461584733647			-44.0814909063482	-175.258001548999	-16.9058236553261	34.090009888958
158437500	-38.0379020091404	97.2635985133792	22.5901764423293	144.70534384383			-43.5827124344057	-172.993700188856	-16.8427579070573	29.8914915606913
159125000	-41.1191337229464	91.8701431254074	22.651308105365	142.232613224698			-44.8465558203556	176.453236935566	-16.5806730518847	25.8844087443444
159812500	-38.2457257100202	93.0449288177486	22.647223567656	139.475897349461			-43.8897530106136	174.970993794188	-16.5806345785319	20.2733469018654
160500000	-40.5789509262435	76.5184963484046	22.6996660601781	137.101060621791			-43.8843952396032	163.637627800429	-16.329830167007	17.6470380868657
161187500	-39.7760802908456	88.6118229388027	22.6410230763552	134.600062239707			-43.5093853350492	174.20836558955	-16.2862637723122	12.2190949144936
161875000	-40.0767829030822	71.1748508320518	22.7154355961781	132.176948917213			-43.2104859514498	171.295115354739	-16.1455654524789	9.21153935387042
162562500	-40.410183143483	93.816454567984	22.6607648604595	129.397121329114			-44.7227751657004	170.137440057143	-15.975545963709	4.1717104239254
163250000	-39.6701306331953	72.9288646606243	22.6851529901711	126.964204717788			-42.6717042167417	161.784117459748	-15.7459370221521	1.62264742840975
163937500	-40.5764393478029	94.1096199675792	22.6856787533698	124.471054892193			-43.4417674735846	161.970065878726	-15.6421550697835	-2.73948814788459
164625000	-39.6678149957721	66.9758250466793	22.7028739638691	122.18820360062			-42.4196429840874	143.837791287167	-15.5902292596127	-5.50715196436622
165312500	-38.3312732129281	83.9777074117541	22.6685770912517	119.556127719652			-45.4539902562976	152.112112015386	-15.3733657947742	-9.81294682461801
166000000	-38.2045143480724	75.5919794552022	22.6823701335474	117.324264971267			-42.6310245893291	147.991818220187	-15.2129981640354	-12.545230832088
166687500	-39.6964932786893	83.2136983693138	22.6590210595767	114.838188935509			-45.001232049965	150.741475040269	-15.0826804644673	-16.5878690433182
167375000	-37.7137370783988	75.3384649282722	22.684098282097	112.632872344815			-42.2313293465492	141.774338232417	-15.1638377770622	-19.11183746331
168062500	-38.7011724254482	69.3891296984134	22.6401757305139	110.173942164083			-43.4321701954583	145.363947166488	-14.7908640503777	-22.4374300744112
168750000	-37.5367570483397	63.5762470872204	22.6629143447904	107.878798619488			-42.31997985002	141.58207872776	-14.8291414403473	-26.5586894315672
169437500	-37.5430237989184	59.3365121950024	22.5944453878956	105.430678331559			-45.0944275250494	135.298891535031	-14.6167579960955	-29.1064902661267
170125000	-37.0822674374428	57.5100253005849	22.6344461320224	103.321413276699			-43.2702861659299	141.682897733941	-14.7200872682942	-32.5480937613506
170812500	-36.5816651481759	52.125308500253	22.5687781358048	101.063498781613			-43.3265522902563	131.140514108373	-14.3265505912799	-35.335730172846
171500000	-34.7502298274425	58.2028000072813	22.6044772694039	99.0946525060545			-42.2530796042036	133.357647378956	-14.3858324311923	-38.4061950522156
172187500	-35.2626507340024	43.0586638636248	22.5585549751133	96.7852097966722			-44.659982184943	122.107645453328	-14.2171105888549	-40.7181296415027
172875000	-34.6739250028601	46.8409136390344	22.6052741388858	94.996621435255			-43.5056459992931	135.721351762915	-14.2067264434965	-44.1849839795247
173562500	-34.1492345465831	35.2504432737388	22.5491989298808	92.7220833600649			-44.6640386165201	117.713325254125	-14.0468980748882	-46.3097194591009
174250000	-34.7266782992871	32.8702946406196	22.6003737458882	90.8314020954162			-42.9711535900853	137.953635082838	-13.8627364526328	-50.5916081967124
174937500	-33.4750973949342	26.9796288254807	22.5880902527392	88.6375910566225			-42.4315271825536	113.818597496937	-13.8674878554232	-52.5752953624602
175625000	-34.3086855437732	24.6554119104157	22.6184531616833	86.7810978708878			-43.5776720949415	129.558213086851	-13.659885593882	-55.9296032765179
176312500	-33.6957772525445	22.0455426676721	22.6165462105954	84.6359728840071			-44.1884615310711	114.420532618591	-13.6112895886192	-58.2789858679123
177000000	-33.9831799890876	21.2293808836511	22.6593598839593	82.9390964326941			-43.56446418625	120.737651067133	-13.4528117293098	-61.9253620480834
177687500	-32.3533098484016	14.2667544715747	22.6462259062116	80.618816703818			-42.1520767613473	105.137619403404	-13.4177484100106	-64.3327273715484
178375000	-33.7351835281375	11.116975656137	22.6816292962907	78.6540550834213			-43.7356588546985	130.795415390852	-13.2814876641949	-67.7968114326738
179062500	-32.4153268957458	7.11127140171593	22.6934145125185	76.3830700695968			-43.0218353790919	105.751357282188	-13.2365103384613	-70.6661471234914
179750000	-32.871390443507	0.193284989135942	22.7401487805839	74.3437452354043			-43.5107818760345	111.889926625991	-13.0154842416089	-73.2733090305101
180437500	-32.21599216203	-5.38194649331491	22.7676458777053	72.0819816460987			-43.8526570713438	110.846820359157	-12.998964443114	-76.8401104915355
181125000	-32.8380542665671	-5.87552197772754	22.7836739236171	70.0769076987232			-44.6490922664793	96.6179450622876	-12.8795318780799	-79.6239303508353
181812500	-32.7141313367792	-6.32483219222638	22.7964249258515	67.8003094239123			-43.6856028604203	106.161440839963	-12.9540016914531	-82.7049259179156
182500000	-33.6185914174533	-13.092710578817	22.841297809729	65.6951608452618			-44.5702221461079	99.0571638719207	-12.8581846823091	-84.8725109752539
183187500	-33.1097234556971	-13.0518868669615	22.8633815438555	63.2699154375395			-42.2154438713819	99.3581073260273	-12.7675195607823	-87.9729174324108
183875000	-33.8899618521678	-16.5034608223569	22.8960639975442	61.2017725571987			-43.6688783833631	85.4458702268323	-12.8078560465731	-90.0809694881369
184562500	-34.0543919884098	-18.271337169175	22.8561113017912	59.0131088350655			-42.0787672735252	97.569766798209	-12.8046268786692	-94.2001464798139
185250000	-34.8199862055137	-21.4418151516876	22.9001402948535	56.8520291728059			-42.8315015958587	85.5736859373235	-12.7190731097434	-96.5517308605848
185937500	-35.691349259568	-16.4646227637956	22.8779080841978	54.3685946281527			-41.8686005402268	90.4383203157387	-12.7131093858101	-100.107584964667
186625000	-36.2694186892919	-22.9900664309225	22.9002445411007	52.2325403734567			-44.1206141415134	87.4323861186045	-12.735602766505	-101.696742297265
187312500	-37.6383757081703	-20.3789907663708	22.8937460697654	49.9962868599963			-43.3585698993924	83.8873435529234	-12.6623462640117	-105.117728000532
188000000	-35.786342632905	-27.3222924978544	22.8749144195503	47.9327916996542			-42.1289480890094	80.9855835300223	-12.7052173417008	-107.193361391892
188687500	-37.9997440232223	-27.3798063871597	22.8575765406834	45.6002771047486			-42.1834292552715	85.9599831995906	-12.6075832799094	-109.805833216575
