# Hz S DB R 50
100000000	-16.0070588649691	139.296829880181	2.74484066954273	-16.5974261805394			-53.5473279998245	-15.8093455411348	-3.49771026673904	64.5990319812042
100687500	-15.86396280604	136.50706912126	3.13198654045311	-19.0043511556939			-57.9383871989916	15.9345486099888	-3.5095547168046	62.0091397394677
101375000	-16.0842725885989	133.103778870199	3.5681239058704	-21.3534499257843			-58.918506766288	0.749659461099105	-3.50693698531179	58.7787182238712
102062500	-15.9414956791422	129.898445177298	3.94499446148473	-23.8781783994927			-59.5496821915985	116.014316236237	-3.55015360979176	56.0283692023199
102750000	-16.1187895367986	126.223479072585	4.35925107952411	-26.5375984189554			-54.8955100511702	-43.8543205631388	-3.56954913326956	52.9164526452257
103437500	-15.9215785146536	123.749940628086	4.6787122869466	-29.0855560506244			-59.1703601360187	-143.413460267538	-3.57987337302138	50.0185685269537
104125000	-16.0686502761529	119.366186716992	5.06808574016438	-31.8474866852985			-56.2640901890148	36.7692306656923	-3.59438827174277	46.9340242888757
104812500	-16.0354267733758	116.73508935697	5.33159754115096	-34.6942158599418			-64.3793093970444	-175.742333364538	-3.64805517192606	44.0555518546755
105500000	-16.0628591047488	112.478553583458	5.70088416237506	-37.4883617884873			-52.2635412587123	-36.4371455586771	-3.63271172206405	40.9420474703983
106187500	-16.0304098854539	110.333480253826	5.93860288451971	-40.3870120511445			-55.4528720544348	-38.6185107412624	-3.67596441442948	37.9272720685897
106875000	-16.1114459679368	106.356801331403	6.19440085180256	-43.3177190975394			-55.3606542748242	-8.6962381080472	-3.68063849483108	34.7211574339979
107562500	-16.1017273479905	102.700524401371	6.39360599097759	-46.3157034695477			-64.8702291265312	-12.0176723582822	-3.71959810367668	31.4339920426654
108250000	-16.1666832936719	97.5920292002096	6.63614341724764	-49.2028104475613			-59.697047133118	6.62335087166879	-3.78065624465495	28.4267765466318
108937500	-16.2661358236019	95.0670018190488	6.76524771768935	-52.1266351545015			-61.7195281683586	-25.592264300989	-3.82127463322043	25.1246131019289
109625000	-16.126859204132	90.8749273081183	6.9567059620757	-55.1010706995094			-63.8055404852314	-11.9014448246552	-3.8462006190198	21.7948720941951
110312500	-16.2146629109591	86.7348397466546	6.99811805018077	-58.3358704306911			-55.3258885000656	-68.0745979804785	-3.93003541914544	18.4531528866408
111000000	-16.2104838808038	82.5548879761248	7.11405850811355	-61.1552539401656			-57.2241210443746	-14.7890397987496	-3.93495265417009	15.0021664806026
111687500	-16.4313944413832	78.1141917493284	7.06874227233425	-64.104808573631			-58.626689532247	-58.6986317453016	-3.96399544055942	11.5280213043082
112375000	-16.2177445435438	73.9630651924958	7.1100858099104	-66.6696388946405			-57.5170145837188	-56.5032329228586	-4.01384932088073	8.3928603575233
113062500	-16.4355561615187	69.3590375543296	6.99189932602773	-69.4440997343959			-50.5348578031038	-25.8334984179058	-4.040111424979	4.58419713601945
113750000	-16.3702873553703	65.2903872734068	6.93087206451475	-71.8144826119763			-60.1928295699627	9.33073962476409	-4.07803943935117	1.19186663911663
114437500	-16.6750120290077	60.4022361988111	6.72510417178194	-74.17679009555			-58.9003357223561	-51.7665482521749	-4.0890127263462	-2.56222849097556
115125000	-16.5273712747496	56.470499008389	6.56620200078324	-76.1479640144235			-55.3272395145701	35.9480391639998	-4.14109013792426	-6.24844978384338
115812500	-16.6127502148845	50.4408359511607	6.27553884579199	-77.7875069338362			-58.9302339058589	-14.53918152886	-4.17742936221561	-10.4494098581113
116500000	-16.6628562386584	45.8896127278486	5.95328764470746	-79.0855671836248			-58.8530948503851	-68.075654085773	-4.18058807705678	-14.5758652563803
117187500	-16.8492628598082	40.4101817353794	5.50132451792697	-79.5767491466164			-56.3443746511408	-10.8903911419128	-4.23737465403076	-18.2304374912798
117875000	-16.8664187642573	35.9061229698196	5.04981461436516	-79.1675881077984			-60.1343984451291	148.432563181204	-4.2632477107082	-22.5117799372884
118562500	-16.9080582001665	29.3879505632894	4.52675343175661	-77.5260831605583			-54.4033625327477	-34.9041099744143	-4.29210175534631	-26.8771006590343
119250000	-17.1847830029212	24.0677848088304	4.07184460912745	-74.2941194657705			-63.5305003655907	-12.1715607932445	-4.36182491858921	-31.5156040831933
119937500	-17.1923479482438	17.219512036489	3.6740552811601	-69.0588741321524			-55.9719075532649	-3.85350996655596	-4.39046589533094	-36.0630968581366
120625000	-17.5581051234066	11.8437656793019	3.54979305825099	-62.1405805558963			-55.8802366295058	-101.59037286607	-4.42019889851176	-40.8829262758354
121312500	-17.3913820916569	4.98171151633107	3.84465390230538	-53.734739634324			-58.2610066058974	-45.055357955284	-4.5340496170212	-45.846740788262
122000000	-17.8467467293418	-1.03887827180654	4.68039329037504	-45.8376444364528			-65.9738636365886	175.8720513492	-4.593953696928	-50.861166808059
122687500	-17.9096614035736	-7.4533213034218	5.86143385263119	-39.800627643034			-55.3658718395198	-1.7948611471517	-4.72162256245868	-55.9976131864627
123375000	-18.229827873221	-15.2643738588656	7.32376985211752	-36.142787618139			-68.350073223458	-51.9114718003325	-4.79337875283455	-61.3240774600241
124062500	-18.2739871992429	-21.7340094394653	8.74324725706081	-34.4154888232652			-69.3483615776083	23.4799590663778	-4.9936945971791	-66.8292819126019
124750000	-18.600786402189	-29.4302036387495	10.2506786452304	-35.1627228734152			-52.7932704159991	-54.1694636456791	-5.12058349731539	-72.361875077316
125437500	-18.8033127897092	-34.9726011117509	11.5372858799494	-37.036019423309			-52.5320682635867	25.2626283054022	-5.34806122512042	-78.1543195134572
126125000	-19.2694980849974	-43.9190013108575	12.8032758907959	-40.3765482822999			-56.3564177602161	-27.9027107034369	-5.55802767250472	-83.463575635083
126812500	-19.6737489644398	-50.362642561386	13.8924954918593	-44.1746843642259			-49.3713831882698	29.7259697939824	-5.85236668010325	-89.2434830226053
127500000	-19.8138891458088	-58.6711987128052	14.9233427628612	-48.6666425354386			-50.3625558877594	-20.6098536573343	-6.12802591102351	-94.5374853367832
128187500	-20.4559002992457	-64.7176086610054	15.7799771764636	-53.5052608634793			-53.3824390264031	5.47449171026984	-6.45863901868603	-100.137555381136
128875000	-20.622429427494	-73.1936771053686	16.5892516073093	-58.6047089939227			-49.0617349144316	-20.7121604958424	-6.80843787909206	-105.6858254264
129562500	-21.5277809977106	-79.6397023287084	17.2181600318735	-63.5834272578563			-50.6476119190901	-33.7857197551999	-7.09708799007429	-111.258925908951
130250000	-21.447885945554	-85.9555315238509	17.8700360090074	-68.9288934524465			-50.19084325048	-30.267968331659	-7.51592442367605	-116.606428164368
130937500	-22.290256203238	-93.7170080065093	18.3522701443048	-74.0474929987505			-48.6202236170921	-23.8261015737948	-7.82201752133447	-121.660829052241
131625000	-22.485211121152	-99.3605910120222	18.8456517595624	-79.220899173034			-45.5670545924551	-40.4013615353772	-8.28882762573973	-127.058763868323
132312500	-23.2234577481845	-108.610131538753	19.2098899458118	-84.2435787751919			-47.823413504337	-48.6403929556336	-8.61354308805616	-132.160803663118
133000000	-23.6297491060308	-114.116476232923	19.6018874820753	-89.385181893666			-46.2674929051938	-44.5544231224421	-9.03081349983924	-137.10620249642
133687500	-24.0109757553103	-122.535837797373	19.8517862162545	-93.789413957274			-50.0186926756165	-51.3052712394072	-9.38361080619059	-142.146759752073
134375000	-24.6826618421067	-126.777135705488	20.2228014649426	-98.4456158302095			-44.2496126855139	-49.2915151399886	-9.76974087655714	-147.79835327204
135062500	-25.0797095735392	-133.358640181072	20.3987653739774	-102.704486838547			-46.4786220411185	-73.9740565892072	-10.1386957319185	-152.664641493132
135750000	-26.058721893155	-138.373573975551	20.6855359415015	-107.330629795422			-45.9735706972037	-70.3802177308971	-10.5957758298223	-157.379671685731
136437500	-26.2153991744954	-143.644194723229	20.828188438314	-111.592628509946			-46.1820590830117	-67.5291507377748	-10.9198417517069	-162.686707977618
137125000	-27.5528307868828	-150.87082344101	21.1083573258958	-115.611914004161			-47.4501017204369	-67.6816264923217	-11.3458414139465	-167.603569278307
137812500	-27.5073187395644	-155.517839116249	21.2189900138525	-119.767913772996			-45.7377091821549	-90.337443417838	-11.6230953390981	-173.346653078917
138500000	-28.4503090836774	-161.65340794965	21.4404201424595	-123.691310235833			-46.2045228897275	-75.7455694707416	-11.9685865841824	-179.252129740714
139187500	-28.9333958832724	-163.120804136328	21.5734410089628	-127.821218922878			-42.7987307059403	-86.0074598478176	-12.4161629453094	175.492610866774
139875000	-30.1053510497148	-170.540371595715	21.7426387890388	-131.570766830347			-47.0071840893384	-95.85775217587	-12.7609191278935	170.028125110788
140562500	-30.5935357090746	-174.849669050333	21.8270744770727	-135.493093793407			-45.3155479605393	-104.19150756706	-13.1767955464924	164.396892890015
141250000	-31.2949337268346	175.006536367046	21.9766305908337	-139.166426274709			-47.0559968285996	-110.939509921696	-13.377803716197	159.257248517282
141937500	-31.4925557416698	175.33726687137	22.0327811179637	-142.870475014558			-42.4980225607027	-97.8532514860202	-13.7850774991907	152.927343713859
142625000	-32.9138814866063	167.9505300891	22.2201338477501	-146.450633215046			-45.1858374910149	-107.901961928278	-14.0649094467924	147.55621846609
143312500	-33.4042342802936	170.576330063105	22.2428741183378	-150.24671159771			-43.7452025826895	-112.967727708972	-14.4337333386457	141.453593307026
144000000	-34.2101776344963	155.83376617676	22.3917654447009	-153.434881817459			-45.4904263270275	-115.168397024268	-14.4428954240509	136.41585022059
144687500	-35.6057973502255	161.235069516083	22.4358096371693	-157.430981842538			-44.6653154690629	-112.903505546316	-15.0105434916316	130.015447525088
145375000	-35.070206319953	146.472053210365	22.5182161581306	-160.821878931412			-45.1731771169838	-118.032082668774	-15.1776729237291	124.598158696411
146062500	-39.1730128680858	153.547784752451	22.5450363363868	-164.176148847455			-44.1357723507793	-122.433872853676	-15.5260762730191	117.420167826392
146750000	-37.7313013201612	148.755934730953	22.635185304443	-167.637145404863			-43.6555039607307	-137.946918431296	-15.6824886435248	113.191695055237
147437500	-39.1772340857851	148.09414735371	22.6197408632895	-171.055291839057			-44.8618666699628	-127.1031254391	-15.8565412370816	106.048072110577
148125000	-37.4678756582779	153.330093391872	22.6949407914501	-174.329587058131			-42.4806764819041	-137.03312090318	-16.058055127221	102.299996364072
148812500	-38.5578115693028	144.481865585405	22.6710181074598	-177.395005154377			-47.6716919558996	-129.735803444013	-16.1545625124817	95.1762234972556
149500000	-37.0455037294457	137.389728805329	22.7358961918812	179.488024724158			-43.9046047372416	-136.414535530255	-16.2451237666835	90.3151002053453
150187500	-38.4743867892615	132.40499544069	22.6926866045609	176.358091047764			-44.5598094934007	-144.221865180894	-16.3977995277085	84.1820847879638
150875000	-37.4075221101577	131.605544824968	22.7575457199129	173.320806785838			-42.3679622619902	-154.66974524877	-16.4777099880343	79.5716554443446
151562500	-38.5070661103743	118.515524581047	22.7151801617785	170.5711086097			-44.494656052866	-150.890842981713	-16.3716284623561	74.2667970324381
152250000	-37.3028207580905	125.769470567663	22.7697915093374	167.617321091072			-41.906933358276	-155.243624615883	-16.5361544002004	69.1505834811188
152937500	-36.7412469344645	114.586449179427	22.761755491766	164.973922843086			-45.1155128514632	-151.862342114078	-16.4541030873173	63.9944640675487
153625000	-36.6464523088776	123.457528323213	22.7636166019417	161.919707087449			-42.8638736473682	-150.043143306259	-16.6264123803644	58.5387743046039
154312500	-36.1727162129974	105.990700075774	22.7561645452276	159.538130907356			-44.810076548389	-162.155391814674	-16.3736706308923	54.2544650319401
155000000	-37.5189783337769	109.141172404084	22.805638850182	156.503802168453			-43.3569237963341	-155.311970539142	-16.3676603089804	49.6245160463007
155687500	-35.8687969428783	94.5868204002948	22.7682968511756	154.118058450462			-43.7578558869535	-170.56897272351	-16.2628438804771	44.3056127852634
156375000	-37.0369709348779	96.0886966745837	22.848369831914	151.221516840818			-42.60565751002	-160.834665707573	-16.238072509734	39.1957872861877
157062500	-34.6500761799456	89.7114441070968	22.7990719523219	148.866095413796			-43.3473280644828	179.264295283919	-16.2114268753739	35.1412947742919
157750000	-36.968298167955	86.7300186215847	22.913074053277	146.153091740591			-44.5045581179152	-168.946804039346	-16.0212013002809	29.9868048054484
158437500	-34.8196838125995	86.9080787375779	22.8367248957154	143.717325668912			-44.1091206070824	162.193819561778	-15.9473343944886	27.3527843651326
159125000	-37.8406911438294	73.447392209785	22.9172044552637	141.062325032176			-43.8697593185569	-175.655198652838	-15.7390131806829	21.9347469335759
159812500	-34.431934778953	80.0329040980088	22.8991315695784	138.383660949182			-41.454225110168	175.841084588537	-15.7148818518382	17.6746111736204
160500000	-37.3140835222536	70.6038471155419	22.9430703995158	135.84051698775			-44.1447301951452	-178.184992571317	-15.5036379705324	14.1021115752865
161187500	-36.4162685761013	71.1938019636832	22.8719810600841	133.46174282504			-42.8241304793562	169.369057848569	-15.4674741454546	9.82509765512762
161875000	-37.2090129239257	63.3917683443894	22.971700885898	130.766956055861			-44.4964888086323	165.567030379803	-15.3749352596111	6.18656119987085
162562500	-36.8231638983861	69.7810874061474	22.8958036705509	128.277424949037			-42.8314705243946	163.137941167437	-15.2358711019658	2.40328692838376
163250000	-37.5786497911966	52.2304304854055	22.9565645044598	125.654116889995			-45.0730776729884	167.51928971904	-15.0293652550963	-1.06862570689976
163937500	-37.6979482216847	68.8528349074976	22.9150766661267	123.283395711972			-42.3969667127323	163.178743587268	-15.0129030853665	-5.64407372611815
164625000	-36.1461100529759	54.3613820605176	22.9211743866336	120.676759156593			-44.5530908893099	156.140895893012	-14.8813587776166	-8.43355438367802
165312500	-36.7442084088517	68.167595245964	22.8887861820885	118.356932693136			-43.3692573923512	166.717502396502	-14.7753136114649	-12.4030820877476
166000000	-36.3531037531741	54.3823557293651	22.9443619962454	115.891519188726			-42.9783905882818	155.860155846758	-14.5794276299438	-15.4319527141434
166687500	-36.7644175414621	68.0698085928897	22.8833563418474	113.617481327692			-44.1088293589241	149.158334645555	-14.5666327741513	-18.8607873589093
167375000	-35.8809074452035	55.7487808987963	22.942219108416	111.282716983694			-44.5712916519286	137.50334209717	-14.4467663099566	-22.0973328004628
168062500	-36.2696541025624	63.2527862160982	22.8826735316408	108.889863372693			-44.0169835501576	157.314370663355	-14.2707550830017	-25.3612598178581
168750000	-34.7188762323013	50.6002132494228	22.9031901106415	106.680205942356			-44.2621537585359	132.64997507485	-14.2629882270944	-28.3351186691581
169437500	-35.1401935416663	51.9636951699682	22.8117119742056	104.414880072188			-44.0372152229079	147.788981014889	-14.1558190098457	-31.7259279294017
170125000	-34.1116080453232	46.3823623264558	22.8946780200176	102.159530272393			-43.3905131288128	123.019755504413	-14.0952052358452	-34.6754395942488
170812500	-34.0438617443964	44.9969060359093	22.8173959501347	99.9328314903419			-43.4021351421912	140.131203578165	-13.8871549694514	-38.0192565052339
171500000	-32.3508975343502	49.9121641636189	22.8759369029519	97.8622465515956			-42.2359656132554	121.864066093655	-13.9192017766291	-40.4657992201443
172187500	-33.3144407465872	39.8655524088769	22.8126769278089	95.7182119927507			-44.9270333496914	140.244661892217	-13.6455048370549	-43.7829777224569
172875000	-31.6004876142813	43.4839954904814	22.8596310666654	93.8134475250033			-43.3967173459578	127.797433897982	-13.6562638520461	-46.5116267271254
173562500	-31.8205929827199	32.5039826145571	22.7997491076823	91.5987751879638			-44.7963453187399	141.940752348395	-13.4730632288895	-49.1921583537127
174250000	-31.7320437920834	35.512698313901	22.857752061115	89.4545675947757			-42.6181319337254	125.348933900064	-13.3799288716705	-53.1141528412893
174937500	-30.9828391779791	24.3289615947064	22.8080872810144	87.4756954791647			-43.2396386753965	125.064571877643	-13.330532333292	-54.943368146025
175625000	-31.3580634730934	24.7382159481546	22.8536989240784	85.5592377738405			-42.3287617918016	121.805672577484	-13.2152086754301	-59.0744714240666
176312500	-30.410994929432	16.0268904877956	22.8370625837031	83.4040051752707			-43.6587124309273	117.953087872932	-13.1093435320783	-60.8160249554725
177000000	-30.8226369472863	17.8377540780586	22.9351793415741	81.4945382800749			-43.2585408306343	123.139028060914	-12.9898328939969	-64.9818147591458
177687500	-30.0133102325428	12.0359037262695	22.8435749484926	79.3679278694093			-44.1625018822046	106.212398571014	-12.9760952095539	-67.0133995583069
178375000	-31.2896763743953	10.3565844593082	22.9595394809994	77.0965679138161			-42.5642672865794	118.7949618447	-12.8538639302222	-70.3905609089879
179062500	-29.8371773468949	4.33026801683633	22.9494719978578	75.1295494347195			-42.836316955174	108.581110872081	-12.8143286048634	-73.5751096935044
179750000	-30.5537004732079	5.37755918236958	22.9853290719359	72.8316118349289			-42.7071842957311	114.190985721883	-12.6349562267912	-76.4646429375337
180437500	-29.7573129070181	8.69707260119665E-02	23.0330898796836	70.8939244501681			-42.6134787432648	99.9528201534644	-12.5883817075381	-79.3954999886376
181125000	-30.6524417681079	-3.8799327931807	23.0540633106161	68.6339061124243			-43.8318900787052	106.512931278257	-12.463385153098	-82.0056797014189
181812500	-29.9797727696511	-3.18368151236389	23.0376905045113	66.484383260074			-41.8212004991458	90.5398888606153	-12.5511087568294	-85.5516984182947
182500000	-31.3356611915077	-11.0998611955813	23.1026777325578	64.380647598858			-43.7092991650833	107.436913047407	-12.3978504246232	-88.2009418023628
183187500	-30.231059036492	-10.0878207459594	23.1058793679075	62.0861738255338			-42.9210194781561	94.6460884772769	-12.4287510493299	-91.3196660331731
183875000	-31.5725350900529	-13.0452033580495	23.1397755963568	59.7561680480308			-44.290043319339	103.826763206569	-12.3948417191833	-93.7729744985912
184562500	-31.3544677083701	-16.9736392369265	23.1059398736506	57.7336940033734			-42.5601869269355	93.4667257123658	-12.3910777459642	-97.115771052663
185250000	-32.3698453085793	-19.3594710073704	23.1835586300749	55.3900115705007			-44.2207081999183	97.3006449008033	-12.3358164636002	-100.342118527643
185937500	-31.9534479084565	-13.9042943090215	23.112986150715	53.1755705142118			-42.2790833539369	91.2254263332376	-12.3110268336719	-102.995260600091
186625000	-33.43899179849	-22.1857551535805	23.1395782949702	50.791154088052			-44.03317933344	87.9112772384859	-12.3309869391087	-105.311651435634
187312500	-34.4015884401232	-18.1092159183907	23.1033500447996	48.7326083163571			-42.0181547202326	80.2207993006633	-12.2270453393775	-108.437712907715
188000000	-32.8528910970901	-30.1604181262183	23.119277527999	46.6575894803903			-43.8818177723107	74.0431193541119	-12.3210803154877	-110.68388125287
188687500	-34.2429595241614	-23.8144510497167	23.0631846584871	44.2312726969411			-41.397903519986	79.0595514484139	-12.3270371343122	-113.234817127907
