# Hz S DB R 50
100000000	-27.4666509300477	-17.4194380818825	-26.3068100173146	-7.40517082765395			-57.1817231708115	79.2845680872934	-3.4965752902423	64.7061823471838
100687500	-28.0739684321984	-22.2055025658346	-26.4114779754753	-10.4254156461803			-60.8594462364411	-146.976579716629	-3.47300217355997	61.9834806420751
101375000	-27.2303893222551	-21.1517886844896	-25.8225487777289	-9.78620496241212			-59.7225127998594	142.275064950687	-3.48987276125415	58.8411631009309
102062500	-27.4564971538753	-20.9495523871078	-25.2744104464665	-15.5669078322336			-59.4166299434481	-123.779886065452	-3.52188887600737	55.88061653966
102750000	-27.3228710923085	-21.8647854338668	-24.663416872167	-16.0981245168622			-59.6000463716791	76.0776212720148	-3.56126493481805	52.9447733844475
103437500	-27.6687520280504	-24.9541196535352	-24.4882640983519	-19.7781736066197			-57.5101964626083	-114.451526051248	-3.56797364301696	50.0810020722358
104125000	-27.2164776545188	-24.1130262485539	-24.2273284696105	-21.6217071119765			-71.5292265322688	137.731945515099	-3.58614816471598	47.0764558638771
104812500	-27.4225110248234	-27.706133860014	-24.0663363652649	-25.8186626254728			-59.3403368858603	-85.0248398045498	-3.63544215414406	43.6156854468347
105500000	-27.3650228682827	-25.4199417650296	-23.5831530560051	-26.9904472664169			-61.6839792131693	7.05572735318117	-3.63062204906702	40.8211322258231
106187500	-27.7363858987461	-30.2166951219718	-23.3261938142577	-30.811974063515			-56.1317752478066	-31.7897822086137	-3.63177844009913	37.6600826980014
106875000	-27.4021100051657	-29.5906695499344	-23.0921786777199	-33.2570412257414			-62.2811458777646	102.715693366969	-3.69944578835244	34.8083931788234
107562500	-27.3353920879762	-31.6851446162253	-22.7042045977436	-37.2979544875879			-56.8121840166626	2.99092365162851	-3.68318540568748	31.0921942523293
108250000	-27.0684870070164	-31.976708292622	-22.6155826368134	-38.9049206200396			-62.6995357692665	126.982663202649	-3.77550133487733	28.1755684713371
108937500	-27.2148502962957	-34.4478016903626	-22.3869800902006	-42.8307168385083			-55.9910321549895	-71.7060977228474	-3.76983447004884	24.6174475021295
109625000	-27.7920500310158	-34.1026269227296	-22.4903275266577	-45.4735775619823			-59.0673698189446	-89.5075934987042	-3.84624565714255	21.7134482996266
110312500	-27.111690370898	-36.3450799661506	-22.0364485864481	-48.2456743223934			-57.8396813444245	36.9094378248517	-3.83764663960155	18.1975470794333
111000000	-27.1868342462347	-38.9762276685442	-22.1601067274912	-51.2796040034498			-60.6102204425251	112.516588976001	-3.94899616237768	14.8641177775232
111687500	-27.0744361916666	-39.4109007092896	-22.0620076863916	-53.5917278306228			-64.1563184178916	20.2061929904536	-3.91257019379837	11.3227356786572
112375000	-27.4857708881435	-37.9551482846135	-22.1836825010924	-56.8201849899959			-58.5976764354234	167.594996310596	-4.00208808268175	7.87789004957235
113062500	-27.181300931666	-41.4175011520958	-22.228756618375	-59.3965503326648			-73.4993811202904	22.1905957623111	-3.98951361191468	4.48139557983745
113750000	-27.4650810103333	-41.9895020895511	-22.4512330275017	-62.7911198738751			-59.2923932676146	-151.939030626927	-4.09120858915955	0.905967183263521
114437500	-27.141133329448	-44.957202615881	-22.4588579832736	-64.0563733902543			-59.1229127296276	59.1627431900137	-4.06684704163444	-2.79084163459354
115125000	-27.1670462302449	-46.0754913731309	-22.7413560993578	-67.069302840814			-59.2752099770746	-167.266874626014	-4.12866163591565	-6.66956970385724
115812500	-26.9990005951284	-44.5653802287834	-23.1011706463684	-67.4090465121249			-57.7716224881873	57.4642764720158	-4.14430658084948	-10.6158648124039
116500000	-26.9113590035486	-51.2254599924637	-23.3833645583033	-70.1290524903485			-67.6942359615404	-5.33023093102435	-4.18030958442217	-14.753901872669
117187500	-26.8378351720104	-49.0113672418531	-23.8660619666953	-70.1767155620257			-61.4768213572506	36.9205355238536	-4.18421236977122	-18.6307969388178
117875000	-27.0691676765034	-50.6276054280545	-24.2157972359898	-69.6049045355188			-59.5437576538931	-150.481269246934	-4.22561204342573	-22.8452371621341
118562500	-26.5832959582425	-50.7196159115714	-25.008730920569	-67.2752676224172			-60.8344284953301	51.6256612151609	-4.26246833298772	-27.242267516174
119250000	-26.7095173782293	-54.3506164112135	-25.3186925388757	-64.3170913269808			-87.773436857775	-2.60473418808295	-4.31727535398652	-31.6606992836279
119937500	-26.7338701926375	-53.1011844409278	-25.9423799973764	-58.4423464919485			-60.5763483522353	97.9811816861286	-4.35964276778344	-36.4831785148558
120625000	-26.7268827464991	-57.8544211213024	-25.9422147470211	-51.304752322904			-61.619308009228	-54.1288206300127	-4.39569847195547	-41.247999419364
121312500	-26.4800229779313	-57.0347450967842	-25.7800678705596	-42.1516340932124			-55.932488679132	105.536932741218	-4.45355059862861	-46.2493468792757
122000000	-26.5346680677316	-59.6861800566681	-24.6929948118885	-34.5664076840094			-57.5117093411694	-56.0918891675133	-4.51624843285863	-51.1484908840666
122687500	-26.6733755234263	-59.3297927220322	-23.6717881155016	-27.6269289186615			-63.3708819979802	107.109981863314	-4.67777715160627	-56.5851413955602
123375000	-26.0964852754036	-61.5029826148503	-22.1565657845077	-23.689487657098			-57.0063859533299	-12.0155321812042	-4.7650197413842	-61.6857434314125
124062500	-26.2491408977647	-61.0584694485115	-20.7558548602986	-22.4746364502743			-56.1748872720539	148.626698644393	-4.93115615297278	-67.3235065806997
124750000	-26.0494449779492	-64.5188330079768	-19.247921635001	-23.156570507623			-66.0015551458514	-47.6964287603801	-5.09025304957768	-72.7851283073999
125437500	-26.1124792151224	-63.8058164574828	-17.9841354370579	-24.6662939469273			-56.6197869705252	147.853556814785	-5.27081135740702	-78.9942243978679
126125000	-26.0164070842302	-65.7419196677264	-16.6377468921061	-27.9021189003081			-56.1770226925267	-40.8772607348739	-5.51673861123722	-84.1059247137774
126812500	-25.9084134189166	-67.3722672114797	-15.6655087051471	-31.6304359369903			-56.3072476773766	-139.549365569054	-5.74719080541721	-90.2850921938432
127500000	-25.4751911177668	-67.2466423181734	-14.5376794498067	-35.7906395206538			-59.908391599624	12.2076823190922	-6.09731812974614	-95.5517152646331
128187500	-25.7158621866306	-68.803608864138	-13.7947816548335	-40.7680879532179			-53.1120389717265	-150.042946804964	-6.34863208595388	-101.488242011385
128875000	-25.5711514425971	-69.5363373045589	-12.9543566364689	-45.1493439088576			-56.9708878098817	43.4108434100778	-6.73102746818901	-107.055512396611
129562500	-25.3787774428412	-71.6063709190554	-12.3307818668933	-50.427428357634			-64.0078079902881	11.9385635472006	-7.01784147584614	-112.775441308389
130250000	-25.1648192972182	-69.9095600187418	-11.6317235606115	-55.0775642086099			-58.0464411781527	17.4158916298328	-7.47773577867034	-117.97085108954
130937500	-25.3585909956054	-73.6108132686086	-11.1869339343626	-60.5629647041184			-59.4705935128338	-118.481630690985	-7.71662341633099	-123.380967476256
131625000	-25.0942484611572	-72.7278177030811	-10.7072317158028	-65.2454576067238			-61.0131802872028	32.3765136945902	-8.26148671303415	-128.645598496942
132312500	-25.174672505241	-75.5997928967784	-10.3044077042615	-70.3978751599579			-60.173098001371	-108.742541115476	-8.57538234121241	-133.895107195729
133000000	-25.0161004525034	-75.5356330329827	-9.92727557996309	-75.0073240512862			-66.6620968388891	-36.7774483014044	-9.11556060644457	-139.262353553672
133687500	-24.8402373162715	-77.5393664493471	-9.61178152638014	-79.9508804749507			-66.4888200107484	-142.53526115117	-9.39133635936452	-144.264856431739
134375000	-25.0977205180966	-76.6438608439759	-9.31594666578164	-84.0111364079432			-61.8150460070171	83.6346205004801	-9.89110358815672	-149.770723489946
135062500	-24.8312670203412	-80.1125526210769	-9.09733158851455	-88.5844343886078			-60.0533189379328	-118.23088315337	-10.2889470659615	-154.645406882848
135750000	-24.8237208390825	-77.8523979299511	-8.88426169916308	-93.0881617832092			-66.8443708038263	-51.8469313856808	-10.7046541298784	-159.676965753142
136437500	-24.518583787753	-80.7876877792071	-8.62526890068853	-97.0912400881043			-60.950798899062	-27.5748713310459	-11.1114832667746	-164.618996902604
137125000	-24.5876163209062	-79.3674910269352	-8.41202500803585	-101.113582067759			-61.1988153864773	36.7729373631022	-11.5079036929229	-169.891570404722
137812500	-24.305692675747	-82.3823150497854	-8.22659546885013	-105.238323505427			-56.2283451008275	-93.0447512997204	-11.8782733925249	-175.093131227168
138500000	-24.3456447565551	-83.1361241010933	-8.04528680882589	-108.967093266214			-57.5797492498457	-179.284908884614	-12.1667709838027	179.325398631017
139187500	-24.2955684174043	-84.4157651268365	-7.90391873594777	-113.110786628018			-63.7363836508569	-3.3094742999133	-12.6716392726059	174.515247423731
139875000	-24.696418392501	-85.0905808890757	-7.73091880191198	-116.830906790921			-52.9689265189348	166.520859336708	-12.9330721956785	169.504571418675
140562500	-24.5268160220925	-85.3810493187233	-7.61955477896177	-120.75401126453			-60.6122967641024	-9.77397134128535	-13.4003149899159	163.398667245153
141250000	-24.4916716543485	-87.8201265525696	-7.45676721885279	-124.546245357688			-68.1932689235282	137.109034714291	-13.62195339179	158.578846852979
141937500	-24.3721948867266	-86.6367708046577	-7.4507009717431	-128.242483472304			-59.2208148434769	10.6731681813358	-13.9923845376181	152.241179631858
142625000	-24.4989527663888	-88.9375032670838	-7.23825982596814	-131.938056187744			-54.2945509872816	-149.708852068951	-14.308486577986	147.339228230787
143312500	-23.8937366083088	-90.4469935087091	-7.20089459314387	-135.524723016147			-67.4844613756113	29.1456323249947	-14.5785435612282	141.205053038599
144000000	-24.5243563380929	-91.7159857728741	-7.10964379461535	-138.759953667626			-60.1619421144189	-51.0166000192698	-14.9447366768246	136.372818497247
144687500	-24.158745837415	-91.5271980408058	-7.06775220370539	-142.600980430145			-58.4008809810277	14.9524445175021	-15.2017833974283	129.940216386962
145375000	-24.246521188922	-93.996600721061	-6.97945075016956	-145.606136675886			-57.8431780541132	-129.864848896342	-15.3588810031089	124.57073779704
146062500	-24.4154419776311	-91.8015999144905	-6.96598404985952	-149.096093924703			-60.187469496979	98.5629652980301	-15.6273821228569	118.155312057858
146750000	-24.3147406897901	-94.2092744769531	-6.88903930721722	-152.368539840401			-57.7999565527564	-123.278774827341	-15.9161376079444	113.905726715089
147437500	-24.3224603518517	-94.5179113514905	-6.87717187578643	-155.66737028188			-55.0881414982361	82.1783581479522	-15.9568893121916	107.041124436772
148125000	-24.2760185275571	-96.5600461432591	-6.8296695451859	-158.964587473768			-56.6080839326157	-80.8682649899451	-16.2195916913966	102.152649269625
148812500	-24.2554045758202	-97.221513707583	-6.77898351402994	-162.010996847234			-65.9418161422033	-163.878779548699	-16.2086935721348	96.0508642659072
149500000	-24.1684940584431	-97.492476805924	-6.75987155988632	-164.725657079034			-60.0694207765207	-137.978540461901	-16.4475544038165	90.0729265020896
150187500	-24.3609344267542	-99.0793548470861	-6.7641355074918	-168.080099491199			-57.9514438343419	-137.19650773147	-16.4994726562037	84.8590031855054
150875000	-24.361651744538	-99.782924761368	-6.72430628024502	-170.921210931948			-70.524504247793	94.4870947296246	-16.6604046060903	79.1766068409615
151562500	-24.1776916588356	-100.706604805682	-6.74347358196852	-173.830253595031			-53.5754289372617	139.82589143916	-16.558271422623	73.8306485754505
152250000	-24.4452396839427	-101.617468522953	-6.71952465498493	-176.11323990751			-56.8326463084446	-135.510804726015	-16.7504522147653	68.3002045249395
152937500	-24.6583756606293	-102.634627990248	-6.67860559587596	-179.392012409641			-63.3367711941764	168.121549046557	-16.7349425514338	63.3792589847432
153625000	-24.2593139114545	-104.856414344932	-6.69039099075454	178.248498650914			-61.5941362606547	-142.805807850872	-16.8386757040016	57.7904555652986
154312500	-24.4514608837854	-104.537566918883	-6.68142184953619	175.351074233032			-59.0419047732843	150.941221862148	-16.6884831587661	53.8448132801512
155000000	-24.2890152118403	-106.412244043982	-6.65446447198903	172.712286678067			-72.0050267903845	-71.6488074598928	-16.6501333847974	48.3327759455433
155687500	-24.5311143014675	-108.440000201833	-6.66005614997579	170.343871801768			-56.5110556513284	-152.398439280887	-16.7121638969183	43.3253212884589
156375000	-24.4765252350137	-108.539263342531	-6.61446320698037	167.705116546136			-58.2529499990657	6.75951561383849	-16.6504684204314	38.1382829010531
157062500	-24.9219040513513	-109.076415755883	-6.6470422081093	165.30760524697			-52.7959091311062	-171.888648798137	-16.6633862809886	33.5857572436633
157750000	-24.2279577737268	-109.594790751498	-6.56927834048354	162.708820640425			-57.7510794088807	53.9449819463134	-16.4853006783351	29.9772076268555
158437500	-24.7786296101986	-112.410746461648	-6.59897154176074	160.144779946245			-68.4236673780418	-116.283451105211	-16.4430652834635	25.546531610816
159125000	-24.5581084132704	-111.76030697758	-6.5394610881882	157.580077700861			-58.8256248011711	108.988248418444	-16.255552506217	21.7354735912337
159812500	-24.700537028829	-114.438866849385	-6.53181269566171	155.245140343185			-60.9846727948448	-141.996359477183	-16.2669820212627	16.3728507828025
160500000	-24.6687126141405	-113.432148767127	-6.51343421363315	152.656520260584			-65.222701670043	84.7587066866234	-16.1420536080187	13.2178496009253
161187500	-24.499749375096	-115.26873084734	-6.55564839871719	150.431183215719			-59.6366058761038	-62.9639062968883	-16.0727190043637	8.49043867829612
161875000	-24.5145123566933	-114.883411645069	-6.46367413043249	147.896401337491			-62.5903545872795	6.30199157868257	-15.9734347992398	5.06806228554039
162562500	-24.5579322951289	-118.192815191864	-6.50953963215508	145.402942439433			-55.6931404361001	-145.821432548706	-15.8429501618812	0.269836557093502
163250000	-24.8019853307206	-118.091482886551	-6.45205550580695	142.745898717539			-61.2543676091447	121.581050483888	-15.6516532185914	-2.04433423858679
163937500	-24.5496074780982	-120.115144826427	-6.47762704102636	140.663311867346			-54.4072090814318	-96.4850601046209	-15.5737635552255	-6.84427615460605
164625000	-24.7707193222686	-117.97431895569	-6.4729574738663	137.956958297461			-62.0881820333807	175.499582626344	-15.5459905565932	-9.43387765311277
165312500	-24.4995870099149	-123.252583534714	-6.52338873744757	135.672019016305			-59.4925043598044	-90.5579243431675	-15.3982073587721	-14.0201748508211
166000000	-24.818364259767	-121.216366704666	-6.42495434556862	133.525033760338			-62.1152233096464	-173.566245699705	-15.3345736392208	-17.3770810977028
166687500	-24.613755918088	-123.343760947478	-6.51604802715255	131.141795823422			-62.019883886977	-56.1437811168014	-15.0508999299212	-20.9882996828621
167375000	-24.559880334526	-124.671156624618	-6.45681350056996	129.251646400686			-55.0553220951839	154.778189735472	-15.1160791117338	-23.5342166164067
168062500	-24.3003704901657	-124.261042601184	-6.5255000928314	126.448857280658			-57.3285192721592	-24.9998078343071	-14.8479385317092	-26.8816040120243
168750000	-24.6287277509117	-125.941480301353	-6.49344218702975	124.537721777171			-64.6638232935015	155.786133109458	-14.8673583858692	-30.7146308554429
169437500	-24.3805441592048	-128.012970694083	-6.56283078201322	122.298519987723			-63.5203594771755	137.218775066957	-14.6081789102299	-33.6028549793586
170125000	-24.6027452610091	-126.259418396477	-6.50116918311756	120.20874644002			-56.2772549626848	171.767736987665	-14.7756531284944	-37.3037695497628
170812500	-24.4451448550175	-127.511588330872	-6.55794066064847	117.779079867878			-54.7250508878088	-82.426585450389	-14.4297808439534	-39.9597593120196
171500000	-24.5003612319038	-130.220579926014	-6.50555002338905	115.867869946754			-72.6475640316943	16.4763637218585	-14.533373841016	-43.2786756405667
172187500	-24.2738747186452	-129.723069400772	-6.59872237613369	113.619848119076			-59.8828626278924	-142.135537065288	-14.2445326374153	-46.4556593719247
172875000	-24.8052806569416	-132.181548470519	-6.52282188100736	112.327008499095			-67.6646114999194	156.495789401363	-14.336440820952	-50.0584217773384
173562500	-24.5729400602093	-130.529499240102	-6.5629684366284	109.620452678691			-56.0340629337431	70.2614150389269	-14.1057282859583	-52.3502416877859
174250000	-24.5222335099648	-133.309878548301	-6.48731264987722	107.925748305473			-70.8897765750629	-55.9581133800669	-13.9945895587384	-56.3381789601429
174937500	-24.5519075975116	-131.690113374622	-6.50088182867088	105.622980381363			-57.0138630841328	114.229385106766	-13.9802514129207	-58.2252362128503
175625000	-24.3887116620725	-133.922648859712	-6.49926129301996	103.97529909032			-57.5347570573829	160.16314715316	-13.8738402256783	-62.4880748420765
176312500	-24.5421987200314	-134.086094773811	-6.46662185368151	101.634930315968			-61.9828022124656	15.755381656404	-13.8600688928245	-64.4056000282069
177000000	-24.4758996147874	-136.115919846646	-6.42392522336441	99.9414574888894			-57.5121974426278	-79.5764495269329	-13.6963509663615	-68.2974866583998
177687500	-24.7123370090638	-135.811649587293	-6.43733005712998	97.6519424251328			-52.6562329233023	118.929474180997	-13.7937053376317	-70.5679160327153
178375000	-24.1819728572708	-138.741785528122	-6.38157830741272	95.7433821270704			-55.735477265232	-172.747848985847	-13.645432426054	-73.4080191700352
179062500	-24.4994786769934	-138.126835819493	-6.35895698322971	93.4815058111984			-64.4733664351295	-36.5525914231188	-13.6175008575058	-76.7848686291391
179750000	-24.3752822224213	-140.131272005473	-6.39006664782333	91.6769428145623			-59.3100171346157	-77.764789434404	-13.4410270682319	-79.5321878395571
180437500	-24.5476795079576	-140.620492206118	-6.30486678404346	89.4549341445328			-59.117981402344	177.919737925232	-13.4598624137977	-82.6567701796924
181125000	-24.276558377122	-142.410620004611	-6.30496962308315	87.4668916606435			-60.9125515283974	-127.316857969301	-13.3594407823846	-84.8426018074026
181812500	-24.6453281317308	-142.285926708818	-6.28737982833883	85.255243583214			-51.4206189718864	131.735857854667	-13.4462306838335	-88.2223549085448
182500000	-23.9878898035921	-144.595277989248	-6.26247859492294	83.1740121921433			-52.5314474338005	-35.1733352680733	-13.3683519211744	-90.4853098642579
183187500	-24.4326713759623	-145.151897086201	-6.20932394555109	80.9884653938716			-57.5091090884883	164.991556032187	-13.3077428112507	-94.1671168274814
183875000	-24.3370572776318	-147.411226035055	-6.21201925182702	78.9971715720772			-68.9030324573924	43.5613475597025	-13.3640955369991	-95.8711197282702
184562500	-24.3084004930916	-149.484964716235	-6.20842161048856	76.7107496165063			-55.3691441799233	-169.527049794896	-13.2490022914064	-99.3691476031596
185250000	-24.1522379390078	-149.738440494987	-6.19762424594747	74.5815426087729			-55.2325691834971	-19.0120116034221	-13.2350363430525	-101.334186318515
185937500	-24.2327046104301	-152.725987820534	-6.22328095807476	72.5913685702405			-67.7410027463704	119.388373778327	-13.2148402691767	-105.032066506921
186625000	-23.9770904074616	-153.153631364103	-6.20284127974425	70.1312504205396			-60.4812309608463	5.53342052299155	-13.2742653731951	-106.659084942249
187312500	-23.9024146731239	-154.754625438686	-6.23812318511675	68.0851378672103			-55.8273200347784	147.906346146227	-13.0656897239844	-109.664887505247
