# Hz S DB R 50
100000000	-29.8097767352431	-34.1145623016106	-19.5335791690426	-13.3385039451718			-56.6218615077155	83.5744287453062	-3.54555460073909	64.7228942206849
100687500	-29.8018279897817	-35.4335282150642	-19.1069304654223	-16.6744152947541			-57.7314703176306	-86.4812170236144	-3.47171996189016	61.9897872857342
101375000	-29.6277129252143	-35.1277284710326	-18.7115973105612	-18.305829839039			-62.2851127791526	-151.537938892347	-3.56328703039475	59.0256844423056
102062500	-29.6616145925438	-34.1582986413423	-18.2413005169006	-21.2789264335129			-65.6035895864126	19.0166337449596	-3.52437370555422	55.9675404046709
102750000	-29.6290541408673	-35.8669463150119	-17.9339341781892	-23.6064671160425			-64.5916236689081	-110.303965138673	-3.61006866787142	53.2446279661646
103437500	-29.8813694422875	-37.7512011897351	-17.461377362958	-26.7726289868985			-59.1015644401196	15.3503410099659	-3.54525861838984	50.2990534601557
104125000	-29.5352933296111	-38.7461576957545	-17.1486050697959	-29.1789698573651			-63.4654651625288	-134.792209181019	-3.63840907899663	47.0946549754979
104812500	-29.891934309493	-38.7727887675641	-16.8445618791263	-31.9557004208163			-60.1820510034055	30.3844034302729	-3.61578944949335	43.9138270303752
105500000	-29.7571635645764	-40.0126319765079	-16.5701016628963	-34.6454362761382			-55.4562525308784	133.354104426986	-3.65559910940598	41.1656842056674
106187500	-29.829139139882	-39.5758185145089	-16.2411594956975	-37.0784138157019			-60.3612007896665	5.35205821468604	-3.6376586904902	37.9144977985299
106875000	-29.4102349718208	-45.0373826544513	-15.9893775163935	-40.6749943542359			-67.9653500268308	-25.5969213809796	-3.75845569884361	34.81436984635
107562500	-29.7721727703035	-42.9229542908279	-15.8407648534007	-43.0693640603163			-55.5842841743332	42.5671929819251	-3.6801978007796	31.5962137163737
108250000	-29.0491574953607	-44.1259097433981	-15.5949991462725	-46.9262426767884			-66.3450303744311	-158.10998062916	-3.81972049403659	28.286597113406
108937500	-29.5962867139356	-45.1481169776081	-15.5737246357798	-49.1625043546603			-54.6971203204738	87.2593489131169	-3.75734882390233	25.2248853063497
109625000	-29.435674477422	-46.6400436055493	-15.2715272233148	-52.8152156797504			-71.4615284992769	170.868255364322	-3.87358695335474	21.7987742746109
110312500	-29.6107594501544	-46.1702571627984	-15.2339216791421	-55.4109919418687			-55.10674269754	74.0907658734379	-3.8736798962635	18.7005884509159
111000000	-29.1493671503583	-50.9833011515602	-15.1620174542186	-58.3437321148837			-60.3258311662741	-88.0766609091762	-3.97397368011722	15.1191415357708
111687500	-29.0460758796184	-50.6812202586535	-15.2202353715945	-60.9591399049814			-65.3378739900998	82.3270140130349	-3.94736151313344	11.7673508291633
112375000	-29.4111772870706	-51.1141407445721	-15.2166240733657	-63.9792923422514			-63.1072986499577	-4.87197244042193	-4.04714784906029	8.07128768238776
113062500	-29.2488034612245	-52.3248213036314	-15.3540556736753	-66.2276932507628			-63.3172084068592	160.722297893502	-3.99916544950947	4.85866471757745
113750000	-29.14074223412	-52.1977438113037	-15.4391965812368	-68.8149533365129			-66.5426830177719	-105.474225234216	-4.11579075903644	1.00041505648555
114437500	-29.0571633664689	-57.8241344761624	-15.5890671683244	-71.173738375838			-63.1327718849526	125.444575347414	-4.08012629770411	-2.41832195767124
115125000	-29.1782086695749	-57.354322297021	-15.7367145993952	-73.0949804441105			-63.4607705970971	-83.3653335886735	-4.15286284283455	-6.31498048458907
115812500	-29.1070174614207	-57.3347655227959	-16.1104904700409	-74.6898491329787			-65.9111992427312	-134.688759613893	-4.14337274486534	-10.2819649725879
116500000	-29.2268790680507	-58.4230409774885	-16.424617177912	-75.6402290860132			-64.0937240984967	-95.3883075370481	-4.17575494133824	-14.3062781972257
117187500	-28.755605675058	-61.1384658540674	-16.9091462355145	-76.4705726394999			-59.7956895362291	126.420445472885	-4.21708397847926	-18.2101465418249
117875000	-29.0270514113848	-62.4834936511312	-17.3061011463746	-75.8196954254176			-68.4749877589313	-27.2612040267643	-4.25321458208615	-22.4861538757292
118562500	-28.5874708322138	-61.0207109179246	-17.9454256539454	-74.5692843504865			-62.7425798247731	-144.500805903701	-4.29897563016646	-26.77087135132
119250000	-28.6113441157976	-64.1756922766359	-18.2648752067398	-70.3125081908119			-57.805996901562	22.3240389358449	-4.35817527882757	-31.4117119251401
119937500	-28.4092209495566	-66.6533629773161	-18.791561379175	-65.882009101453			-59.2952647659216	-131.642354300866	-4.37820339590762	-36.2962712313429
120625000	-28.7202881874458	-67.2147865880832	-18.848381063819	-57.7848381858902			-64.9007222009996	-143.822375408699	-4.45968490708442	-40.7797149871447
121312500	-27.9908585137254	-68.4445802523649	-18.6444578318645	-49.984739607528			-61.6973581124381	115.37603364509	-4.50239284106341	-45.9492465145308
122000000	-28.4794607149822	-71.242143093123	-17.8229457042723	-41.697975167749			-57.3230740726019	14.1591681239007	-4.63302423883563	-50.8792118294888
122687500	-28.1647319779136	-71.1245285196361	-16.5829123149439	-35.8191172631687			-64.3900573621632	-120.17021238691	-4.71268646691458	-56.0157229186085
123375000	-27.9364258819627	-73.0072458422908	-15.2400066126015	-31.2640094840206			-59.1944956357508	87.0205043191636	-4.83551515861047	-61.5473717828057
124062500	-27.9744536000387	-72.0110157298146	-13.7244860633268	-29.8294373704238			-56.5032742794262	-71.9024341994211	-4.99651366153588	-66.8562020259574
124750000	-27.9515858053325	-73.6764682390794	-12.2691808493101	-29.9316954203652			-67.7031234278793	167.682966106729	-5.17317268348707	-72.2652415169993
125437500	-27.5320364773703	-74.356025350193	-10.981470682241	-32.0466216870493			-55.7415072645112	-76.6919254131272	-5.32320610919577	-78.1067390294523
126125000	-27.9752188458528	-76.4486970934356	-9.72637860767495	-34.7970910767819			-71.6540546997273	140.228741026217	-5.6261686367682	-83.5194361454101
126812500	-27.5616724658391	-76.5550919147441	-8.63457738309759	-38.6349450719298			-62.7803822102688	-95.3164832143286	-5.85102405663381	-89.4673598809969
127500000	-27.4124367810493	-78.3208455567625	-7.63505097058569	-42.5690311450101			-63.7923041829957	-149.926411192146	-6.1755304205777	-94.8763767783893
128187500	-27.4300491946439	-80.1081727139941	-6.72082418730195	-47.4782379697297			-71.3808702044962	-104.087213413057	-6.43640060130557	-100.523146300624
128875000	-27.2972800506656	-80.0117431294326	-5.96202176531757	-52.1463532609832			-56.9852521506008	75.7485252338586	-6.86925555909851	-106.306614154761
129562500	-27.2300807459515	-82.1053765415381	-5.24515511565171	-57.1777871566416			-67.0766795793139	-12.3704613939142	-7.12657481842221	-111.758780888977
130250000	-26.9973783841079	-82.1318995147017	-4.63581905159935	-62.395667553144			-56.3642387531693	174.048434192774	-7.64048364627022	-117.457652380693
130937500	-26.9520298872989	-82.4446944213461	-4.08702659453525	-67.4117714215078			-62.4243112381725	-15.0432897379981	-7.90734582639519	-122.430857396563
131625000	-26.9933783261356	-83.4136456457377	-3.68043975550237	-72.3493946823813			-56.4815109336766	177.745450408439	-8.46692107586146	-127.892681472572
132312500	-26.8800353114658	-84.4500616464548	-3.20958239922037	-77.4087824293051			-57.603416443198	-46.6039503180292	-8.80624408586968	-132.810636396966
133000000	-26.8615536490385	-85.0565845959841	-2.88569869022869	-82.2892524893122			-65.9467562971038	169.995660669666	-9.28313431481311	-138.238069362149
133687500	-26.4270513292369	-86.9461388988741	-2.54326568819494	-87.0093346152282			-61.1722410838059	-48.3265200688862	-9.69004853204581	-142.942641321488
134375000	-26.7212301662214	-89.0385879582956	-2.22562913134825	-91.6775995057843			-56.5598528664332	-120.301232877207	-10.1430489970105	-148.51994412656
135062500	-26.4551334054027	-89.4084141130601	-1.98428442019651	-96.0607911653541			-53.3674344931476	-18.2415696518361	-10.5773341351445	-153.070029350356
135750000	-26.3462994510831	-84.4613017368359	-1.72403256563465	-100.493775860498			-58.9789257850515	4.24110894655529E-02	-11.045729033181	-158.105543920356
136437500	-26.0851950249049	-87.6917284466327	-1.54490917218426	-104.807954343902			-68.1286103807736	63.8466538896796	-11.4437474775059	-163.062959579545
137125000	-26.4393922182226	-90.7166202462599	-1.29943505806842	-109.02210768815			-54.5225029010369	-131.290081483406	-11.8679247663502	-168.061349985188
137812500	-26.4396680819748	-89.9951397906922	-1.14044915481016	-113.113904369521			-61.8359690760642	102.43851599408	-12.2972344978829	-172.995477077704
138500000	-26.1129833037715	-92.0401722086892	-0.949826934880899	-117.096246095446			-55.8023402716994	-155.175776381632	-12.6843470168845	-178.879790642489
139187500	-25.9845918461415	-93.1523643227994	-0.811071809798644	-121.13803583453			-61.9685655299935	-11.8545763474108	-13.1025594648279	176.159745563476
139875000	-26.3273549903268	-93.5367906219085	-0.668127639070505	-124.874133631381			-56.0172359714277	-126.306312187152	-13.4813578331007	171.453604337678
140562500	-26.1218635612888	-94.5601998639789	-0.530133782825885	-128.84162088			-61.0804758438172	65.3521380888738	-13.8579241655798	165.739602710137
141250000	-26.3524645944363	-94.9572100148075	-0.411542761620558	-132.464802047579			-63.7294423128348	-148.046461837156	-14.2164392834202	161.064201473646
141937500	-26.3551774158729	-95.5382415492439	-0.332151688832624	-136.342559287985			-60.4509852454418	-170.242772153435	-14.5322835343214	154.784689550893
142625000	-26.226733370521	-94.3633975057574	-0.203174466324239	-139.941672105152			-57.5860613832222	-93.354422844549	-14.9965062073729	149.795209809187
143312500	-26.0209308657042	-99.8297354106779	-0.110102907698573	-143.836615323867			-66.5650735533222	119.770929965541	-15.3036354313402	143.768798499358
144000000	-26.4243348640316	-97.8847638878613	-2.54324825631662E-02	-146.970572426533			-54.739721083809	-100.383311856216	-15.6787950492079	138.544813683228
144687500	-26.1090801362362	-100.897227196454	2.08978288800909E-02	-150.817983950302			-61.4600713729314	168.056041461398	-15.8502405164193	132.677389220438
145375000	-26.4688601774553	-101.182047106077	7.54801064497372E-02	-154.229376761166			-51.5119364720679	-118.819181001035	-16.1455508939157	127.070474724109
146062500	-26.0188399995378	-98.7038474378454	0.135941496085408	-157.442732806273			-56.257915701242	140.843742141926	-16.4441875116992	120.718533507312
146750000	-26.2710863337954	-99.6977401801896	0.169285994844131	-160.69439510905			-59.4153154528332	-51.7429986514439	-16.7635815994297	115.00268877538
147437500	-26.0708786764256	-100.887284462956	0.208808068763217	-164.190607488345			-64.3599382077236	76.5705917640625	-16.7514485078656	109.169318710572
148125000	-26.2742122099747	-102.893984505256	0.217413924635895	-167.270808465892			-58.0003505838145	-119.190167171111	-16.9505258352821	104.138638171111
148812500	-26.3245526066623	-103.265969511308	0.28795508219792	-170.519009740208			-53.5958646945763	-145.465069107557	-17.1245005302711	97.9116457827368
149500000	-26.2878429629919	-103.644545397034	0.286197162132412	-173.484556063292			-55.0491482211287	-158.992556052765	-17.3778190978865	91.6592048176221
150187500	-26.3780071547938	-104.608060469818	0.307556836318175	-176.491845801244			-54.2812535412869	169.31147238358	-17.3289886195708	86.6548497408241
150875000	-26.4096897691169	-104.102903752761	0.32555280677835	-179.550657143352			-57.1243039330247	-56.0792886834051	-17.5343104565452	80.7189480233954
151562500	-26.222062823442	-106.12222817451	0.334142791410487	177.529120415611			-62.7617904377853	-134.614405189907	-17.3456805947274	75.7052611423576
152250000	-26.486506800178	-107.90040929405	0.315954244610948	174.72678383964			-64.9643440003616	-99.8476335735799	-17.6043621096197	69.5497664893274
152937500	-26.5001536447556	-109.323129050322	0.391422225213583	172.099062894453			-53.92003801254	-168.497579472844	-17.5096603836354	64.4561620069668
153625000	-26.4495760909766	-111.583513273599	0.343900159279008	169.228542603447			-60.6971211543342	23.7378694598846	-17.6311352923742	59.0859295576224
154312500	-26.3308250093282	-112.215118972687	0.399474322703975	166.880759675613			-60.9266185075687	-117.02353980071	-17.5113863881829	54.28891513934
155000000	-26.3301112466488	-112.711542475695	0.38877900839321	163.717577195796			-60.3744338631128	99.4125504064296	-17.3887466823912	49.3430503430484
155687500	-26.3596059387342	-113.530094140965	0.396648012819079	161.462130595112			-60.2292058906393	-171.87131801726	-17.4405844934628	43.1040770892565
156375000	-26.6339428158938	-115.261677694747	0.419857300060798	158.672783929555			-56.448824516752	143.381418826968	-17.3789118984816	39.4350888512643
157062500	-26.6676118101482	-116.352071336302	0.448106011502117	156.077558852013			-59.2811610931456	-160.661281129365	-17.3685777202836	33.9496290918076
157750000	-26.6021786694929	-115.270105491658	0.462184570462154	153.587638894194			-57.8351657383702	-164.408877864809	-17.2128781660976	30.6011253810625
158437500	-26.8235413663324	-119.215341877329	0.4526499213621	151.019614880234			-54.2580542960443	-85.8021732148308	-17.1734668650447	25.7901851040636
159125000	-26.520374579677	-118.288007204885	0.495893851845239	148.357490798532			-63.6717646636489	112.020161427194	-17.0147440775417	22.0234830935166
159812500	-26.7959591766051	-120.761258794413	0.538341078707167	145.90294025968			-65.9256357798151	-58.4167252660146	-16.8359272759497	16.835470621132
160500000	-26.5180261199974	-121.180193892467	0.51736353442606	143.234388798642			-64.4490991980245	-179.204572460601	-16.7666255761892	13.7098122481772
161187500	-26.5164789419798	-119.863573707872	0.501777182461749	141.145604111596			-61.3621276138708	-89.3493155197743	-16.5342360091662	9.03770569946725
161875000	-26.4821540455174	-122.187245729668	0.570128221724671	138.516015829289			-56.7654337306434	108.973048689326	-16.6081040691766	6.11412499157568
162562500	-26.4748321768199	-123.048799394962	0.53028115955901	135.77672202706			-59.2708114732227	24.2014906147678	-16.2418598846689	0.871727544000734
163250000	-26.6771187809735	-124.468424446423	0.551666992372736	133.391908510726			-58.71704639331	154.455852869167	-16.2437990862057	-1.66708660735923
163937500	-26.7181791896267	-126.508104852094	0.550070072341388	130.918870600791			-61.4799394049042	-37.8790215750608	-16.0407161950339	-5.53403319796744
164625000	-26.6362522911601	-124.474985017624	0.549341410114513	128.553133241841			-58.1635454241829	106.185259581433	-16.0030074625034	-9.48637326516847
165312500	-26.6842310283038	-128.364430008167	0.550051623182838	126.082379812523			-66.1664992731431	75.206113450673	-15.7847211842454	-12.7380008046325
166000000	-26.7871907204511	-127.627469071578	0.546884783397876	123.763935251361			-55.2402346853482	160.102521793963	-15.7488299240148	-16.3255479217665
166687500	-26.5261103932587	-129.529664282977	0.520941153505414	121.444174514696			-54.2291246658972	112.118133729219	-15.5204485080519	-19.5897671380256
167375000	-26.5436228355021	-129.053245914387	0.549262322719415	119.307481212401			-57.2838001024349	-174.626811618095	-15.435740070034	-22.9153002989483
168062500	-26.29747089269	-129.290074017901	0.51975276246708	116.775238152526			-55.8030068896255	130.037830405747	-15.1907335990571	-25.757821967727
168750000	-26.6599827914683	-129.92541539569	0.513682538391837	114.654046167978			-60.3044630278468	-110.656688391731	-15.2003491170421	-29.9084022954556
169437500	-26.5314860346117	-132.759194741063	0.498865402322907	112.224440568941			-70.4128221158739	14.8805916105329	-14.9750302311904	-32.1311916787941
170125000	-26.3781019992831	-129.798544119463	0.496972759542816	110.167474165044			-63.8530341777989	-98.9712573136038	-15.0287858900533	-36.1310140833336
170812500	-26.5463252806878	-132.618979818375	0.474100785048613	108.012168216342			-59.5255554573381	150.979821462245	-14.8095323237662	-38.5815846497156
171500000	-26.673251470047	-134.711098353393	0.471025662207145	106.0405680206			-57.0984662496733	-144.239407186441	-14.8013312988564	-42.0146764197967
172187500	-26.3641543398374	-133.302340392317	0.474805073036919	103.844125511172			-54.4821945176206	173.044807843117	-14.6054828961563	-44.635945122339
172875000	-26.8409182461466	-136.710638922079	0.464401949169356	101.909276923062			-63.4070255240761	-172.007139872391	-14.532948581541	-48.4164787368182
173562500	-26.6280073223616	-135.652203473071	0.466148230789653	99.6352169703378			-56.5629421570192	110.550191592734	-14.4173889507757	-50.47521050524
174250000	-26.5396398919123	-136.677462846652	0.496041713870743	97.6084980296185			-68.365890260761	-70.2371231976528	-14.3052685655855	-54.3694894966043
174937500	-26.9460956826125	-136.662741384554	0.49634491695094	95.779320935197			-52.5238194259676	137.934867174298	-14.3082542486808	-56.3999951854855
175625000	-26.372077146632	-138.429223697335	0.502071416151774	93.4942276883515			-61.7835178291911	-7.54938403089061	-14.1470956074928	-60.3022977542862
176312500	-26.5344936820573	-138.966114733382	0.55004860360873	91.5615634718559			-61.9854243575774	157.644554884839	-13.9512463395623	-62.4409293713246
177000000	-26.6299435726893	-140.488885990039	0.531938607883218	89.3990348220661			-61.5095996610974	81.463620908193	-13.9662404182282	-65.8301970372313
177687500	-26.7083949008097	-141.203364599034	0.551846413239848	87.4364161146245			-60.0472062828262	62.5948469599399	-13.9461596388435	-68.5782140087857
178375000	-26.737431316965	-142.345496982075	0.597416552853115	85.2393647122491			-71.0409989784409	-32.3996301271747	-13.8861325395729	-71.4329815410956
179062500	-26.7660091457513	-143.682372033281	0.62302779090198	83.1072422395043			-65.404079024211	-150.904386540631	-13.7667523176163	-74.9187918723189
179750000	-26.4781728437381	-143.206128092095	0.61712845086259	81.193687550809			-60.3070279361707	133.122283266178	-13.6891565605488	-76.9002022000218
180437500	-26.4849889993307	-144.306175487879	0.68177058037883	79.0410581726418			-61.1002681385462	-172.292944728243	-13.7050890167747	-80.4520464168528
181125000	-26.5527371043746	-145.588243016054	0.68716435975533	76.7783612475374			-61.1780712242805	77.771644025889	-13.6144300716382	-82.7301371530617
181812500	-26.5711280250417	-146.53568931133	0.68975453654289	74.8857995047327			-60.3514969847353	160.432128835911	-13.6173065207989	-85.5633995285805
182500000	-26.3727699481538	-149.588700166959	0.714092569863154	72.4836698599381			-56.1381337600452	46.8009207092294	-13.5606442428762	-88.0953057757236
183187500	-26.8280862832755	-149.872520946721	0.765420803388913	70.399603344104			-53.5972307552539	-144.110000154677	-13.4250804877359	-91.2312008668209
183875000	-26.6789961610153	-153.002173488065	0.772362553236587	68.1407017513571			-58.4860048009432	66.1866767754815	-13.6265385726253	-92.9908897479896
184562500	-26.2432665038128	-151.605060987672	0.754065721345425	66.2428132811801			-58.86553620507	-155.30530237127	-13.4274158022723	-96.3413760184374
185250000	-26.607271147651	-154.732167502245	0.773981856421737	63.8430439446378			-52.1095024056487	90.4163173220824	-13.4959492977821	-98.7538162697637
185937500	-26.4179275299597	-155.395074080678	0.733859571883619	61.465570445155			-73.973987741441	-107.930106081312	-13.3798714292611	-101.823283389127
186625000	-26.3360849588823	-158.4995662693	0.74287458093193	59.43980554906			-57.4379481661833	93.5198031205215	-13.4132433983015	-103.854142876774
187312500	-26.1335153065134	-160.632091536839	0.736177548126495	57.2571881416914			-54.3140756511959	-139.387705040047	-13.2442942356922	-107.031794867951
