# Hz S RI R 50
100000000	0.052279467035378	-0.006100813590086	3.75447181572941E-02	-1.89892960124467E-03			4.78618441718435E-04	1.59462385182658E-03	0.287550014951848	0.601373719875737
100687500	5.04650118347461E-02	-6.38430258083887E-03	3.74222739567069E-02	-4.75658838909613E-03			-7.13334864086542E-04	7.09526013163869E-04	0.312536752280454	0.587894203583498
101375000	0.052150632807796	-8.17672695920868E-03	0.042048859491561	-6.12261236990376E-03			1.16573297614183E-03	8.32166010046258E-04	0.343387292952949	0.57045133354563
102062500	5.11140321420524E-02	-8.17695567057652E-03	4.26921169200169E-02	-6.86903897779999E-03			-2.03274565464191E-04	-7.51576396620173E-04	0.369583996743069	0.551191042541312
102750000	5.24116327790935E-02	-8.45500430434048E-03	4.34080559616728E-02	-8.33310920662906E-03			7.77718769180874E-04	4.26674505894639E-04	0.395947174964057	0.534000850581321
103437500	5.07001548942413E-02	-1.01020626001448E-02	4.49627306973974E-02	-1.31422218530765E-02			4.50658267327676E-04	-7.69569398844478E-04	0.424494762858133	0.510470390137788
104125000	5.33766712804882E-02	-0.011143436650021	4.68467202490509E-02	-1.52122163291639E-02			2.963899955098E-04	3.25424607389983E-04	0.44660359791326	0.488048484473307
104812500	4.95439709198421E-02	-1.26651498386743E-02	4.72793220400716E-02	-1.69481273828541E-02			4.44369613554692E-04	-4.48200844509225E-04	0.472408516942572	0.459497892394745
105500000	5.05147766686983E-02	-1.19123014307878E-02	4.77769672323124E-02	-1.95555000607898E-02			5.74212300305478E-04	3.95416754344978E-04	0.493141688491006	0.436464043090814
106187500	0.049431969221784	-1.39542523203177E-02	4.89308583516471E-02	-0.022843937672223			-3.20286553854236E-04	-1.30996231409709E-03	0.514765995434818	0.406888655520365
106875000	4.95869246358616E-02	-1.35456682610087E-02	4.90102276077692E-02	-2.42058205254307E-02			-6.53822374370341E-04	1.12965834401038E-03	0.530913673985429	0.379835270588226
107562500	4.97067281877481E-02	-1.67947207494257E-02	4.92485074247875E-02	-3.02908076742141E-02			1.06996240902875E-03	-5.28970092998369E-04	0.556239424468049	0.347291251067945
108250000	5.05216775624067E-02	-1.72557479137197E-02	4.81302155157168E-02	-3.09464292529442E-02			1.03184247476687E-04	6.53935385802396E-04	0.566157550597208	0.315451206714185
108937500	4.95655189671457E-02	-1.87428287271162E-02	0.048858109781095	-3.47985941051975E-02			7.03489433857784E-04	-2.62489825236787E-05	0.583399769542551	0.282207568908832
109625000	4.79265872545592E-02	-1.85568111654646E-02	4.64025557753532E-02	-3.71572251835679E-02			-1.99173303625876E-04	1.24387762564767E-03	0.592927317429085	0.250754846644904
110312500	4.93215872490465E-02	-1.97450339240789E-02	4.74996770637801E-02	-3.97144341449867E-02			2.09464403818686E-04	-2.07520864672977E-05	0.605736518205959	0.215904464771783
111000000	4.74931674759498E-02	-1.98817472686143E-02	4.57176132334031E-02	-0.042472706851066			-6.23077892732941E-04	-1.38616803716033E-04	0.607670523980836	0.179765487848081
111687500	4.82129651003472E-02	-2.18240598356887E-02	4.40565577702019E-02	-4.50579595135947E-02			3.40695543117823E-04	3.98133492515355E-04	0.621166847235581	0.141866198554547
112375000	0.046212751168132	-2.06368381346007E-02	4.12299668961707E-02	-4.61443795240057E-02			-1.21886271212948E-03	-2.3134377237087E-04	0.619923639159645	0.104431347662538
113062500	4.65132379374305E-02	-0.024045321215446	3.92522048769549E-02	-4.81842412369317E-02			1.29199888400827E-03	1.84714962805058E-03	0.626753361302044	6.78311663571068E-02
113750000	0.046641389696477	-2.40739163566283E-02	3.70326316672495E-02	-4.86907515003166E-02			-3.49530365852243E-05	1.58699515605215E-04	0.621377591014391	2.90627183474748E-02
114437500	4.50109385359776E-02	-2.64632543840262E-02	3.55440918299905E-02	-4.93350853595704E-02			5.06691535258468E-04	4.5723905658197E-04	0.62435487841662	-7.52191082181553E-03
115125000	4.31277427796646E-02	-2.65989798119213E-02	3.30243371006012E-02	-5.04664156408089E-02			6.44558965568005E-04	-3.48400429270781E-04	0.614904793041212	-5.07131636127898E-02
115812500	4.59483662399237E-02	-2.62557389596318E-02	3.29132457797927E-02	-4.83819539969482E-02			3.88879976626386E-04	-2.54542379015971E-04	0.611161932807502	-9.31575746372831E-02
116500000	0.042772460826539	-2.80494901387619E-02	2.98682988622916E-02	-0.048867221652103			-1.45075512491389E-04	-5.29882358554902E-04	0.599375390398491	-0.13486563114125
117187500	4.44093250305701E-02	-0.03002122877157	2.85248077961648E-02	-4.49737616155413E-02			1.13703854981078E-03	8.66955967624819E-04	0.5865371125432	-0.169784841782486
117875000	4.27264808560869E-02	-2.92111953388806E-02	2.72414584803602E-02	-4.28874215045646E-02			-3.15723620089598E-04	-1.22394595139398E-03	0.569444384817005	-0.209155389159313
118562500	4.41652349329744E-02	-3.09168144922377E-02	0.026961393633624	-4.10163853989648E-02			8.47812785514112E-05	1.23961780029235E-03	0.548783666931	-0.247951561051156
119250000	4.18774421773157E-02	-3.39244628309619E-02	2.76561000085494E-02	-3.91040912738802E-02			-5.59451288111538E-04	1.88235157551785E-05	0.524840763723205	-0.289651079487353
119937500	4.24064518360362E-02	-3.39961233382496E-02	2.96303411256697E-02	-3.32803657592742E-02			-1.28780768155657E-04	6.64455752224275E-04	0.495951150886645	-0.329442181038908
120625000	4.11306171092468E-02	-3.48400986067498E-02	3.36933385339521E-02	-2.97310452926928E-02			1.22472564964768E-03	3.62897889281221E-05	0.462319469394041	-0.363976740534417
121312500	4.04677008709423E-02	-3.63506384763997E-02	3.86553231645099E-02	-2.55756229687012E-02			-1.23056665364802E-04	1.26606127694568E-03	0.426449705811098	-0.395005746700217
122000000	3.73016522884624E-02	-3.70246716458812E-02	4.46577702759093E-02	-2.32372581138514E-02			-2.67235474508416E-04	2.19365896889761E-04	0.388241860731464	-0.42429659147984
122687500	3.79652676081272E-02	-3.57804516108533E-02	0.053658628636624	-1.88771582647597E-02			-3.24054419929884E-04	5.17918931429331E-04	0.340742569505344	-0.450553759430585
123375000	3.73040273117493E-02	-3.80175862421753E-02	6.59735901794573E-02	-1.81781121751274E-02			9.74180546559919E-04	-3.87205372485375E-05	0.294294190315584	-0.471636891661566
124062500	3.75361503358677E-02	-3.95829888370576E-02	7.62580549273472E-02	-1.91640515673373E-02			-4.30346522524657E-04	5.81332911651938E-04	0.243563582259973	-0.485786654544866
124750000	0.036973048584301	-4.06251799490843E-02	9.27988549713131E-02	-2.32468957898963E-02			-5.2206549315599E-04	-6.24362054657579E-04	0.193591091757671	-0.496480203623519
125437500	3.72612283955663E-02	-3.95379242253832E-02	0.105742623515397	-2.90617964956006E-02			-4.48969644911778E-04	-1.00341348491511E-03	0.135759083687138	-0.498784148741155
126125000	3.58049961525538E-02	-4.13164417116993E-02	0.122385530061595	-4.15826807303587E-02			4.80725201798749E-04	-8.0834202951084E-04	8.99371193918514E-02	-0.489577749243507
126812500	3.42659117200354E-02	-4.18953185677277E-02	0.134199615334179	-5.41462262475733E-02			-8.70389546813228E-05	5.33247540064129E-06	3.80509143148803E-02	-0.479391643171007
127500000	3.61415481692041E-02	-4.45936683515113E-02	0.148920017228474	-7.28755024580796E-02			2.94122856687976E-04	-7.60344568318101E-04	-3.48935698155428E-03	-0.459839434289189
128187500	3.26216776765443E-02	-4.46439682487471E-02	0.157186233424775	-9.33339507581531E-02			-1.52872600211506E-04	-6.96740464167673E-04	-0.048798467034072	-0.441393389120471
128875000	3.42430281919882E-02	-4.61939918341374E-02	0.16482386698214	-0.117692299892975			8.86473625024028E-04	5.93167136843162E-04	-8.57631451049919E-02	-0.411140331287931
129562500	3.14806417208303E-02	-4.61273050424077E-02	0.164513686051193	-0.14366866935306			8.51311002884172E-04	1.26725625890781E-04	-0.116820835120164	-0.38330020905711
130250000	3.36828829566395E-02	-4.70993032599618E-02	0.165765770833192	-0.171249774918013			1.23508300777663E-03	8.41175405485222E-04	-0.140435775028255	-0.348771659646617
130937500	3.08813286385567E-02	-4.80649889369793E-02	0.15609460238947	-0.198181871112095			7.54104490164933E-04	-1.29543736061954E-03	-0.163249816253288	-0.322038621718817
131625000	3.20603154658315E-02	-4.94189668359367E-02	0.147911107915334	-0.223075894728242			-1.50495466237364E-04	5.23719866297118E-04	-0.175613344752246	-0.285023785050706
132312500	2.97822907996516E-02	-4.99619993519836E-02	0.131612637286743	-0.248309632400996			8.00710559381915E-04	-1.63858029389346E-03	-0.190582783747467	-0.258425230923889
133000000	3.03101693881233E-02	-4.95602472688449E-02	0.115737994327364	-0.268225181439866			3.35102394759006E-04	2.31679987160444E-04	-0.195876936966271	-0.225246142490458
133687500	2.70758764344123E-02	-5.40021658424938E-02	9.43629576594308E-02	-0.288950213482648			-2.10819716809581E-04	-1.49243216699739E-03	-0.202244968342595	-0.199629941260097
134375000	2.84765039875937E-02	-5.23765110088536E-02	7.38845250093237E-02	-0.305400502967296			1.4891147747415E-03	5.22894145397682E-04	-0.204753641145385	-0.169682589260016
135062500	2.58102478580713E-02	-5.39351623980526E-02	5.11849429710754E-02	-0.32194032624007			4.11236289951981E-04	-1.17615476778928E-04	-0.204813252260643	-0.146373247426465
135750000	2.74859345062676E-02	-5.45307891473653E-02	2.56516621825722E-02	-0.332700447085264			-1.16038389376079E-04	-6.52115529671659E-04	-0.201348489248514	-0.123607794205932
136437500	2.52732747324346E-02	-5.64489425588238E-02	-2.39141973963075E-04	-0.342200526993276			-9.03093943640094E-04	-9.10110610823095E-04	-0.198432138580863	-0.101832996986545
137125000	2.37895647653603E-02	-5.50740940841427E-02	-2.56357146968311E-02	-0.350360121515808			-8.85478974928333E-04	1.0030589084789E-04	-0.194104005441941	-8.05193336516951E-02
137812500	0.024111331174239	-5.72588428225202E-02	-5.14394753932242E-02	-0.351690334244934			3.784687865619E-04	-1.16332336323187E-03	-0.187842883707563	-6.41720698726785E-02
138500000	2.13010813532936E-02	-5.81721685622471E-02	-7.73711378802678E-02	-0.355197909861989			-9.10617566171473E-04	8.58525286799617E-04	-0.186145609601218	-4.35638160005053E-02
139187500	2.13832870622413E-02	-5.99182871213042E-02	-0.103340410874821	-0.355222932327684			3.84191132842869E-04	-3.11694812374032E-04	-0.176081919811501	-2.75471625160285E-02
139875000	2.03491751689798E-02	-5.77954110206791E-02	-0.130682946994802	-0.353900426989385			-7.63006613594025E-04	1.41566504463641E-04	-0.170356399335996	-1.36305641654737E-02
140562500	2.03562178945068E-02	-0.059486115738293	-0.154943896977231	-0.348066576696046			-1.90779822201307E-04	-1.54672657710843E-03	-0.159303816701577	1.27436117787638E-03
141250000	1.82152750319412E-02	-5.96149050258671E-02	-0.183998433587171	-0.343328124375488			-7.73698739314632E-04	-6.4326911624657E-04	-0.154422751569951	1.34271970567344E-02
141937500	1.70608146060844E-02	-5.96180360916397E-02	-0.205140396551282	-0.331061956378078			1.2278042794487E-03	-1.42483950324275E-04	-0.143100781874534	2.64958291261924E-02
142625000	1.67235282830281E-02	-5.93716032014503E-02	-0.229385170411931	-0.323407050567609			-1.95910986553616E-03	1.27703085094477E-04	-0.137033643244605	3.48738691428757E-02
143312500	1.45382514542184E-02	-6.17412508240268E-02	-0.251339137479494	-0.309330682610061			1.32395398531939E-03	-1.41509111063886E-04	-0.123070833204609	4.87409389721173E-02
144000000	1.36230097358633E-02	-6.07468878329591E-02	-0.271518848779663	-0.301067465187338			-5.16518669311665E-04	-1.27374429475888E-05	-0.115949232313178	5.43494776949645E-02
144687500	1.31537471256254E-02	-6.19689100284724E-02	-0.292177844921507	-0.280738482821709			1.62266551978883E-04	1.24832098901603E-04	-0.105185568820567	6.42817116199007E-02
145375000	1.09830527630712E-02	-6.13526722242456E-02	-0.311049079334102	-0.267196223901326			9.38870624969498E-05	-4.04825138491147E-04	-9.54727240540344E-02	7.09552521218959E-02
146062500	1.27590460553484E-02	-6.33180330800852E-02	-0.326961526526785	-0.248308715622589			-9.69637157022472E-05	4.28035528447393E-05	-8.27647911088669E-02	8.02892603255231E-02
146750000	9.37641609720131E-03	-6.17430655278986E-02	-0.34412303263382	-0.232436905083938			-8.46484726690899E-04	-1.17032357394177E-03	-7.37890189281034E-02	8.28726925591325E-02
147437500	1.03233605005113E-02	-6.35605493447338E-02	-0.355918466436676	-0.212850071661293			7.67412937608441E-05	4.28426201547729E-04	-0.061671113410905	9.19351285222765E-02
148125000	6.7737387630824E-03	-6.39037335150226E-02	-0.371369487368034	-0.194891918253166			-1.29318097157444E-04	-4.3097361057176E-04	-5.20051943420424E-02	9.21062909443827E-02
148812500	7.94538620101852E-03	-6.23136698267878E-02	-0.382433171809435	-0.172416757183065			6.0402601219705E-04	9.14284279691762E-04	-4.17477743604958E-02	9.84857850297341E-02
149500000	5.77790058052698E-03	-6.27427593694814E-02	-0.3931993140433	-0.15587617580761			-4.94490897072411E-04	-3.67196039398051E-04	-2.92902595328941E-02	9.76975133502104E-02
150187500	7.08725061921869E-03	-6.17762064401443E-02	-0.399493779191511	-0.131648499083698			4.59075182237593E-04	1.0347547108635E-03	-1.82218945124921E-02	0.101821607470554
150875000	3.44678750759491E-03	-6.39648354129734E-02	-0.408950693352361	-0.114287293155591			2.4001720459831E-04	-3.93680583032416E-04	-6.5315064065825E-03	9.93887263215635E-02
151562500	3.68346966703186E-03	-6.26538730184836E-02	-0.411850299245439	-9.26650703123339E-02			-9.78565062043445E-04	1.37195018011995E-03	1.63241866486651E-03	0.10447868321111
152250000	2.66633155131859E-03	-6.27057685036312E-02	-0.419400831727974	-7.37990856502617E-02			9.75012178907791E-04	-4.29282446904072E-04	0.014458292022679	9.90857174685838E-02
152937500	1.56657453393877E-03	-5.98017477150934E-02	-0.422453106592491	-5.20360050570454E-02			-1.98914087428246E-03	5.38882358742488E-04	2.28031869882545E-02	0.100368996419665
153625000	-1.05122790774587E-03	-6.17711691355643E-02	-0.425744539196535	-3.41693432341371E-02			1.46930964013929E-03	-1.21302737022914E-03	3.35650379778635E-02	0.097312424186479
154312500	-3.80520539983534E-04	-6.17680657892522E-02	-0.427752573147531	-1.39073098333777E-02			-1.40368920094286E-03	5.81467354289933E-04	4.04812470490771E-02	9.79386533053609E-02
155000000	-3.76246561377545E-03	-6.26155952005155E-02	-0.427226172893338	7.14535558645429E-03			1.75810353209308E-03	-1.26428847434626E-03	5.24525055181527E-02	9.35002697808772E-02
155687500	-4.46372436328281E-03	-5.92312351996259E-02	-0.42785343145131	2.57099316127876E-02			-1.50744065262415E-03	2.65102598268354E-04	5.94576511379523E-02	8.93065816716652E-02
156375000	-3.35153256091875E-03	-6.15997643739131E-02	-0.428707163091385	4.55008526423553E-02			4.37248279584698E-04	7.06856554253936E-04	7.05550057256613E-02	8.19370516603648E-02
157062500	-5.46938303758804E-03	-5.82607066523888E-02	-0.424289025028783	6.41368586589683E-02			-2.99853904922846E-03	-1.75444089434216E-04	0.076545417024567	7.88402949493607E-02
157750000	-6.24885265223948E-03	-5.97093088115079E-02	-0.424170542170374	8.33541183656295E-02			2.69803130249179E-04	2.99886770258586E-04	8.65886001473387E-02	7.44271987454779E-02
158437500	-7.77016345966725E-03	-0.057552151596365	-0.420550925528224	0.102238516677849			-1.95150248569593E-03	-1.1467116662068E-03	9.36395882532439E-02	6.86714947891886E-02
159125000	-7.66435381231667E-03	-5.99244698594742E-02	-0.416361049916831	0.121823283449048			1.73298721264501E-04	-4.13749952533747E-04	0.101882243112924	6.32907200600745E-02
159812500	-9.18472389357701E-03	-5.70197563979899E-02	-0.411698556781183	0.139442037726019			-1.13216124012246E-03	-3.97381809404591E-04	0.105450296121323	5.42765637309325E-02
160500000	-9.55330054914666E-03	-5.85979470102645E-02	-0.405481311008482	0.1583845362612			-7.4758590376115E-04	8.85679885592949E-04	0.114845303154642	5.15373784749819E-02
161187500	-1.09002085583546E-02	-0.05818458171546	-0.398886652732391	0.174378017911943			-1.33279629054013E-04	1.45117892785374E-03	0.11786086970062	4.17099557247211E-02
161875000	-1.11829193531532E-02	-5.79366281481358E-02	-0.394083464133217	0.193067858361345			-3.41385246568549E-04	1.16694470050564E-04	0.12196423630518	3.84627221435106E-02
162562500	-1.45745399751161E-02	-5.82704485303802E-02	-0.382624658837734	0.210657457870413			-1.35307104726228E-03	-7.09955727155313E-04	0.12830059789014	2.48927957574277E-02
163250000	-1.44679072745125E-02	-5.59756997842082E-02	-0.374774331951179	0.227770016700601			2.85061449630824E-04	9.96187171454424E-04	0.131377597717662	2.09437501655657E-02
163937500	-1.66788482252317E-02	-5.81192535006224E-02	-0.364832395308696	0.2407981495962			4.44038554314199E-04	-1.11036173706436E-03	0.137951992128717	1.14480160993491E-02
164625000	-1.27617294994595E-02	-0.055587563811633	-0.353744228653351	0.258616005561258			-2.10899682422022E-04	6.1542334290224E-04	0.140344846731211	4.72286628402721E-03
165312500	-1.82539545978386E-02	-5.58241636756024E-02	-0.343252601440812	0.272417376285775			4.17538637418032E-04	2.63315357445088E-05	0.145384431516446	-6.03897672452784E-03
166000000	-1.64596211860452E-02	-5.60571944274576E-02	-0.334093467709431	0.287817431707222			8.09125114706246E-05	3.1660635403847E-04	0.145217829234333	-1.32702962180227E-02
166687500	-2.10910938938263E-02	-5.57778625541086E-02	-0.319904007736836	0.299183090515552			-3.81775940214074E-04	-1.27529178142929E-03	0.148000245809361	-2.42466990126723E-02
167375000	-1.97009758791315E-02	-5.39603715539799E-02	-0.311500117200925	0.312972518660476			-3.03244855314831E-04	-5.18777266734233E-04	0.148511032350272	-3.05207579810532E-02
168062500	-2.19773931180438E-02	-5.50487473828032E-02	-0.294125765569863	0.325630292476134			-9.40571280915294E-04	2.68404218687198E-04	0.151915061303268	-4.13143857010518E-02
168750000	-2.21801544588168E-02	-5.32929334399321E-02	-0.285337806266563	0.336406288421585			-1.46572610442169E-03	6.69693349892846E-04	0.149295567274667	-5.03735741275521E-02
169437500	-2.34527617565568E-02	-5.34309201336718E-02	-0.268147253282484	0.34514009879497			9.86097378744091E-04	-4.45351783991814E-05	0.150872010062752	-5.95171386292241E-02
170125000	-2.25291343240558E-02	-5.26773538092767E-02	-0.257260809111298	0.354417577821423			-2.92814303949591E-04	6.18283839337445E-04	0.145409218130222	-6.55557076278126E-02
170812500	-2.32860335970047E-02	-5.38421857048548E-02	-0.23983707386309	0.363657094319267			-1.30314283988035E-03	-9.41269061177609E-04	0.147865562531309	-7.99598889335544E-02
171500000	-2.48154631117631E-02	-5.09026444737935E-02	-0.228476860391812	0.374579441948997			-1.13475921575201E-03	-8.0629079479728E-04	0.142814629421438	-8.53530504591496E-02
172187500	-2.57022893637403E-02	-5.33711247968498E-02	-0.212233856346503	0.382596173487298			1.59625499083721E-03	-7.712249060911E-05	0.144214711837318	-9.53319309495155E-02
172875000	-2.64597099695098E-02	-4.94719030759701E-02	-0.203570957919633	0.389224209074963			-1.24277099773673E-03	0.001484482124658	0.13821495653815	-0.10366031572997
173562500	-2.56365665992729E-02	-5.15552803033776E-02	-0.184391246083414	0.394328143599064			-5.43769971771026E-05	1.12049108226821E-03	0.136459096668451	-0.112670814545235
174250000	-2.85736593394312E-02	-5.00339617553325E-02	-0.17410911322309	0.402896048775229			-6.45809599465208E-04	-2.10930118912872E-04	0.130386645579503	-0.124108172457024
174937500	-2.71482190549596E-02	-5.06471416928257E-02	-0.156851487590456	0.410339925071216			1.16526298534645E-03	-6.02036111890664E-04	0.126980599183861	-0.128318092853402
175625000	-3.21662756508601E-02	-5.07756301476381E-02	-0.145125243685966	0.416523185709386			-9.33610469016557E-05	-3.38426471419609E-04	0.119884097451623	-0.138787749222854
176312500	-2.97080957741601E-02	-4.94482219699883E-02	-0.130249539542905	0.421164512159098			8.49155585381692E-04	2.08407840812831E-03	0.117597015925846	-0.143634634596744
177000000	-3.21773099982243E-02	-4.84605150663345E-02	-0.118774784992391	0.426204492979116			-1.00556769469696E-03	3.56057012001758E-04	0.108794228000082	-0.15403811508239
