# Hz S DB R 50
100000000	-39.964866265891	46.5991302083236	-4.53859653007718	-17.0825922229328			-58.6160796895363	120.905499836438	-3.5233411278559	64.6292152617025
100687500	-40.2344810048475	44.3758330300362	-4.12117237046776	-19.576389508488			-58.2308852533521	14.0356289490373	-3.46031505044464	62.0061045143632
101375000	-38.8614542103855	41.1598654589003	-3.73801358140923	-21.9624676088355			-57.2534573654337	159.085959991844	-3.53996254260159	58.9226094965731
102062500	-38.69738389113	42.9009201696035	-3.294867121703	-24.4106040426144			-68.0918156012716	26.4923950536182	-3.53891866066734	55.9690652557119
102750000	-36.5695183309839	39.5674428571672	-2.92462049306694	-27.1175663847122			-66.8838442441385	-29.0614935954549	-3.57541912628039	53.2083844668101
103437500	-36.7851567360063	36.7343146627805	-2.56442136137369	-29.8615976179497			-66.1513591760696	-25.468695840934	-3.53599654617518	50.1593481873064
104125000	-35.8047716283349	38.3174003536166	-2.25843250015465	-32.6487448449087			-58.0974442365065	-144.871030089887	-3.63085261114595	47.1114538518015
104812500	-35.6788187293297	33.3692855683506	-1.92838044650627	-35.3889610756539			-60.2510632556954	-16.9897702929287	-3.58846528660108	43.9455006328645
105500000	-34.5317186271592	36.6581750084192	-1.6337259632325	-38.3500349027448			-60.5646016557692	-12.8961227463407	-3.6516946641665	40.9775095972385
106187500	-34.3092737206242	33.3063088544172	-1.34207741160821	-41.0918717290424			-58.2295877980881	48.4069275786456	-3.64442304564779	37.8400378826382
106875000	-34.2538197614651	23.5888891316757	-1.10798808935946	-44.1518059653685			-64.6056468741735	-75.7423954556778	-3.75499505758929	34.8786803450164
107562500	-32.9926219196811	26.3137475605555	-0.836217932858369	-47.1734384976381			-55.1626941321511	53.3231510517811	-3.70194510628762	31.5078127137797
108250000	-32.1147730427105	22.4420346284781	-0.66939052113352	-50.0607768032677			-65.0606166399533	-97.2172192591976	-3.80705538092452	28.2789740494908
108937500	-32.2424146768892	19.8574495009769	-0.520591411630735	-52.7903960120985			-63.34695899253	-16.2015392273919	-3.76047844394208	25.059071721163
109625000	-31.911821496457	19.1357797632472	-0.347150056772925	-56.0840159333874			-56.3550521134386	-100.974453038808	-3.87698316354127	21.6000562638025
110312500	-31.0740253324287	18.247225385413	-0.244336578544912	-59.0510073359224			-73.0918940254992	-155.256502454252	-3.86656232139334	18.5967002574594
111000000	-31.0351751714688	12.3954698249005	-0.171301658049826	-61.9717219137737			-57.9645035325706	-78.5629817855361	-3.97752302143702	15.0967119670269
111687500	-30.4130731764333	9.83432434118123	-0.196228719709873	-64.9517293797012			-67.8649869205545	103.279776217531	-3.94637378568625	11.5170498212808
112375000	-29.967504445344	10.7971873170831	-0.201144648448163	-67.6453681416182			-57.6807948366732	-62.5338090807709	-4.05027778530302	8.19912094064661
113062500	-30.0544792397485	5.07467454947756	-0.286020751579967	-70.3510611857552			-61.1108891359267	66.3528032815755	-4.02309216359041	4.72176468182707
113750000	-29.4387420470619	4.24063435279404	-0.393566801875344	-72.8967502945761			-59.935308678182	-59.8552339646319	-4.12796870213164	1.13473014165625
114437500	-29.4875833679917	-0.346356639914613	-0.558409299177841	-75.1825165368279			-68.1262312719182	153.820239632198	-4.04919093042581	-2.49384750020449
115125000	-29.0396102130094	-2.79002708868057	-0.771790648531316	-77.1546367054711			-53.4883770911042	-63.9625462649807	-4.15375093962174	-6.3886140830362
115812500	-28.459296041753	-4.62747436464101	-1.02360349469096	-79.1538506430702			-56.0572185835962	-106.499490694254	-4.17515660925561	-10.3216294210839
116500000	-28.3410223244529	-10.673214860363	-1.36140572403827	-80.1320211210496			-53.1906891128644	-45.0986026709536	-4.18437062840321	-14.5881503305977
117187500	-27.9930502412641	-15.179261197618	-1.79116309439118	-80.8138445699622			-66.4243183911748	-169.948720506294	-4.23067111810777	-18.1643043152857
117875000	-27.4117192289958	-15.1340480988031	-2.29045125681244	-80.3333458836906			-56.3221251129004	-3.48775228727221	-4.26383748648395	-22.5674545685865
118562500	-27.1256648599724	-20.2612062016672	-2.77385319506205	-78.8590005567465			-66.9656057627259	140.524402066661	-4.33272654380828	-26.8192846885527
119250000	-26.9366239570045	-23.4682803164713	-3.25784636877905	-75.5177776225967			-61.2168527279659	-82.5418563015386	-4.37754244933975	-31.2038745981025
119937500	-26.4276394844074	-27.6565879389831	-3.66044945129085	-70.2769281177651			-62.7184485999137	143.709198524296	-4.38527613231904	-36.2274739081661
120625000	-26.5023135046943	-30.0454600481091	-3.84302259863404	-63.1074435506494			-56.6768196315594	20.8507800748959	-4.4688007613519	-40.8923415820036
121312500	-26.1073856007099	-36.2914590512294	-3.54188535529105	-55.0494233007832			-68.8533242824344	-167.651336081568	-4.50214627051463	-45.8965537157157
122000000	-26.1529210341586	-38.3161341043298	-2.7642375107339	-46.6748870287884			-56.9552422003656	-40.1228879202251	-4.60023160980048	-50.7376463887846
122687500	-25.9604437351958	-42.3020156395395	-1.55367124091577	-40.5836709289573			-60.8722186051469	100.705022153077	-4.7153587400178	-56.1588517414323
123375000	-25.5896904679928	-47.1701496126985	-0.144730376429997	-36.7537552871253			-58.5540703877459	72.1552144334777	-4.85646734387058	-61.4731472127499
124062500	-25.1682880343656	-49.6518369288713	1.29741001941611	-35.331923250721			-74.4135132051282	-34.6042693250271	-4.94183430970179	-66.912836327127
124750000	-25.4315702620922	-52.3855790051204	2.74717103803236	-35.7039979694332			-55.7639677312453	47.7505369304748	-5.15635748996566	-72.3794726384805
125437500	-25.2126892204299	-55.9600536153515	4.05335804001651	-37.3909428041909			-56.6633648695377	-54.5009195493541	-5.31591041721832	-78.1744097923546
126125000	-25.6257926579842	-60.2050252724907	5.26040139104503	-40.4959786058391			-52.2177033684545	18.3886943249357	-5.62428362048593	-83.3641942652464
126812500	-25.0309517413473	-62.7888513975904	6.41030437879735	-44.230267750184			-56.6687277745376	-36.0436852928408	-5.84009221277004	-89.1987392518082
127500000	-25.0589056232853	-66.4042944421154	7.35702802876574	-48.4746345086886			-59.8387253594793	64.7766486001444	-6.19871984865346	-94.774601278711
128187500	-25.1045617127786	-69.1569624502494	8.27183016259435	-53.1301558434038			-55.7547524827015	-38.3089200846504	-6.40390260345337	-100.369581922558
128875000	-25.1600903170128	-71.6235989186506	9.02548856237161	-58.2034859344337			-56.8843621664111	-0.37162878688624	-6.86181699521427	-106.196221484333
129562500	-25.0757064377247	-74.4761247906092	9.71130843287477	-63.0488232999478			-54.9768979777017	-50.3442195767071	-7.0891242592857	-111.569640810966
130250000	-25.2647337856365	-75.5061471616554	10.3193151056663	-68.3143796248799			-61.3388966460954	-17.1426871757846	-7.57483049801411	-117.168283276658
130937500	-25.3006003836394	-77.6468445234461	10.8483596132624	-73.3764495434291			-52.1741385379355	-40.2295395477252	-7.85540342981356	-122.159788958155
131625000	-25.2543747409519	-81.5950328418717	11.293456297336	-78.3463774112988			-61.7622553465669	-5.4585106274769	-8.37328277728099	-127.672479565053
132312500	-25.6068942314757	-84.0292418413144	11.7118805246894	-83.4498853969794			-53.3452788437079	-58.362878557092	-8.6846085161216	-132.600993163764
133000000	-25.7156415577087	-85.6589962941543	12.0558548196428	-88.3629671184406			-58.1334140135252	-67.033639372803	-9.18611894732367	-138.023896084399
133687500	-25.493432123208	-87.7809447430241	12.3536576263193	-93.0200160997565			-51.4884002748186	-22.1482082390067	-9.53143753173786	-142.687188223512
134375000	-25.9711153913833	-87.8563225523434	12.6840550763068	-97.7023765910168			-54.6145540993636	-97.5369512680106	-9.96259221471292	-148.450233116682
135062500	-25.9894432615015	-89.3472496140206	12.917361545809	-102.144436889733			-53.7842355548389	-57.7556866548489	-10.4096690731639	-153.270599167705
135750000	-26.3228794290732	-88.4980398756917	13.1699336888524	-106.56499845276			-50.2986002881205	-89.8226775271345	-10.8221084900963	-158.117073878127
136437500	-26.4768744734225	-90.3090357267435	13.3551503843381	-110.965327643347			-50.8864412514225	-63.131123488226	-11.2750812530693	-163.33677398012
137125000	-26.5445067495008	-90.7923155603341	13.5773926697974	-114.875148296579			-51.2223467091575	-99.1283281886993	-11.6411089672034	-168.068386153394
137812500	-26.6105514482572	-91.3463981746859	13.7546681833898	-119.174823211393			-51.1016592345981	-64.4384745033192	-12.0441614251151	-173.564610045894
138500000	-26.3751720005724	-93.3188609660822	13.9580893494113	-123.117852807659			-49.8228108601261	-93.7854595735851	-12.3256948469012	-179.247251844338
139187500	-26.7266500655091	-91.481101499345	14.0699869247469	-127.17264724937			-60.1065475260703	-59.1246056466689	-12.8210913351985	175.82663218366
139875000	-26.8392032854217	-94.0510347845678	14.2367209475144	-130.926660058471			-51.2677278721666	-75.1778262514355	-13.1692405242723	170.756977021248
140562500	-27.0098015053863	-94.3321162865722	14.346297127578	-134.932341344138			-54.9535694659035	-128.987563220344	-13.5601004859907	164.855277580562
141250000	-26.8570230360857	-95.252263184718	14.4722377809599	-138.541433438234			-49.5996036437859	-94.4697476263291	-13.8840908399686	160.365942877099
141937500	-27.0976211958961	-93.8625676678413	14.5653152643454	-142.418635624752			-55.8066242865405	-141.331337372263	-14.2265821393724	153.661005762527
142625000	-27.1348996702473	-95.1710463885585	14.685056144806	-145.991954700249			-50.9279238370733	-114.017257722719	-14.6011726390553	148.904172145855
143312500	-26.857927595092	-97.2448616387828	14.7943650497985	-149.737009020675			-52.8496339084642	-164.765594138498	-14.942722889608	142.690273401951
144000000	-27.2623889686853	-94.3743865364763	14.859688817755	-152.934720029465			-50.8174750040127	-120.211326570511	-15.2798598979902	137.090441930571
144687500	-26.9361323379169	-95.9440399797858	14.9145230292391	-157.055746133556			-51.5902401157191	-125.640859471003	-15.4659054440544	131.851648846661
145375000	-27.2701283050285	-96.3002264392158	14.9850807765001	-160.385723498332			-50.3698493766869	-117.019733860764	-15.748086800826	126.110625366585
146062500	-27.1656400559655	-95.1890931660317	15.0477632693065	-163.85550608457			-50.3579069964825	-134.967934821214	-15.9098823100042	119.644507681566
146750000	-27.4355964571378	-96.1031831350037	15.0751413354599	-167.159651982227			-50.2975339562947	-97.7611053444448	-16.3374697426858	114.715689013514
147437500	-26.822180662837	-97.3687123487201	15.1307991657214	-170.448160185662			-50.9867706720785	-146.312230115471	-16.3077405379001	108.83793190306
148125000	-27.282731722124	-98.7288449195642	15.1180439322549	-173.560231178733			-54.5485127779205	-118.933247999334	-16.5201127302986	102.819540868153
148812500	-27.0208421697632	-98.9866423655848	15.1841806302864	-176.875652837074			-48.6472958424402	-145.592803774874	-16.5894879901085	97.083011683391
149500000	-27.3138616066316	-99.4831212499941	15.1919600289597	-179.868227056264			-50.5416606662532	-139.136512459759	-16.8967825458134	90.2092225217541
150187500	-27.4889526687832	-101.522823898861	15.214202397954	176.940185224007			-48.8949443403653	-148.257369438785	-16.8446868966283	85.786357398833
150875000	-27.4274101008574	-101.372181409419	15.2187632847346	174.035012567506			-48.7115462614112	-144.593533160457	-17.0316263707654	79.5575868229681
151562500	-27.1104908115365	-103.319067741905	15.2348538216406	170.990682806696			-48.6917290314002	-150.794632090341	-16.9410081980743	75.4257577170853
152250000	-27.6464014052685	-105.34592348139	15.2232817657543	168.207176393398			-52.8506080128035	-155.335232690716	-16.9899214453242	68.9344131135749
152937500	-27.5518194519884	-105.888069705359	15.2615042502892	165.515333978662			-50.6131847901066	-134.241799223045	-17.0389045585091	64.1109509881025
153625000	-27.5652969645794	-107.190522391728	15.2560697956849	162.660640811047			-51.3384234149325	-163.480174214483	-17.0325772556462	58.5854988307888
154312500	-27.5954506931088	-107.92292148812	15.2801311262209	160.08180885591			-47.2386390089918	-161.046106361476	-16.908850482297	54.2164104812847
155000000	-27.6621321661766	-109.356574212358	15.26636940166	157.115860882718			-50.9718562370364	177.878633353568	-16.9464162410967	48.8795600598711
155687500	-27.5892055040229	-110.570748965721	15.2712707661372	154.747131253169			-50.9512833533092	-161.493253573341	-16.8778706838544	43.7689594517507
156375000	-27.8032187590605	-111.410502737142	15.3137850650033	151.962749293301			-50.2084859858907	179.734403630411	-16.8484025680184	38.8895541120765
157062500	-28.1486557246226	-112.41304831911	15.3242238630721	149.391118895979			-52.4008355347719	-161.631331149641	-16.7902886567248	34.3179291854812
157750000	-27.5005350344366	-112.605352796747	15.3766198592129	146.863177708583			-49.9086950928365	-169.630057301091	-16.6658359744659	30.5660306850719
158437500	-28.0984438035169	-113.275582085094	15.3292042589314	144.212610525808			-52.3323951524579	-174.189474012885	-16.5262920177426	26.0404180600103
159125000	-27.7179665743281	-115.054274045036	15.3813401530353	141.589843346335			-48.8424921628546	167.468832351867	-16.3348378906939	22.4011864973417
159812500	-28.4775572073736	-114.801643384498	15.4070737844131	139.084150250349			-53.5288932125418	-156.015287786179	-16.2767100190509	16.9082675128947
160500000	-28.0990650372955	-116.22435501907	15.4128006511366	136.432317429353			-47.064881786351	165.087469029145	-16.2207024320807	13.971944124311
161187500	-27.8717251419048	-114.210933653178	15.3909801439011	134.268262182342			-51.0241887611733	-171.119575756169	-15.9876330030676	8.63158601640502
161875000	-27.8795003101276	-118.223628391488	15.4391617376662	131.531823951439			-47.2738525490266	174.753370222843	-16.0437167574058	5.72127391722554
162562500	-27.9163856351261	-118.617214849625	15.4157159051591	128.898180032203			-56.4045523994249	163.800542415871	-15.6986957518769	1.50547957139877
163250000	-27.7993089833115	-119.890131854149	15.4119368643949	126.446408576174			-49.1160037762594	164.573235888569	-15.6687967537497	-1.89188821378706
163937500	-27.9194111947152	-122.106403966558	15.4271376560592	123.981215507309			-52.7858516914654	166.341257982844	-15.5723470371603	-5.77168791503786
164625000	-27.9864745197873	-121.589788267288	15.4166398806122	121.524728070965			-47.9933621987531	173.760777488959	-15.4912520020249	-9.11080377171393
165312500	-27.6851744889059	-123.325702950883	15.4253111571705	119.183044908017			-49.7606984754389	136.711498908067	-15.3244130643232	-12.3184182637433
166000000	-28.001372349838	-122.229868222972	15.4011925966303	116.704939781213			-49.9804338851307	170.865253399805	-15.1871668547937	-16.578358273021
166687500	-27.8015040422976	-124.1714698045	15.4092224945776	114.191247740667			-51.278491024524	133.335568781941	-14.9959479954737	-19.3522282269306
167375000	-27.8700787245618	-124.88054130031	15.4002483096791	112.235860203853			-48.8474361102088	177.553672577415	-15.0273478747176	-22.4233263762481
168062500	-27.9411925282015	-126.579105447754	15.4014687083621	109.648289242717			-48.3961032664586	164.665264979498	-14.8114630917139	-25.5612638239015
168750000	-27.7856576002308	-126.545586240585	15.3948155301447	107.314650533885			-49.4378301594862	143.84758778937	-14.7374500653998	-29.4762009465378
169437500	-27.9699332066434	-128.344262761147	15.3428682794889	105.09774529413			-48.2632573213385	154.127613998599	-14.5271015268609	-32.358518283585
170125000	-27.7995429341475	-126.729357249464	15.3597971878834	103.056019141622			-50.1775740936386	164.98224030748	-14.5157100664764	-35.4402852242605
170812500	-27.9256778734943	-126.431318895212	15.3316509794695	100.875465320694			-50.9308533294773	114.858752316001	-14.3351537601817	-38.5513482915298
171500000	-28.155087913351	-128.648207423057	15.3315340901734	98.6569552427533			-57.4202916200652	115.551300976172	-14.3389664483896	-41.5734238055278
172187500	-27.9194912078437	-130.48795508809	15.3181209731469	96.4230376785088			-48.2037827133796	98.9659422099237	-14.1482410233755	-44.1777167279557
172875000	-28.572866007543	-129.532455672481	15.3447044880478	94.5008328821032			-53.0361806912869	131.484163012362	-14.048110517866	-47.8072772656854
173562500	-28.1401079133899	-128.057937474735	15.3290065278111	92.3106893173567			-47.7821971978552	134.957854067287	-13.9630866840991	-50.0956625177366
174250000	-27.9018773992375	-131.307653055431	15.3318101930044	90.288100372021			-60.2931812544866	129.54248797828	-13.7668816230094	-54.128541311241
174937500	-28.4322292669931	-130.624849693479	15.3427777066231	88.2526253482219			-48.211163698897	131.633219831197	-13.846922711571	-56.1380832290727
175625000	-27.7161363991342	-130.514259794439	15.3446942447091	86.2713251610024			-48.8401141126096	93.9086177588666	-13.7297199003727	-59.669603594148
176312500	-28.0746098240752	-131.379150345522	15.3873121876736	84.1000490384679			-47.7664948993628	116.203224454127	-13.6623718412709	-62.0131311765243
177000000	-28.0056699792653	-131.155003357737	15.393324180009	82.0660862452168			-56.2190690958031	106.155475810081	-13.5520733648549	-65.5597845744071
177687500	-27.925853341171	-132.481070941749	15.4118292528724	79.8589418441048			-51.7167882787565	132.953336557008	-13.5776386138738	-68.8400041429199
178375000	-28.0530141840928	-133.412571639092	15.4310598453678	77.8615029438699			-53.0408941795166	95.0818192772577	-13.4381781806233	-71.0051116468262
179062500	-27.9488889103415	-134.375462106729	15.4757392807753	75.6593330029367			-50.1935233911149	100.570010753535	-13.4166574815457	-74.458008802038
179750000	-28.0604151198861	-136.139723585904	15.4768231999965	73.6564093152284			-50.2205550804714	103.274857578427	-13.2608854168854	-77.1320434066853
180437500	-27.8570664826062	-135.163389318593	15.5376237100183	71.4021055817619			-49.9397726280716	117.614665547077	-13.2822354432882	-80.1208114550178
181125000	-28.1387704607748	-135.70183902431	15.5338202074878	69.2777144005251			-46.4950096805249	88.1939144642179	-13.1239976134201	-83.0970511991109
181812500	-27.9659499734775	-136.440978549956	15.5483030620983	67.1545027859005			-51.4084849396813	105.561038480351	-13.1822330884381	-86.1599140123626
182500000	-27.7366288908985	-139.141111274916	15.5856679530966	64.8419185184527			-48.4007503907078	72.9674303934297	-13.2316480621506	-88.036850569101
183187500	-27.9135608500003	-139.888798332097	15.6116583982544	62.4835095225625			-54.1640801401087	121.206538826951	-13.0629199380038	-91.3420164867528
183875000	-27.6825344018173	-142.080653227409	15.6204388701662	60.3637314884659			-48.5588436614606	99.3691610138703	-13.1921464269084	-93.7412076512879
184562500	-27.1275611664056	-142.491566938758	15.6135248136055	58.2357185961634			-50.74891842339	77.8172181168268	-13.0098371557645	-96.3297888852348
185250000	-27.5894040907424	-144.929648743931	15.6260085790011	55.9867463028576			-48.6656448606693	84.4556748572838	-13.0502910542999	-99.1693341368613
185937500	-27.6645178805597	-144.395906099152	15.6076445886546	53.640872437909			-52.9532197216897	99.7648621848402	-12.9816782608243	-102.02046626314
186625000	-27.0148180273716	-148.115234641177	15.6085784939165	51.4743615903583			-48.9942700284409	93.5602182220319	-13.0477028576289	-104.324790928587
187312500	-26.9624124507483	-149.047930307623	15.5996359057603	49.4612963532022			-59.6207934978127	63.4642538599068	-12.8360866593859	-106.763660255159
188000000	-26.9873178551116	-150.593295209369	15.5661748703576	47.2424426522437			-49.6758596797509	104.622213259142	-12.9976834859858	-109.514047544327
