# Hz S RI R 50
100000000	0.037630361143823	-1.06567170312681E-02	8.47420101728279E-02	-1.51168362322465E-02			-8.97361422596066E-04	2.68791882008091E-04	0.28725194649	0.59876731077572
100687500	3.72384052691942E-02	-1.03243839050362E-02	9.02405141606758E-02	-1.72804897934301E-02			3.88465163234089E-04	7.97276821438138E-04	0.314982914325582	0.591130866772851
101375000	0.036708918366879	-1.37454819809815E-02	9.29300879782253E-02	-2.47408688937532E-02			-2.00748368986533E-04	-1.14227048783799E-03	0.34697150586731	0.571337094022297
102062500	3.71163179794822E-02	-1.01276057694435E-02	9.54990017557854E-02	-0.026514312129872			-6.5499080229949E-04	4.47169209543081E-04	0.369120548398617	0.551427414734645
102750000	3.76569944371002E-02	-1.46590311740005E-02	9.80930598618958E-02	-3.40347313194188E-02			-8.84949178080351E-04	-1.0433847154084E-03	0.398259788408134	0.530774289486771
103437500	3.60321061329688E-02	-1.25635439304405E-02	0.10127916953166	-3.76269931119821E-02			-4.8166199088166E-04	3.03848021468712E-04	0.423381471217911	0.512380964437965
104125000	3.66746961748186E-02	-0.014714505115158	0.10351938714761	-4.60185013354089E-02			-9.4898092171583E-04	-1.72852637448693E-04	0.446596532726823	0.485625969380195
104812500	3.53504204557592E-02	-1.45036892391196E-02	0.104245082793789	-4.96671146598333E-02			-8.97491795145561E-04	-1.14809317649659E-04	0.469316248161343	0.461148585794963
105500000	3.72768369711648E-02	-1.56920344851991E-02	0.106549774311411	-5.89536548836597E-02			4.07185241414664E-04	-1.11136294809507E-03	0.494221024621979	0.432851810778148
106187500	0.033544480957755	-1.48728710764992E-02	0.10721701717716	-6.45167107872615E-02			-1.29689799833003E-03	-6.91449390389776E-04	0.512836410810071	0.408356976771689
106875000	3.56536043798678E-02	-1.71617525826344E-02	0.106210680564044	-7.39921574454709E-02			5.51694813406704E-06	-6.54004464174935E-04	0.534366027352998	0.376631764755914
107562500	3.43899744480648E-02	-1.78611244938587E-02	0.106123214662035	-7.88230494069616E-02			-1.34021746782029E-03	9.8401768473299E-04	0.552305552581648	0.349682379528137
108250000	3.66603631162669E-02	-1.93243915447881E-02	0.105436749608298	-8.66855068408112E-02			6.00355496574898E-04	-1.15593695789045E-03	0.566912592611212	0.314779731638299
108937500	3.28240848231723E-02	-1.95478009766273E-02	0.102733742804529	-9.12766729273616E-02			-1.46466872271315E-03	1.18483773163596E-03	0.581720234950046	0.285904667067632
109625000	3.45139081605367E-02	-1.96517559083842E-02	0.101273065374929	-0.100731560060991			1.62853056680488E-03	-1.35437708116983E-04	0.595287415702034	0.24748455173599
110312500	3.37034895515154E-02	-2.05074546105989E-02	9.59104219363003E-02	-0.10377547764091			-7.36684960409298E-04	7.4592473330232E-04	0.601762526109604	0.216457857181767
111000000	3.35985761487489E-02	-2.13053315606026E-02	9.47848415492486E-02	-0.111615837220535			8.45548023819057E-04	6.1493416867792E-04	0.610240978864842	0.176533848219071
111687500	0.030687281306788	-2.18382283204941E-02	8.68261021220325E-02	-0.114427216714496			-5.13085072206759E-05	3.47967081257254E-05	0.61911220427666	0.141909647640996
112375000	3.36298534683053E-02	-2.16288105644788E-02	8.28893706944739E-02	-0.118608385596797			1.87121733074025E-03	6.16739122600959E-04	0.62031326844753	0.105247126185723
113062500	3.17747613753921E-02	-2.40715090570467E-02	7.65573468481104E-02	-0.120788849810043			-3.55229325209594E-04	-1.08794990472754E-04	0.624765349760321	6.88248323285306E-02
113750000	3.22674010825458E-02	-2.30361690371509E-02	7.28084974005869E-02	-0.122190575413523			9.54025213848123E-05	1.00994058182007E-04	0.623454211973017	2.89682288994609E-02
114437500	3.01184786560093E-02	-2.52938513527892E-02	6.55307161868364E-02	-0.12383377531207			-6.89147662141781E-04	-6.26845959300669E-04	0.62448973481619	-8.44936993360004E-03
115125000	0.030862264947142	-2.49269059970354E-02	6.24160091152602E-02	-0.123167516579729			6.01658432684103E-04	6.48979731992407E-04	0.617477491371684	-0.050655200733481
115812500	2.98486379888997E-02	-2.57644224267634E-02	0.057140979605219	-0.122090584970786			-5.99302168958951E-04	-7.9825123216058E-04	0.610848126485497	-9.01560910555103E-02
116500000	2.97403230866904E-02	-2.63093308930745E-02	5.49133362562662E-02	-0.11804951164264			7.54306051575591E-04	6.68829335700385E-04	0.599080368854109	-0.134985592847432
117187500	2.95234366699081E-02	-0.028057093320297	5.14897466680168E-02	-0.114415004662367			-7.19993363062381E-04	-1.44937363123159E-03	0.585970379776093	-0.169509106302199
117875000	2.91099231885105E-02	-2.65533669348966E-02	5.04585654097051E-02	-0.108426064158857			-4.86262851463349E-04	1.52750761716656E-03	0.570314693185264	-0.211335531094531
118562500	2.98445111389427E-02	-0.02956535729303	5.14160198306392E-02	-0.102908433629101			3.47253912852725E-04	-1.01924666640265E-03	0.549878342790885	-0.248545825585966
119250000	2.70035026385951E-02	-2.92567506116002E-02	5.46012296109923E-02	-9.31834049711816E-02			-4.51273872968582E-04	5.68713318204037E-04	0.523301520379732	-0.288184858128414
119937500	2.92604317360903E-02	-3.13617130091033E-02	0.060664488886866	-0.088202132136374			5.86614330963825E-04	-8.61060508227643E-04	0.495697246592179	-0.327493908628764
120625000	2.61843626413685E-02	-0.030901270220502	6.87351166841991E-02	-7.81773352564577E-02			1.54245565688367E-04	6.59437169671014E-04	0.463799825966943	-0.362512246448813
121312500	0.026665455776949	-3.41035939552947E-02	0.082136765705554	-7.25363099546159E-02			-3.09120412742924E-04	-5.85955590689908E-04	0.426908546177346	-0.397471922843116
122000000	2.43561966389072E-02	-3.27504221557866E-02	9.82128253424386E-02	-6.52265379883779E-02			-4.8132773570834E-04	-4.4131766119488E-04	0.385929448305599	-0.427029114334444
122687500	2.47381217070094E-02	-0.034139934514565	0.119634350500439	-6.39054391556934E-02			1.47890435551731E-04	1.01790090278679E-03	0.341486227298753	-0.450625841585597
123375000	0.023209634328926	-3.53243657149618E-02	0.143378522878963	-0.063656533535544			7.26404506861521E-04	5.56019997155805E-04	0.291309961858149	-0.4729414527559
124062500	2.49978568937283E-02	-3.52881036362522E-02	0.171688647675007	-6.84528265350668E-02			5.23755665235457E-04	-7.12783143877157E-04	0.245149555333512	-0.485757797581506
124750000	2.26468951736876E-02	-3.59602838810967E-02	0.201595330386596	-8.13556426695305E-02			-6.72309916921503E-04	-1.09734436509105E-04	0.190460179374671	-0.494691594339814
125437500	2.46819557893196E-02	-3.59030948525016E-02	0.234993763557067	-0.101914720762941			7.24470719322814E-04	-3.28645006254819E-05	0.139675775922049	-0.496714332723864
126125000	2.04294009482399E-02	-3.67044952597943E-02	0.263582865741738	-0.130170217922008			-4.56763254197815E-04	1.7706091827584E-04	8.89154686316798E-02	-0.489544219226707
126812500	2.29350870253416E-02	-3.80076708194682E-02	0.293512320961649	-0.167098225913072			2.32356179577983E-03	9.72357196565126E-04	3.91168985590942E-02	-0.478116872631856
127500000	1.96545179844717E-02	-0.039671134496988	0.313389082828506	-0.213003154623177			-3.36129072782016E-04	2.0407426006166E-04	-5.44182874372268E-03	-0.460217358725777
128187500	2.17854633499298E-02	-3.86624545326485E-02	0.330778225655082	-0.263599570653966			-2.25917789135103E-04	3.29431254038955E-04	-0.047163917966995	-0.439779345278584
128875000	0.019886746303262	-0.04014966582002	0.335402903833739	-0.322864333393869			1.27359663376346E-05	-6.5294647818524E-04	-8.71963942747588E-02	-0.411025986251383
129562500	2.09653877508667E-02	-3.91660952452535E-02	0.332685303852922	-0.378878610863093			2.1321924921854E-03	7.83009586490935E-04	-0.114362678219273	-0.385002267720665
130250000	1.94460275159483E-02	-4.26070773963466E-02	0.318256471267899	-0.443689024514738			-6.31226512937909E-05	-9.74192506511088E-04	-0.141486744110763	-0.349319231177378
130937500	1.98032363831944E-02	-4.06428347091582E-02	0.296108326786872	-0.500700065098845			1.05546931068425E-03	7.33857383638033E-04	-0.161924699532847	-0.320047600637637
131625000	1.89575330777729E-02	-4.36678765249021E-02	0.262722915825338	-0.557130801059236			6.70619051478472E-04	-1.57800473602984E-03	-0.176558849964581	-0.286576623823695
132312500	1.79354336656821E-02	-4.27492437470346E-02	0.223827284143062	-0.604348116920977			-2.26038003525242E-04	-6.61713676454249E-04	-0.187197636226517	-0.257087001046138
133000000	1.62855963866613E-02	-4.25569222230726E-02	0.171481018769766	-0.651707705635364			1.47326262773248E-03	-1.4162762210752E-03	-0.196303373938583	-0.22594360728539
133687500	1.49864335356648E-02	-4.47898676332074E-02	0.123088789289502	-0.688812627792839			8.99651995862506E-05	-2.52892341791549E-04	-0.200699591642865	-0.197460960692349
134375000	1.64155974376253E-02	-4.46429515794049E-02	0.066316788674614	-0.7240636624616			2.53014965418694E-04	-1.7770286569398E-03	-0.207133242513468	-0.170670696224598
135062500	1.43999220950226E-02	-4.58014455508877E-02	1.16776544325561E-02	-0.745016687359683			4.97040321540451E-04	2.64280012067597E-04	-0.204700727283938	-0.145750239905191
135750000	0.016017356344939	-4.59074156007708E-02	-5.39264620902283E-02	-0.76481611957897			2.43845563081192E-05	-1.85990429899997E-03	-0.202189007245891	-0.123213488135369
136437500	1.29630166816918E-02	-4.62909904627327E-02	-0.114012625319417	-0.776326976006078			-1.10144353575244E-04	5.19054208443673E-04	-0.199524196374953	-9.92512379958579E-02
137125000	1.35460922945368E-02	-0.046221156155689	-0.177284518164967	-0.787942994403332			5.73265596704972E-04	-7.97539498685449E-04	-0.19192429727469	-8.07458721030649E-02
137812500	1.11428525665554E-02	-4.67779020957271E-02	-0.235841413655065	-0.782802450547416			-1.9217582916003E-04	-3.23011377593101E-04	-0.189408868904175	-0.062812345976915
138500000	1.07005350455295E-02	-4.85708611879353E-02	-0.300362614629488	-0.782601172033396			4.33962077922446E-04	-8.11970118672816E-04	-0.185652193117023	-4.25853350956899E-02
139187500	1.09272077635667E-02	-4.83748221217303E-02	-0.360264421073226	-0.770403412060333			-2.18064471778076E-04	3.66773423171576E-04	-0.176331165587836	-2.74466256553304E-02
139875000	1.06966265485695E-02	-4.74934963175951E-02	-0.419751918614906	-0.758103793487694			6.19544602782905E-04	-1.68866123720819E-03	-0.168137721189033	-1.40533691346409E-02
140562500	9.9877406832266E-03	-4.74759704580459E-02	-0.47349759330313	-0.73594245749002			-1.79469981325767E-03	-2.00013931646306E-03	-0.16073926103242	1.14459223070008E-03
141250000	9.60919662989114E-03	-4.86659308363227E-02	-0.529841126519931	-0.717124403187037			4.54857445366248E-04	-6.49859792276653E-04	-0.153625123932903	1.36593760805706E-02
141937500	6.51728872332514E-03	-4.86987955495111E-02	-0.578831111180177	-0.682275597597814			-1.1601527039653E-03	6.7904640164903E-04	-0.14459729517656	2.67149904457466E-02
142625000	8.61257289650991E-03	-0.048152123196421	-0.63081418014596	-0.654103302928931			5.84213343159155E-04	-7.12064404374491E-04	-0.133930380312673	3.57057395153935E-02
143312500	5.49390924000611E-03	-4.99339994459475E-02	-0.6797127217382	-0.616777679023959			-3.80494270986942E-04	-1.06961084233529E-04	-0.125589297620676	4.71173922808817E-02
144000000	6.88892000644052E-03	-4.78100075382194E-02	-0.719654836903681	-0.582587873540921			9.05996115231961E-04	-2.19310017339874E-04	-0.11573252126674	5.82008425095814E-02
144687500	3.82772891347208E-03	-5.05256594558628E-02	-0.761721548377002	-0.538256540557179			1.77317048445015E-04	-2.15502169033446E-03	-0.106393272170784	6.38865486568196E-02
145375000	0.004283084944824	-4.72457711198111E-02	-0.794558664251255	-0.493680272086252			1.15945073165132E-03	-3.27699983036282E-04	-9.55148690242882E-02	7.33990423626074E-02
146062500	4.90676691846406E-03	-5.00421296202906E-02	-0.828519602663966	-0.449637683327835			-1.32676605545044E-03	-3.73268424347952E-04	-0.084543866106657	8.01270811587353E-02
146750000	3.33893699974151E-03	-4.78539973951217E-02	-0.860691217860094	-0.40271048596128			5.30773334648921E-04	5.95639438646109E-04	-7.42524190278602E-02	0.083105832078191
147437500	2.5475073778325E-03	-5.09076645040388E-02	-0.886452707831747	-0.356558341506361			-1.19057710022871E-03	-1.31934627641814E-03	-6.22895312727162E-02	8.83317738282275E-02
148125000	4.17580579051204E-04	-4.91969423123939E-02	-0.905885341990144	-0.303340790366269			-5.69295473643684E-04	-6.95314199543662E-04	-5.14404528418645E-02	0.094440691292275
148812500	1.13905553478531E-03	-4.91244041458005E-02	-0.925571282184646	-0.257848843497545			-1.59988066099244E-03	-5.81060349182374E-04	-4.05437216611634E-02	9.71128119801605E-02
149500000	1.67569147947577E-04	-4.76652035972101E-02	-0.942362452976575	-0.20425698303329			6.75670428073578E-04	8.43081061282103E-04	-2.86122535415797E-02	9.96622792351269E-02
150187500	1.41811434791965E-04	-4.97828110890875E-02	-0.953542357032648	-0.15779908353546			8.1045971614233E-04	-1.50046145951331E-03	-1.89746231713674E-02	0.101050676642324
150875000	-8.81270632111266E-04	-4.68800006735267E-02	-0.963494141686206	-0.102959481064743			-8.69940618194886E-04	-7.76730864351895E-04	-9.03324321935233E-03	0.101477649515134
151562500	-9.47596014317943E-04	-4.89513029683678E-02	-0.965859250648864	-6.04993580300164E-02			-4.73290171549567E-04	-8.44052359955529E-04	2.02061032197234E-03	0.101987641174202
152250000	-4.46124113972711E-03	-4.69758373395198E-02	-0.97100738422144	-5.84494248252718E-03			-1.1808346195691E-03	1.07494785882614E-04	1.22540332956063E-02	0.100214025086783
152937500	-2.37263824272414E-03	-4.65512856114213E-02	-0.974964780999347	3.32926035621783E-02			-8.43768545800709E-04	2.18070788773907E-04	2.30204266866551E-02	0.100565829479485
153625000	-6.99990848941522E-03	-4.65263736310739E-02	-0.970225985295971	8.90354784416955E-02			-5.16357630861565E-04	1.4379985628726E-03	3.32282580180096E-02	9.70549165784338E-02
154312500	-4.73407365654693E-03	-4.71914763313734E-02	-0.96819648777688	0.128017624641495			-6.43840372599595E-04	2.6030444862537E-04	4.19217382881076E-02	9.73920111376037E-02
155000000	-7.43739921339884E-03	-4.73108187909746E-02	-0.957883044630539	0.18114683622431			-1.77106866741476E-03	-7.63789969087824E-04	5.15481442829794E-02	9.34965445421767E-02
155687500	-5.49201817137188E-03	-4.60466328177802E-02	-0.951694442158001	0.214180661417342			-2.54560958040107E-04	2.18311529925318E-04	6.16180754993949E-02	8.76716979587192E-02
156375000	-9.32900211299931E-03	-4.51779741590907E-02	-0.948711620454811	0.269275927596198			-7.86506327479433E-04	9.91422232617339E-04	6.94795223774149E-02	8.29408696275447E-02
157062500	-6.43182734192297E-03	-4.31666044650047E-02	-0.93150799519611	0.307657149536776			1.29062169289029E-03	-2.33784126229702E-04	7.81629474527607E-02	7.78983728894155E-02
157750000	-1.00439812632276E-02	-4.56833790415176E-02	-0.924306585285159	0.353098168913405			-2.07309374908096E-03	-6.62732994741122E-04	8.54602351056109E-02	7.41794657981939E-02
158437500	-7.87298584538928E-03	-4.28064685725364E-02	-0.905365300829724	0.389669003341941			4.57509382328303E-04	3.73592385236813E-04	9.25336302781685E-02	7.05562469367296E-02
159125000	-1.31879892508427E-02	-4.43147258506845E-02	-0.891920105479079	0.437654843288422			-1.08653867017845E-03	-4.29881431078962E-04	0.100054520257561	0.06187125031434
159812500	-1.11544805073652E-02	-4.16490700265499E-02	-0.869995876293283	0.473038361089367			-5.87263492686753E-04	-2.1046359138519E-04	0.106103905489838	0.055899658206148
160500000	-1.29589337613203E-02	-4.45764342655187E-02	-0.852511116445884	0.515209086508807			-1.84210341101731E-03	-3.3056689987417E-04	0.113226618948377	4.92878329624793E-02
161187500	-1.29865854733341E-02	-4.28142505242312E-02	-0.824981484939605	0.547539799746851			-8.70950883994556E-04	-1.7470840222541E-06	0.118504413567821	4.27422418152372E-02
161875000	-1.28763836846898E-02	-4.30301900613451E-02	-0.806361081949568	0.59032954264171			-1.15434219620573E-04	-1.00198087435978E-03	0.12228157987266	3.59128094708405E-02
162562500	-1.31487086239253E-02	-4.05195812451979E-02	-0.776698604619382	0.622649734563817			3.56447389798049E-04	7.20921149510561E-04	0.129487310145915	2.77272326354567E-02
163250000	-1.46164166607715E-02	-4.32539070779349E-02	-0.750235873178261	0.657873582637011			-7.16514494132496E-04	-9.54329945904379E-04	0.134478942801728	2.04980784531771E-02
163937500	-1.63180247177068E-02	-0.040321109816731	-0.725107872487262	0.686834734001967			-8.79534773484169E-04	1.62015002135365E-03	0.137549086072297	1.25892948020345E-02
164625000	-1.53834677641606E-02	-0.043245056847952	-0.692434879043092	0.717900947232904			-1.15576273267228E-03	2.20108207220609E-04	0.140076130151212	1.29590187510041E-03
165312500	-1.86497776883506E-02	-3.91180504046622E-02	-0.662593571506114	0.74832328964164			2.03497352177819E-04	1.49331573591542E-03	0.143312118045073	-4.39652990109718E-03
166000000	-1.58769021226875E-02	-4.12198848692333E-02	-0.630013011227381	0.777275296912812			-1.51040362615725E-04	-6.79072716011548E-04	0.145961107850461	-1.44242497841634E-02
166687500	-1.82585121185709E-02	-3.99205584348219E-02	-0.599695888070125	0.799168081540369			-1.1874211192571E-03	-4.93727485028508E-04	0.147247138446484	-2.24425123249004E-02
167375000	-1.80691053366011E-02	-4.16472921451762E-02	-0.564673868134328	0.825068311001386			1.89374697078699E-04	2.08827427310355E-04	0.149182380574382	-3.13927981368169E-02
168062500	-2.03449802982002E-02	-0.039332173634001	-0.534697752843312	0.844085704237018			-7.96171507064168E-04	1.3839625408446E-03	0.151371190511337	-0.040336789236407
168750000	-1.92024567244654E-02	-4.01559330431932E-02	-0.494378359461729	0.865699987657236			7.50835065459143E-04	3.43924940495029E-04	0.150056157710374	-5.04052486629609E-02
169437500	-2.27688871252377E-02	-3.89615603694871E-02	-0.461236542526614	0.878581400485843			4.66065088578014E-04	1.01842952024777E-03	0.151206316824968	-5.83122541914459E-02
170125000	-2.05494768306779E-02	-3.92308687833338E-02	-0.425759114674247	0.900067266912785			1.82189521356766E-03	-1.69652015976942E-04	0.14751185842075	-6.71133720168537E-02
170812500	-2.14741938115181E-02	-0.038356758724438	-0.392022049392755	0.912339275838447			-9.06596156498474E-04	2.15444431279368E-04	0.148212480094425	-7.81896084500748E-02
171500000	-2.14885402179792E-02	-3.68690016151645E-02	-0.354367073209684	0.929122213979119			4.1911136841671E-04	3.29730584466522E-04	0.145287833177991	-8.56430867209733E-02
172187500	-2.54009183998469E-02	-3.86977916591782E-02	-0.319619689495934	0.936209281855537			-6.92851568785726E-04	3.90939046538934E-04	0.141811982381142	-9.46498911506542E-02
172875000	-0.023365198865099	-3.58638099910962E-02	-0.284812545881081	0.953890381255165			5.75040987293385E-04	2.57838793354791E-04	0.137023221544207	-0.103393214674302
173562500	-2.48933141023425E-02	-3.89415554142155E-02	-0.253160499715981	0.959919042482608			7.98430813140248E-05	-5.69526443153343E-04	0.136686591939122	-0.111286659465365
174250000	-2.44290235667897E-02	-3.73374968523594E-02	-0.215024454589195	0.972443920689543			3.47482645551605E-04	1.35325711307033E-03	0.128885089627405	-0.121288820971844
174937500	-2.68900451823245E-02	-3.70519433840614E-02	-0.186779467595446	0.978152437557452			-1.85308373435242E-04	7.05515095095171E-04	0.127672358583057	-0.128739869298237
175625000	-2.64523617467252E-02	-3.68660714563285E-02	-0.144287025684461	0.987251954005701			7.14237001395247E-04	1.13887081402776E-03	0.120193645038003	-0.136290194634344
176312500	-2.62223375211787E-02	-3.59107857830637E-02	-0.115737192233278	0.990136101963843			-7.27512532336605E-04	4.96294713872172E-04	0.117630326616866	-0.144068078360664
177000000	-2.69126301501665E-02	-3.42669308522087E-02	-7.65229897516687E-02	0.999138912252802			2.53754682612032E-04	2.54389809740816E-03	0.108990141283112	-0.154015582554155
177687500	-2.67981547337802E-02	-3.58398353740512E-02	-4.34825340671977E-02	0.997656071055486			-7.15467852090039E-04	3.89483868000353E-04	0.102107369632814	-0.157665569773201
