# Hz S DB R 50
100000000	-27.1405767648206	-17.4656948239579	-26.9786548855764	-9.65094681048065			-62.7896561194503	-45.2551560760145	-3.48823466648147	64.5287371263026
100687500	-27.4535332896062	-18.3377430257669	-26.4621208192363	-9.31288533837879			-65.5490529625369	159.761297866728	-3.49022784528679	62.0176091794426
101375000	-27.0066599559532	-20.5981433852286	-25.8420087743885	-13.2765172583322			-57.6948707667374	-59.9420965802996	-3.49863863994249	58.8913017501139
102062500	-27.4821635359655	-20.3436797482021	-25.7175885719401	-14.2472399607175			-58.8680730780154	113.816813485977	-3.57762516260357	56.0518119618977
102750000	-26.9668494316441	-21.1088025883873	-25.2563701965881	-17.2652740446824			-58.3027945785082	17.4594211838766	-3.56450526403451	53.0618204111082
103437500	-27.5826466025585	-22.814103910276	-25.0267410970924	-20.4126602371725			-67.5544887765502	-115.95050830992	-3.57963598718664	50.2096208108019
104125000	-26.8509371054327	-22.8666869028135	-24.4742519450088	-21.8134267839044			-60.7037605199376	-24.0420099743978	-3.59144183084795	47.0983624190771
104812500	-27.4123947101565	-25.4261018826213	-24.3034955241548	-25.4989523152458			-59.16300057488	147.117583184041	-3.63872211595452	44.1148347859801
105500000	-26.9766335780924	-24.268535039411	-23.8851563038858	-27.4576474650301			-60.1457382454555	12.0184162451712	-3.64003915267358	40.9649280057802
106187500	-27.5148655632443	-27.8139086867118	-23.6895956536324	-31.941832398805			-66.1140702173712	-166.614258638769	-3.67317359337821	38.0107067703275
106875000	-27.0781916281335	-28.2556963403581	-23.291965249026	-34.1858549290554			-69.6099807958186	154.146273726661	-3.6910228892508	34.7733030498894
107562500	-27.2640929247509	-31.5640404630549	-23.2470449679424	-37.1024506025822			-63.8012379550385	-174.895863781633	-3.72718960396803	31.4273383613298
108250000	-26.7772566397132	-29.0002433405971	-22.7899627873792	-38.9523381687331			-60.0341452265942	128.432135000523	-3.75905992430233	28.442110259022
108937500	-27.1505200546143	-33.5161786012718	-22.9208318429792	-41.9737531089929			-62.991690547754	-115.712370021363	-3.81511581354721	25.0339460079462
109625000	-27.2851526393029	-31.6072805911583	-22.655062417722	-44.1073341700898			-58.226021755531	70.6273153167256	-3.82869048499047	21.9238458720094
110312500	-26.7919462712998	-34.5368276256976	-22.5598136688925	-48.9973025349319			-62.0137392841981	-102.000948444718	-3.89811561183169	18.5995821079859
111000000	-27.0666721196428	-34.0503373477548	-22.4636380163202	-50.7317327095559			-56.3189895465362	45.2026080967315	-3.91479908035507	15.250357956477
111687500	-27.2270343182045	-38.5381851546312	-22.5373311805875	-54.8998052910582			-62.9278327942573	-82.5374540413489	-3.97336007684521	11.3782981447038
112375000	-27.2359339261212	-35.115165950682	-22.685411495764	-56.374271144425			-55.3655758991759	109.201492415811	-4.00583972217667	8.20095487342821
113062500	-26.7906981131948	-40.7201711160222	-22.5703438371737	-59.6185134841504			-60.2483827909686	-38.3473313064295	-4.03359816296129	4.84366172634025
113750000	-27.2107434962426	-38.4557793783902	-22.8726840838734	-61.1793753230664			-60.2289175814052	84.5971987288982	-4.08962795220747	1.17758076965318
114437500	-26.8956294398884	-43.6378944761863	-23.0663353182487	-64.4962589659233			-69.8425165340317	-149.719979825787	-4.06892366646862	-2.47533765288879
115125000	-27.154969072338	-42.9000750866378	-23.2930781890066	-66.1391102562696			-56.7313443493468	135.347256366242	-4.13124359840372	-6.33469648758564
115812500	-26.7383392559537	-44.7882968145608	-23.2619140510296	-66.6619278082305			-61.0085650635361	-103.820580277496	-4.16953377078516	-10.5392563395181
116500000	-26.8706294969704	-44.556493452005	-23.8448288910393	-67.5717763806713			-60.3476055325419	116.934925989486	-4.17786602617704	-14.4629547256552
117187500	-26.609036050359	-47.7069537550946	-24.1396579504681	-68.8870192788059			-62.0579592693677	11.1244661019405	-4.24123286701329	-18.2677281011554
117875000	-26.9028734662333	-46.3937347490175	-24.5713720212505	-68.3604097403599			-53.0511113569466	168.770525800465	-4.26435932813797	-22.5481585866103
118562500	-26.4098608550194	-47.6895079850397	-25.1046120187079	-64.4887724351067			-59.6772100422758	-1.05540974481132	-4.29832242769891	-26.709961951207
119250000	-26.5563863683475	-51.5480854050748	-25.7313069966909	-64.309509715527			-54.4929133443995	136.344439418688	-4.36061417043026	-31.4305363455094
119937500	-26.4703053655487	-52.0382482882858	-26.0310577014393	-57.6804461740585			-64.4702888797671	90.6269014778266	-4.38371932455471	-36.0986050419629
120625000	-26.6694326299026	-54.3958547613853	-26.3598510614254	-51.8737667567349			-57.6877321865812	155.450742147021	-4.44315283452904	-40.9408945696498
121312500	-26.1416358959063	-53.0877924350147	-25.8714729755211	-41.4111124762792			-61.2300472007014	54.8604094511478	-4.52968401712169	-45.8068723261907
122000000	-26.4446219094581	-57.1905072067881	-25.1933975373737	-34.5345215371362			-58.637634158612	-36.8117876568777	-4.58740660055732	-50.7764139342116
122687500	-26.48985402186	-56.9072935802859	-23.9140967699025	-27.4419209181867			-62.4090606657334	26.3145717783	-4.72653456804226	-56.1467881897104
123375000	-26.2620182830743	-59.7692615100706	-22.5622240452532	-24.1929420333728			-63.498347001563	-158.686450079834	-4.81000966503616	-61.437954405568
124062500	-25.9709363301261	-58.6617668088309	-21.0508483453968	-21.1967941128403			-57.6074828728126	89.5691567424787	-4.98702060310502	-66.6068914650651
124750000	-25.8009968902469	-61.5105808012977	-19.621994108889	-22.9595247982994			-70.1992365486942	-51.2197236960094	-5.14005971831412	-72.279592275439
125437500	-25.963433226822	-61.1873211642578	-18.2598914276306	-23.420242910686			-57.8088914364844	102.53030670246	-5.35867629619223	-78.2571105448411
126125000	-25.778133321199	-64.8311245948692	-17.0295979307632	-27.6775696831375			-54.4137589358403	-35.6056239178798	-5.56696972501818	-83.7049444982082
126812500	-25.881042734216	-63.4612217238993	-15.9334198424837	-30.2433577260714			-64.4851504296699	159.094678430055	-5.8836142798017	-89.4797173575469
127500000	-25.5212279281321	-65.7920314381998	-14.9052039397741	-34.8852667433663			-56.6693638172071	-52.4512726336404	-6.1359429114982	-94.7253264584576
128187500	-25.7580420610935	-66.7436765738871	-14.1139563288464	-39.3552271970413			-68.8311581013434	85.7346338710301	-6.48452896707991	-100.505837602131
128875000	-25.3036355977826	-68.8832002139201	-13.193197424889	-44.4986194067265			-60.9937314106391	-32.6446198658151	-6.81783840025916	-106.229195259387
129562500	-25.4193523955005	-68.6186620335936	-12.6043339436679	-48.7354208997945			-72.3806248796423	-108.807818748727	-7.16471906314706	-111.817357933876
130250000	-24.8257326982238	-69.6388384704252	-11.8902800267962	-53.8848817284103			-61.5807206619078	-45.5846417662123	-7.5910853300087	-117.327922871145
130937500	-25.3467518759717	-70.2107451584039	-11.4333868301563	-59.2688185326774			-67.0544258434865	-1.5843597546097	-7.95220209912379	-122.597509750902
131625000	-24.9220984167652	-71.9585606278936	-10.9046652838819	-64.1538725684703			-61.2121402207287	-27.4709096583769	-8.42726602060952	-127.964821979356
132312500	-25.1556130651131	-72.9157355974925	-10.5552438034987	-69.0361239302879			-60.8682448746091	-59.672199572518	-8.80008659414721	-132.98494022962
133000000	-24.7859086018188	-72.3058227103724	-10.1588839924166	-73.9883927436926			-57.6309851417536	-34.753099971998	-9.31453257808857	-138.13492586925
133687500	-24.7691844241017	-76.576389723734	-9.88804043696668	-78.5959269585153			-59.7291993611522	154.937887172591	-9.65843173654419	-143.170343793126
134375000	-24.5997311358717	-73.7808495807836	-9.47935964655587	-82.88420324022			-60.6980157153704	-74.1851062873451	-10.1160035346034	-148.753581183569
135062500	-24.6002938947247	-78.4369844196519	-9.2762608263586	-87.5052119768459			-56.1360735413713	-135.763221010827	-10.5556829484349	-153.296739949088
135750000	-24.6899416721781	-74.6906104858329	-8.9941500117805	-91.6945020351215			-57.9724244320054	78.4199216085851	-11.0408131416246	-158.13884931418
136437500	-24.4976276114939	-79.2901033106153	-8.82303409172164	-96.1856930719536			-58.0334902148072	149.483818047773	-11.4326679922419	-163.138826738065
137125000	-24.6018081582219	-77.0628114664761	-8.58347796876313	-100.301632244195			-58.267764446711	0.189890253583453	-11.9370103477481	-168.005360714065
137812500	-24.4417669329825	-81.3879297937987	-8.41870082160143	-104.330664285981			-64.7808975346556	-143.351337340633	-12.2843600788617	-172.986130657314
138500000	-24.345788194042	-80.502129771859	-8.23830612532805	-108.388723293294			-63.8863772802292	45.8571733939196	-12.6236920167058	-178.800209282149
139187500	-24.1232468072856	-83.2777871664435	-8.10166052048379	-112.389548135974			-56.122037760301	-126.348797506157	-13.1589998519753	176.696599665861
139875000	-24.488084133222	-82.0909936930099	-7.90101936540541	-116.251935824844			-65.3574135814176	72.3774036679091	-13.4649532477961	171.056242989947
140562500	-24.2138027836662	-85.320780715625	-7.78674836666609	-120.022979706233			-58.5428415167738	-71.3441813050659	-13.901958327847	165.508123318084
141250000	-24.3520814204414	-83.4235657938108	-7.63501721139552	-123.735583196231			-62.5267535453948	32.840814963315	-14.1453403196361	160.445108944276
141937500	-24.0940577008079	-86.4185454454243	-7.5887468090968	-127.601658031699			-63.2842202936895	-86.6158539480063	-14.623766781423	154.748517712761
142625000	-24.3054051326744	-85.7363919741535	-7.46893310757501	-131.023962259765			-53.1458796570577	162.006196577001	-14.8850339851305	149.788965603496
143312500	-23.9341332275205	-88.3651812333652	-7.38362879639768	-134.617335322424			-54.0051438395226	-89.490571722719	-15.3207151459755	143.867274743754
144000000	-24.1941743726439	-88.0089752235646	-7.26616772468855	-137.842674487925			-61.9708484253453	-146.657940103667	-15.580995825124	139.194269173303
144687500	-24.1005719649339	-89.5902460507504	-7.2766124701604	-141.452997398056			-64.6230383020007	-99.8295579160343	-15.9465297297682	132.64078898352
145375000	-24.4238857245306	-89.9533542761054	-7.1539144716172	-144.932057662079			-58.5471903638652	-146.690755029204	-16.0593103539582	127.111199982868
146062500	-23.9720166255902	-90.1065208611363	-7.14056075725155	-148.238386971806			-58.4816597986413	-87.2145505886855	-16.4213914570419	120.851552042268
146750000	-24.422351732677	-91.1285368653934	-7.04442230441897	-151.656926506152			-60.1052205658967	129.17695181314	-16.6197167901038	115.727437435505
147437500	-23.8771611267512	-91.3458374182537	-7.05107893176577	-154.628284955577			-57.9069436881918	-43.1951193009113	-16.8352897558058	108.507385092832
148125000	-24.322493710898	-94.5033221915746	-7.00607179734566	-158.022454996894			-58.5956851736134	-115.466886630957	-16.9826617288452	104.629282342518
148812500	-24.2176283540337	-94.3761155705825	-6.98537348163504	-161.012438564383			-58.5203512241729	107.595458359422	-17.0611204500901	97.4394938899864
149500000	-24.2610189027134	-96.4180753294931	-6.91929721989808	-164.053792163004			-57.0336311092278	-152.91802303284	-17.3359607247902	91.7034572043528
150187500	-24.3343649659513	-95.4444420581496	-6.97773534112608	-167.185946550306			-59.0177639604425	-72.2013243069941	-17.348618921561	85.702406591307
150875000	-24.3099352335852	-97.3373960926227	-6.89666794861492	-170.125678647633			-62.8028309085608	-149.820579964095	-17.5189874272591	80.3854847652226
151562500	-24.2152461527605	-95.6052956347631	-6.95282633205285	-172.727034005805			-64.3176895077954	-8.7978306492155	-17.4395091776152	75.332440052654
152250000	-24.3966859423789	-100.867753780788	-6.88039274988665	-175.387174536149			-56.583474434855	-136.533919087534	-17.5510784559614	70.0407016392063
152937500	-24.5836343174494	-100.110889091568	-6.88536516294408	-178.306052505526			-67.2205411354745	-95.1453686332419	-17.515511715647	64.2083791944232
153625000	-24.2945838679447	-102.831762951459	-6.84045281320839	178.858434162872			-67.8283469903581	-167.474682541056	-17.6075247163754	58.3455107013558
154312500	-24.7216297307039	-101.75112374642	-6.86465753860636	176.392314492628			-66.134847373823	49.6235663777777	-17.3327705418999	54.6985575429318
155000000	-24.2761964403556	-104.435305677211	-6.80096739170685	173.567208207031			-60.0039984465565	-168.119319221441	-17.514438289915	49.2518634125011
155687500	-24.9254020059488	-104.420081653461	-6.87941026318013	171.159202515676			-62.1427839672733	83.3254917668351	-17.3829559895998	43.2732022034035
156375000	-24.3569849915997	-105.086476053892	-6.76878378765788	168.421509617916			-60.2049898560538	-110.207449231994	-17.3254810517732	38.7177305169251
157062500	-24.9403945847329	-107.324489789532	-6.80383571076973	165.931247047276			-62.0921120329747	6.64503342672983	-17.316870238984	34.5029234390967
157750000	-24.1931970625917	-107.791205334106	-6.72457777620132	163.474987749167			-64.678631353909	-91.6421567105132	-17.0963322198008	30.0727715063786
158437500	-24.8146583076829	-109.90011017579	-6.7561159535779	161.057115672635			-52.8424957900116	166.1115536047	-17.1290413703488	26.1663528490478
159125000	-24.2474308530775	-110.23174749388	-6.67650098167844	158.513035325842			-56.613384894712	-133.791150759611	-16.8430300987321	21.2357660760241
159812500	-24.983408152972	-112.399145358954	-6.68391965732129	155.892623565049			-57.8342378072703	147.201786764682	-16.8718586072199	16.9201489345945
160500000	-24.5082936855184	-110.228293532975	-6.66859320433816	153.318967053708			-60.0530603723395	-33.9384067281173	-16.6633832485638	13.160363015091
161187500	-24.700000118254	-113.098948341929	-6.7045363869169	151.173356478874			-55.0281725237044	178.054970169681	-16.6403034502472	9.35036765499578
161875000	-24.5459421301813	-111.02656814553	-6.62762911493977	148.661690479361			-66.7169755758203	-113.654687974236	-16.5527694378833	5.63043137772922
162562500	-24.8404855519346	-116.253254763137	-6.68085485252534	146.049211950959			-60.4641132915565	175.311714351336	-16.328717189353	1.00945882968311
163250000	-24.5916629477014	-115.30613833499	-6.64953442904999	143.490760484249			-66.7548051702757	-67.5926330043271	-16.1454009199313	-1.92772283500974
163937500	-24.6155384073123	-118.449744648036	-6.66430322988764	141.346749794154			-58.2171243342831	124.443715707922	-16.1661230999786	-6.12637052677708
164625000	-24.7880350567162	-115.538730247831	-6.66392669492411	138.732139782707			-56.3852724002425	-8.67296515411722	-15.9014126578375	-9.49320993011013
165312500	-24.6685781310107	-120.471828991209	-6.65210841587484	136.305381695359			-59.5316866712421	-139.355066635503	-15.7972959110476	-13.3956274307764
166000000	-24.8680275962538	-118.768557220551	-6.63246321644638	134.036915593466			-55.7032231479678	29.2741977780047	-15.6339085961032	-16.5658527308114
166687500	-24.5366605903897	-121.198257114895	-6.7099493111661	131.928608782679			-55.8224959005289	-169.143259134713	-15.4970889407149	-20.3645930671598
167375000	-24.706154431629	-120.151043208854	-6.64964158364422	129.56446264642			-52.5338333823461	110.467907820539	-15.4888506502122	-22.3809846525023
168062500	-24.3498307022488	-124.136556874666	-6.66059944385176	127.457836392546			-56.2791955124905	-168.427360302219	-15.2891196640453	-26.0514096265811
168750000	-24.5845784639295	-122.828191919433	-6.66135551587136	124.810331575334			-62.2918776487267	-0.942753343141642	-15.1674380547696	-29.6901652812641
169437500	-24.4444015093892	-125.65052327576	-6.71713901580372	122.928733555441			-69.352899354064	72.3445781710847	-14.9990391480838	-33.0843023071652
170125000	-24.7257800174378	-124.76672427957	-6.63035700701824	120.55633871921			-55.52849750629	30.0211465813239	-15.0327806754918	-36.0835078460175
170812500	-24.423044969929	-123.643167584818	-6.73349908225605	118.659595402751			-59.4657871525164	-72.6700546238115	-14.716045254359	-39.3544158025124
171500000	-25.022987294235	-127.447477366061	-6.65270315158963	116.672141995855			-51.6308357420826	126.462072073398	-14.8172739892938	-41.8229936857467
172187500	-24.1989876238876	-128.582238751158	-6.7478190321769	114.551375416586			-73.4682467217984	-3.59452302159195	-14.6074662697524	-45.118930110632
172875000	-24.8711453220058	-129.06691137838	-6.65694012428896	112.664789129179			-67.4680916177147	126.299067872554	-14.5661421183217	-48.5715123473566
173562500	-24.3059949258577	-126.816279988929	-6.73332154914931	110.599720592436			-58.7172294385615	-127.718998530575	-14.4247069340393	-51.2076887514136
174250000	-24.5978526599913	-130.929756562294	-6.63893402367564	108.546921921336			-77.3184183941018	130.114823857828	-14.3650928774061	-54.6084156125043
174937500	-24.6000430419763	-127.481481993442	-6.70787205457752	106.534277542242			-60.2696545218812	18.6281469794162	-14.3012103788338	-56.4850877207171
175625000	-24.3363654090552	-132.983044183522	-6.61830502975046	104.524238112987			-53.2122749921201	151.285352678633	-14.2060263320267	-59.9985302192481
176312500	-24.5334937796844	-131.95379692337	-6.69709522713946	102.533361727577			-76.1122213763816	29.7205149146132	-14.0317839128445	-62.0800201846301
177000000	-24.4425685803362	-134.714788326511	-6.54929069057389	100.61012527788			-65.1978746810473	86.3789446105094	-14.0000696326712	-66.3816728376942
177687500	-24.6293513347907	-132.387959241593	-6.60807643343901	98.3664651046228			-62.6284173003508	-52.7577839399829	-14.0042775323719	-68.349234070405
178375000	-24.4039556713108	-136.432471521118	-6.53013959317093	96.4179439213041			-56.8132796527455	157.99431833817	-13.9449079084205	-71.9885044890813
179062500	-24.4620783296017	-135.316437486516	-6.51620249958608	94.2017189291754			-63.4749855363826	11.7611566978244	-13.8227464145068	-74.2723135196548
179750000	-24.1568427650201	-138.552736544134	-6.47337334947253	92.4844952521184			-57.0294605898276	140.339823341367	-13.7073411559339	-77.2731627838892
180437500	-24.5271143161651	-137.055266167127	-6.49164384883375	89.9296590372203			-57.632100604383	3.21007398945131	-13.6307621107329	-79.8656729152385
181125000	-24.2840342430442	-139.993441171002	-6.42475142763909	88.3300893250259			-59.6607477996846	-177.822536595325	-13.541603636431	-82.8803606031593
181812500	-24.5280009305444	-139.283442869988	-6.4357248220823	86.0203077655233			-67.8338371586334	94.4602265875425	-13.6037155373841	-85.8689831936703
182500000	-24.0410671634423	-141.951088669625	-6.38370025094809	83.9437546700483			-62.9485195046503	-109.626700457877	-13.5908786293542	-88.2374105236286
183187500	-24.4075144381904	-140.96253896194	-6.39972654922628	81.5580818326288			-65.915926741727	44.7338194445198	-13.5131982006321	-90.8577233017711
183875000	-24.2304252967098	-143.522598599282	-6.35820062514509	79.5478117456659			-60.6355670354778	-130.784282846527	-13.5095463836031	-93.2038323033662
184562500	-24.4799508641563	-145.153575027003	-6.35540632382946	77.4687588595158			-61.869940779886	35.0119922580988	-13.4714735042108	-96.6588112705808
185250000	-24.0799683123251	-147.428861796964	-6.32081348817114	75.2678102929232			-61.5986171047278	-7.56766692279316	-13.3379713659601	-98.948867422855
185937500	-24.4649574671709	-148.642308892624	-6.35733524807616	73.126968215901			-59.8234283644728	59.5880086688757	-13.4642594877651	-101.624930858504
186625000	-24.0322194423796	-149.399736444851	-6.3368821719451	70.9161572344171			-57.5483927239902	-7.09763919823745	-13.3838425866527	-103.81001483978
187312500	-23.9986488021525	-152.856347922894	-6.37389512207035	68.8806170998322			-66.2817930303693	175.058368713259	-13.3087899989725	-106.770019911285
188000000	-23.8872057465758	-152.301937503014	-6.39076631832057	66.8918624811102			-55.9333967255266	-75.0109439910312	-13.3161670417535	-109.075456592472
