# Hz S DB R 50
100000000	-28.522979601625	-20.9840693082808	-20.9943867745595	-10.7940440880851			-63.6850784909557	90.573535047047	-3.53632620690577	64.7398228816176
100687500	-28.5765297259449	-19.3496386900473	-20.5475691822382	-12.6054733109277			-63.7085518792585	11.233568691854	-3.49901401310045	62.2697711733489
101375000	-28.3383947954535	-23.652558043017	-20.2244568285641	-15.6831052569099			-55.3738512290621	-114.233402413512	-3.51265407732859	59.1029319243635
102062500	-28.7470823143864	-22.3813032724101	-19.7704731175884	-16.7648905408573			-57.6121024306004	45.874183175863	-3.52711585182109	56.5755710113063
102750000	-28.3621070970488	-26.339138824245	-19.4260594770012	-20.3855713907478			-56.4277893870056	-50.068347102138	-3.60074135134704	53.4099168805823
103437500	-28.5213021990531	-25.4529203955107	-19.0074985735627	-21.8743177757441			-60.1033106735861	113.794098496293	-3.55429837526217	50.7156687239534
104125000	-27.9566633059909	-26.5333701202063	-18.7482502444525	-25.4985651890467			-61.8089515941597	-115.181005819184	-3.63134213223323	47.5889658584524
104812500	-28.5452766777956	-25.5433384138678	-18.4123186982959	-27.2243384416129			-57.8092456365701	162.825424867519	-3.62552248708708	44.6807931964819
105500000	-28.3033484215119	-27.1571610022893	-17.9952670665095	-30.8463534119409			-73.6184720554374	-137.724671885434	-3.64520631028251	41.4204701139884
106187500	-28.5964150527067	-28.2355939373718	-17.7461417439167	-32.5800474889468			-60.6635381354813	84.1061223430385	-3.65451782230525	38.8034517591651
106875000	-28.2957546681346	-31.6681338028574	-17.5203624750773	-35.706486234595			-69.8579023906491	16.3905717159453	-3.70608222618721	35.3760282920571
107562500	-28.3540208960725	-30.066428479848	-17.3781959962331	-38.4102964662425			-61.8618096302514	141.152708903155	-3.69831205935656	32.3585334389166
108250000	-27.5023196603316	-32.0125960339871	-17.0411625559765	-41.3691044111087			-56.0319659914625	-67.8041994108288	-3.78072442963388	28.8657808444358
108937500	-28.5444816676702	-32.4523756483176	-17.0338547534194	-43.7239389456983			-60.2819204325961	-120.671751221771	-3.78596935578895	26.2140465263073
109625000	-28.0988243152978	-32.1757574906051	-16.6708935952103	-46.4650537263482			-73.2618611807122	-2.74222578206811	-3.85348274999026	22.6031063203618
110312500	-28.4140255717267	-33.6520484962297	-16.7071820122866	-49.2413039759474			-62.1555753279826	156.398835748872	-3.86897321252393	19.6481011484472
111000000	-28.0397098789374	-34.2966312257327	-16.494366921387	-51.6068390018351			-72.2481581480614	-131.109138083082	-3.92851612327229	15.9160746775198
111687500	-28.2752124739874	-38.5201980793012	-16.5798904376331	-54.6191035061338			-59.0947915894834	-108.658074116301	-3.94832823263065	12.8552420457068
112375000	-28.1827497498073	-34.6797133693705	-16.5393757085736	-56.6265695663498			-62.6681113304904	152.332698179511	-4.03014775698895	9.43190985490949
113062500	-28.2211504158414	-40.3953353386689	-16.6383992597004	-59.8793781286493			-61.7753212154238	-101.227095551216	-4.02387439402224	6.13102638714544
113750000	-28.2246587747747	-35.5259765752366	-16.7323646079544	-61.2256463920379			-54.9042644942113	7.62725541801955	-4.09921513951547	2.41563601172964
114437500	-28.3760303121577	-41.0621143457845	-16.8613769316601	-63.334293681401			-64.7090757935055	-94.1584857141881	-4.11923762039858	-1.05808643193525
115125000	-28.4188148167274	-41.5113371462488	-16.9716984374666	-64.9590671521684			-64.1816637100772	-5.3299702217311	-4.1315046231333	-5.12032546072186
115812500	-28.0825509361444	-41.249422262285	-17.2647249230167	-66.6592250384591			-78.487868877497	-111.276880126642	-4.22189686861351	-8.78238347272242
116500000	-28.4330813337095	-42.3562177643747	-17.5710215288913	-66.9758475370619			-60.4618857106278	60.7839987968975	-4.22121935828653	-13.0219677446027
117187500	-28.3521379387675	-44.036777877795	-17.8561727118542	-67.6218842313812			-61.9469091887358	-139.557885517734	-4.26514980594181	-16.4284767878223
117875000	-28.5810843833584	-43.4478914916106	-18.3727412567506	-67.328936936721			-58.8709374407983	66.9344017048476	-4.31688839009051	-20.8251345701931
118562500	-28.073484355845	-46.1733715776725	-18.7016331219219	-66.1059433544047			-67.8873369853328	-50.3534589797368	-4.38082354123427	-24.7977753967853
119250000	-28.2417372543398	-47.7694693892658	-19.2290060142368	-62.7044859941641			-58.2157412589982	51.7397662087098	-4.44082690079552	-29.4677014861494
119937500	-28.1090442099878	-50.7110769642651	-19.4270139402701	-57.7828509589081			-61.9581526546	76.5836587724629	-4.48031031060334	-34.1506214875933
120625000	-28.6452700134377	-52.809826892553	-19.61315304396	-50.0900603074469			-55.3354596370856	81.9820526004432	-4.56538450247652	-38.6110555099242
121312500	-28.0529532301767	-54.2626580151821	-19.2409341825068	-43.2489788451583			-54.4193013109318	-81.0977634765242	-4.64398155490121	-43.5360023565447
122000000	-28.3639520696668	-54.6716817288991	-18.4826974337569	-35.4323366636826			-64.9461172037495	10.4728373105011	-4.7477629399109	-48.3770205188487
122687500	-28.1658366101806	-56.4172390129816	-17.3316591473084	-29.4654514491223			-57.0679936629196	-36.429827793834	-4.8829879350934	-53.5842261767581
123375000	-28.0997770114062	-59.4263001905677	-16.0372817930263	-24.8794427370161			-67.0614817397082	174.805690177947	-5.03649582896947	-58.9417338845268
124062500	-27.8045371513141	-58.9638654294197	-14.6031772925223	-23.1018734613638			-57.5470887018751	-97.9502139699258	-5.21123215159639	-64.0130315805402
124750000	-27.7833347306524	-62.0743661541821	-13.1142994857603	-23.0129886503296			-61.9739456421644	-34.9387813003835	-5.4175140653858	-69.6740636371919
125437500	-27.6424952835546	-60.9520389722673	-11.7474747150365	-24.4810473845026			-64.3740838000282	128.005115303612	-5.61038584367705	-75.2635291514199
126125000	-27.8330763422917	-65.5959842439251	-10.5226159347471	-27.6382035038216			-62.0231304709271	83.0323717446594	-5.91764925092768	-80.755599170624
126812500	-27.5484478530836	-62.4704218533368	-9.33279665663221	-30.8880657515318			-66.3181171832441	39.5034196906652	-6.23530810095027	-86.3036316694686
127500000	-27.5017115351925	-68.4666023810087	-8.30007734838301	-35.3123918174921			-52.2409498736456	-137.818819125233	-6.53750916979445	-92.0020269118675
128187500	-27.6504591293637	-66.9098847964188	-7.34643243844079	-39.730092520031			-65.0502797889143	-30.7879888097265	-6.92232529883804	-96.9537794080342
128875000	-27.0436308898762	-69.2730332108974	-6.50204673570018	-45.1298696915087			-61.8028847630609	-160.721738542908	-7.32523968189687	-103.009498795293
129562500	-27.1526916650562	-68.645981224529	-5.83120434510364	-49.8750580152083			-55.6847859757475	56.2964995934696	-7.70261045016924	-107.915610540429
130250000	-26.8127857497902	-70.5857184622328	-5.13549324184314	-55.4430384985243			-62.0563043757969	-94.3919703766884	-8.23667298640928	-113.576345162488
130937500	-27.1487918328731	-70.7817633828447	-4.61394342271228	-60.4453694234866			-54.0032502678724	56.857951843793	-8.62511399923096	-117.992525263105
131625000	-26.5518230427113	-72.9117757399771	-4.10522325302721	-66.0040844167992			-61.8435286433957	-77.8425280726063	-9.19065845728272	-123.161211850693
132312500	-26.9462665451286	-73.6269845312749	-3.68071972646913	-70.8555310787215			-56.6024818569054	83.8273344904492	-9.64752975381656	-127.970194534851
133000000	-26.6351289038181	-73.3820875786982	-3.32106077947282	-76.311165493169			-65.1181761694615	-28.9429866386457	-10.1497321529853	-132.690582371272
133687500	-26.4961439397559	-75.9504180836941	-3.00060635048002	-80.9125947505685			-63.9453736166944	87.5804121429865	-10.6191856224277	-136.998645076328
134375000	-26.2999793131437	-75.8130430173767	-2.65089384117007	-85.6552206830195			-59.4197304983219	-77.5766714615306	-11.1723055977093	-142.255770709582
135062500	-26.6104314701028	-76.1662064886549	-2.46351502881877	-90.0494188780917			-65.6841293976916	95.320174365854	-11.6404646379595	-146.645331699548
135750000	-26.171814051651	-74.5096405522212	-2.17125209951166	-94.9102716504318			-58.0133612697702	-72.1077667120937	-12.1714869574982	-150.603165495029
136437500	-26.3384919535971	-78.2016702434022	-1.97239116731042	-99.323877205074			-59.141736628031	157.435579917205	-12.6470477551553	-155.019130144833
137125000	-26.1000265376255	-77.2707213230065	-1.7322271341183	-103.510856602968			-58.245648872051	-86.3945710126268	-13.1955076097697	-159.493491365109
137812500	-26.3949553008802	-79.3831713762104	-1.62359100129866	-107.767862934951			-64.7970354391478	149.515488173437	-13.5805637706644	-163.950053507638
138500000	-25.9515662758277	-80.2736329178703	-1.4076544637125	-111.927063072917			-69.7056329860351	91.4983808596217	-14.005602885619	-169.417455710624
139187500	-25.9964318487203	-81.4660688155637	-1.28377987483661	-116.053126962066			-68.9470614286153	-75.3770420391967	-14.5825711867592	-173.614210458738
139875000	-26.1430802436269	-79.817309177434	-1.13672151061017	-119.854138814364			-57.6708017969086	-90.5687251525756	-14.9822080748192	-178.038077693242
140562500	-26.122571110001	-81.8777433593676	-1.0187642153562	-123.837819808475			-56.0713882207143	-163.658720438261	-15.3600060343226	176.839208780762
141250000	-26.2985842671363	-79.7522637524867	-0.895318819199155	-127.59604301184			-63.3920273542825	-62.1886643519555	-15.8003729895026	171.937477145849
141937500	-26.0894397778241	-84.4179792162911	-0.837094647827008	-131.430219930942			-55.4150467856041	-116.648746807713	-16.1580147545647	167.035672051607
142625000	-26.3517909770373	-81.4825352903617	-0.711140873001172	-135.076100829116			-61.025269712173	-82.2972235346542	-16.6177370216403	162.209297240503
143312500	-25.9088108944057	-86.5351148685585	-0.606540809764626	-138.816018324855			-61.3952440948478	-132.897138043249	-17.0413019887644	156.238217711101
144000000	-26.1008496306524	-83.3137387018628	-0.528780221707319	-142.154882575944			-66.0228791262608	-134.341333369215	-17.3762094642286	151.244590191791
144687500	-25.9452680346514	-87.4048328938027	-0.469303806565345	-145.768276577691			-53.5842711523703	-147.631917240814	-17.5971426160345	146.054651561486
145375000	-26.6741671020983	-86.0966457074093	-0.416808735390084	-149.343921496227			-58.8447301419133	-117.687896166561	-17.868516850299	140.124501884122
146062500	-26.1215745670228	-86.1088224654912	-0.360555484263884	-152.518449472561			-52.3226063106058	-95.3824905201774	-18.2091638188663	133.848716961162
146750000	-26.4658847859067	-86.2155191706845	-0.327440980521611	-155.962321814622			-63.2117764688964	-1.83321625889298	-18.4485194609719	128.526541282235
147437500	-26.0388682946116	-87.4890770681599	-0.295994605681668	-159.084512029629			-52.6473046135522	-142.534794092743	-18.5673233793642	122.41286678244
148125000	-26.5416659813727	-90.1208233203477	-0.250659003164327	-162.63156964876			-58.9188997746729	94.7357337523738	-18.7851567950827	116.490061698833
148812500	-26.4893286315565	-90.2737424969436	-0.209985763732893	-165.57592987565			-55.6063702223698	-133.145838431789	-18.9843259015021	110.891504929438
149500000	-26.6993510525233	-91.7789683098744	-0.175918357945242	-168.675280188774			-72.4259821748849	15.0083846529931	-19.1417759230016	104.611918578292
150187500	-26.5369908138865	-90.077966530909	-0.172591471229258	-171.753184764996			-61.3169574022903	-82.0262884715604	-19.2105055590316	98.2100490411449
150875000	-26.9840712067946	-94.260082574381	-0.163246566241632	-174.876509304165			-61.7071466455766	-144.868066660179	-19.2964898123695	92.2784825055911
151562500	-26.5285261037347	-93.6099218655788	-0.153221692881493	-177.548321122437			-61.7636003729251	-69.3013220438987	-19.3199918786681	86.8356264652516
152250000	-27.1544709975327	-97.8300896921004	-0.127443622807246	179.270137991397			-59.2328352521742	-171.606463157747	-19.472320853069	81.080560193144
152937500	-26.8912374615395	-96.1283522303214	-9.63442991242296E-02	176.798674484471			-61.950765086207	-163.193616477066	-19.3008697936668	75.5916032356868
153625000	-27.1228654364507	-101.122807195821	-0.117813859117068	173.812226365761			-66.235793685995	-173.108610526837	-19.3800331113848	69.967671951885
154312500	-27.1955516473777	-98.4064658025365	-7.68201999936902E-02	171.342501565822			-55.0313313241677	-48.4994699239087	-19.0323897633778	66.0107146894462
155000000	-26.7371126967843	-104.544525338362	-6.21019315928069E-02	168.12500700882			-55.1322158270179	-176.678452634582	-18.8844860253615	60.2997592307483
155687500	-26.88893817724	-102.107885613417	-6.55929743532675E-02	166.261314052052			-64.2144687283195	-91.9655624507279	-18.8813266754837	54.2851966118242
156375000	-26.8882078052044	-105.464776423025	-2.07457101626246E-02	163.042140526225			-54.3444813949846	-147.054683465199	-19.0721297144868	49.7060969097179
157062500	-27.583899817441	-105.03690733638	-6.98825393270164E-02	160.750216509366			-59.0058143716578	156.266028794761	-18.8982071267637	45.2333622138308
157750000	-26.8612611168824	-108.332344233686	3.16387174834872E-02	158.187891622536			-54.828028232974	-155.876088688395	-18.5635962286485	40.6254137565818
158437500	-27.4973981256601	-109.043562819567	-8.79853442401025E-03	155.577112861488			-59.1196661896183	-48.6581792692454	-18.4805459116593	36.1844016490498
159125000	-26.6435815093913	-110.629059979858	5.37577355920754E-02	153.004936912191			-57.506196118916	-177.914284367383	-18.3122324353367	30.9330970675318
159812500	-27.4145007813252	-111.133823774012	2.71754929106728E-02	150.455103339292			-56.4393778939284	75.500291855977	-18.0901631999469	27.6913555343613
160500000	-26.7742268669946	-112.214705006457	6.20750496314057E-02	147.908972369728			-51.6866799926227	-138.427703086893	-17.9698672267179	23.2155033878894
161187500	-27.1734159496269	-111.879957946847	3.71537645620452E-02	145.500591502307			-63.088216728119	35.3893920368755	-17.7328217566377	19.670467560177
161875000	-26.889848051562	-111.04589116304	0.121066359962566	142.96110775267			-54.3503203418023	-119.032909786275	-17.6273071076948	15.2570648100114
162562500	-27.2593717643684	-114.059587864254	6.58739702672151E-02	140.323737745086			-60.7382657253326	156.465178658681	-17.3743595113961	10.9009578188524
163250000	-26.9014468036292	-114.034734772624	0.102406568282167	137.75760651807			-59.4344691103131	60.1267849499566	-17.2197578997657	7.1369896215873
163937500	-27.012413485745	-115.628507035878	0.11388042857664	135.613016277652			-60.3444418526621	82.749341763715	-17.1751758402641	4.06637152586971
164625000	-26.8849908519405	-113.993700988901	0.106294941371284	132.799311369806			-57.3149408813947	-162.392084877135	-16.9025407127571	-2.63097791828586E-02
165312500	-26.8830841777579	-119.882200827239	0.12308767646888	130.671541832619			-52.0504675113454	112.147524282938	-16.700168046441	-2.92963097647773
166000000	-26.9919153891444	-116.651355046794	0.101110293476393	128.089437019961			-63.6945580763225	154.649101437259	-16.5218685428993	-6.60495512533395
166687500	-26.9625653109406	-118.75702937757	0.107493835207086	125.897041956247			-57.4780741462422	114.514141993879	-16.3011960782007	-9.40046792621943
167375000	-26.6657394991772	-119.425522403631	0.122203748849035	123.569912416053			-61.1852375969702	4.3642947347611	-16.1557692276114	-12.7321977261865
168062500	-26.9462814448846	-121.74129148953	0.122641341734939	121.239837172123			-56.7452093127431	161.644613993142	-16.0546753405801	-15.6745764239915
168750000	-26.9696472777767	-119.384635578428	0.109941883183019	118.801487800275			-57.9297799708756	-131.066170591247	-15.9124002052795	-19.9179873229247
169437500	-26.8139749884547	-122.308352701838	6.04620403892396E-02	116.69906294172			-62.878799934034	-179.601553452418	-15.7923207104245	-22.950048097415
170125000	-27.132010125968	-119.803008162226	8.09526951865644E-02	114.31770125631			-61.763335730707	5.79780244960354	-15.6240784211082	-26.4124320384356
170812500	-26.9598193402082	-121.557516986503	3.91163938455819E-02	112.436703089843			-62.6808736147617	-135.651426520042	-15.4571132960237	-29.0404612692293
171500000	-27.5950121824908	-123.390054810812	6.77763173572361E-02	109.998577956677			-63.9366403513393	-4.39485367001746	-15.4475300329341	-31.2939887069904
172187500	-26.8237446213093	-123.889473163632	4.88852431164503E-02	108.037809822856			-50.3747959931403	152.095452891851	-15.2330765408528	-34.7144688048388
172875000	-27.7675435363172	-123.53320581203	0.060665229631128	105.837590846447			-67.2550131753327	110.66324838003	-15.1126058081046	-37.7377236453856
173562500	-27.0202255740382	-124.693954718022	2.93830626117481E-02	103.990865652962			-57.5628529141373	-139.450535084952	-14.8699255660381	-40.8153784996975
174250000	-27.38387704436	-125.221390632549	8.61875804727895E-02	101.613475807399			-58.621169925268	46.954267835702	-14.7523317595895	-43.9619499792787
174937500	-27.1806616832322	-124.617921305578	6.79797274035259E-02	99.7992421183692			-61.2785512234347	-176.631021012229	-14.7941592571338	-46.0841330652839
175625000	-27.1978612505795	-128.081857728558	7.88056540147359E-02	97.4298415932028			-55.2915895604422	105.78918262096	-14.6485838515025	-49.6401195745407
176312500	-27.3158985955926	-126.437136236237	9.26820969823078E-02	95.7384228090432			-55.4891482251809	-138.696516852558	-14.4955974702073	-52.3759055319568
177000000	-27.6975613127831	-131.71814940085	0.133295110636159	93.5747747752217			-54.9270964216159	113.2262203311	-14.3968083358127	-55.1907683054929
177687500	-27.7328439736174	-130.59307497821	9.82654746501439E-02	91.5815358477896			-75.7806774105506	121.20059684732	-14.392991783568	-58.0282145886066
178375000	-27.6388413951928	-134.188116965397	0.178307262642766	89.2894602133542			-55.80857158248	88.2800910103972	-14.3167021056377	-61.1946791262259
179062500	-27.2985184446999	-133.99879767731	0.160090580299922	87.3584065018671			-58.9931817630512	13.7478954243304	-14.2104579144552	-63.6892324522268
179750000	-27.4159067356635	-134.639079889413	0.204425476700111	85.188924046442			-54.4075423629385	117.994250183373	-14.0749182292574	-66.5671743762252
180437500	-27.2961409702609	-133.995270107992	0.22958752621075	83.2024146552605			-67.9258845827747	-170.90808736023	-14.0232413165394	-69.4744427054827
181125000	-27.487682570732	-138.553961336098	0.264095960545856	80.757896041525			-71.9867930628918	76.6708500755167	-13.9093849073161	-72.3520088209832
181812500	-27.5341210411172	-138.778355186016	0.255796340010075	78.8069954089759			-60.6387664891426	141.457337163707	-13.9305535595709	-75.1955468449324
182500000	-27.4612330839445	-142.892665320219	0.334659637718876	76.6996292315393			-58.6285277763292	78.8669203573732	-13.8474699557834	-77.9513102307951
183187500	-27.6674288733245	-140.979685049551	0.345172139038198	74.3693228042209			-57.6388937658288	-78.2357919954487	-13.7612860024822	-80.1950448945496
183875000	-27.3049408099972	-147.12437314919	0.363104444414939	72.1912156520439			-57.1324078862332	81.2583308750302	-13.8423773701235	-82.7666961730931
184562500	-27.4014104468454	-143.506893899493	0.320889145504627	70.1533585836284			-59.7583126479198	4.83841900954495	-13.7245930486528	-85.6570263246445
185250000	-27.1433420905199	-149.516653638097	0.379668290425132	67.8765429826055			-57.389947733728	31.9771669693006	-13.717796811707	-88.6913575941619
185937500	-27.3782210242049	-149.54220881149	0.347863702787241	65.7632846342106			-62.5123355764466	74.3700629357906	-13.7261848618235	-90.61920342283
186625000	-26.8656519852043	-152.681781265642	0.37308725598622	63.3423387080917			-60.6737908478908	57.0471116984844	-13.729829187255	-93.2195962438239
187312500	-26.7371731173669	-155.870356941097	0.347492696816888	61.4784653975001			-62.1233808097021	44.4899492453267	-13.583209711221	-96.1041328077461
