# Hz S DB R 50
100000000	-28.2310254963034	-9.71036285922894	-13.8340655273316	-12.209967185123			-62.0307032791858	-21.9282115610331	-3.52997272641074	64.5261382888798
100687500	-28.6909907020818	-7.20250310329086	-13.5088956870048	-14.2332986048411			-76.968736588485	117.807125764949	-3.50727127014245	62.08005912617
101375000	-27.8273331737364	-12.6008866686655	-13.0478569362622	-16.6333839581042			-58.7363183790537	-16.5608378460089	-3.53700540408298	58.811281168975
102062500	-28.3259576712807	-11.0819960000962	-12.6623441056636	-18.9898461097527			-62.4396399632973	-163.070150879797	-3.55062772241488	56.2010598549773
102750000	-27.8195389452947	-13.8975158652937	-12.2471192790009	-21.2386911548979			-71.0038569478583	66.6333481646787	-3.53102942158326	53.1261366764094
103437500	-28.4263061050036	-14.0589282257083	-11.9022026000537	-23.7201651522444			-68.3531010038624	-13.9201936335372	-3.55835159326082	50.4971906810021
104125000	-27.7179198066513	-12.8714540926625	-11.5207856340291	-26.1037944519401			-58.9744060093446	-53.7571450526471	-3.59941405419733	47.4965911129404
104812500	-28.405520190788	-14.8219433671263	-11.3179615397223	-28.9544985196654			-58.0929448467593	-131.142789913145	-3.63618982500995	44.4901150856129
105500000	-27.8630209505229	-15.0625329352416	-10.9027546372277	-31.4903504360832			-56.8564394627521	92.3898022049885	-3.60283286969273	41.4788965664278
106187500	-28.5373294747203	-19.2844052808654	-10.7056290858042	-34.1165940143666			-66.2941782781561	173.445619637141	-3.6643974105439	38.57137377663
106875000	-28.1520435518784	-17.9642626797754	-10.37721690429	-36.9691322462245			-60.2326827680657	32.4639972147708	-3.67785339712828	35.3960866599179
107562500	-28.0548008513593	-20.9848164106309	-10.189000292094	-39.5612575546868			-56.6283365676845	-107.708477788365	-3.71155471911878	32.2332442550139
108250000	-27.7771137694241	-19.2222051683336	-9.97693705467199	-42.1899771901558			-62.9823898579665	-38.2205271590737	-3.74706513880568	29.1080765140387
108937500	-28.0677576786937	-21.5905294914135	-9.84813431330803	-44.861269422242			-59.3678702958489	-107.127185892411	-3.78061225845384	25.9428511834826
109625000	-28.0072626475308	-19.8577875572182	-9.63452755516466	-47.4451230391084			-60.2846885353597	34.876769221929	-3.82686015973305	22.9977293458819
110312500	-27.8827117441375	-25.2972971285802	-9.5733783824252	-50.6550315834034			-58.8448448258966	-104.962964759482	-3.87638518471384	19.527375607062
111000000	-27.798389424305	-23.7699632858108	-9.4400592361052	-52.9639938233053			-64.029154027343	149.100075843045	-3.93708462145985	16.4846420263256
111687500	-27.6512757252483	-28.6687384165606	-9.4423520229548	-55.8141664407591			-63.236718941721	-30.3723496235801	-3.94443587959764	12.7266503226356
112375000	-28.1103659663273	-24.7114698479365	-9.41034515014651	-57.9521550451947			-78.6195311828918	-17.8446190131347	-3.99925759789217	9.65000889660944
113062500	-27.8484337329193	-31.3708568038452	-9.55291486448706	-60.5732959035913			-67.0317520320498	-91.541740280267	-4.04113961839091	5.917826362987
113750000	-27.7881754172807	-27.486012915052	-9.53780964191441	-62.469693030331			-63.8560228311384	117.552730992726	-4.08840942247284	2.62974996758973
114437500	-27.7146405507004	-32.6699167474153	-9.69597024626624	-64.551733928467			-58.8081251919364	-68.827551279932	-4.11261652445647	-0.73109779343508
115125000	-27.8121225560002	-31.8895685232133	-9.83910187360586	-66.283178464354			-57.9718262711758	-133.119886053671	-4.14416808354878	-4.61785046035793
115812500	-27.3235077535985	-33.0721159577455	-10.0487000293034	-67.6253578935098			-60.3888380428756	-27.3547024080577	-4.19601750849268	-8.51164913388842
116500000	-27.4512024801526	-35.565642955672	-10.3597420533029	-68.5217357807537			-72.8229643686405	-89.1111624475078	-4.24066380442876	-12.4977656687392
117187500	-27.0494540889633	-36.5174532699119	-10.6612420784661	-68.8207378504383			-63.3023225923787	13.7763911759659	-4.26512088284934	-16.2009651335324
117875000	-27.5427055658988	-38.5785136476352	-11.0935028344181	-68.4913047187488			-61.4455770161189	136.100150602066	-4.30641499296926	-20.424738717741
118562500	-26.9176866862237	-37.8227146888244	-11.4902880584367	-66.6392862771544			-64.9322163253565	115.007079321138	-4.41720520540848	-24.4513616345955
119250000	-27.2616434997294	-40.4025422224664	-11.855857939008	-63.7131025549478			-62.1155144330727	130.789255720335	-4.47562241841941	-28.7552269334299
119937500	-26.5767449085244	-40.2165560353346	-12.1715544009953	-58.4001935244735			-58.8129794646382	1.42823061162968	-4.54116376558031	-33.5725497274273
120625000	-27.2793990433106	-43.7460798448285	-12.2385866210381	-52.4482780163084			-54.1267322077268	-148.818247954684	-4.57919136938065	-38.2286284946911
121312500	-26.6744872076096	-41.8389531737365	-11.9044953282872	-44.6307381758875			-56.9816771626418	-14.6944861776204	-4.70691199654643	-42.8780746526682
122000000	-26.6756667366251	-46.6496326798794	-11.1708357960377	-37.2591915813953			-58.3636415506045	-138.935482732152	-4.77058156388779	-47.7322281304337
122687500	-26.7563538264867	-46.9599530640202	-10.1159217858354	-30.8738753341409			-56.4242597722833	88.0090323101069	-4.97323603294238	-52.846807900757
123375000	-26.4386686836839	-51.2009640913411	-8.71767429821157	-27.4125072506386			-64.2252828349328	166.61528538561	-5.07459061686506	-58.180123445466
124062500	-26.4462366136365	-49.7476125711953	-7.32181814181486	-25.1346071974985			-58.2559348069036	37.6938843026783	-5.27847522482666	-63.2354423101955
124750000	-26.3894071520568	-52.6766567722214	-5.82066621218315	-25.3474414138611			-62.7673263413621	18.81103199357	-5.45610929194718	-68.8823443612942
125437500	-26.3868642903393	-50.3581781101411	-4.53115482465054	-26.6438988286713			-72.4098747235697	110.405823506647	-5.73637402992647	-74.5063862980904
126125000	-26.4064069272269	-55.4163696014903	-3.23272561483276	-29.9857613208469			-62.12648108154	3.56868916498153E-02	-6.02627509606757	-79.8273832892356
126812500	-26.3493734748158	-55.3078925707158	-2.0918350426257	-33.373169366917			-59.7314841003044	90.0538389614229	-6.37350987766911	-85.4886430065656
127500000	-26.0806442601875	-57.0108814147352	-1.01292454215548	-37.5732501006439			-56.8678119751593	-83.5157193426553	-6.69692926098788	-90.6865614017868
128187500	-26.459925741429	-58.1823732082595	-0.133542126789742	-42.0797761178439			-56.9022224830202	179.606085495271	-7.09015337587058	-96.1375984309527
128875000	-25.7927257365582	-60.0204062414769	0.736177110481027	-47.2642581225687			-56.5131105660566	-42.2420486102076	-7.50846954498537	-101.404512781501
129562500	-26.3006465167311	-59.8712429456399	1.41774243906014	-52.403790015165			-59.7984659234385	-2.86390762349502	-7.94364126644	-106.941738052369
130250000	-25.6983435477591	-60.7543192349892	2.1168596284785	-57.924429384289			-62.5425895456307	-60.3983756767316	-8.44804992614217	-111.975109321607
130937500	-26.2713908722232	-63.7209720396695	2.61688202053286	-63.1441185905155			-65.6242253715597	-31.7561467920693	-8.89348007233462	-116.747830465547
131625000	-25.7824318494321	-64.6404926571523	3.13082611452889	-68.339242906279			-53.5122036201937	-54.8466096241691	-9.46399188772117	-121.567238876407
132312500	-26.0681226467059	-66.6274967984243	3.54444152035282	-73.5251870862024			-59.696511080702	-70.1393286563293	-9.85671190347805	-126.351628555556
133000000	-26.0134351978859	-65.3760803293065	3.97890338474605	-78.7196711778743			-54.3848690973404	-54.9839521659505	-10.4747305486278	-130.791156968171
133687500	-26.0699053881969	-70.003270152969	4.22992618027391	-83.561787121408			-56.949154456909	-89.3555693231482	-10.913854301298	-135.299608846782
134375000	-25.9730221643849	-69.1498633068468	4.59528552081935	-88.3632445656056			-56.6770145739037	-52.7129026833255	-11.4784065409061	-140.409731466928
135062500	-26.0106531893175	-72.2312205026833	4.77527198629527	-92.9791962396226			-53.2170546582719	-76.1694260729982	-11.9935981013414	-144.583774050369
135750000	-25.8831601083226	-69.3500147309599	5.06971742415359	-97.7498252888365			-54.809415881136	2.22051734034358	-12.5204779924021	-148.843054745532
136437500	-25.7350093233242	-72.4505025542753	5.23655543934352	-102.129384982274			-54.2432076680889	-152.928381939435	-12.9815135844309	-152.673759490304
137125000	-25.6678514936627	-71.3727876037125	5.4979279386235	-106.440643555792			-59.9272972470131	-16.3002920656863	-13.5511731614544	-157.426888245666
137812500	-25.7892841457553	-75.0313208711736	5.61033536472622	-110.791378053816			-52.1342905947976	-129.711442473031	-13.992947426838	-161.339566449169
138500000	-25.8008111136365	-75.1735705463743	5.82884519019387	-114.759258377085			-53.9304571095954	-79.6302851478743	-14.4120967079822	-167.249384377129
139187500	-25.6506047743053	-76.6238307109881	5.90904051944057	-118.906375329842			-52.1436314478711	-115.904082713542	-14.9923734952057	-170.883418765721
139875000	-25.9727271317897	-75.3726656991895	6.10941240326329	-122.765335718817			-60.3047314676212	21.7419565411532	-15.2794304831374	-175.561858398606
140562500	-25.9262563890549	-76.9606914006815	6.16056344250464	-126.693017215839			-60.498530575596	-92.4540110626564	-15.9140848652867	179.7255800206
141250000	-26.0638010299462	-76.6165714083237	6.33201964907092	-130.567292015576			-66.4952054416908	136.153587323971	-16.0881704371931	174.6690116434
141937500	-25.7571949598213	-80.6348847460187	6.38601937814342	-134.314974452182			-50.7068641492832	-101.187908321741	-16.6852937579544	169.424078461817
142625000	-26.2271454491486	-79.4128967563295	6.52423118944592	-137.997391825783			-56.9445922288293	-174.544560076147	-16.9866246936184	164.924869511055
143312500	-25.684530397758	-83.2252481014208	6.58862910534734	-141.642059881152			-56.9952379737658	-77.3276031086097	-17.4648736251288	158.881518134213
144000000	-26.0590539763512	-80.0056820004884	6.69682479226583	-144.975947070245			-69.5559268308545	-122.10732830423	-17.6119694543465	154.142757147098
144687500	-25.7805651968248	-82.5741494558386	6.71483146334583	-148.866947977949			-56.859055238905	-77.8400255696016	-18.1163098284108	147.724916567828
145375000	-26.0573405822293	-84.3108635463056	6.78802028950701	-152.184052273508			-54.5807950425924	-176.381709684448	-18.2337163129257	142.992734414317
146062500	-25.4231471096413	-83.8714011705295	6.82851243028001	-155.609768594228			-58.7537139715997	-140.879183870851	-18.7372402457093	136.216802818951
146750000	-26.1314626182891	-85.4529864469503	6.90309059527893	-159.081366908029			-55.6681555690617	-163.411504717327	-18.9306935478576	131.830612463041
147437500	-25.4198392641345	-84.4305523457535	6.91298481836502	-162.287895086036			-56.7733543085564	-109.714617587913	-19.2017853173485	123.95537585738
148125000	-25.9337526502012	-88.1901930802706	6.97523178002381	-165.556499271999			-54.9825333080124	-138.818444713236	-19.2844766766581	119.915030071698
148812500	-25.7994851805179	-87.0791341032984	6.99742772438095	-168.844209523056			-59.6967516331221	-57.3345884035065	-19.4169726788815	112.198591508193
149500000	-26.0410212216472	-89.632825050295	7.03229598697612	-171.898714555211			-54.9710145219311	-138.897526640941	-19.7467912084862	107.152738911095
150187500	-26.1167776723728	-88.4775509717159	7.01117407769562	-174.947328483187			-60.2342907081116	-79.2298031275341	-19.6492621992434	100.342755904111
150875000	-26.0573048283222	-90.1797014610072	7.06963209806111	-177.832579027004			-49.9651875622908	-160.834898934624	-19.9538556667502	93.7816829198858
151562500	-25.9072673967372	-88.9370439891667	7.04604952845188	179.263782367975			-60.1035957599349	-147.191999211458	-19.6967448532226	88.6863785676627
152250000	-25.9298989784839	-93.9823614210703	7.1032596451138	176.259097176613			-49.7911350918775	-143.779410347276	-19.8471616940726	83.4479377550761
152937500	-26.4229639301438	-91.2339625177785	7.08693517119939	173.583787452551			-56.763524788021	-160.821833925795	-19.6707623360956	77.6309423397848
153625000	-25.990527882755	-94.816918281776	7.12083742152784	170.672871518236			-51.638425018395	-129.171972036654	-19.7234510562324	70.5558778055427
154312500	-26.2363236069005	-93.5984504399762	7.13768628210562	168.119072396226			-70.429796750177	176.986974812241	-19.3241463098765	66.9391249266796
155000000	-25.8629255234887	-97.4779591676431	7.16382522197036	165.128668938958			-63.7199889553899	-129.828833545513	-19.4962058908453	61.3361274853129
155687500	-26.5627699239255	-97.3195652674585	7.11411787701229	162.713302828643			-61.8237369137684	-167.299086306129	-19.2369965937936	56.0857335883436
156375000	-25.8702070018464	-97.7134607003691	7.1885179672748	159.886453040582			-54.6255669241106	-169.36706212387	-19.2935738693624	50.3927158161469
157062500	-26.7136877947278	-100.032741499799	7.15147096919152	157.370569564939			-50.3823408446421	134.592869460696	-19.1149094570922	46.3579196847745
157750000	-26.0073095025973	-100.046767684633	7.23878316415288	154.675153788158			-52.4695009856159	-150.425075218165	-18.8118459991616	40.9100740479939
158437500	-26.8005759408127	-100.91727390976	7.20489385218035	152.132312908835			-56.6558720316671	88.2122365614093	-18.7435247901698	38.3648397958228
159125000	-26.2312268227571	-101.482148751678	7.26239928922487	149.53455718276			-54.5874684603439	-162.386951421729	-18.4091339891757	32.2569948062878
159812500	-27.0668867182388	-104.560228525267	7.2441338336946	147.013096045882			-51.8198399397517	-169.731847259271	-18.3908121817732	27.8526877439172
160500000	-26.4715479178304	-104.047062918181	7.31657675003911	144.382237878132			-65.0150786446358	-120.175803851885	-18.0869990833089	23.7892773923377
161187500	-26.3581861934563	-105.69971685248	7.25506653410518	142.124500530491			-55.7878149891371	177.712374700877	-18.005416287372	20.7679381821126
161875000	-26.3007085959074	-104.200918029884	7.33446729673854	139.367072761704			-63.2539128530112	-62.5067505480413	-17.736176382722	16.3236441114033
162562500	-26.5714639747166	-108.224690557506	7.28464961761698	136.862149988752			-51.1563875048875	169.465169966031	-17.5574961788728	12.1619365544449
163250000	-26.4799966109165	-106.754150304362	7.32271850002053	134.151648512947			-63.7251112030738	138.622457479391	-17.2334858762905	9.03484228631933
163937500	-26.6189260815597	-112.121763934108	7.32787049769937	131.975714302052			-54.0512576565441	-146.913634221461	-17.3717895218541	4.78788581915969
164625000	-26.5076824884004	-106.048892667377	7.33989395191049	129.339064761679			-59.840078066994	111.706981602819	-16.8968060852351	1.97224994182294
165312500	-26.8174698379522	-112.586923870163	7.28681542551579	126.961331361574			-50.4889240940016	169.400338503944	-16.8148589650355	-1.91326295101478
166000000	-26.9346774263851	-108.153830854242	7.32873081386199	124.454745547877			-59.1383125609739	133.369312256763	-16.6053110480709	-5.0762034056332
166687500	-26.5129834849864	-113.332766987532	7.30255817099311	122.114307534418			-54.9728079585975	179.619519769138	-16.459684217395	-8.6900309041353
167375000	-26.7792443977535	-112.507042858676	7.33334340592473	119.741671229252			-62.6865846749581	110.872675255436	-16.3084422611948	-11.4872105987356
168062500	-26.3627584602371	-115.426126890519	7.31195430771074	117.57953553192			-64.8217956931904	110.291553752778	-16.0482314530607	-15.0799988112762
168750000	-26.9924327847424	-113.488969403291	7.34675216590475	115.151872369625			-71.1663020769716	33.1539089473928	-15.9743619878038	-18.2757945105799
169437500	-26.5486986286121	-119.18112008728	7.2669358131118	112.882447550701			-65.7418513024739	161.09705624588	-15.7646696168319	-21.6765513577564
170125000	-26.839503499658	-115.856898537827	7.32158295652564	110.559614500853			-52.4729582083984	124.543628813511	-15.8196474142967	-24.1311098494229
170812500	-26.6763478582892	-117.427212713794	7.25452845056233	108.451351922277			-63.8670610904065	-157.78803897587	-15.4846574927906	-27.7708910518054
171500000	-27.0464271098472	-120.258211574781	7.3026385829255	106.243521700029			-52.9022813715402	117.621996199869	-15.4845400663152	-30.0528127363185
172187500	-26.3666084923316	-118.965850494796	7.22888084604428	104.011146828451			-60.0193268805168	-136.733592007258	-15.2037204493373	-33.6065397432386
172875000	-27.4574128713495	-120.873653337894	7.29345152075675	101.93637468201			-54.6140786916301	126.868211153058	-15.1822664815335	-36.3903032464451
173562500	-26.4952845932671	-118.661019722022	7.25040814093004	99.9314031511312			-67.2382659016271	148.4880584168	-14.9983246962891	-39.5715498186621
174250000	-26.7462163887265	-124.040078797506	7.31829092327517	97.7045577446122			-55.0007827349924	97.8555881938913	-14.9641318082139	-42.9079107224239
174937500	-26.5596358640442	-120.937219141589	7.27193594775267	95.6924688071087			-57.8869848295985	116.467969142203	-14.8099254319005	-45.3584633880155
175625000	-26.5757977544015	-124.979087540501	7.29447583430943	93.6060336940782			-54.3292545600938	158.573069052405	-14.7769949702937	-48.7971625239965
176312500	-26.5784685677593	-124.415306576662	7.29401891839908	91.5666475922739			-64.434187654669	12.2743605211176	-14.5543848700586	-51.1610385600845
177000000	-26.6151522156779	-125.762266957877	7.33899788039822	89.6488365918922			-56.461949762876	128.32309450467	-14.452266240548	-55.1352213955817
177687500	-26.9207546343127	-123.422069814084	7.31785973302245	87.4326960299304			-59.3100994619247	78.3970182347695	-14.4193215729869	-56.8375200958844
178375000	-26.7010201450924	-129.242183240677	7.38578700619252	85.2716661436332			-54.0031929950349	156.498778523502	-14.2669167071284	-60.1992386203788
179062500	-26.7547480553146	-126.02847045201	7.36947144039969	83.1181528983299			-56.393215854963	119.021777310751	-14.2882296073945	-62.6277268647199
179750000	-26.6540138944016	-130.391887283542	7.41182399870132	81.0158885435795			-64.4055749108197	133.720300647249	-14.1116014559889	-65.9354048763453
180437500	-26.8650595255717	-128.44090459096	7.44233837918208	78.9164407115141			-56.5929815150775	88.4074142540246	-14.0922346160452	-68.7994480106707
181125000	-26.5258092329336	-132.234272884195	7.48124227396985	76.8269517905765			-58.736646415919	136.223902558644	-13.8770807645878	-71.2138737130644
181812500	-26.7496083852525	-130.017390975809	7.4633913945037	74.6678754003458			-58.9674813013003	114.417595198172	-13.9624155969151	-73.9519318729896
182500000	-26.2899944799459	-134.841938957251	7.54555257359949	72.5005751989102			-53.996376968974	121.658540415157	-13.7786471950203	-76.862509624487
183187500	-26.6986830525251	-134.26881382455	7.53370983918391	70.1529760121791			-54.4063865413484	72.0580502540931	-13.7736494697824	-79.3346634958665
183875000	-26.5864965912082	-135.862861239845	7.5732517758108	68.0330326253854			-56.3475185407418	119.979624734205	-13.8123804066516	-81.6773092048796
184562500	-26.4815359966633	-136.553715675413	7.54978798733417	66.0600835178059			-52.0028368863893	83.2144425257053	-13.7673663651198	-84.7348030951791
185250000	-26.292280947382	-139.707416973369	7.60901731921558	63.7199051129057			-68.1293450721608	145.614859534696	-13.6421486690274	-87.1062840591903
185937500	-27.0896278828304	-141.082260095058	7.55694518325327	61.3651366576529			-54.7351710852151	90.2923886438764	-13.6662404348209	-90.2441877157093
186625000	-26.2928857619734	-144.35659038612	7.58765347034837	59.0676284109582			-60.6430289663931	130.054029693329	-13.5767416102014	-91.8295669099387
187312500	-26.2954532818109	-146.039599168018	7.55570211739636	57.1127687741106			-55.4742862137707	75.5090813113373	-13.5367671677609	-95.2014425000929
188000000	-26.2943896403159	-143.306712646049	7.55908329495961	54.6850211705082			-57.7062653134513	39.8213368675164	-13.4964985828566	-96.6355536204655
