# Hz S DB R 50
100000000	-34.2180657858169	99.2591508516592	-4.71918564582868	-5.90292232030315			-54.6930050304786	37.4825205102622	-3.50726815864058	81.7774046710655
100687500	-33.5950751498059	101.290429077819	-4.29663791922701	-8.39888091852021			-62.6906907161537	-110.905461332979	-3.47537443990906	79.036071686742
101375000	-33.3391638735931	92.1738981300826	-3.86771914709795	-10.6713008236432			-59.5983771024541	-13.5906269852099	-3.51404167489894	76.2628189999391
102062500	-33.0650757612507	94.4510384825696	-3.5127753350119	-13.4433076619026			-75.2176824669666	166.014319546116	-3.54658718987492	73.2840511766174
102750000	-32.7476523982173	87.9374727237264	-3.08984401622408	-15.8053794743002			-56.9169093544443	5.70647996965757	-3.54083192877771	70.459275243081
103437500	-32.9287572668986	91.9060083046809	-2.76036520521983	-18.7640363118838			-70.3820159991606	-2.11047434458285	-3.54418691715505	67.5028933561815
104125000	-32.2604207244574	83.8361621700616	-2.3825606811323	-20.9399400964277			-63.0812426552842	32.9374885989637	-3.60960890128891	64.6605486199897
104812500	-32.5736926350429	84.9786579732211	-2.11307320143549	-23.9143478377812			-55.9789574040826	-28.2206102210113	-3.61119645554675	61.4980814719071
105500000	-32.4403289176713	81.0755296490234	-1.76665419362638	-26.6201383151056			-63.6121826303573	82.337220026438	-3.6575701935244	58.5788573595187
106187500	-32.3881308936538	81.3020648812832	-1.50868360337028	-29.5761080376915			-63.0879281964474	-19.7428918113719	-3.6534433653212	55.5105375038394
106875000	-32.1336810608612	75.768971213584	-1.28896232867558	-32.3396132071529			-66.8700191974712	92.4650754683667	-3.70852070085336	52.6830857092677
107562500	-32.41582552465	69.3071811314283	-1.03864429011739	-35.2907614310903			-54.0662419566841	-33.7071717969648	-3.67563544388998	49.2850574289381
108250000	-31.8479234311336	65.0208422186913	-0.803554989917883	-38.1277472934629			-53.4581319135612	60.3990668939611	-3.75000053264157	46.458766313599
108937500	-32.3452017557672	63.6698105660533	-0.663594041307045	-41.097379123615			-55.4414800775683	-25.5593426327338	-3.75744669564934	42.9720456432904
109625000	-31.9145035741758	62.5368138615283	-0.517715641215402	-43.942701063814			-58.6918238271552	147.117247404385	-3.8298348429665	40.1228345890249
110312500	-31.8185330128047	56.5122041969197	-0.422391847765052	-47.2170021210434			-53.0972395767507	-17.8439394399395	-3.84521215024656	36.5174617543259
111000000	-31.6160462706024	53.2396805713212	-0.350746728357156	-50.0211107143259			-61.611381942604	99.6403345187298	-3.9349052645002	33.4614571290975
111687500	-31.4648386472776	45.6680006693396	-0.384751184907133	-52.9599888743588			-60.8573270631813	-16.6022940563991	-3.94409014272354	29.7528798668206
112375000	-31.4748761930344	49.026739927013	-0.39062189482082	-55.6311146513122			-59.8901411328868	-137.878903172602	-4.00980959395424	26.7314119517072
113062500	-31.1806246846107	39.0555155485373	-0.496038776238658	-58.3987105494821			-57.1818819206667	-16.2594037748136	-4.01046930110731	23.010928984188
113750000	-31.3660923792497	36.8208720452054	-0.587765395227831	-60.8529575250091			-59.9032212761682	-35.9863556949986	-4.11133780670784	19.6144355923468
114437500	-31.3175521644931	32.7489725676501	-0.786936930195159	-63.1096640318269			-55.1088372074321	10.802747547836	-4.0790820590428	16.0483627841818
115125000	-31.1633816459253	26.7790619302593	-1.00375241110219	-64.9824524782806			-72.2181527703506	23.4355638051633	-4.19785041837778	12.2243385979984
115812500	-30.4010667006363	20.6909956529256	-1.28968777636634	-66.694190327169			-62.3561447178788	26.5062253275018	-4.20133127865997	8.37204286802473
116500000	-30.9479234927488	15.5039365630604	-1.69598980456181	-67.5500779785959			-63.086345394053	-160.107568702496	-4.23623740737983	4.45964788095876
117187500	-30.144874805055	12.3407843215936	-2.15217461136918	-68.1380245396862			-57.3724628780829	4.79356288835241	-4.28075464916304	0.657285259246597
117875000	-30.3014986928667	4.99741496452057	-2.63337753996577	-67.4672706686583			-56.3683803197719	-75.7299362860882	-4.33427091508405	-3.55999191492583
118562500	-29.53936949988	3.48954369088898	-3.18772357232542	-65.3810386927953			-57.9122305826548	15.6319344937354	-4.37416627704368	-7.73438934799486
119250000	-29.5932750222891	-5.1650477902189	-3.66528502817499	-61.6663657653579			-58.0566571286386	-82.211418406856	-4.46603981171592	-12.0920961545922
119937500	-29.3427911574994	-10.0118737168162	-4.09973366349272	-55.7994747373417			-63.1732538778711	5.36064517031994	-4.5051579688843	-16.6210669269486
120625000	-29.0221445265984	-15.7490180647318	-4.14831400901134	-48.2194836489547			-68.3563299345891	73.8533954114446	-4.53433360207837	-21.1378095585163
121312500	-28.8358088950732	-19.3363383417684	-3.79722508637702	-39.409030420784			-69.0558166022511	103.333919265279	-4.6545942501844	-25.9312262658655
122000000	-29.1948157786525	-25.0295396841885	-2.91199179440894	-31.1671670464724			-53.652655304064	-69.4055426873691	-4.70143094946533	-30.8807843596478
122687500	-28.4378198746692	-28.4767987590079	-1.64037154828656	-25.4844804301549			-58.8076082919135	72.9394970968906	-4.86041496891036	-36.0254913689012
123375000	-28.2770707710301	-36.323997272347	-0.17704037815784	-21.8931293499294			-53.7555992418827	-13.2841064450935	-4.94075452780202	-41.1949902558072
124062500	-28.3056282391681	-37.0089425720646	1.26142148357913	-20.5305109575595			-56.6383940324823	-2.3424952257421	-5.13752292918411	-46.8483213905481
124750000	-27.5942049703929	-44.6857371998343	2.74744409583931	-20.9119685852927			-55.1012592133805	-22.6292901131054	-5.28924051459789	-52.2245088930641
125437500	-27.5997640159812	-46.3510109793309	4.00433762839127	-22.9130413430823			-63.4194698636068	177.203897023782	-5.47712622340612	-58.2846955589675
126125000	-27.943474400771	-51.592491207155	5.27742167545571	-26.1443378656827			-53.6909577625092	-7.67650814251395	-5.76901752490893	-63.4097757303168
126812500	-27.653358515116	-53.6683272233607	6.36184678345691	-29.8443884998021			-62.0081612671499	-101.516588079241	-5.97628664528036	-69.2622558939179
127500000	-27.7150306813171	-56.7143453277711	7.36425860175466	-34.160253745347			-54.0054732575666	6.21101697918297	-6.33501318820018	-74.6336559221712
128187500	-27.7613003945788	-62.7376260269111	8.25423609936611	-39.0035549816923			-61.8214152266823	-89.478290251152	-6.62409586579281	-80.5887865709981
128875000	-27.4980457538142	-65.6599345300079	9.04536697446757	-43.8794432105755			-51.8429942819498	-26.2020109186764	-7.01617252314393	-86.0043837390448
129562500	-27.792034212193	-69.3269696056958	9.69588703997044	-49.2189484788705			-59.7992417906395	-22.1416771282083	-7.35370221468958	-91.836395667965
130250000	-27.6837330814772	-69.2037851760309	10.3529511733726	-54.244222744508			-56.1752390985663	-44.4805592680269	-7.85913876019754	-97.1965775121195
130937500	-27.9529586707425	-73.0404119103986	10.8337322305822	-59.6699199242687			-54.2147517851396	-70.3186760415042	-8.12003080492309	-102.540640958663
131625000	-27.9182463714404	-75.72922407093	11.2957724051178	-64.4425793337077			-55.1406108030445	1.09265424168304	-8.68636483251283	-107.693341803809
132312500	-28.5045141311207	-80.8739899138438	11.6663824133237	-69.6187207742934			-51.3351072528287	-60.4031378155827	-9.03184304893416	-113.16888284035
133000000	-28.6836261853179	-77.8660752438698	12.0338978047402	-74.5787884688626			-53.1921491900483	-15.954996550332	-9.57607604217421	-118.484928474121
133687500	-28.1994677257135	-85.5027207122954	12.2947092100173	-79.3053581927777			-50.7504331339687	-66.374883423504	-9.95247588885758	-123.537871709795
134375000	-29.1239978624725	-82.2411132713322	12.6152229815456	-83.8908834684084			-55.8107520548272	-5.22087953867951	-10.4654499443182	-129.083829281279
135062500	-28.7390878911183	-86.9380725613834	12.8093605145257	-88.2963034779962			-51.7567131895063	-55.8246837703233	-10.8927975272294	-133.954221400924
135750000	-29.6001949565868	-83.5220599094818	13.0492001237961	-92.5911512198815			-56.0777950107732	-53.1347967199649	-11.3675545470761	-139.285019742785
136437500	-29.6462346625868	-87.9752398174815	13.2239162850154	-96.9606418971508			-50.1551008884289	-60.981470923972	-11.7844745070024	-144.485300614709
137125000	-29.7468888569515	-88.1114686581272	13.4492907476794	-100.757264062131			-53.7556001921281	-45.3142122456889	-12.2928458903681	-149.708161199279
137812500	-29.5610496317335	-89.357821562799	13.5832575398754	-105.132603331483			-50.9126277946598	-47.6050897580145	-12.6737223245543	-155.033614461652
138500000	-29.8882041577437	-92.8816277383471	13.760938774803	-108.924139035643			-55.1322324238992	-81.7175282009281	-13.0699296104657	-161.338129907706
139187500	-30.016293864784	-90.3441866861013	13.879586571593	-112.824506838835			-50.4812230502652	-68.9032967869476	-13.5325830774766	-166.280813299925
139875000	-30.7685987741969	-91.0006936715676	14.0428208616013	-116.439663183133			-53.3110783899585	-106.642387035202	-13.8382950723093	-171.819500521572
140562500	-30.5599808625045	-90.8759693460851	14.1242398482788	-120.379885102205			-50.6412323334179	-79.1935050976459	-14.3469910186152	-178.01558606801
141250000	-31.1870536721391	-93.6543884171672	14.2933580871319	-123.841675576284			-50.2763534503018	-76.4077808718751	-14.5241474933093	176.612175686737
141937500	-31.1518351549088	-94.3604900734422	14.3343010543027	-127.83081972621			-51.1008492351323	-85.6524972902116	-14.8952961304291	169.745942970308
142625000	-31.7157545185786	-97.1421504008019	14.4513551343996	-131.16288717169			-48.1994467873192	-98.5760154769943	-15.1647570588896	165.38197505822
143312500	-30.6663974935604	-96.6246052507046	14.5473611055948	-134.766017620767			-50.5972142984459	-100.749983909415	-15.4533112838893	157.928939731489
144000000	-31.6164353123258	-98.9535829790976	14.6412811769327	-137.730633305931			-48.7938540555575	-114.843872925903	-15.5527135498114	152.620691569484
144687500	-31.2939190828824	-94.8377066816393	14.6564543246335	-141.708563008199			-56.8958053284509	-78.1201619727929	-15.7160744573	145.697729711762
145375000	-31.6338842543814	-102.000796900295	14.7401521270683	-144.87317033393			-51.9072242498402	-109.095176161566	-15.8685784417625	140.486051392197
146062500	-31.2360245907223	-96.2878816156466	14.7570630913171	-148.329011156744			-52.6193312441336	-84.0434126530721	-16.012792830453	132.854345350345
146750000	-31.4447789018656	-101.158522078221	14.8459813372932	-151.32351941207			-48.9741172101447	-114.661822223812	-16.2302869402623	128.664718139781
147437500	-31.755735414713	-100.438387431918	14.8359581006984	-154.793777327823			-52.9754507276868	-96.46939432335	-16.0519206832211	121.619710095679
148125000	-31.3727194925283	-103.671064530992	14.881899251393	-157.784731487769			-48.6757072202889	-116.533018778748	-16.2566325630007	117.037156031631
148812500	-31.499889121276	-105.532808618511	14.9143392155133	-161.034931925494			-52.2062158729113	-108.760859074626	-16.1280614915097	110.899592382643
149500000	-31.473807555582	-104.986439569403	14.9291497277728	-163.845295870274			-49.8976148831063	-128.06742789211	-16.2735185414438	105.748978342322
150187500	-31.64262278845	-108.674013581584	14.9179270141964	-167.032139602245			-51.0779559310187	-158.658836290169	-16.098542130373	100.978836999664
150875000	-31.2654232964895	-108.100618852025	14.9634924750825	-169.65620789738			-50.1213334066478	-126.935295319311	-16.1860744859354	96.1985655440294
151562500	-31.6182803547885	-110.522099703166	14.9526584395299	-172.712934724619			-51.7526117949204	-138.616700486322	-15.9675647967255	91.5668952355544
152250000	-30.9568934944732	-117.343090703991	14.9492606732582	-175.289220120938			-49.0028398405331	-120.093463591502	-16.0764637728491	86.7963680428492
152937500	-31.850490476253	-118.48826998478	14.9821193170066	-178.133365967682			-50.2518635918771	-145.205100832321	-15.900632798383	83.3890257765734
153625000	-31.5134318895634	-120.565367910049	14.9885725153923	179.397180350211			-52.181472639931	-121.750984164089	-15.9090038597511	78.3342441604517
154312500	-31.3110075271458	-121.880809779941	14.994132612075	176.659303702391			-52.5290813495522	-162.098678555136	-15.776315779554	74.4520475186363
155000000	-30.6571639327378	-123.263474715788	14.9691111332409	173.968374819221			-54.9469111549608	-114.53978811591	-15.6138428874081	70.5759477814165
155687500	-31.1125575235812	-125.857078336188	14.9805120679098	171.757146897051			-52.2199252431534	-162.867417208444	-15.5842542351765	66.8881126473076
156375000	-31.1998420055726	-125.449041253254	15.0318084639528	169.05460586808			-52.6859694770179	-165.39607564619	-15.475220981078	62.7255033651639
157062500	-31.6003771322242	-131.102695767804	15.0174501082636	166.52636346482			-48.9265176751934	-171.564125173053	-15.5309610550867	60.019872640883
157750000	-31.0087865590925	-128.273761127154	15.0841279246992	164.278534125096			-57.9090252912751	-146.185807162027	-15.3492753754349	56.3556534090295
158437500	-30.7125327694174	-136.745343160094	15.0408240024612	161.694167854783			-47.0804363018481	-154.744837508611	-15.2933656786656	52.6579234364002
159125000	-30.5280667487643	-129.108340407966	15.0908876880922	159.28782859142			-55.6719715553188	-154.925619752223	-15.0975678213016	49.0759064428839
159812500	-30.8787992709827	-140.174411686129	15.0954571675157	156.632052739606			-47.8352634832716	-153.282201909014	-15.2002697068228	45.4923133743357
160500000	-31.0949521922054	-134.547939903146	15.1422306892793	154.405702591732			-54.7006718804312	-176.862993064027	-15.0426274548588	42.4666870108063
161187500	-30.1390148348293	-137.941295413174	15.0876153105631	151.931702372999			-48.2947540173143	-164.460644513604	-15.0074921445371	38.764900167996
161875000	-30.4520804309043	-132.517951566462	15.1789757457331	149.599306850452			-49.5787202996448	177.478981275573	-14.837880605888	36.3202140075003
162562500	-29.9422720525308	-137.075336517859	15.1352050196843	147.075754535448			-50.8205978959892	-149.646163500956	-14.9029122191789	32.4377121043197
163250000	-30.338338978307	-134.290392258993	15.1650020757277	144.675625000235			-52.3815288159486	171.271870995105	-14.7687097032047	30.2144940376984
163937500	-29.5933327581854	-137.96810326834	15.1446934969248	142.166621167147			-51.6875947740655	-152.883181006149	-14.7778430606523	26.3379463861433
164625000	-30.1019626744024	-131.102616025132	15.1732340243147	139.961431456886			-48.4356701407558	175.678152960084	-14.8021736260516	23.67888780976
165312500	-29.3759746505873	-139.714542965397	15.16967267155	137.389244446114			-50.7989112617713	-144.10502853085	-14.6407576381487	20.0815498097932
166000000	-29.7079230831245	-135.803943153504	15.1765959011193	135.329553286658			-52.7470244883969	174.832718377926	-14.6569472149327	17.3147465224362
166687500	-29.1632845269325	-138.88693784498	15.1424398622873	132.774956368394			-51.7707248111439	174.234849666338	-14.4598032302324	14.3747070253545
167375000	-29.0294495394273	-139.687012088213	15.1760203237129	130.740674301576			-49.9946647642548	166.682865840171	-14.6296155609462	11.6594206606121
168062500	-28.5218039469108	-136.451734373932	15.1369122614246	128.49029166144			-54.8689251886388	179.865014941876	-14.4280398453744	7.79836009638903
168750000	-29.0115778750376	-139.211939866624	15.1657978295306	126.305750108929			-46.1216476635735	146.712290716532	-14.6189845462093	5.01719208029678
169437500	-28.4893131686795	-139.725062681584	15.0983959365292	123.887305850687			-51.1147270135144	141.815627513558	-14.3553752716905	1.4659393948358
170125000	-28.5513634527478	-140.341585355407	15.1268037046129	122.029046384995			-47.6498412913739	131.107212547675	-14.4886470483464	-1.35791331298581
170812500	-28.9399129134191	-135.925049046077	15.0728525315743	119.660680674836			-55.9889577034633	178.860039545415	-14.3659261373184	-4.81371390483122
171500000	-28.935528926043	-143.246524006916	15.1254524833108	117.725114702351			-48.1223578762998	151.506965628144	-14.4282828684296	-7.56850085736999
172187500	-28.4379067298527	-138.118713984969	15.0821152384743	115.409625103779			-53.8092168694505	129.382287403257	-14.2097989650425	-10.5576847843112
172875000	-28.6695830192487	-141.945994350505	15.1064076351229	113.749068490422			-47.9420948392834	172.648690106409	-14.4283030475643	-13.9471903617428
173562500	-28.3293565947184	-136.39495660702	15.0682660160113	111.4254244029			-50.4567867160597	149.580980389901	-14.1847801395251	-16.5731254804641
174250000	-28.5214720602716	-139.458485219671	15.0994824923374	109.602732701289			-49.4577335515849	157.162354451582	-14.2403059979889	-20.370534788841
174937500	-28.907674489353	-133.959187705205	15.0875415048179	107.447951160676			-49.9281276600183	104.349713190332	-14.1506970256295	-22.4945362697791
175625000	-28.2231451833146	-137.451485051976	15.1106451841791	105.708232806235			-51.9800978139781	160.807512772621	-14.2239484611406	-26.8226554189698
176312500	-28.622027854733	-136.925928772629	15.0957191670013	103.534915105812			-49.0165460067961	134.603616465362	-13.9907660504587	-29.3093141205331
177000000	-28.3034460755764	-137.616487497479	15.1312531157006	101.990516674018			-52.8818361900878	167.960938643185	-14.0434678957784	-33.1159080624961
177687500	-28.5995568261734	-136.066800149042	15.099707287592	99.6834559332737			-47.6430777352422	101.012336665006	-14.026024712366	-35.2649071495516
178375000	-28.0226768567967	-136.076716134318	15.1632181081608	97.840356386687			-50.0636817208771	135.420070144328	-13.9918543550929	-39.6826699088161
179062500	-28.4325905548388	-136.847413060441	15.1749326511733	95.7015085145956			-48.0915816919494	126.83241021885	-13.9324592121625	-41.5678023554546
179750000	-28.2346031668257	-137.151681376667	15.1987947712373	93.7848180679202			-48.5832369176218	134.392182143235	-13.8493514373788	-45.3186027325585
180437500	-28.6295664156784	-135.261339526004	15.2539829339008	91.9521561799498			-49.9669312175364	127.642428549743	-13.8318116713896	-47.977294051979
181125000	-28.0035407781758	-135.818512452034	15.2375024300612	89.9243402098949			-50.5882758265846	151.936578746142	-13.6891213239104	-51.5854325332605
181812500	-28.4583162901827	-136.449382558735	15.2530461937684	87.6264508747688			-47.0079409783052	126.969788715328	-13.770478566188	-54.1749049012865
182500000	-27.9670285731556	-138.813765443508	15.3178610225651	85.8794639319463			-53.2635694232726	126.568298804489	-13.669431503081	-56.7593820652687
183187500	-28.4174750422732	-135.593334482878	15.3461029654215	83.4699791077246			-48.503909444884	139.812664392678	-13.5872107992539	-60.2289809526056
183875000	-28.3942392649574	-135.304246015269	15.3939649722461	81.5180357635164			-51.9418343491395	109.534598003472	-13.577978067873	-62.148547488428
184562500	-28.1848294907461	-138.536507153356	15.3523809364531	79.519583353884			-49.3578352854453	125.581676368727	-13.5212620495218	-65.7305484711144
185250000	-28.2202871839371	-140.647077772815	15.4196628431297	77.5367428576694			-50.492568652768	123.551792853966	-13.4685538932013	-67.8404385805588
185937500	-28.5133484360482	-141.291606447766	15.4073409106237	75.0374120573575			-49.5987941342101	130.670585329432	-13.3990396110942	-71.0176096912802
186625000	-28.0939529677326	-141.779192679387	15.4250067503212	72.9645666283635			-54.8090574580869	77.8302259476471	-13.4069681306342	-73.188481617376
187312500	-28.0359426138312	-143.507868402145	15.4101472526652	70.9403943066677			-51.8228507626221	118.7146493233	-13.2604212399322	-76.3009032959486
188000000	-27.8573035282836	-142.936947519968	15.422192304058	68.9606365409306			-48.0783153568657	96.0556173103664	-13.2665205470948	-78.0661158920069
