# Hz S DB R 50
100000000	-32.6412850285445	-6.14441983088026	-19.8364076229052	-3.53605116894852			-53.9725860097068	-39.6326115180569	-3.54719639689225	81.5248050929666
100687500	-33.7464368802685	-2.11809778280366	-19.5275007341732	-5.13344020415938			-58.0078903947965	110.066376326617	-3.48056872748194	79.092091648385
101375000	-32.7082031843644	-10.4173360719339	-18.9615638082633	-7.89328743001126			-60.8197340886335	47.1227389258625	-3.53151406703378	75.959921377212
102062500	-33.3623904124867	-5.2363057445496	-18.688854773139	-10.2228571928365			-62.2689856649629	141.234134121911	-3.56310188717362	73.2296899562832
102750000	-32.8235446082014	-12.4937281637559	-18.1621354170408	-12.8854585805644			-56.0661201393986	0.477410028822883	-3.57153128231759	70.0932725201136
103437500	-33.973371744214	-12.9834609433513	-17.97555656754	-14.881522116829			-57.9161155393071	-165.31831024608	-3.57711510752442	67.5650445827774
104125000	-32.9923050518158	-10.812176138526	-17.5118193288906	-17.1747441275703			-51.5993616249355	-21.8557758082398	-3.60773695152901	64.4968506161362
104812500	-34.6002191615362	-18.508895410293	-17.2716535439384	-20.4065544950791			-62.0802371155794	160.978972184735	-3.62174567633371	61.5412410306105
105500000	-33.562026849295	-13.8682451289234	-16.8260810839471	-23.051699983974			-62.4729072897541	-20.2742025926872	-3.59606394132269	58.3828475385809
106187500	-34.9618806161296	-23.0419422725642	-16.737117391115	-26.2515159763411			-65.6905952972908	-117.508247486787	-3.67330356969756	55.5783314346234
106875000	-33.5186014985702	-22.6409715161427	-16.3508229198123	-28.6681048172109			-54.4048040807069	27.2730081415074	-3.66298888753495	52.4446154044596
107562500	-34.2238027722225	-27.1015660664049	-16.2344222700338	-31.6813787409711			-66.8493908952024	-80.757349614962	-3.67742182437421	49.2633516460942
108250000	-33.0391349983625	-22.6147276304813	-15.9646015884186	-34.6057175881925			-66.9888640766386	-20.6602137264753	-3.72100739934292	46.0324303749999
108937500	-34.0218629117301	-33.0662458657613	-15.902833935449	-37.3689322990119			-62.1015149806769	-111.295226403594	-3.78796774821844	43.0228045461406
109625000	-34.0766898069394	-26.5391372852965	-15.6940188677375	-40.0269634052223			-59.7745009460072	114.046720080819	-3.79426180692576	39.9366207417771
110312500	-33.9333602485434	-36.7011763019572	-15.6217416047483	-43.1437572508201			-70.6079143580578	168.583642830441	-3.8767222000352	36.6128193607376
111000000	-33.5143925024279	-35.6467261225027	-15.5119618831945	-45.4307180911611			-55.7644004661961	65.9567566988285	-3.92723480966806	33.3874522150704
111687500	-33.3106279870578	-45.4606698641995	-15.5395958856249	-49.1615113047849			-61.3018563253294	-123.740953166143	-3.97584000356329	29.8965704532996
112375000	-33.846479877971	-33.6252346784549	-15.5664055787646	-51.2987443162761			-60.2103840422672	135.089207888657	-4.0049008004121	26.8853021838012
113062500	-32.9109983905237	-44.7371945286984	-15.6582445745583	-54.0329234101393			-59.3868925149327	-146.810574464575	-4.03886723798674	23.4366849368487
113750000	-33.7259039813496	-42.1500526129347	-15.7829093304439	-56.1206346459736			-54.7041984257816	89.9464943712824	-4.09541281344941	19.9487791790786
114437500	-33.0933302709208	-49.7139752562901	-15.970134256893	-58.3997027414215			-58.0260255215019	-35.4339115444997	-4.10617972336462	16.2799260288281
115125000	-33.5814149001243	-48.8010866571758	-16.2621306261289	-60.5866703287528			-61.3610023467975	139.554612891303	-4.17566113368703	12.6380436915178
115812500	-32.5467933078664	-49.1478636651898	-16.444334008796	-62.0179624597708			-65.0134558506976	-51.6127659422924	-4.22007331609433	8.54034730353584
116500000	-32.9291347102616	-54.0878817404193	-16.9082766245477	-63.0797716383038			-62.1977018861083	77.6347900391474	-4.24662955171715	4.89364626758617
117187500	-32.1036463488116	-53.3347785416021	-17.3217152311381	-62.9902462938282			-65.1492910906264	-62.418688634613	-4.27075096459782	1.22281789539818
117875000	-33.4853075681197	-55.6284051109272	-17.8237528355233	-62.7178331144136			-57.7100503498786	-167.67159170875	-4.35184907307555	-3.15244043525934
118562500	-31.9842971430122	-54.5386982879037	-18.3063280712272	-60.0708865096843			-67.0381691429066	-9.48537569353353	-4.38091563519158	-6.97346707481
119250000	-32.0457688087553	-61.7751915171413	-18.8710999360944	-57.5208584595253			-63.6919527776771	155.222440700765	-4.49547487576083	-11.4108965816791
119937500	-31.519548302599	-59.4973632572738	-19.1339357193706	-50.9079894865614			-61.5115894944154	-30.1189878495722	-4.53442869310918	-16.0346356952661
120625000	-31.971940565666	-66.260390474394	-19.25448259899	-43.6809164613997			-63.1962904372874	-117.478738151222	-4.59058416477432	-20.6922626389588
121312500	-30.9781969424718	-63.4947266532731	-18.8590142732457	-35.2250833566116			-64.6386695473878	59.0144505004634	-4.67590470777812	-25.3730507774752
122000000	-31.3940173501945	-66.8415265413889	-18.1139624160213	-26.7897807790702			-52.9695533463304	-144.95836536696	-4.75969384273527	-30.4843082864446
122687500	-31.3958610502828	-67.4141859398954	-16.839289787358	-20.6211960848772			-62.1923779979391	78.6439144017499	-4.91307382444461	-35.0946519744388
123375000	-30.9031596938266	-70.3168326615962	-15.4525567616871	-17.2116281371799			-64.5055051875433	-166.248689630547	-5.0148994085793	-40.7074479954941
124062500	-30.9591608696174	-68.1715092785048	-14.014351667204	-14.7996801798421			-67.3156796212153	21.7754966887035	-5.21121310825527	-45.9161667476268
124750000	-30.7520611895841	-72.243712993021	-12.5631664520349	-15.9021168433903			-74.7248832469629	-55.8380689479844	-5.33108872737401	-51.2594679571965
125437500	-30.694638356738	-67.6024242579975	-11.2592874663508	-17.169065252715			-54.8984111475071	65.288373744559	-5.58875197101392	-57.0890718858293
126125000	-30.5727032773359	-73.9859585225296	-9.96192805867816	-20.6128141440588			-67.2216744680955	-121.352992537391	-5.81537447422671	-62.4936805760366
126812500	-30.3494325963201	-70.2756446282811	-8.86865621090414	-23.5553564678956			-57.6675386534572	123.594971852549	-6.13726065356975	-68.1156451944075
127500000	-30.0690767946749	-74.0239924063776	-7.85265165982606	-28.0756452791063			-60.6533125181754	-25.3480683628646	-6.39866771825478	-73.6183503102966
128187500	-30.4738369888183	-76.0087696780381	-6.97376739060302	-32.3436986822555			-60.7489018308454	79.0551027206704	-6.78366557902347	-79.6443141826835
128875000	-29.5785434384785	-75.3063772250131	-6.13756017026426	-37.80072827066			-59.2415609139979	-61.1563163816087	-7.14850738150297	-85.2832964952686
129562500	-30.032325204997	-72.9428783908834	-5.50440949278242	-42.6195146049816			-73.6582288038263	-46.12432566757	-7.55602611625267	-90.9019163437802
130250000	-29.0031660253402	-76.045726420208	-4.79845396907105	-47.8178465970531			-61.2581798226563	6.1223844322771	-8.02226665478512	-96.1823729609448
130937500	-30.0594234687256	-75.6284328648875	-4.31599934808003	-53.0288242403708			-60.4849671394166	145.133257975464	-8.42597878204578	-101.68325794366
131625000	-29.334290660074	-77.7291116015324	-3.82680715457834	-57.9799885096842			-50.8708798293904	-30.5267930932565	-8.92457803759835	-106.955661076945
132312500	-29.8885692542247	-82.6331635762179	-3.44226960254256	-62.8967434911958			-77.8337912337645	50.7664910337256	-9.37141465336495	-112.530888628765
133000000	-29.5431213211599	-78.0850163656369	-3.0419854692951	-67.9364708936017			-53.4081044463415	-19.7089226305967	-9.90544447406456	-117.563350126851
133687500	-29.5199167812026	-85.9556767282513	-2.78029946063334	-72.7258762135144			-73.5144066609358	-18.2047557341414	-10.3692920585132	-122.736330612828
134375000	-29.4016796479818	-80.9775097692051	-2.44727894589605	-77.353909150051			-55.4455938549611	-8.19143128359986	-10.9056308518231	-128.23234251229
135062500	-29.1099566496644	-84.5297776133332	-2.26024998298523	-81.7362721208815			-58.4842479026421	-105.200656471806	-11.4012976282882	-133.360969616299
135750000	-29.6674581304247	-77.9847551314627	-1.99159333587495	-86.2274677032131			-56.9345159599249	-41.659269295103	-11.9639346504481	-137.940177196069
136437500	-29.073579998434	-85.7133674779223	-1.81206291440517	-90.4530355745756			-57.7865092737132	-79.5752227014731	-12.4245558901428	-143.413715948716
137125000	-29.5759897073976	-83.5736991868175	-1.58675908962822	-94.3790835203838			-65.6422439295695	21.006749090013	-12.9417719026046	-148.762690850466
137812500	-29.2664366255921	-88.8823798836339	-1.4796797652042	-98.4553558941611			-59.1234858312526	-128.133841280145	-13.4001740225281	-153.769242232282
138500000	-29.3969381201085	-86.66738095045	-1.26110156662073	-102.442482531341			-58.7182950621996	84.0002302361196	-13.8095075602237	-160.306717787401
139187500	-28.9285499690966	-88.3682519139011	-1.15868019499556	-106.279133971661			-54.3436163837697	-87.8677057177131	-14.2604533954721	-165.48787749974
139875000	-29.7285386615274	-86.8462756280626	-0.990007547483916	-109.947411868246			-67.9765582818983	-71.0212530979661	-14.7583798687993	-171.334021175536
140562500	-29.6908192829153	-91.0946213850537	-0.919727596185537	-113.79246348734			-51.5390061993239	-60.7829723621602	-15.1805766631138	-177.033833508186
141250000	-29.8449105808744	-90.0136233481518	-0.754903413381616	-117.486829575195			-59.707788165076	54.4056183117296	-15.462746975321	176.193470487453
141937500	-29.1705993464047	-96.4668156390152	-0.716469669761427	-121.113726571276			-61.3400735708432	-50.250627548991	-15.8954113489098	170.571826348009
142625000	-29.7264546199168	-92.8721127218462	-0.578209061967485	-124.674491639504			-58.3134612298002	121.05660256024	-16.1560774401513	165.271082568788
143312500	-29.1259021653997	-95.3698154074813	-0.535278967676049	-128.250645285426			-52.0504003556785	-87.6629803354527	-16.5147113884764	158.397668405792
144000000	-29.7886205894225	-95.0497437664828	-0.402089789882753	-131.446713144046			-57.7422431335398	133.095453998313	-16.5614604420814	152.042773936235
144687500	-29.2348552415431	-96.6191630899361	-0.405391123508069	-134.998589646367			-54.5934494422584	-75.7857771693129	-16.8919224662214	145.331409093713
145375000	-29.9556001721278	-100.20381542731	-0.320083037827274	-138.494593619904			-66.6794856049588	118.278373880283	-16.8687561944142	139.201259412509
146062500	-29.7697229499878	-96.5047553609966	-0.291492330574817	-141.534954288639			-56.1541150105	-122.94714339335	-17.1048932947782	132.631325383833
146750000	-30.3899588539588	-101.382308643253	-0.192691018205021	-144.936324385511			-58.7553301602333	-160.720418514094	-17.1017043389413	127.760832043654
147437500	-29.5357878480003	-98.1325179204397	-0.182090654976438	-147.958633027294			-60.1784118325199	-64.7118951933392	-17.146402322517	120.392186123452
148125000	-29.637557602359	-106.637853301017	-0.14853237402898	-151.206981814446			-69.4096147808887	-126.472747481397	-17.1192468807792	116.29646181
148812500	-29.966419587481	-104.484789471755	-0.166044756682794	-154.229692340039			-53.4894243378801	-77.7496688897672	-17.0350500194347	109.023388367983
149500000	-29.8355590192095	-109.833220057133	-0.078292573282839	-157.125897720997			-56.1324902588549	167.061331359035	-17.1320599853549	104.306926105912
150187500	-30.0914918249807	-108.172853079534	-0.106686839294355	-160.218885829288			-59.7870975353136	-179.846275960132	-17.0419877162672	98.6304762139262
150875000	-30.2644112167274	-111.990862490796	-5.75855675329724E-02	-163.078067044577			-56.0225539306594	-163.815258481144	-17.0415334553383	94.6649288772365
151562500	-30.0201665580145	-107.81142581779	-9.55398056062371E-02	-165.729050056593			-60.0590770535228	104.224467540485	-16.7666900088214	89.6000139161681
152250000	-29.5735164622117	-114.93292684867	-5.45704996188351E-02	-168.609880902421			-53.9366608167593	-137.470986980434	-16.902758916083	85.3760678060924
152937500	-30.5315628462261	-115.774457484892	-0.062953753774261	-171.01148252258			-59.9397192980781	94.6946066144534	-16.5636947215421	80.8724150238757
153625000	-29.5993434521255	-120.7020531116	-2.28633308719485E-02	-173.691284409511			-55.9694182970859	-98.5126888863976	-16.6180756994669	76.2587586206909
154312500	-29.6807587125991	-120.948949136308	-5.86103050948917E-02	-176.269370636374			-66.7922071650026	86.1387707789757	-16.3720889900733	73.159486032337
155000000	-29.0454592999719	-121.995703189324	-3.85975020669031E-03	-179.170113822276			-56.9793808475544	-112.442694125138	-16.4209542167476	68.7449530978535
155687500	-29.9190795863528	-123.539144942985	-5.19332395929618E-02	178.564327852299			-71.028046203368	-108.922892121024	-16.2885510558474	64.8392602641221
156375000	-29.4945837221646	-124.696626958138	1.60907747627931E-02	176.013596019982			-56.0272974648178	-169.525702597923	-16.32088305715	60.9704560683968
157062500	-30.052513329335	-127.284773867329	-1.21336793224885E-02	173.492651014912			-56.0793901946189	138.199283677805	-16.1308250462516	58.2818217230406
157750000	-28.8940041088113	-124.308391186365	0.058787499022145	171.194749960142			-55.7344654911427	-155.791344385722	-16.032425718735	54.1297218810489
158437500	-29.4934866545397	-132.588885594219	9.58906211083966E-03	168.836894918718			-63.2869839486243	111.725032328093	-15.9324247390187	51.4756050510466
159125000	-28.5409360758819	-128.344999317623	7.35731103877354E-02	166.267049519489			-66.502061616318	135.868301714646	-15.7144428041015	47.0795168631928
159812500	-29.2632227677595	-134.818732060322	8.40297580238696E-02	163.743331172792			-60.733584868284	-172.997307077017	-15.8064412362527	44.3203574037432
160500000	-28.6391949689683	-132.143900792024	0.138748001011545	161.392690119408			-60.5703352181967	-71.3650245600804	-15.6613978136398	40.7507596250264
161187500	-28.4438835844536	-132.859538293378	5.26618444312036E-02	159.439714061249			-55.6435122351141	-154.279237023779	-15.7243345090195	38.2674216527249
161875000	-28.5584291309526	-130.296966845709	0.174390571175047	156.674387808363			-69.6303480228578	-12.3258149316559	-15.546833353892	34.4338698753766
162562500	-28.2798126341356	-135.816382772552	0.112680867106649	154.255925505899			-55.3864106607826	145.961486885508	-15.5716927460395	31.390541881576
163250000	-28.2585086339629	-132.50670291185	0.119216148675443	151.85347440965			-55.8593015936524	-12.6235656827726	-15.3689517765389	28.6938401959364
163937500	-27.7000393265185	-138.664343835014	0.122904152548525	149.737655498927			-53.0992769256284	-164.924754316745	-15.4897462471337	26.0068147550914
164625000	-28.0152202062272	-134.837348911908	0.176839391900392	146.936132498566			-58.6485310911094	14.9688647294647	-15.2572775872523	22.1414971525339
165312500	-27.5502336605396	-140.403360997079	0.138115873218707	144.713573874637			-57.1552952251548	169.020733026759	-15.3170362881265	19.2210108475508
166000000	-28.3954097775672	-136.681059555587	0.144558580747994	142.422427851926			-73.6318740811564	-62.6860670403224	-15.2167040920584	16.2249452949056
166687500	-27.4841117189823	-140.13129710956	0.104230505559735	140.513539482799			-57.99350434881	167.593499891054	-15.3159018409634	13.7508548672742
167375000	-27.3693014578675	-138.43813792264	0.160603105275591	138.197029172096			-64.469497266392	56.7053618293077	-15.1788333198536	10.9535781927298
168062500	-27.2740950990821	-140.740513237477	9.40498386714261E-02	135.934647835573			-54.0345946028939	-147.937936837125	-15.1574792139232	7.920099891177
168750000	-27.6685013336862	-139.128030769057	0.171919768003665	133.835274071892			-63.3459977593453	51.8510918333591	-15.1128644079649	4.79071580418993
169437500	-26.8194015998347	-141.694416911503	8.85368481850101E-02	131.578608162289			-57.81821172854	-137.197380317012	-15.0990797481136	1.86335891197804
170125000	-27.3980202543987	-139.213317743332	0.144346850125532	129.33420071266			-62.3392190428588	155.98968679968	-15.0991825898754	-0.499484486238322
170812500	-26.9330354654533	-138.273722528896	9.68209381967073E-02	127.445311229763			-58.3699702330316	-62.5491828407123	-14.8453081301537	-4.5042772442794
171500000	-27.329559699815	-141.306565929453	0.122967651896815	125.04143499749			-62.255206601133	118.439156446649	-15.0422888140706	-6.84799115290491
172187500	-26.6660138724449	-138.084117702466	7.05397329967208E-02	123.233407559689			-54.0753460190104	-71.9256529089119	-14.9368578202027	-10.6557305066677
172875000	-27.4575993884838	-142.924087761359	0.136448970408527	121.131327509007			-51.0604055360242	140.322106129448	-14.9444437248121	-13.3135108600353
173562500	-26.7703725775394	-138.349415671554	6.23420837507958E-02	119.206347108659			-55.3531339321417	-124.505110905926	-14.7495338815646	-16.7967497146766
174250000	-26.9516541914675	-141.569526955678	0.124964136240303	117.091047971031			-57.1232270023572	147.474523408841	-14.8292058112129	-19.7993145632477
174937500	-26.7107853289061	-137.259617752613	8.48322249461174E-02	115.275219850066			-56.1483355653295	-96.9598797569308	-14.7409145437626	-22.3767002662913
175625000	-26.6388636538913	-141.230325299736	0.134690102963725	113.241427326688			-61.2606184350863	161.790484296163	-14.7193793457967	-26.2559271664685
176312500	-26.6982635806966	-137.758355301803	9.26946734218592E-02	111.207501988318			-62.142774363883	-79.8654135368951	-14.6766507506179	-28.8149560231551
177000000	-26.7877747741173	-142.425005241946	0.172211252267018	109.52939097914			-58.9043038260665	147.69838587532	-14.6674601501873	-32.7066608611532
177687500	-26.7629354324058	-137.91698246427	0.133513771037811	107.399462409951			-62.9370216448098	62.0940766811074	-14.6470416822726	-35.0238650533709
178375000	-26.6993477983456	-143.012968482577	0.196036501391879	105.675275459113			-59.9201491624254	91.9689374087461	-14.5677921441207	-38.8711212398222
179062500	-26.7168713711258	-139.621593788973	0.161021318046064	103.423463757687			-57.4081837896582	52.3580050768964	-14.4683016529599	-40.8364953102918
179750000	-26.4163442447445	-143.721092594309	0.204286198767561	101.704311715164			-59.3359347817686	-175.283523366624	-14.4300936203774	-44.8578944873799
180437500	-26.7977495655065	-139.168747427804	0.23197052778753	99.3519617204299			-58.2973542195371	75.9585441889384	-14.3801598550953	-47.4343877583734
181125000	-26.6549806356321	-143.16237233452	0.271167542444463	97.5572943663013			-75.1135208470144	-170.992888383978	-14.2414735202604	-50.55589951464
181812500	-27.0442841041816	-140.638671685083	0.245572289581239	95.6728881746227			-58.6901914679289	20.2542195376845	-14.3357789325535	-53.2525583627242
182500000	-26.3992139233418	-144.577676960513	0.344008543893647	93.451470591645			-57.228218146933	-170.707506434848	-14.1602704752493	-56.1880189853025
183187500	-27.257073018843	-145.011918082013	0.357752925116215	91.4174527178361			-55.6952648016866	152.37094809655	-14.1637279168925	-59.4205660235808
183875000	-26.9636594822696	-145.287236940638	0.376746650984851	89.4022779921643			-64.4356829358568	-105.867368496156	-14.1217736488731	-61.3930724451025
184562500	-27.119049328165	-147.259717363422	0.359076817365172	87.3973098029209			-56.5290181066468	82.9737697277937	-14.1358925352992	-64.1625058515802
185250000	-26.6253336323077	-148.503102726433	0.428794828415396	85.3857123680197			-55.067106932874	-101.111803100195	-13.9811737208946	-67.0241786922108
185937500	-27.3082908807164	-150.051927600622	0.389550388657556	83.2708171205155			-51.4598193269575	56.6920996826132	-14.0843496375233	-69.6789089137061
186625000	-26.9055287058078	-148.801505117757	0.424862531799952	81.1050966085552			-69.3901906758948	-175.809453184644	-13.932157841524	-71.9223462520507
187312500	-26.8139029297962	-152.89963093309	0.413211454619811	79.2100567931888			-54.7101703071848	107.363027498237	-13.8887092364055	-75.0725828781255
