# Hz S DB R 50
100000000	-30.0183714965021	12.0589104652455	-13.82179508566	-2.71747391569657			-62.4624589515494	53.3734609308927	-3.55334320274641	81.39580397341
100687500	-30.143988744684	10.1650239373399	-13.3537590656535	-5.49961684268096			-60.5307655997033	-28.737685238652	-3.53373927401283	79.0117602387606
101375000	-30.4692930854244	8.81354318082129	-13.0264854206631	-7.5767458184586			-60.8315218982445	112.169235474686	-3.57322251138085	75.9191636518218
102062500	-30.2029122018926	8.53670476378953	-12.5588092332328	-10.0244100193483			-58.4545723699316	-32.7560528856457	-3.56205713892766	73.1947227805341
102750000	-30.1357342553752	5.43691095308751	-12.2947769291797	-12.1223094540853			-79.9519137028832	51.462873208071	-3.6007159713417	70.5246476163603
103437500	-30.4184387653516	5.77240762878649	-11.824263127725	-14.7081324505945			-59.4689501759761	17.4927736748191	-3.55177178646949	67.5656707378237
104125000	-30.2645028041461	4.40306962159144	-11.5380473140947	-16.9109744597834			-58.3185138172814	-121.345627007796	-3.60338109324345	64.7417095053475
104812500	-30.3798099071543	5.20145086871478	-11.1776913435659	-19.4256912851774			-56.0595117455107	7.28972009681036	-3.58805710232834	61.6582511117794
105500000	-30.7133375393461	1.61764228436232	-10.9321325801232	-21.9555875624759			-56.8732499800717	88.2320162309118	-3.63799014196368	59.0245953976228
106187500	-30.7730663829985	-2.46547862050307	-10.6185368074262	-24.4111322082291			-56.5536431758294	47.0153577720299	-3.60856495953958	55.8321831508917
106875000	-31.1454535360632	-5.44100928612395	-10.4294760199569	-27.6002751313189			-59.764622353266	-152.754247678271	-3.69233056030658	52.8181129364538
107562500	-30.6212541757671	-0.647411562590206	-10.1731203185417	-29.7115391080246			-53.9511848381322	20.705162909004	-3.64524821287125	49.8360931561435
108250000	-30.22905417616	-7.40916199505616	-9.97640747318812	-33.0752548773949			-56.2780690507196	-75.4070257005829	-3.75723457336803	46.8260527425777
108937500	-30.0960928349258	-5.5297150340916	-9.80368580426688	-35.2424103512218			-58.7545851001223	81.0099154260463	-3.73001905774105	43.7423228853868
109625000	-30.601828689948	-8.17154377299246	-9.60375633791883	-38.0907515587115			-72.3790469733976	-50.0985422841115	-3.82323578698192	40.5806449483359
110312500	-30.4177851975931	-7.17815407110719	-9.55962068812415	-40.6368923925557			-64.0008367337137	94.273433752636	-3.80761824425263	37.4284320964126
111000000	-30.2219602652154	-12.5870949253252	-9.43747022760752	-43.4634859708566			-57.2379531911019	-59.1531812984472	-3.90940044358874	34.080357243862
111687500	-30.483617568495	-12.3964232197785	-9.43330059491985	-45.6230004731107			-63.5501287445692	49.0877949747376	-3.90335772814471	30.949968623672
112375000	-30.3223573877313	-12.3084431000903	-9.44307615125813	-48.5065633875101			-64.1502275648874	-56.427624725114	-4.0223249889567	27.510712335561
113062500	-30.2848242628846	-15.2998385451937	-9.52352054663629	-50.8338570790252			-78.868499343811	-67.3894365370277	-3.97017777621581	24.3801299101498
113750000	-29.9498470176323	-15.5982990936276	-9.6055015528082	-52.7837602850304			-56.4108681913249	-29.2612365678253	-4.11020832129345	20.7448448530867
114437500	-30.411682411752	-22.3088757532206	-9.75875003688078	-54.8572787678754			-73.9048373182913	95.8510678985706	-4.06273213862115	17.566597288092
115125000	-29.9000826580839	-20.978349367968	-9.93597195906063	-56.5907655666024			-62.2800374748829	-44.6834942021118	-4.16853047695686	13.6447186856515
115812500	-30.3968229683716	-21.6662705239822	-10.2031472166602	-57.8303147755449			-56.8285270071144	138.418394880937	-4.21892159184636	9.97381626096778
116500000	-29.767976942043	-25.2098756688509	-10.5059076198593	-58.7785075176719			-56.9298890822923	9.8851430657033	-4.26912914682875	5.99497690707147
117187500	-29.8513305793879	-27.9997616826557	-10.8760447912044	-58.9699133215679			-71.5919078075034	-179.478362300532	-4.31704728356951	2.57580321058324
117875000	-29.8451604146553	-25.6453151976577	-11.3326809832774	-57.8011137351332			-64.7682927046308	-12.2876246809163	-4.38282201849932	-1.45817011247076
118562500	-29.6014309694141	-27.9485473528014	-11.7326571134352	-56.0425593220316			-81.3874115572996	-29.5854662124832	-4.42526024872607	-5.28064366574552
119250000	-29.4549136095526	-32.3416639129675	-12.1210643473168	-52.7183493667129			-60.7730053352251	-0.54123184157367	-4.55862741227755	-9.68488977623392
119937500	-29.1496288876603	-34.8560361939485	-12.4884485443786	-47.7424248486742			-63.131596673867	100.933918697476	-4.58176302346806	-14.1462325338215
120625000	-29.5406613666338	-34.7067481675298	-12.5071409354899	-40.2832612912262			-64.1543201675393	49.7018809139508	-4.67565956809701	-18.7334985655877
121312500	-29.1243650548438	-38.4924236062845	-12.2188372433025	-32.716388495845			-77.8274096918692	162.339474273519	-4.76329030634163	-23.3451145900802
122000000	-29.361365026999	-37.5192802720521	-11.3613782383245	-24.4437771195409			-57.8656269279249	14.67990150298	-4.91014860232628	-27.8762848474466
122687500	-29.41641676032	-40.3423629234659	-10.2422402640765	-18.9267753964028			-57.5548019225038	-131.988310315927	-5.01595958550706	-32.854853958329
123375000	-28.9073747877766	-45.1931126227162	-8.8354952645662	-14.5750169440102			-57.8181103082453	36.2524356879742	-5.20576799048201	-37.9376595575125
124062500	-28.6882790243724	-44.4201402956943	-7.41608139875439	-13.0307087349491			-66.019270477952	-17.3509889203921	-5.33254156583879	-43.1268074053417
124750000	-28.7987041940593	-46.2027275774835	-5.92220187794436	-12.9880423786889			-56.8542066638051	71.7775271590719	-5.61105455403534	-48.5977135523793
125437500	-28.4678380300273	-47.948188088886	-4.58996030942007	-14.6013592478562			-59.2652766677765	-11.9601225655883	-5.80624170078941	-54.2883126821556
126125000	-29.2241996494052	-52.2241688747298	-3.33987861865339	-17.5126170621526			-59.0798622333977	69.375123949633	-6.15805161689685	-59.4228871350706
126812500	-28.363681200364	-52.917212573402	-2.18085005147949	-21.0938372178646			-61.6343926332166	-78.9828250091932	-6.38742034180102	-64.999755786749
127500000	-28.358298902446	-55.2144312795927	-1.14934706651484	-25.1502417570649			-59.1346506812755	91.9607009067844	-6.85776556303902	-70.1474951324081
128187500	-28.1025580483456	-54.9026544240214	-0.20130032821757	-29.7312594169073			-55.1969419797595	-54.3011024301144	-7.11933566845484	-75.8360399095058
128875000	-28.288823992615	-55.8688119587748	0.614546317548889	-34.6601826714821			-61.8156516625052	164.897896671925	-7.69333055839131	-81.6099171523354
129562500	-28.2204988437962	-59.405980386615	1.35441688090259	-39.8523042601835			-56.645460448064	-16.2650785467299	-7.98801850580304	-86.7561718861713
130250000	-27.743867411967	-58.0103464483728	2.01235157841002	-45.2155565641638			-68.968851389533	42.1076689143815	-8.66985315382074	-92.1060076947221
130937500	-27.9289471942209	-59.5213628584585	2.59485302102812	-50.5432134909252			-64.8456327045965	-34.7582026956826	-9.04946465713391	-96.7913578315379
131625000	-27.6906179432012	-61.663700191788	3.03878007486154	-55.8015357521741			-61.6228479263336	-128.279115539816	-9.70165762521066	-101.672542798891
132312500	-27.8511032572417	-62.2373560801699	3.49838820958731	-60.9257154752951			-54.1332822767007	-12.505929995247	-10.1312751755197	-106.408597843594
133000000	-27.8877758546423	-63.9482345552164	3.82388585805186	-66.1874089046023			-59.7857623016632	-78.2373434005322	-10.8299518559284	-111.611450155494
133687500	-27.2893311120989	-65.7596405291796	4.15214508169837	-70.866698263641			-60.3388577626746	-53.6059617014373	-11.298233188247	-115.7374241252
134375000	-27.8056375801799	-65.4479716608083	4.46411618473218	-75.7581931518213			-57.0288124899119	-108.996719021965	-11.929043646254	-121.293579693658
135062500	-27.7673596020878	-66.0894470849932	4.69351384637886	-80.1403031763405			-54.6997338433606	-28.1939675312773	-12.4866010604846	-125.471936501858
135750000	-27.7280983890752	-63.0674633684281	4.90953748222772	-84.9814023236221			-64.5867796114648	-9.12443920192206	-13.1283862032633	-129.840168944258
136437500	-27.6572891696916	-66.7637272484885	5.11577522366788	-89.2360560400176			-56.7856736511393	-15.9885350821253	-13.6830333412318	-134.475680252003
137125000	-27.5941283126734	-68.0337369550849	5.33211298556145	-93.4434338034815			-56.6419239244795	-111.221367017882	-14.2280832411522	-139.033915683142
137812500	-27.6417997447686	-68.8747199872315	5.46875757502229	-97.6775728757604			-58.9339283266137	-45.0159777068508	-14.8548533920704	-143.279334540843
138500000	-27.6564692168924	-72.1725416615823	5.64003776531456	-101.60026434573			-53.2720075503495	-116.320070342963	-15.3241320518374	-149.476320718129
139187500	-27.503080684931	-71.0499268018323	5.76293166160018	-105.490013954207			-61.4424302890865	-15.6649435775795	-16.036926717921	-154.307562608721
139875000	-28.0218030819033	-73.5873882092068	5.90509835513695	-109.303552389077			-55.0894194375728	-91.3601093738273	-16.438826756372	-159.247023826548
140562500	-27.9741936713624	-71.4844906916013	6.00457749295229	-113.177555686505			-65.4908427942725	-161.055870591258	-17.0177381009666	-165.443193366263
141250000	-27.8037460559472	-70.3528696510207	6.13957465703221	-116.897227556867			-53.1477067574793	-100.86607566686	-17.5012900067527	-170.83496834885
141937500	-28.2170454027943	-72.5204618063869	6.20235491634929	-120.611965719207			-64.1634633808648	-119.154793278031	-17.881241443927	-177.762446394886
142625000	-28.3412656663475	-72.6274049169112	6.31221183466726	-124.192120911491			-54.8268327018386	-63.8141272482412	-18.4459341850491	177.347150736503
143312500	-28.1690462636129	-77.3561918174033	6.41126317803187	-127.784554964138			-59.9401913987742	-128.720617394121	-18.7939163316562	169.394439152633
144000000	-28.0428970410463	-73.4854125765968	6.47147701478854	-130.928983508413			-53.8430809761698	-96.0319266771869	-19.0737941085685	163.741863529403
144687500	-28.2606041035537	-75.5247013739907	6.53307749600729	-134.563686780229			-57.2377790713558	-176.916415273281	-19.2385277212446	156.624451764883
145375000	-28.6517231407343	-77.9149107045711	6.57823463635375	-137.925101448305			-58.223541550888	-76.4909372007149	-19.543221785353	149.687670507793
146062500	-28.1924863119626	-76.297077502179	6.6514656449909	-141.279792715986			-57.2892695213941	-162.701715628864	-19.5634066410921	142.167824844242
146750000	-28.6597293852138	-76.9001482548449	6.67553685825325	-144.488241858494			-56.9131537229509	-76.2728760794359	-20.0727176334197	136.399246787159
147437500	-28.436577521447	-83.2251399097557	6.72131589921334	-147.691403752478			-61.6498717581082	-168.777473042327	-19.6341278749616	128.939752687608
148125000	-28.5203153516932	-82.2910665743558	6.73803362318416	-150.816459238489			-53.227606814339	-122.234891269413	-19.7106281833048	123.068973223481
148812500	-29.0659389326234	-84.3585688880118	6.80733625624158	-153.915509485157			-56.1574215570591	175.399789285536	-19.4680183805934	116.705934353942
149500000	-29.1859580533868	-83.2594247046617	6.80802833627164	-156.774029152834			-66.2541923512504	-119.245227574048	-19.5793731521787	110.235883276835
150187500	-29.2362486247383	-86.8596070972148	6.83862148855049	-159.948441400373			-52.0819212634361	-124.044435433283	-19.3212787917685	105.554381772975
150875000	-29.5802746209246	-87.1123328124849	6.83317435033526	-162.7059942645			-68.6139889301928	167.954351082309	-19.1781961471304	99.0396953752919
151562500	-29.2570473404306	-90.4392215413533	6.8644345655545	-165.554335010173			-55.6809946868804	-141.3840917406	-18.9582483654643	95.8222687197192
152250000	-29.5517900072883	-92.6939832607566	6.85020032881368	-168.484964538537			-72.2717689094518	-36.48128872332	-18.7954028115943	90.2607564407318
152937500	-29.6256483507975	-95.0853350428597	6.90223762906104	-171.148429869701			-63.2461945378465	-153.43283401748	-18.6055041185425	86.7704972087927
153625000	-29.5141117183563	-96.6043833517951	6.88247613939634	-173.79990407019			-56.9713805982729	141.318259124612	-18.3620266651948	81.4934851674497
154312500	-29.1652612498299	-100.042945605271	6.92134832261258	-176.298740342979			-56.8335859986495	-129.562736947502	-18.2296896167533	77.5640134025691
155000000	-29.4879828000044	-103.067086018119	6.90376212371517	-179.199513676491			-53.7498743046927	179.166054114395	-18.0009315845132	73.5311510743467
155687500	-29.6305881641958	-104.420926398953	6.90213835341579	178.64966147619			-56.1749075037351	-123.101634224278	-17.8742321750965	69.2639901289461
156375000	-29.3498648550646	-105.874267947865	6.93439168320167	175.574517541666			-54.1523740189331	129.139467018211	-17.7302109190833	66.6437425235887
157062500	-29.5507044600916	-109.838726663786	6.94988245608136	173.290895897528			-50.7951360284851	-155.193867641553	-17.6656866426564	62.3175928643861
157750000	-28.8958742889758	-112.312317544294	7.00279338419725	170.769764796534			-66.056911217686	-131.849059893129	-17.355212935766	59.6358486473347
158437500	-29.4852859381234	-113.280779465729	6.98014121929526	168.425200145344			-59.3306559781511	-134.05725177601	-17.2002526223776	55.7882716689718
159125000	-28.7254611381307	-115.202188554341	7.02284258785688	165.881124867981			-54.5648935315186	-176.606556332784	-17.0126335227999	52.8481419171263
159812500	-29.3171409210402	-118.791697631432	7.04024848043281	163.33846177055			-54.1781042557137	-99.0636692774414	-17.002993502569	49.6159583058736
160500000	-28.5378997475208	-119.571286579257	7.06137252855642	160.943952919503			-50.52446186605	-174.08795421077	-16.8101306278749	47.1915230862598
161187500	-28.3932119830953	-118.557427428659	7.01635200915984	158.713180641509			-54.0487067235201	-125.115668325624	-16.8143513783869	43.9345020432882
161875000	-28.362045329062	-118.576392224868	7.10344842137045	156.115784659742			-54.4988970999317	-166.052074520813	-16.7051096284055	41.547090480247
162562500	-27.9743634906258	-120.692300979161	7.06444124396858	153.767064377176			-58.9187105961434	156.535151138902	-16.5075317683139	37.4105406203611
163250000	-28.1094665748682	-122.454211228681	7.08498754457317	151.253861220563			-54.6642190329124	-179.03217339598	-16.4356830631504	35.3917017908137
163937500	-27.7658312821624	-123.932841654327	7.08933220440736	149.06140334388			-57.9822845517403	126.6377832384	-16.4066160220473	32.2299301734603
164625000	-27.7537590731152	-121.571445499804	7.08068677646579	146.546461177226			-52.1886867850081	178.439299164018	-16.3896912703442	29.4372493209922
165312500	-27.4243130944673	-125.052712697715	7.10547807817091	144.244239819738			-59.3107178109313	9.71167521586332	-16.0923042025342	26.100922529381
166000000	-27.4604964421598	-123.081706461139	7.10739567052288	141.949112167138			-53.2792487666427	178.622400904366	-16.0903530474612	23.5861572487253
166687500	-27.1016935698783	-125.171881032744	7.10381073055652	139.568116249271			-61.4717487073461	162.210706580179	-15.8552530955984	20.750539572325
167375000	-26.8508591184895	-125.803787016621	7.11064308352881	137.520263291542			-56.8071283168203	-147.637081893285	-16.008407477624	17.4631951792711
168062500	-26.8664163791616	-124.49294223866	7.11390728562091	135.04137950543			-59.9540316622959	-166.29441980615	-15.7420715601932	15.0029522383176
168750000	-26.6722706806354	-124.106933021206	7.1166736895434	132.838703582488			-56.3126630469147	146.664437949555	-15.8634434162146	11.7743046654609
169437500	-26.7012102198	-128.496574988161	7.09475627896866	130.548934601348			-59.9483943053448	157.681127296544	-15.5999569893878	8.79449228781195
170125000	-26.4004002062833	-124.404658714353	7.10967554292802	128.391181170269			-53.6273271086475	160.221310987613	-15.6647819441437	5.63960953084377
170812500	-26.6173636794703	-124.055664913568	7.05726902361726	126.09718107901			-55.0927839435902	134.330744789884	-15.5032058885441	2.82482120195535
171500000	-26.8063902368353	-125.314647054896	7.07478062996325	124.140070377902			-61.8336747054231	134.713411932189	-15.5265873414894	0.383250369894994
172187500	-26.5460790825063	-125.603870332371	7.06275800533129	121.954281915709			-60.3589386397654	97.6149837635374	-15.3618128373581	-3.1498411213591
172875000	-26.5145770658983	-125.863250556816	7.07576742345102	119.98586444891			-79.6191708886411	7.39296639986537	-15.3953468931872	-6.23688995021751
173562500	-26.3553499471596	-126.56170967428	7.05584781815778	117.907188345152			-50.1223814811501	128.325069125769	-15.2397130761019	-8.57716780787227
174250000	-26.3030364608277	-123.83524516079	7.05828814863058	115.912792190542			-56.9803975314983	150.327777845817	-15.2001410899335	-13.179656708688
174937500	-26.4516103514806	-123.946981601738	7.05430333767593	113.875535641013			-53.6229337064609	135.895253553272	-15.1909678537405	-15.2920433273668
175625000	-26.1604197695699	-125.962634295312	7.04983312844971	111.903069107927			-70.9795151347428	73.8047840323342	-15.16441613276	-18.6232281376179
176312500	-26.3812672232475	-126.301125739211	7.07642999113407	109.946657601751			-52.8202727559664	153.978031648783	-15.0400947098432	-21.3619355603741
177000000	-26.3923228756851	-125.695873054798	7.09138902456913	108.045394940659			-64.4367742605102	107.100441523641	-14.9749382603617	-24.9025529659329
177687500	-26.5039137580871	-125.253733552883	7.09001600918095	106.058141398117			-59.0369906234365	152.277828724561	-15.0083480341728	-27.248255887599
178375000	-26.3325899787048	-126.9060240188	7.11649361966181	104.083025669901			-63.4048789672233	-144.520379220455	-14.9393867836992	-30.4755592754186
179062500	-26.0940615328022	-125.258630532046	7.12493638714557	102.068666696327			-53.4253588268927	139.760702447431	-14.9650125447643	-33.3226451608531
179750000	-26.3510941534226	-127.2418630469	7.11046348256313	99.9976980691621			-58.7464129793998	108.948437587936	-14.7778731885267	-36.3467214407023
180437500	-26.0987604324509	-126.791781798905	7.20734211338371	98.1989559372461			-55.5700942068832	144.261162405455	-14.7546789722871	-39.4713636709808
181125000	-26.2125772100082	-128.066980923105	7.19587996692168	96.2941040511372			-54.961426327555	144.424268189334	-14.6230379022128	-42.0785964522569
181812500	-26.4043807758286	-130.086764288266	7.20351165064664	94.1581059209137			-57.2620779268915	-162.443216715387	-14.6424966545388	-45.2973637944053
182500000	-26.3711191327238	-132.030076894718	7.26638530683129	91.9899322677496			-54.3252249586248	114.553477110144	-14.5513790694078	-47.3594947725851
183187500	-26.6023900271249	-130.961959240311	7.30766230674138	89.767615419542			-62.8788282606334	157.742303901878	-14.4610458860598	-51.2329565892882
183875000	-26.5931271220113	-132.55404573322	7.30851571246618	87.9349070266723			-48.3710451928877	106.884794185914	-14.4405471863704	-52.7879902516034
184562500	-26.5562470406955	-132.946824396917	7.30911457621913	85.9188644904844			-62.6424976220175	176.136558833047	-14.3994750505075	-56.3714881410466
185250000	-26.6507198674185	-135.810646995895	7.35180377039623	83.8829850462498			-54.4636919921282	125.423726928508	-14.3950355130098	-58.5048854042778
185937500	-26.9632860110748	-136.543465151432	7.36501164559364	81.5932483628859			-58.179035983255	152.357593942955	-14.2410720262771	-61.7740378738535
186625000	-26.578340504965	-138.712637695213	7.36475406167224	79.5248151685839			-48.8080520693023	86.2278326638737	-14.3660722333634	-63.5202242400866
187312500	-26.6431446464387	-139.84639523719	7.37520321530353	77.4308352276903			-58.2770076839631	111.737242993436	-14.1035412334786	-66.0076582912258
188000000	-26.3710665132267	-140.521565157407	7.36327120758336	75.4069678543712			-50.7777379256761	135.709910335086	-14.164375659347	-68.5456013447637
