# Hz S DB R 50
100000000	-33.6524605928107	-7.03545757375535	-19.4743965712691	-3.14926456536377			-64.2582839070665	-10.2069049958235	-3.52721911454377	81.7684770859096
100687500	-34.685559794564	-1.48087064031328	-19.1118700837986	-4.91171051682673			-70.3849971567191	143.489967216746	-3.50846978976151	79.3664998043777
101375000	-34.0188207964772	-11.2165902907364	-18.6781310204531	-7.62662637509009			-56.0627345028864	-27.4731303701476	-3.52197489688754	76.0801299374341
102062500	-34.3802949850859	-6.15046175761887	-18.4046706523924	-9.64530664288948			-58.9043334017938	156.777730856578	-3.54830921078081	73.6028909833726
102750000	-33.4697059198922	-14.8046936852704	-17.9144386558733	-12.5655158733494			-66.9496012341846	-80.3641509658613	-3.55758238476244	70.3526251219404
103437500	-34.59316974778	-15.3603271651942	-17.6609688905926	-14.5356213256919			-61.6446425512483	133.809680557232	-3.57425667908968	67.8637362296514
104125000	-33.5991232673178	-16.853277458752	-17.2314159998892	-17.7765098396558			-63.5564191168825	-5.58285529906615	-3.58960573079757	64.584778082835
104812500	-34.9518785774173	-18.431655978713	-16.9750415289171	-20.6264033491132			-67.7044380650156	44.7995658312651	-3.63968967169056	61.7393658135471
105500000	-34.2487164292439	-18.0034878246311	-16.5740948711232	-22.5616373046509			-61.2039613637637	25.6139441442552	-3.60468795701276	58.6990923976896
106187500	-35.2883250713595	-24.0872734196497	-16.3869036472841	-25.7497790636055			-55.3612418952257	-89.3576625598813	-3.66659465775357	55.7637765851107
106875000	-34.6291035135559	-24.9451115283372	-16.1174662459288	-28.6379290452218			-68.6380018578729	72.9237562775954	-3.66828321706346	52.782971748119
107562500	-34.8392386290532	-30.1810560853342	-15.9675282067219	-31.8967192814165			-63.1386478908945	156.455033612268	-3.71413141253341	49.3176004405046
108250000	-34.1424569965583	-25.9735793196471	-15.696293768186	-34.0719618813189			-66.7389264680796	-0.470817976580663	-3.7464237130172	46.2444865567786
108937500	-34.2967897993239	-39.9025330135629	-15.642495886929	-37.2525392808329			-65.076237692145	-72.1319737964057	-3.78042081524149	43.2135161283077
109625000	-34.6229858969505	-32.6001409318103	-15.3438127305985	-40.2013557400023			-58.1981715933057	62.5607415779985	-3.79293329456805	40.0114852043423
110312500	-33.9130270760473	-40.7237515238655	-15.3156184761044	-43.6796328230328			-58.0218164738322	-132.837463324109	-3.87579214330232	36.8252313335109
111000000	-34.5482583279094	-41.2841215081159	-15.2743753553887	-45.9985142876066			-59.0724443907653	83.3913357906383	-3.90592415532171	33.4165204230218
111687500	-33.962597444609	-44.5437903372415	-15.2583269688862	-49.3828446849276			-54.6572642342938	-131.607623428321	-3.95796831721885	29.9685165250636
112375000	-35.1760212921051	-36.8752126239289	-15.3121106930095	-51.7118608837447			-62.9162506568415	13.0342190215161	-4.02429234295154	26.7345411814563
113062500	-33.8172514677581	-49.3410779215638	-15.4081160805339	-54.7116206853726			-65.9244117477962	-127.786065119149	-4.04882966060876	23.1337735677018
113750000	-34.2667659508017	-46.5757690860174	-15.5488639352253	-56.9619352844701			-60.1497372635833	84.271261009349	-4.07792055566572	19.7735742391792
114437500	-33.3952157891829	-57.7216260433094	-15.702973046297	-59.2574119273462			-58.2228525948042	-87.5091782764402	-4.12637270798165	16.2277290678191
115125000	-33.9879798895377	-54.3759437541214	-15.9994829398549	-61.0771197379822			-59.643576149334	133.292787443586	-4.16950076923458	12.3460971020544
115812500	-33.0767615696343	-53.9872271880115	-16.2542684989602	-62.7158181741457			-61.3464423879124	171.715965417927	-4.20322765677971	8.2960324641
116500000	-33.3240537984667	-58.1927513575181	-16.6830418229352	-63.7994160540711			-59.7603450305871	60.0323066646228	-4.25198576503092	4.47354425461043
117187500	-32.6308569259529	-60.9678305983985	-17.1085058260262	-63.7438498125369			-61.5386833237471	-67.0257341729806	-4.28463679447514	0.550967939346971
117875000	-33.7985469887045	-62.4194420234272	-17.6032873559717	-63.6540038492451			-61.179227357118	135.542135655437	-4.35410566700538	-3.41675953718882
118562500	-32.2787825054845	-60.6119411171383	-18.1476137658499	-61.1840616532982			-69.0715619026724	-85.0663301015918	-4.40154273859309	-7.38455471960308
119250000	-32.4945500365909	-68.1026711534008	-18.6851056431235	-57.2566525444146			-60.287177257444	-109.226032973954	-4.46828426800453	-11.9694545937086
119937500	-32.4000751875237	-65.8016245208474	-19.0828162678128	-51.1345658696106			-73.9493451442287	66.5265785141775	-4.50530577917979	-16.7342613604262
120625000	-32.333081984786	-71.3255918295161	-19.1555564881062	-43.9131055401961			-57.4422872428999	161.984872681749	-4.56248082558102	-21.3792986141752
121312500	-31.2345277464947	-66.5692634831144	-18.7924844813999	-34.5719148725817			-59.8090162815525	-77.7256245595957	-4.64695902013554	-26.0258111124445
122000000	-32.0228989476899	-70.6132421827796	-17.825462628932	-27.1401207816152			-63.3858688734458	-89.9789885541423	-4.73102831739709	-30.9739133776745
122687500	-32.0326385242026	-72.2967122787784	-16.6204671396516	-20.3849460701619			-60.6695129798599	57.1714071962304	-4.86745577622571	-36.1524020036103
123375000	-31.1084005664204	-74.4487503082218	-15.2024226366191	-17.1027543607575			-58.2102231077833	-154.343045533814	-4.95410485902275	-41.4282652875053
124062500	-31.0387813991006	-71.7396320148107	-13.7106551946686	-15.3311216142972			-64.4796587387515	26.9940239488274	-5.12452709620582	-46.4657328566653
124750000	-31.0254207354621	-79.1980091500548	-12.2777894634391	-16.3162797947599			-75.6172669683981	17.8650347798256	-5.26360541791498	-52.450353830059
125437500	-30.8318682770669	-74.1253672064315	-11.0049148900729	-17.6224373204051			-68.2322130221634	-128.510958602332	-5.50671309045669	-57.9194859586978
126125000	-30.6472795603397	-79.8315202784438	-9.70272758447386	-21.1795198130159			-56.703568304131	-24.1185225298345	-5.73998290194114	-63.3411009595699
126812500	-30.815057717717	-77.0665872879388	-8.65000716177318	-24.5087692758119			-62.2213960974253	27.5585790445207	-6.01821975514463	-69.1072687650764
127500000	-29.9573984533154	-77.7122087798429	-7.58052882446493	-29.0292639583076			-66.6144862629996	6.15129423719214	-6.29086804986229	-74.9149297147627
128187500	-30.8211323472339	-78.1552444737164	-6.76318934673692	-33.4215365874022			-57.9590923369763	76.40645238142	-6.6298547739303	-80.6343735261372
128875000	-30.1402001493079	-77.7646086853338	-5.93274347097721	-38.5960759646302			-54.925807653554	-75.316040397575	-6.97688888459415	-86.2471696019943
129562500	-30.283848207079	-80.6514802492579	-5.28588637911607	-43.3570298923938			-56.9393199625845	85.33867881589	-7.38409091654502	-91.9314446914
130250000	-29.5119139885718	-79.4143323740318	-4.61012930723228	-48.8798151379233			-58.3307270754088	-37.6798002748392	-7.85858774726095	-97.3634816284938
130937500	-30.0377921510809	-83.3038504329478	-4.14513154944689	-53.7199256270186			-57.2473453018567	165.829605725808	-8.24509400730041	-102.901308657636
131625000	-29.7747236211651	-80.0070259072271	-3.64350440598111	-58.8333480825249			-57.75556055687	-74.6062261070093	-8.71633550053494	-108.064105846919
132312500	-30.2157480600638	-83.0498339666655	-3.28270634548381	-63.848826785525			-61.4893865760525	177.228174033398	-9.10592324394828	-113.589318125553
133000000	-29.8637616902776	-81.4006308019471	-2.93792187106919	-68.8209052661133			-52.8009471386293	19.4444563322798	-9.66932673368506	-118.542530066518
133687500	-29.64830253287	-87.2956801974146	-2.65576000437295	-73.4960067702818			-61.2484681938914	-130.575133336795	-10.0663459122532	-123.737863972485
134375000	-29.7371400679717	-83.8607582180306	-2.29608323940561	-78.0120266612119			-55.6939947644093	-18.0989953163128	-10.5678895436352	-129.408940661296
135062500	-29.6927660843711	-85.7308788771159	-2.12419163949548	-82.3602510558344			-59.0162501237127	-12.6295559230221	-11.03715600529	-134.326152675089
135750000	-29.6684574814441	-81.7615593486649	-1.84341534527471	-86.7260634326331			-56.4432930033489	-13.69002133358	-11.5638491928273	-139.427408280124
136437500	-29.5169639968714	-89.6398880240259	-1.70785802012908	-91.1629542886885			-61.0226091431016	-97.5699266244608	-12.0118675929314	-145.076493241786
137125000	-29.6581626523486	-85.6502539560139	-1.45721417520185	-95.0512267113032			-63.7095322179782	-72.9708359155648	-12.5027725591247	-149.980679460287
137812500	-29.5196478993604	-92.2554522695891	-1.32925565280895	-99.2012638525253			-58.0404169550658	-149.756733964238	-12.9185169720545	-155.380078573753
138500000	-29.5079603911677	-90.9737413357357	-1.11921273464331	-103.053047104584			-62.9488064689642	-54.8366849180939	-13.3085217695774	-161.547380159073
139187500	-29.2643314991419	-91.4415270948487	-1.04273729508677	-106.949210075098			-54.8347563650086	-116.428719286595	-13.8130504572306	-166.539647442825
139875000	-30.2171074797025	-91.2207774480584	-0.872998609128483	-110.544824014387			-59.527217108657	56.1215209163189	-14.1543133921188	-172.439206271897
140562500	-29.6791500739351	-93.5833994430616	-0.774748768259199	-114.369844772701			-57.5668120811814	-91.7794901523593	-14.5485596116731	-178.084752191403
141250000	-30.0735404745898	-95.0988866483998	-0.612469695085479	-118.107440198694			-69.6161902249085	33.5613622622494	-14.8675917450114	175.898360370437
141937500	-29.7903081895763	-95.8889545461439	-0.5788425535985	-121.752553502921			-58.0347197945496	-121.874743993445	-15.215218957588	169.714082189422
142625000	-30.4492033754652	-94.1955856029628	-0.430596992908031	-125.229286514079			-67.879420036929	110.783999745516	-15.4562593678502	163.337691866193
143312500	-29.3633725808044	-102.359372707463	-0.383846029458819	-128.851697107826			-52.0448189251043	-117.404100069475	-15.8037565777508	157.410819196511
144000000	-30.3277174617803	-97.4930308171243	-0.305660822365621	-131.95769556612			-65.4947817688311	75.0650048972614	-15.9394240440512	151.717045092031
144687500	-29.7817836237349	-102.621482180498	-0.260898505997693	-135.614460407389			-57.6273593305639	-70.2685769158793	-16.1906215109838	145.691606008586
145375000	-30.1216546131647	-105.941741131211	-0.14852500603535	-139.030361025237			-56.5408490753578	109.409868010367	-16.2506689188356	139.217604038563
146062500	-29.8854103507658	-102.950050986801	-0.141522963013385	-142.123438390623			-65.9691513296146	-18.8044659275362	-16.5651696773543	133.100246833325
146750000	-30.654990303776	-107.529588029731	-7.22028254287536E-02	-145.428824337228			-57.8272453146098	176.868811223246	-16.5500914648557	128.224737336641
147437500	-29.7589406753306	-104.997088746587	-6.38310123076984E-02	-148.510309106759			-67.8911145330447	-50.8930837497955	-16.5382863930096	120.843533912834
148125000	-30.1306077905044	-111.448015754186	-1.55937050236025E-02	-151.746992110136			-62.0310981839809	-144.961724511921	-16.5469198378493	116.868818249105
148812500	-30.2031771596905	-110.368332410109	-1.37251190463373E-02	-154.701517123667			-53.020682483346	-73.9224366928767	-16.6195645390162	110.411187254544
149500000	-30.3512848086799	-113.837744723342	4.23924530773747E-02	-157.666235895787			-64.9308601382508	-76.1791176412471	-16.5357221390568	105.150224125894
150187500	-30.4563815007661	-111.394598323218	0.0137397246159	-160.647085872986			-54.4070529736363	-44.6526025117525	-16.5493425098146	100.032780372677
150875000	-30.1233603610347	-114.77499600303	0.10126711738109	-163.616055545542			-55.1930456554638	-116.804553213701	-16.5634726160408	94.9410082276266
151562500	-30.2351394633319	-114.525515650607	2.71104610262386E-02	-166.214733838533			-62.7785831081777	-177.730873565504	-16.2781012772929	90.2557965180214
152250000	-29.922417799999	-120.5754581494	8.24927500730996E-02	-169.052351252853			-56.3282663178109	-131.62733929412	-16.452955636217	86.433875420554
152937500	-30.6908486631182	-120.194565079006	5.79127681029586E-02	-171.69454530074			-62.5487269919131	130.140693990896	-16.1313213504224	81.8227473376427
153625000	-29.868866062641	-124.137328889198	8.69356602342274E-02	-174.269133808304			-54.4574779395444	-153.368926195632	-16.290346049601	77.4787013486773
154312500	-30.4422200659458	-124.464682339433	9.41132728281166E-02	-176.608657430981			-63.10675953985	-3.15143015039675	-15.9696652872455	74.0411532532623
155000000	-29.1931532212938	-124.967612546539	9.38442021270988E-02	-179.618565863096			-55.5496189016861	-58.5189144114013	-16.0501171052795	69.94646582967
155687500	-29.6761892219541	-126.933449662257	9.36586995354766E-02	178.165854869398			-67.9316898562426	-78.7295211172318	-15.9285841408257	65.6455582013765
156375000	-29.2957294580886	-128.161945270396	0.138624492785076	175.447818920859			-54.8248697752889	-109.777298500972	-15.9063999087386	61.9349457800911
157062500	-29.9935651262661	-133.55575625151	0.085521772080333	173.086834242738			-63.2014861200441	136.415123350267	-15.8435587127224	58.4453036384312
157750000	-28.941246215423	-129.80154878425	0.181900813823324	170.811067337771			-56.6657456531559	-112.683521104233	-15.7928201481577	54.8466901910126
158437500	-29.2659724791256	-137.345213785047	0.153652434371205	168.330764543695			-55.1959365841295	114.046689702899	-15.6846050927302	52.1484369182898
159125000	-28.8016361979514	-133.314785661926	0.184726538701437	166.007627836054			-57.7353192606744	-153.173114987482	-15.6102403263338	48.0224316825222
159812500	-29.519987571494	-139.520662165023	0.209759587370914	163.281860230112			-69.2774731732619	53.4432517797561	-15.5254435280995	45.4613901066615
160500000	-28.7029074449147	-134.97407790898	0.246651903747269	160.903229170555			-55.356293018781	-59.4439143714215	-15.4391174381005	41.4852998050171
161187500	-28.8227346197068	-137.341894432447	0.183334433699988	158.824709443576			-60.1008490139866	158.23732402269	-15.4090011412582	38.3443786221313
161875000	-28.5972111362171	-135.234711087261	0.285355233549148	156.285464960051			-61.966198344513	-81.2389890641476	-15.268588661381	35.0297033260938
162562500	-28.1800611848245	-140.320392745774	0.242704181669412	153.763465404994			-57.4699627037632	-161.203296880044	-15.3255026647909	31.896890497244
163250000	-28.2810624529204	-135.970129113507	0.2527975303296	151.360570540825			-57.9256247438275	-10.6430827355677	-15.0783072067443	29.3212463674531
163937500	-27.997693022322	-143.670371856999	0.281468231178305	149.282451205361			-55.2722230927834	152.789814365111	-15.1594316751954	26.2027020977032
164625000	-28.6188308665857	-137.733916090787	0.254955819358943	146.814203967219			-64.7810826854625	154.530479722964	-15.0687892973998	23.1554840295752
165312500	-28.0110364875929	-145.539780750172	0.254326070231032	144.373590246421			-57.1280229847049	-134.111441460673	-15.0417314728916	19.651455013155
166000000	-28.019006082537	-140.901536586412	0.292487634352246	142.13022314858			-61.6486268692938	20.8990337171558	-14.9727311478484	16.594862929834
166687500	-27.4844453936561	-143.471602073201	0.28488058614369	139.824357681953			-54.8774479750705	-139.208640383599	-14.9303502844688	13.3255208128029
167375000	-27.5879064269815	-141.010767443153	0.288070834296524	137.702000180754			-58.5612156613059	40.6930016360909	-14.9480667127419	10.9414788858319
168062500	-26.9466123566397	-142.046608416298	0.26831586906604	135.514318807323			-60.5333591612858	-173.211737125837	-14.8348374927035	6.71383884162307
168750000	-27.6210855101493	-142.596302542961	0.29788923917433	133.292205077999			-67.8588767232736	-145.056564997672	-14.8818192774939	4.10054094940446
169437500	-26.9746691937965	-144.509801231332	0.222002544268008	131.140048272692			-57.5999288490816	-166.456392710802	-14.8070345952432	0.491518730847614
170125000	-27.459948255956	-142.050495879658	0.266036883021966	128.884449241378			-60.4376970187276	-6.13512205701633	-14.8446968055359	-1.7696343155339
170812500	-27.1442243290425	-142.84130658506	0.225341051276175	126.884586402205			-61.3712593195013	93.8143100182901	-14.7438008437764	-5.49401930795821
171500000	-27.502774360134	-145.206761103337	0.25662239980293	124.642643014041			-54.9110888708577	110.148894267625	-14.8502576911003	-7.81965326633893
172187500	-26.8019110343337	-144.213917341114	0.20928831607323	122.439049804758			-54.4020084829064	-85.3989162296222	-14.6895302855433	-11.7284304638971
172875000	-27.4695565313471	-146.29664252537	0.249396357277458	120.824028017565			-56.280744856541	134.677875489794	-14.7156008034571	-14.685335926133
173562500	-26.9034088841341	-142.584332329155	0.174881080088731	118.724808342008			-55.0812497740107	-117.438043839444	-14.6226305186843	-17.7172867727145
174250000	-27.0131169875199	-143.502182700534	0.252398763796502	116.685987318221			-64.2390297987682	163.921457883124	-14.5938486456661	-20.7324557092828
174937500	-27.0043812128449	-141.736838410996	0.190539296761113	114.673566322221			-62.6045476694453	151.954004522051	-14.5448625386052	-23.7810060845281
175625000	-26.6741633491488	-145.745415258818	0.263854050813059	112.950922715393			-54.7508014199196	148.542504905287	-14.5837191550817	-27.4551034122887
176312500	-26.85692531641	-141.680380493723	0.214303763894437	110.944927223184			-66.2247917239797	-93.8123761771903	-14.4138428605723	-30.1481118756503
177000000	-26.7374032399332	-146.93941332151	0.248112805968273	109.287439150318			-54.9859988531045	141.323624616301	-14.5064860785222	-34.3497488338795
177687500	-26.9856368104467	-141.575835585325	0.217089464611857	107.02495313677			-70.8817638317784	-41.0087383532047	-14.4308534708562	-36.3017411229005
178375000	-26.4874415168142	-147.14094128093	0.310570089017195	105.153316808794			-56.1338352020246	-177.076544088676	-14.348009060434	-39.7818041323478
179062500	-26.9787400297454	-143.400517636542	0.295791779320136	103.194739039472			-57.0921676658091	24.09332873279	-14.304486794756	-42.7248511796776
179750000	-26.6095332421124	-145.542250291465	0.313872583631963	101.200772196972			-56.0453727009515	169.288221196322	-14.2535830103075	-46.2921937522486
180437500	-27.0070960444844	-142.448881768904	0.356476699819726	99.1352340808624			-56.2764236429553	104.97392043051	-14.180597967652	-48.6841572938156
181125000	-26.7345401903863	-146.153623657763	0.388722152324073	97.3694475651544			-55.2532448245483	-148.21672784302	-14.0798173042204	-52.42316477709
181812500	-27.1219001275409	-146.791954480437	0.372093195285142	95.298358486498			-53.2801967618133	135.022985366197	-14.1392128530514	-54.4203153195734
182500000	-26.3839661388606	-147.658362842407	0.451681289720335	93.2247150792616			-62.5459671133089	92.0588817126847	-14.0285810029267	-57.5114798786438
183187500	-27.1626366217352	-143.750142916465	0.477383108149754	90.9419030478853			-57.8016888833401	132.135236494082	-14.0409934713216	-60.3623507735928
183875000	-26.618388339756	-148.081920976413	0.509122270980837	88.9708222834059			-59.1587451623897	63.2715630530063	-13.8906658845599	-62.7895269704232
184562500	-26.8889902509855	-147.740613323799	0.485548271936478	87.0487917650639			-53.6261471144894	93.3847310917056	-13.9560741629	-66.1389847609284
185250000	-26.6625858842509	-151.950245279699	0.531436711177128	85.0945054861391			-60.5333614366203	-139.995476438538	-13.7234916599911	-68.9326944708819
185937500	-27.1681920328816	-151.92035028817	0.491227544358114	82.8272670686837			-62.8572314465689	98.6068214665124	-13.7990459029535	-71.630683013676
186625000	-26.4205495117164	-152.607426724725	0.542229351361781	80.8189783323956			-65.6639857140048	-108.72717361108	-13.6761453693523	-73.5786742808415
187312500	-26.6225458094811	-156.980437978417	0.513522950514604	78.7944921216536			-65.5285860618832	146.466990063329	-13.6285577276743	-76.6352558601039
