# Hz S DB R 50
100000000	-26.9963572177602	10.8404490305045	-28.3462536011419	6.65990890278001			-65.7686191536745	-107.276379537037	-3.56199535131671	81.2452375656131
100687500	-27.3753293430854	10.7387021033305	-28.4503955882853	2.85171695915295			-61.5800473860695	-114.455566984633	-3.51674708984698	78.7130662692586
101375000	-27.1464138035685	7.0796080911705	-27.4835151447703	1.86906058579527			-63.0458629107471	-76.2135598802383	-3.53900239558208	75.8481956314466
102062500	-27.3708265096951	6.31296820007432	-27.4092053985107	-0.886664948468308			-63.0968697823355	113.021918517104	-3.57386992232555	73.1725397350866
102750000	-27.0642040022195	4.2959786411075	-26.974310459085	-2.58162499025566			-64.6324347386379	51.2806807800624	-3.57211389348804	70.3630540683539
103437500	-27.6592820050503	3.14297633751126	-26.6543875536227	-5.61417193123936			-64.5919872636984	-82.8637232579564	-3.55771361169797	67.4646143943407
104125000	-27.4233696843468	4.3511886675565	-26.2581914786362	-6.22401245064446			-57.2648879634329	86.5199173053164	-3.59270082086339	64.6045392894791
104812500	-27.5855816303124	-0.483634732127435	-25.8926187811502	-11.2233387841286			-68.8462546686671	23.8963162809957	-3.6055395990418	61.6787935357249
105500000	-27.5433953191044	8.82682903717624E-02	-25.5539392517601	-11.7714798428669			-56.8641205480023	125.530903680396	-3.57935023036644	58.9250811281147
106187500	-27.7816138657774	-2.27945536658681	-25.2700100566523	-16.1903411624427			-61.3549248649582	24.2499401559296	-3.61275521067185	55.6121100635534
106875000	-27.6299785740602	-2.85305448672966	-25.0611965093153	-16.9604011203291			-63.5860269381634	95.2169026350792	-3.64900010860104	52.7727512680084
107562500	-27.7204036990066	-6.41021423548954	-24.7887177051726	-20.838168363			-54.897167166145	-44.0208094695804	-3.65582279101675	49.5751943498036
108250000	-27.3644985545149	-6.44676657135989	-24.6211061388123	-21.9406056682488			-57.8864900854643	150.973381497981	-3.72479445786401	46.8436325448034
108937500	-27.4786754454963	-8.51537785478592	-24.4032750364095	-25.9815609151105			-58.2306727544259	-90.5753208421362	-3.73973342769677	43.3450052719974
109625000	-27.8513023229689	-6.48915690333094	-24.4502472397764	-28.7317525901646			-54.0189958265238	120.032528697679	-3.78672778299655	40.6636558725722
110312500	-27.6742044809718	-9.19017968636807	-24.2004937133418	-31.4137718304042			-57.6637600627536	-40.0740180962425	-3.80542267498525	37.3450533624656
111000000	-27.7558323193084	-9.8234493869645	-24.1984157582281	-34.5814582673875			-71.9769715425761	-88.0345923348016	-3.90357413560745	34.0931866195112
111687500	-27.4515145940459	-14.4402567659885	-23.9636129736019	-35.3469278586815			-61.0250415937956	-7.64177708042175	-3.87094266438221	30.773702451186
112375000	-27.8094902574345	-11.5354776562736	-24.2726241696027	-38.5096604008036			-69.1742644600835	-34.7813752905126	-4.01273097943069	27.7117294402101
113062500	-27.6753094909074	-15.3776710351258	-24.1803415338452	-40.3318038902001			-63.5894920128966	36.9564969240871	-3.96756668598116	24.4751415894404
113750000	-27.9650018554222	-16.6041000092359	-24.3012381204809	-43.3594046373378			-59.8321910030835	-103.787343031223	-4.09752734136767	21.0169160713211
114437500	-27.8102000014508	-19.5227074899639	-24.4500016868307	-44.4331327503362			-58.7161996447164	8.01957914295796	-4.07563388250511	17.3529872953502
115125000	-27.9501977494534	-20.3368965851818	-24.7866477768568	-47.0447494154602			-57.6122739328651	-131.661522325174	-4.15889014809126	13.8651696634525
115812500	-27.7115854285395	-19.9357589045233	-24.8636843698102	-47.3357566249271			-58.7193647051108	27.1900351510872	-4.22137461198874	9.93111378147125
116500000	-27.9618947825894	-24.6786024787091	-25.1872477069726	-49.403615800941			-69.7303388756905	-70.2835858608934	-4.27490991897502	6.26671400540289
117187500	-27.8889503878558	-25.014107011973	-25.7190690414333	-47.3619523985487			-61.6788537095167	88.2336461450202	-4.31184807057133	2.57346630007113
117875000	-27.8518102606454	-25.4877471150562	-25.9115057082749	-46.6322777834231			-56.3057598719938	-75.9499451532882	-4.37601324405837	-1.39031767442478
118562500	-27.8879263106971	-26.9432517788452	-26.5692917074174	-45.4993964542889			-58.1084835507239	58.5340343870627	-4.43733880180695	-5.43684472603442
119250000	-27.6997352135501	-29.9622480895554	-26.6534422547283	-44.079035277028			-60.9659205026299	-78.4000241114482	-4.54027220102721	-9.63964098639561
119937500	-27.8181922178434	-30.3083771919256	-27.3000458892522	-35.2316602880123			-56.3183799679454	127.690704010018	-4.5848011524846	-14.1949426799734
120625000	-28.1277609431166	-34.2704564566633	-27.0635552037909	-31.5319121110876			-64.2923677045721	-148.499455750709	-4.66398292846291	-18.6201525709529
121312500	-27.6951028776821	-33.8105638639686	-26.9556024403695	-20.4609741561223			-64.0477381889717	39.1256310462356	-4.78460363713343	-23.0187221710761
122000000	-27.7367629753054	-37.4555585378431	-26.058485773616	-14.9035767917622			-56.8424039404328	-45.9035387853329	-4.87727499947045	-27.7636037630818
122687500	-28.0311876091722	-36.9539075659167	-25.0080412442305	-6.43880117440488			-67.3423679515222	-39.6812407412796	-5.05799275279095	-32.9462932971063
123375000	-27.4041110904205	-41.6655696456433	-23.544127908015	-3.84596934332859			-61.4779307917635	-18.255008231937	-5.1633428093834	-37.8703519185731
124062500	-27.5645195078085	-40.4960218147669	-22.2121082874473	-1.58899499908791			-71.3397131715587	-6.09185665449685	-5.39374456205733	-43.1997201962669
124750000	-27.5732987948456	-42.6229206694952	-20.5977672692278	-2.04622487447694			-57.6457383303062	48.8922003330519	-5.58584695254113	-48.4735208476822
125437500	-27.1032440477709	-43.1554211205025	-19.3289023918561	-3.21563334240997			-56.4856862556725	135.16412400118	-5.80602795694204	-54.2465973617488
126125000	-27.2564362244657	-46.1191967340597	-18.0057970057864	-6.40025717893349			-52.4203831484479	-30.7906141598154	-6.10597667178827	-59.4068621250388
126812500	-27.0574370126337	-46.4560262170649	-16.9480780112294	-9.5419358039253			-64.0464531175224	87.9464880172387	-6.43446461579121	-65.0618374614675
127500000	-27.0298094548006	-47.6776525790039	-15.7635857948824	-13.6117437184193			-58.7140290724948	-18.3860400867304	-6.81162855053673	-70.4088982019327
128187500	-27.1024398251883	-47.7117593167666	-14.9158668538823	-18.2377104139708			-72.4497260960674	91.0323426286609	-7.16394328683336	-75.9105830107006
128875000	-26.7446819133834	-49.5768933615676	-14.0279208773365	-22.8681716601499			-66.7037248719633	-2.02468424953526	-7.66761180679531	-81.3234454001896
129562500	-26.8816383963125	-52.2472212613823	-13.4030224667948	-28.4296335692043			-51.2798839873539	-154.338804823939	-8.04448699802657	-87.0328112580172
130250000	-26.235233198328	-51.3213858647859	-12.6458117094344	-33.4858568839877			-66.4133762438993	-109.549235545737	-8.61952504328834	-92.1387334663887
130937500	-26.5127454873077	-53.7354790985346	-12.140816788943	-39.1968016018383			-56.5572107722017	75.6784417738212	-9.04623483645659	-97.1341981821805
131625000	-26.4140925918489	-52.9094920555156	-11.640428286636	-43.4920288882214			-65.367126253773	15.959841807633	-9.719381167774	-102.010585211358
132312500	-26.2595775800644	-54.0045374680725	-11.2031338042949	-49.147985527253			-59.4261515457486	-110.127534957784	-10.1413313159712	-106.854744697527
133000000	-26.2336116274054	-54.4655206494454	-10.8490316842127	-53.7975532707864			-64.7591221253865	22.8452554376586	-10.8196059704135	-111.408910132996
133687500	-25.9208858192793	-58.429209770509	-10.467874089846	-59.1074524814995			-56.2913275677144	-85.0873386615028	-11.3011453616255	-115.931132682741
134375000	-26.3264204552274	-56.0669810718559	-10.2040441143376	-63.6802713021774			-58.1037394879893	69.8969070263108	-11.9659885747963	-121.390268626642
135062500	-26.0052243773142	-59.948046722983	-9.97288236470351	-68.1592428311863			-58.6968822071284	-72.7174982408576	-12.4996961864776	-125.410717614876
135750000	-25.8222332908353	-56.9787337831259	-9.75997484974161	-72.4417258688869			-56.9514804063456	112.041636324347	-13.1326528239077	-130.1077863088
136437500	-25.7740150095	-60.0141608636992	-9.51122453462904	-76.9094476453935			-59.0834279827315	-31.3888700735225	-13.7131711973051	-134.884691626641
137125000	-25.9544935552738	-60.1021150828064	-9.31895834585589	-80.783717278755			-59.2336456766676	116.516484682118	-14.3829016601619	-139.213832795177
137812500	-25.7638169523717	-61.3573583727266	-9.13350449086757	-85.4070877174154			-56.5318430331846	-29.2240161448825	-14.8351193472056	-144.230260200817
138500000	-26.000048511815	-64.0490642005222	-9.00259222226573	-89.0181897884029			-66.0709078140016	-173.563751593647	-15.3772911578074	-150.071915797256
139187500	-25.5064683789982	-63.0550973850633	-8.87660695190847	-93.044723300704			-57.9996381675259	-60.999591471255	-16.1748042378234	-154.41260561264
139875000	-26.1562594800631	-63.1689778738233	-8.72256592695451	-96.9975437560509			-61.5169734565502	-105.623368088147	-16.4380357237221	-159.781167136883
140562500	-25.8936739577003	-64.0963375976248	-8.64142450681532	-100.501803238073			-53.228382532882	-26.5653341662621	-17.1966683900783	-165.510585926775
141250000	-26.1470807533012	-64.1340430788423	-8.48252244325786	-104.173565351116			-58.9323612811092	-171.11945812231	-17.5055380334845	-171.526784587018
141937500	-25.9126153504854	-65.9838732541266	-8.46412096524496	-107.643460864209			-59.438781789118	-24.4154197418352	-18.1846469921509	-178.334267523889
142625000	-26.1243669686448	-66.5738223735967	-8.28611299335568	-111.264652022424			-62.7435486551867	-109.082457218756	-18.4463851634844	177.334198038
143312500	-26.2210952273283	-69.3377030910221	-8.23630985155501	-114.905461991105			-55.5203933035975	12.9617261981988	-18.9174567083218	169.746725894229
144000000	-26.013045764251	-67.7907481988276	-8.12256199652723	-118.054341139652			-58.6334904719894	-74.3898877941013	-19.104516776146	163.830414658178
144687500	-26.1056872947322	-69.3393217118585	-8.12587534630642	-121.739014297688			-59.6445525528894	2.73539051231051	-19.4014111476791	155.457283960645
145375000	-26.66741396112	-73.4733194129817	-8.01563561544854	-124.970991311949			-57.1601372497251	-129.775609523613	-19.5529003102837	149.691431723502
146062500	-26.1876098469451	-71.0299719921546	-7.97877313124947	-128.171436205604			-68.9706755195242	108.53679402011	-19.6701540697846	141.936658413712
146750000	-26.5148808461944	-72.0497073852509	-7.88736489105431	-131.243265866975			-61.0055307095042	-80.1833284347853	-19.8996163446236	137.575545670392
147437500	-26.4905456126685	-74.5294360466734	-7.92059420014055	-134.598099154598			-72.0092127204596	123.314579617619	-19.7763974989778	128.091569355174
148125000	-26.8478469655334	-78.6203875378062	-7.86353890603206	-137.474988925225			-55.393046476106	-68.3729708299318	-19.848446154043	123.683233453793
148812500	-26.917678711212	-77.1574955257402	-7.83865615949294	-140.796705196673			-64.5697688697648	149.797025646133	-19.6208338894904	116.749978665807
149500000	-26.7999060289917	-80.3047117698671	-7.78208129214209	-143.405447027284			-56.4567154137105	-71.9711183663478	-19.6434237753454	110.185585034622
150187500	-27.2211647177703	-80.0990817572263	-7.81515953299281	-146.404526080056			-60.0204061876945	133.898974933195	-19.2903936892027	104.803260138601
150875000	-27.0564573787454	-82.2198581476293	-7.75173494398623	-149.399740671597			-67.9062338719343	-19.4826372458567	-19.2873225545661	99.0612102708177
151562500	-27.0451436802751	-85.5811975556282	-7.76248076524839	-152.005725917479			-66.9422202021954	-179.860635309735	-18.9500356218589	95.2435320311414
152250000	-27.1061833743199	-86.5202578009188	-7.72539851381345	-154.728764694241			-55.2377074009009	-61.7738073608593	-19.0595005781092	89.3874204674559
152937500	-27.3386048141011	-88.7054440512271	-7.68626874203784	-157.651158874641			-61.4331460631688	100.408436243293	-18.4968823271201	86.2296471481225
153625000	-27.2310371614234	-91.7072904045995	-7.71221027746464	-160.107881171231			-72.7193762329148	-53.2581204185056	-18.6532815301022	80.4012120117949
154312500	-27.7216446859565	-94.7135381209834	-7.65572549546183	-162.780758921729			-57.5719955809959	-174.013329217626	-18.2851398504674	77.9285849079677
155000000	-26.9543334762269	-94.5654653594965	-7.66657892071903	-165.287779812993			-53.1764863240751	-63.1842036548345	-18.0798029111582	73.088270764435
155687500	-27.2944956741453	-98.4811092102409	-7.68232578705389	-167.813690115111			-61.6838233920095	68.2252597594702	-17.942752783759	70.0383099862259
156375000	-26.8962135504116	-97.9771886433076	-7.64094422061915	-170.232774145179			-66.7338453470735	-74.9528425698908	-17.7962442420029	65.5245416334088
157062500	-27.3109319632781	-101.936696100598	-7.61115796473283	-172.868099536625			-54.8886997772766	175.921843153274	-17.7023392775811	62.6022523823668
157750000	-26.6560229664921	-100.860336693139	-7.61186952801555	-174.875936569971			-60.6148415404846	-76.1966688592624	-17.488425027537	58.9576360291081
158437500	-26.9683459772845	-106.245336633705	-7.57012587738217	-177.529959773618			-66.305955054147	-139.234704929514	-17.398355181271	56.0212421685673
159125000	-26.5282052429193	-105.330780147707	-7.5488616613007	-179.758944545508			-61.2421392580568	-124.64076124263	-17.0663822065732	52.2959099621639
159812500	-27.147251147833	-108.74110457331	-7.51362830558535	177.769880446544			-59.2537546079591	-162.181521255322	-17.1890885578115	48.9868067569379
160500000	-26.4940158477696	-108.790314471607	-7.51888611744521	175.183330998244			-59.5715476137207	-29.8468439278587	-16.8839538268256	46.278581873291
161187500	-26.3989689101337	-110.175137800726	-7.57551528666022	173.150579438423			-56.9524988598323	154.646958916349	-16.8958339749324	42.790398033228
161875000	-26.3257725226203	-109.57994888025	-7.46668543294294	170.602245543922			-69.4970485709216	6.01784415175901	-16.6363679171677	40.6439609471062
162562500	-25.955303528094	-113.015163774527	-7.51550229610255	168.13522508499			-67.7190854716056	-43.6801508335734	-16.6848235180674	36.0383080262908
163250000	-26.0926969037884	-112.775510827589	-7.49392418548039	165.936704111747			-54.0837603625128	73.2435363620937	-16.505120584937	34.7417541176008
163937500	-25.8441485712367	-116.101418544503	-7.48371236978592	163.560950308812			-58.4680177989112	-110.286148502069	-16.5068448935902	30.8592401574959
164625000	-25.9742562708918	-112.500921074852	-7.42195403820834	161.102486603392			-62.1011595066851	52.4770257522827	-16.3676067942547	28.7533806070215
165312500	-25.5734420652142	-115.760856382644	-7.47566225120281	158.783143900025			-54.2721642764171	-68.2653947697992	-16.2671032000284	25.4421906955334
166000000	-25.7928799247339	-115.731301996821	-7.4383883576851	156.648163408958			-61.1418040650308	99.8189678786727	-16.1087483224186	23.4983446950834
166687500	-25.2004331889211	-117.052909322224	-7.44917542173472	154.366934192093			-58.5541470457008	-2.51127185177066	-15.9869681151516	19.5228041318481
167375000	-25.3546998849461	-115.680228746532	-7.39318341824582	152.364291077442			-59.2679276711614	116.700353322021	-16.0094326309557	18.1025674999895
168062500	-24.9109079129681	-117.964285581493	-7.43580227618511	150.155991266175			-61.7929610460909	-100.153132484542	-15.7471349632325	14.2589371582372
168750000	-25.3916094352023	-118.119450699354	-7.39473807407408	147.995507969972			-58.3828211347651	65.1833783835391	-15.8088123668563	11.5913056446175
169437500	-25.014232554806	-119.692532180758	-7.45345829217591	145.553985447223			-57.7992147167935	-43.0717807171877	-15.595583352985	8.09162599213849
170125000	-24.9765724024256	-117.455009167202	-7.41584310422966	143.563376915137			-59.0920597006572	-164.821970970027	-15.8035567519597	5.47322875766731
170812500	-24.8008385874921	-117.259942083202	-7.49572725326262	141.035851873475			-55.1606916710531	-68.7444105009367	-15.5639740434528	1.91300395459934
171500000	-25.2378631895489	-121.321535617887	-7.42851899762053	139.638952777655			-75.7892446792882	6.20275914416734	-15.6917461647452	0.214162289947381
172187500	-24.5947200104376	-119.702603177454	-7.45988997881071	137.225400884408			-63.3271241152637	159.878284858684	-15.3878433319021	-3.93630041109083
172875000	-25.017055342626	-120.949795686745	-7.41695729388389	135.599615748334			-62.3539185997801	-176.048750760537	-15.5008307088599	-6.96939814229465
173562500	-24.8344927262664	-119.022737947724	-7.48186353314581	133.308298255767			-63.2223634237575	87.8206981149477	-15.3541500385769	-8.93774484414594
174250000	-24.6697350534301	-120.800769798374	-7.41041793059046	131.497620961906			-55.6897833409505	155.014968692927	-15.3604882724104	-13.3604506399919
174937500	-24.7948948425743	-119.409742187403	-7.4484349641043	129.231659838365			-64.2348184292655	30.9962497961156	-15.2698444785951	-14.9891396240425
175625000	-24.5301183136921	-121.534138584643	-7.44138877460833	127.870923034231			-54.1895723641296	168.227187054175	-15.3197291345108	-18.827505624629
176312500	-24.6403276582226	-122.332337080487	-7.44458332373489	125.591013032985			-54.8640222758504	88.0038162366336	-15.0718716072811	-21.0579981352894
177000000	-24.5452325794396	-123.136265729308	-7.40401946596384	124.279582715338			-58.5729858149474	-112.65462856592	-15.1783941871628	-25.7907841959119
177687500	-24.7701254665093	-122.277269825525	-7.40202209615191	121.817556198878			-55.9487633142081	121.440997281858	-15.0618100457549	-27.3514218194111
178375000	-24.5532088861677	-124.957843324586	-7.36118919013927	119.983708929998			-63.7149215384263	-126.980168162836	-14.9705671976148	-31.01437314974
179062500	-24.589539744185	-124.200000731086	-7.34560887819877	117.752751280702			-62.3663158269638	-127.293038749646	-14.9574500462216	-33.5285960452633
179750000	-24.4902589921102	-127.037157399996	-7.33813447505957	116.125996751988			-68.7580856886718	-135.400018355972	-14.8443863365674	-37.0442483115657
180437500	-24.8229644526669	-124.481952595091	-7.3186063936116	114.091348587713			-55.7915148178931	104.425219356542	-14.8413899326944	-39.3153075135936
181125000	-24.5207893709243	-126.443370939504	-7.30684291011606	112.378019140093			-56.995116551282	-94.7990377570861	-14.6731364740539	-42.6600040427314
181812500	-24.7354845612133	-126.522078194173	-7.24898446112641	110.261324994194			-57.7683879468677	179.260299838714	-14.756710591266	-44.9152383110988
182500000	-24.5031768321512	-129.441479852661	-7.18947183211763	108.492511095932			-60.1938231729504	-79.9575390043225	-14.5799803931543	-47.8204700357304
183187500	-25.0164367412669	-129.038515784205	-7.13006171090054	106.092115540849			-52.1490785132848	142.544081546303	-14.614335412276	-51.4660312449522
183875000	-24.5492854382039	-130.743281828852	-7.12446494403146	104.431843334384			-60.0964209758155	-31.928969273762	-14.4954999283985	-52.5625861732269
184562500	-24.6518597517389	-131.160230144596	-7.16303832956093	102.394079623578			-51.9935677017165	-174.944539066943	-14.4797187915312	-56.504324620639
185250000	-24.81833037301	-131.895737515802	-7.11649143150632	100.10147767956			-75.3606851704294	-109.398662886713	-14.4149982224009	-58.3696191330157
185937500	-24.8363495462929	-135.796783484372	-7.06938881325582	97.9880939049741			-65.2770059695675	92.3835753105753	-14.4559428034523	-61.8880380779249
186625000	-24.6143026838996	-134.842236198339	-7.09755662552927	95.8669468677726			-57.8194271808753	48.2776738692429	-14.3212321509687	-62.9499205237141
187312500	-24.6661821160671	-137.975496145757	-7.05964000245923	93.8532842022797			-59.6576337132846	168.788478182807	-14.2514106924141	-66.7384341770072
