# Hz S DB R 50
100000000	-28.8376881070508	9.87359307037044	-14.2151275332547	-0.430580420119715			-58.2448611770093	-88.2784855667619	-3.56750608356525	81.1922305907393
100687500	-29.1377094316606	13.0250280357447	-13.7648285664594	-2.30080237424991			-64.1457596400792	92.3699388444655	-3.52311096354876	78.8103845301315
101375000	-28.9427755443407	7.85741843927076	-13.3434906679383	-4.39655705932031			-59.7788540835935	21.1941531695556	-3.56266135247038	75.6576439190895
102062500	-29.3060658275414	10.0138620705016	-13.0238921066393	-6.73574418575411			-60.7928696273218	168.389844672183	-3.56397180177359	73.2294433102536
102750000	-28.794716086468	6.10809275715137	-12.5848319449082	-9.3925789306035			-57.5053511900551	-13.1875048150096	-3.57185635056834	70.0995827762374
103437500	-29.6993884935989	7.23548568074832	-12.2795560563989	-11.2071123762339			-71.3000245738105	153.697725947781	-3.53234326003496	67.6720421472009
104125000	-28.7413921559201	5.84654580322132	-11.9158898279769	-13.9820227199705			-60.5781399098922	-64.0393480727489	-3.57187556715288	64.3826850531237
104812500	-29.8557616968793	3.13181027948205	-11.6463500134067	-16.1105915420135			-58.7272395166386	139.580174418526	-3.62352059491821	61.7110388410067
105500000	-29.2744122012632	3.77366557428393	-11.2594704090715	-18.650894099758			-56.4720700466564	-14.7967041912833	-3.58012021554068	58.6543764974183
106187500	-30.0122626431182	2.36444518067587	-11.083205159758	-21.4922056027238			-72.4795796423847	-85.8895274784249	-3.64289516530772	55.8872238410094
106875000	-29.5697234150665	-1.44320327725105	-10.6896273472578	-23.9119620268172			-59.0481820427666	23.8009379070912	-3.65321036481339	52.9528010604637
107562500	-29.8768794045669	-2.57422466810448	-10.5549583638667	-26.8714238580244			-56.608778549738	-130.452526725365	-3.68875112168416	49.6506463236743
108250000	-29.09073492374	-2.3241732644681	-10.3108932466997	-29.1565300267164			-67.2920968539361	-8.88738795935834	-3.70063586932761	46.8713117148341
108937500	-29.7853201969222	-4.89341651247246	-10.2103597329979	-31.9818301375483			-63.9537472306231	-178.2945248925	-3.75734280147793	43.6588758623284
109625000	-29.663429757536	-4.23109643880236	-9.95726988943906	-34.1244156013215			-62.88466787879	-161.874622510708	-3.78591503162036	40.7176910994749
110312500	-29.5670234929073	-8.43471016375255	-9.9106780880369	-37.3617301508478			-55.8318909238657	-98.4648321605333	-3.83006335618006	37.634492496958
111000000	-29.5195371869121	-7.22629587102633	-9.76625511936553	-39.7540960533104			-59.1934212026628	114.43152205173	-3.87860229615264	34.3205180585961
111687500	-29.5855398091778	-13.9189629289479	-9.79662737014348	-42.5728334589068			-63.5882633564101	-87.1331299572675	-3.92340167841366	31.0537699762287
112375000	-29.4058060325609	-10.0725547706419	-9.72960185124174	-44.5686645421953			-56.9963796268285	119.914793647171	-3.98007147404709	27.9928561768223
113062500	-29.6123873930722	-13.7025677071668	-9.83402333007351	-47.0944563840378			-55.6702480855489	-32.1374962598461	-4.02772091178685	24.4912322944291
113750000	-29.7206192443499	-12.8296035180511	-9.89786381639009	-48.8843206812639			-63.0923441369635	83.8257011095629	-4.05376283624299	21.3232189793605
114437500	-29.7300769859638	-19.8907279241578	-10.0204354564226	-51.1835614264315			-57.3933167547115	-80.3595074501582	-4.10334166635415	17.6082052139062
115125000	-29.7450741995485	-20.365855816826	-10.2006528441398	-52.607842134785			-62.7920540314812	-1.41228899232516	-4.17594268643444	14.2247991490035
115812500	-29.1065356023275	-21.1647354227122	-10.4027671002072	-54.0548961197781			-61.3606661843553	-60.4307276779321	-4.2380094300849	10.383145802975
116500000	-29.6974069814846	-22.8912308929217	-10.7528419008274	-54.7490128121342			-58.4324341658222	159.101985677837	-4.23276971095176	6.48808102622408
117187500	-29.1113862609933	-26.3272997129889	-11.0986458674696	-54.9294868136998			-58.2426281019054	-41.2621070761887	-4.32233113172574	2.89183056999802
117875000	-29.4017645610058	-24.441480909844	-11.4763000241458	-54.1717974710814			-58.3885645686868	168.473742562718	-4.39431436427303	-1.13678461440154
118562500	-28.7122288618098	-27.5094636696534	-11.9024908889014	-52.0660197526422			-68.4275923789076	-3.92944360516155	-4.48308733317202	-4.94182703289199
119250000	-28.8691566067279	-30.1489206250705	-12.288915585685	-48.7513248227123			-60.8496462864741	-96.0573355253015	-4.55780752272277	-9.39834983580036
119937500	-28.4541648285798	-30.9817131791197	-12.5885113143849	-43.6351809488888			-72.6245338410002	-74.8459630602526	-4.64323948615627	-13.6615785398303
120625000	-28.9746740652932	-34.2351799138718	-12.5864231045672	-36.8789872730289			-67.7410787076725	-36.2887132899721	-4.71281000845448	-18.0644152521999
121312500	-27.9172069691675	-35.6163391976208	-12.2248821773505	-29.1433671501889			-56.8284282206705	33.5932056101506	-4.81616919549289	-22.680078026706
122000000	-28.713076465885	-36.6297789578135	-11.411735465988	-21.4724241418578			-69.2446501116325	-46.1531665832312	-4.93161299942605	-27.5942220070834
122687500	-28.2503798689882	-35.1609748788201	-10.3237388514977	-15.3612316485192			-52.4824742210269	38.1603773309124	-5.07408481834019	-32.2509562269572
123375000	-28.2637359327409	-42.6713281761694	-8.90467321635049	-11.7841759158879			-61.1330094251774	-53.7572766303452	-5.24617581749103	-37.4867342575014
124062500	-27.7655669585202	-40.0285032011289	-7.51284340053234	-9.70401634718389			-64.2357503502818	-19.6185553461247	-5.44638457719678	-42.2082460769142
124750000	-27.9985587381296	-45.254217214106	-6.01063774474003	-10.1279872033403			-53.4041288182638	-78.6818900953034	-5.58696113334154	-47.8729445856118
125437500	-27.8999955143121	-42.5971628516498	-4.70321529379527	-11.306187112786			-62.0415316759795	93.2375700219718	-5.91169228831407	-53.5378685097811
126125000	-27.964572662729	-47.1812023096184	-3.39451414002576	-14.499362202834			-62.1363680376985	-92.5675027599675	-6.19587906726702	-58.4476866457651
126812500	-27.7808423526517	-48.4148937866984	-2.26769589849558	-17.79046041304			-62.3179885566617	-162.2020022766	-6.58577696993405	-63.9288602609589
127500000	-27.5226833399737	-49.5821279844314	-1.16185689636827	-22.0757091249607			-57.2478132008437	-41.3020271896291	-6.89110919983524	-69.1308323347182
128187500	-27.8633523350212	-50.3617438198442	-0.25165421672229	-26.7604786865342			-61.0326467714381	74.5304725586196	-7.36175101315519	-74.707970484615
128875000	-27.3830345234044	-53.2175758455495	0.607516653621295	-32.0955346036348			-53.9596839780734	-46.8632790078626	-7.78176452018023	-80.04770876165
129562500	-27.8827833819058	-51.9600338167288	1.25949816476636	-36.9055539586476			-72.2556441141643	-151.375998972975	-8.2274239448227	-85.3977984165651
130250000	-27.0378894301768	-53.7354157743591	2.02216557091779	-42.5376146151595			-56.4591733458531	-14.0605924291261	-8.76964296559274	-90.1181977000882
130937500	-27.6322868276	-54.8138736677959	2.51510990783144	-47.8910308564341			-67.4411418221871	-132.861765129202	-9.27791549082212	-95.3367148824357
131625000	-26.9656813639699	-55.7731168332737	3.04273638665896	-53.2759041968781			-56.9298269394158	-60.3073727542496	-9.88420540500687	-99.5324849260893
132312500	-27.8859768509391	-58.780941254513	3.40047482076487	-58.4015964418672			-58.1576591624866	-85.542869833934	-10.4423591668113	-104.568638501774
133000000	-27.3138264150959	-58.6303934329655	3.81374598462319	-63.5892462714079			-51.7344697683864	11.9326177895888	-11.048028578903	-109.049003240856
133687500	-27.5947197829656	-61.4037900862823	4.07575406751325	-68.5041007875562			-58.5358319757082	-157.615442613517	-11.6354330717891	-113.529044351153
134375000	-27.2326004792814	-60.1453402069344	4.43107311657118	-73.4083417105172			-56.3064028965559	-44.9940612954253	-12.2155586977999	-118.35147382153
135062500	-27.3710264157744	-64.435390317795	4.62155259967519	-77.95966978427			-74.1221737095244	-78.9721682254878	-12.7951117487355	-122.307822091411
135750000	-27.0112828130477	-58.615352233934	4.90508552068522	-82.6408638594877			-54.2011628758349	-37.7782661035358	-13.4299685518045	-126.285903647115
136437500	-27.4608427827813	-64.7726269506504	5.01889232822733	-87.0675149015254			-56.4861592891198	-95.1741196328041	-13.9795023956408	-130.801340402073
137125000	-27.1982539157088	-61.6460507629846	5.27737970559222	-91.2211733542636			-59.3739690298354	-30.6268639377955	-14.6367812245274	-135.322532395667
137812500	-27.4702636558432	-64.6335293813174	5.38855632561768	-95.4408388063064			-51.4035805585261	-112.63969357268	-15.2118990180643	-139.111901065771
138500000	-27.247502418695	-65.9546711363728	5.58930314656543	-99.4268679553955			-62.4633935976645	-89.1904825208527	-15.7331684800068	-144.889873230473
139187500	-27.0702124056107	-68.9899525454701	5.66720734299315	-103.467787382536			-54.8199866961603	-73.3884387788819	-16.3623034601553	-149.122336492436
139875000	-27.8583242504251	-66.0025655713376	5.81514805003103	-107.34611511314			-56.2790362907189	-94.8769199199978	-16.8850219969621	-154.547085218531
140562500	-27.6570968391539	-68.7341755216198	5.90651582195908	-111.185713204351			-54.9979608586462	-72.020498436911	-17.5643098327664	-159.95212452583
141250000	-27.8472230881063	-67.4738617959171	6.04546477154134	-114.766511803799			-62.0247647355282	-73.2600922650783	-17.9970991177	-165.78355005786
141937500	-27.4939306203395	-69.4652808011519	6.08367792182623	-118.555196982015			-58.6466471598146	-50.8991491866691	-18.4960631148936	-171.442423340816
142625000	-28.1239517181102	-69.1176079869189	6.23445442618538	-122.015931910902			-61.1024008686134	-72.2186116204923	-18.8363138195971	-177.199180460331
143312500	-27.6425831938014	-75.6893430493284	6.28245602024514	-125.651825558698			-52.1357709190405	-99.4053571671869	-19.3128489908342	176.280456012967
144000000	-28.2419957759218	-72.2245835772885	6.39238832448393	-128.995335085268			-59.942891777134	-45.6116857915307	-19.4799532131424	169.924287765471
144687500	-27.7865130691614	-73.8503173927603	6.38895475759053	-132.554734091288			-51.6412564630376	-67.2594372554762	-20.0525570074678	162.526384897368
145375000	-28.7809445883512	-76.1032624117113	6.48287093581236	-136.049192616757			-60.6824414361942	-144.309413062903	-19.9380904486256	156.179694910112
146062500	-27.8459633827224	-75.5098509580867	6.51307028856456	-139.164988681283			-57.1931269965723	-56.4865868149737	-20.3044429893583	147.385266570024
146750000	-28.6706600534885	-76.6851609318995	6.61190584999982	-142.581348313867			-54.5317072311925	-146.422433419265	-20.3541616067957	142.605114858391
147437500	-27.9870598353441	-77.417394690485	6.60513257070139	-145.690534706821			-55.5676597100045	-68.5774339995099	-20.4234710047009	134.15228263606
148125000	-28.691250414295	-81.9953690243434	6.65439470045025	-148.899809654651			-58.6767190643694	-157.727228056821	-20.287889503313	129.049256982603
148812500	-28.4720329052316	-81.2265712193567	6.68357054867787	-151.913058242821			-62.2596839669847	-127.909930755414	-20.2149063344448	121.624999875011
149500000	-28.6989369771915	-85.4605892476854	6.7160505483545	-154.970247862575			-53.4255116155142	-118.583307691165	-20.1908821454061	116.032218660587
150187500	-28.444015392459	-82.2702509740348	6.70269191901393	-157.928558672579			-62.2615696452125	-120.149960084529	-19.8791145360375	109.317943281996
150875000	-28.4912252989006	-87.0793234819747	6.7846331691368	-160.835841571424			-54.7264993932547	-154.728164819423	-19.8190969504403	104.63238622907
151562500	-28.5415912246595	-87.3433404117219	6.74176128488922	-163.525545617662			-62.101431278455	-11.8675882940749	-19.4349721831127	98.7220017269706
152250000	-28.7824271875943	-90.8101709065705	6.77921977972847	-166.407416360278			-49.2551719686313	-155.068422205173	-19.4432277542655	94.7161578313916
152937500	-29.0641267485985	-89.0893126428254	6.77834578782982	-169.06738415533			-66.1885987015904	-105.800744292639	-19.0313036734011	90.3324988349069
153625000	-28.5943744342592	-96.8441319017109	6.80286687644582	-171.997368135275			-53.5574440808861	-132.040904001858	-19.0139816554411	85.1341342857696
154312500	-29.3182515545917	-93.8861739726682	6.80077323965739	-174.397412095573			-61.3537406385936	158.216826482789	-18.5308147098256	81.5051398406998
155000000	-28.3202199757654	-99.4960252942435	6.81464595555949	-177.329343434922			-68.3613589082243	174.572462801444	-18.4638136986714	77.235727045083
155687500	-29.1468721036119	-99.3843742112187	6.78571630189233	-179.547794795269			-56.7253526313958	162.281287251884	-18.2009759008693	73.6056790262713
156375000	-28.5849995491003	-101.577872695486	6.86730468423495	177.606155345426			-53.8412929317605	-144.084709457547	-18.2747053874209	68.4370024206581
157062500	-29.9367739432242	-101.66309117425	6.82011729780991	175.18786232574			-60.4077985704672	163.883681121522	-17.9472984185227	65.8391468544349
157750000	-28.1795868854796	-105.448604760186	6.90182536839245	172.591810756583			-61.5514550770103	-73.2322440498635	-17.7357473815011	62.244177572785
158437500	-28.965992394273	-109.377985459867	6.86240703845547	170.233820497652			-58.1911451856124	-175.971604973145	-17.4313715599741	59.531562626944
159125000	-27.9521693541202	-107.748210736583	6.93375751344288	167.668988183133			-57.9292836586579	-103.359787661908	-17.277116370762	55.1722989099116
159812500	-29.1559339420936	-111.172374532606	6.90120006200756	165.256412053551			-56.1082537820383	169.938506109385	-17.2691567300697	52.9171872668286
160500000	-28.3840524517933	-110.302824389207	6.95902084306187	162.842348131221			-53.3353339464966	-141.83545934857	-17.0195831424681	49.4775529156201
161187500	-28.2451807293313	-113.2065093446	6.90429618832595	160.688688736861			-52.6019173991108	130.370769395767	-16.9989692834113	46.8019801755791
161875000	-27.8180623240898	-111.512843253042	6.99107730422182	158.044107545405			-62.7603916149103	135.433189664239	-16.717108425514	43.8789172036579
162562500	-28.1123618045252	-116.767686793069	6.94608870784318	155.519939908924			-73.5486515704978	113.227574701048	-16.7418611544116	40.1425395853436
163250000	-27.6387480744071	-114.77921115085	6.99149151474261	153.082846936766			-65.1740013689165	166.24577949764	-16.4589997880783	37.4564526531845
163937500	-27.7026154364162	-119.705525499031	6.97577861079041	150.990999607549			-52.8598821826595	-164.268239724659	-16.5640845827497	34.8245400639741
164625000	-27.637302891659	-114.400370715393	7.00478605236071	148.339770807968			-62.934800269361	150.690381390067	-16.2953187284416	31.4523253754372
165312500	-27.6704737610419	-124.097939241335	6.98684478499536	146.078298555376			-54.6183340057528	-169.230292430378	-16.3101753915748	29.2671713758683
166000000	-27.7177017597353	-116.516043227842	6.9948624169045	143.748632865029			-60.8717576068265	-80.572074925452	-16.0295615706322	25.4785176896617
166687500	-26.9976678328035	-121.248251155482	6.98502552602777	141.400738637063			-50.412016973875	-177.036119074387	-16.1150739000272	23.1450259450714
167375000	-27.2624446511384	-120.226095142043	7.03521618545433	139.166626137227			-61.5811734317106	119.839906953856	-15.9434306479251	21.0723979454887
168062500	-26.5987458990672	-123.425837636402	6.99474949147078	136.908900210485			-56.3567567323445	-157.711921414979	-15.8626856312819	17.5820745487281
168750000	-27.0883589894213	-120.511600517704	7.03598569301253	134.533598128057			-56.5767337997469	139.558728918498	-15.7774704585528	15.2398329467551
169437500	-26.4402896236581	-123.84657379357	6.94383029405512	132.429648799256			-51.9819933032625	179.572670840494	-15.6651190251756	11.2318127336362
170125000	-26.7619986159294	-121.554377038798	7.02256382030988	130.065716098304			-72.0458974545202	120.854616273255	-15.6708832453587	9.08333384821982
170812500	-26.4766198677526	-121.723462621632	6.93697074913527	127.844147809123			-59.1474742244302	-153.142737914373	-15.5341546268605	5.45054164655098
171500000	-27.0651163873508	-124.005049458477	7.00735642807427	125.771181069291			-53.1002602169637	91.3762592720005	-15.5412780935675	3.77551694768769
172187500	-26.0256977164075	-121.651180699762	6.92063172402201	123.589217473296			-63.1005551149762	13.951442312467	-15.3448918576915	-0.354447679984075
172875000	-27.0627194247548	-125.262025789143	6.97160314464211	121.841871128052			-52.7300661183008	112.669263721051	-15.4180373102347	-2.82057850226598
173562500	-26.1523665101379	-120.945698049396	6.91949655948953	119.629002655114			-65.2265610163557	-85.9697828672591	-15.2784846055825	-6.21468350261538
174250000	-26.3747910820303	-124.130935153335	6.98607690709473	117.433240820394			-54.0908349007392	148.244690830399	-15.2619635229903	-9.74961131608834
174937500	-26.2772843335868	-122.005456112912	6.92811665290568	115.60989740794			-59.1632465736485	101.9844645598	-15.1583038978383	-12.1283705369801
175625000	-25.9800333346978	-124.754767171761	6.97637224965736	113.69151104909			-56.3620767901539	116.332496942183	-15.1792155517532	-15.7207831323484
176312500	-26.0994460078514	-123.222635287454	6.94847820474264	111.642349797276			-64.3525247963722	60.6146813091654	-14.9788082416448	-18.1864367248342
177000000	-26.1130600478804	-124.075002588789	6.98479397440012	109.711037934261			-63.2772418404948	106.749390935171	-15.0067740985588	-21.5188048636455
177687500	-26.2542181639647	-122.622290568443	6.9513244322759	107.690140081571			-58.7567727433499	141.768107191413	-15.0272539156458	-24.324904997112
178375000	-25.9448601868066	-127.127710136522	7.03175922024324	105.58302127342			-52.1063888900302	144.35526148824	-14.913744352516	-27.5328522497481
179062500	-25.9705582664679	-122.327563495251	7.00203831030604	103.693113106382			-56.9010024661106	72.7863554622241	-14.9293302381961	-29.7937432005437
179750000	-26.1195743481393	-125.591350800492	7.02817460705319	101.670550185346			-53.4065020264814	160.250774575457	-14.7688677255188	-33.9035923008289
180437500	-25.8304560439142	-123.41236536745	7.04237246396133	99.7874801125373			-53.305982898352	42.26658275596	-14.7621361646646	-36.3941998778319
181125000	-25.7656978361851	-128.271961555081	7.08417734082272	97.8578913741683			-50.3772464654008	153.689072983796	-14.6157607929131	-39.5471705730613
181812500	-26.1952761965008	-124.415576075661	7.05462273228407	95.9060863571782			-53.8962911914055	69.8476106247628	-14.6982887148384	-41.2915639843684
182500000	-25.7669984890598	-129.235899136178	7.16328019932609	93.7430707858889			-55.9804729342905	170.661455855027	-14.5724766216875	-45.2199377385729
183187500	-26.3486102115836	-126.922071022548	7.16152268122619	91.6219161408054			-55.4905625395473	94.4562904970936	-14.4167185174156	-47.7700595638144
183875000	-26.1164597161486	-129.761425732159	7.25021198269518	89.4530473508978			-57.5864450091317	-178.597968824899	-14.3718993961888	-49.8710109206096
184562500	-26.340904739958	-130.415465809183	7.18825841812289	87.7385548157395			-56.1215648738395	134.533537622446	-14.4098791236374	-52.8692690785458
185250000	-26.0736283904328	-130.514549440193	7.24775803074208	85.4386435097507			-57.560967206763	-148.319592117986	-14.2078791752747	-55.791135320604
185937500	-26.5407439936295	-133.28033951706	7.22273962679756	83.282315956196			-50.9825284103358	117.075396044695	-14.2710341367436	-58.0468324988413
186625000	-25.9620966326919	-133.446163512581	7.25895732473559	81.2560476794864			-63.7423867523867	-22.139921910513	-14.1617562031366	-60.5239748070979
187312500	-26.3655121024198	-136.491226867585	7.24319334176128	79.1374959989198			-55.2224975911214	94.4605460448612	-14.1083308779083	-63.3176801189321
188000000	-25.9334486416294	-132.959633891814	7.25305024579819	76.9327356187267			-67.235484799244	116.398474086215	-14.0652446115589	-65.3530613198467
