# Hz S DB R 50
100000000	-15.352392990603	142.612992324595	2.60454224553937	-5.32531158063782			-55.5214807753153	59.6456183576756	-3.52294988846368	81.8528088682689
100687500	-15.1942582255997	139.975339990434	3.01150775184013	-7.8238147640269			-61.945372241648	4.28939915328149	-3.52538879469007	79.1835390412071
101375000	-15.3631112421693	137.117007116855	3.42014020195271	-10.1029414112726			-57.6719836463175	56.3751883831052	-3.56428235839537	76.2158905452479
102062500	-15.2039609926039	134.372781543653	3.81945826121352	-12.6565343294352			-64.5571793691311	62.8214741509333	-3.55075751948198	73.1940342992953
102750000	-15.247910700955	131.032189164076	4.2224968188988	-15.0837977637091			-54.6068674820588	26.582969621593	-3.57174020724919	70.4829570292008
103437500	-15.211187401403	128.481915742635	4.53791822593107	-17.7442549741541			-56.5687151210395	-2.888003927791	-3.55272119408008	67.5496178643944
104125000	-15.2101521304326	125.433497106915	4.90768125531498	-20.2712059539993			-65.8152223516261	32.0609916403327	-3.59918477761696	64.6248566359391
104812500	-15.2609758787791	122.961309133196	5.21139906353987	-23.1548192121388			-60.9347057930046	-17.1223555670636	-3.62662947459383	61.41368501886
105500000	-15.1843718840902	119.407841679614	5.56415164386416	-25.6642883800175			-59.817328844348	11.3581437953652	-3.63515736226153	58.7237153631548
106187500	-15.2562444266493	116.738359490264	5.81192574521593	-28.6845004244212			-58.151123168168	-63.1873072482557	-3.6528994898477	55.3940864692649
106875000	-15.2665001247591	113.632283816556	6.07585028413901	-31.2671295318038			-58.5162058961721	-24.4776484509161	-3.71194243061597	52.6658856203628
107562500	-15.3166733854622	110.104979627534	6.31165491574706	-34.2831768053055			-58.035345028038	-50.662602249623	-3.70865034525802	49.3299321010315
108250000	-15.3192031097214	106.239837934086	6.5212483900665	-37.2025400128799			-61.2606475623225	63.0127576061889	-3.76429897404721	46.3415116892248
108937500	-15.450060381004	103.204565972282	6.68063629561856	-40.2550137376647			-52.2411464452865	-13.5465909955096	-3.75314119264853	42.968058047965
109625000	-15.4461284776322	100.319718839959	6.83622690694787	-42.8233572199517			-57.5221505850191	10.3913521004969	-3.82881477195348	40.1292382003186
110312500	-15.4703894888607	96.1605019096203	6.92047050579337	-46.0272365212419			-55.7651172416869	-10.3425786869117	-3.85444874612387	36.6254136237597
111000000	-15.5589606006336	92.744618592389	7.0057354750065	-48.8427472505231			-58.7542115513505	-5.79468953894581	-3.93205668012595	33.5136552429931
111687500	-15.8008820867443	88.5226375535754	6.9842043173267	-51.9347724888186			-53.3576171227076	-23.5321362950584	-3.93077737473126	29.8543978340356
112375000	-15.6054165329211	85.0006893485358	6.99054951074532	-54.3480214244843			-65.334180952286	-37.2026494295621	-4.00566948329201	26.7009790403296
113062500	-15.8545639086283	80.547849768735	6.88287303344912	-57.3372555958494			-56.1225351336636	2.67510502451576	-4.0007781836464	22.9256280949518
113750000	-15.9039665574156	76.1274925950278	6.77003653829957	-59.6161836538629			-58.2080360707322	-66.5536297556901	-4.09809125216179	19.7379101000016
114437500	-16.0531032809621	71.7951692471695	6.59859550938267	-62.0103317411076			-55.8937079861664	-27.0492593669894	-4.11467318838697	15.8122188661517
115125000	-16.166220745075	68.5299526059845	6.39398053104407	-63.8560739323343			-59.0704397304841	-34.8979021884254	-4.21263428471206	12.3764443067172
115812500	-16.1536450748058	62.3691831431605	6.08958759009232	-65.5974304455703			-68.8691721974121	9.15875264905497	-4.2145046608475	8.33275465686239
116500000	-16.3945457778553	58.759277720715	5.72905949632478	-66.3936574439317			-65.2095670469309	-79.2013736886972	-4.28125228075573	4.40217643295767
117187500	-16.4532505775456	52.7909225941695	5.26880543460048	-67.013736505576			-58.9413295688276	-16.5219201748679	-4.29491680180983	0.64014732425194
117875000	-16.7250022937761	48.57511484048	4.7800545886379	-66.2465860580559			-55.3085208330093	-66.3047028528849	-4.35300276137478	-3.50131006922359
118562500	-16.7299094121567	42.2282155815585	4.27620825077122	-64.1556059364451			-59.583318750127	37.0807072817559	-4.3976322144023	-7.58479904436338
119250000	-17.113874569158	36.9021130170569	3.76738718210466	-60.4964704876271			-53.7084856033382	-70.296256064121	-4.44644918347375	-11.9792545912732
119937500	-17.136498581684	30.6987680776668	3.40159039705427	-54.6601254910692			-62.4619689296653	-60.3740242622911	-4.52024987315939	-16.6835427420665
120625000	-17.4689273788638	24.8179590418169	3.35466589576164	-47.2237594057003			-56.1054466503959	-36.2245601649592	-4.5515533079112	-21.2335788447088
121312500	-17.519727455529	18.3499301224337	3.71897624391467	-38.5967345879928			-60.8088274472123	-84.1630664721048	-4.61287506571242	-26.0758209614821
122000000	-17.9155503867654	12.5044736433473	4.6414429155909	-30.5998404126123			-57.1952755493924	-32.8708547513328	-4.69664928592001	-31.0147006772696
122687500	-18.1539378358181	6.13763682097502	5.91280840113412	-24.7321137268254			-56.6336078815378	25.0158085386584	-4.87224788000443	-36.0345985510843
123375000	-18.55296458995	-1.00815317749793	7.36272070782772	-21.2909179868587			-62.80148549497	9.78244832276948	-4.91643660314844	-41.3061748356183
124062500	-18.6822480422911	-7.99875284569297	8.82179080534555	-19.9743695146528			-72.3772363013429	-151.67550638013	-5.1102091698356	-46.7345491029606
124750000	-19.2094417349432	-16.0233421089403	10.306931883537	-20.597328904664			-55.6999960651889	2.15875216029936	-5.27103348833873	-52.1284133947668
125437500	-19.5239743857113	-21.900792835069	11.6177191747395	-22.576043618116			-57.9296082842849	3.29096535242416	-5.4907110638924	-57.9926353872148
126125000	-20.1436868199984	-30.0548070909858	12.8775331570166	-26.1434654278768			-48.0145561776333	18.9207955643499	-5.70964272135251	-63.1102120951856
126812500	-20.5799686896497	-36.6489763637885	13.9482541277678	-29.8909177360462			-58.4569170224274	-46.2430802623247	-5.9958071497868	-68.9482364516166
127500000	-20.9147916383478	-43.8703318414276	14.982035084602	-34.2786864857075			-48.7999944918433	-1.93771807976527	-6.28461828737435	-74.1472867405257
128187500	-21.4162040159419	-51.9967223325248	15.8411096581288	-39.4220178162081			-56.1080238315381	2.4912504404613	-6.60324456147474	-80.0960519762384
128875000	-22.0371185792243	-58.6737109824565	16.6397866524756	-44.423109202673			-49.0925865200603	7.12995357163559	-6.96798357931311	-85.6188332823401
129562500	-22.7539276450291	-66.4631333589341	17.2643125057973	-49.5385220240013			-51.3069008339274	-48.989168287591	-7.27064017733022	-91.3466883130187
130250000	-23.2899270436144	-72.7844558246448	17.9059903170456	-54.7758275548676			-47.2601167443175	-5.84040263863988	-7.76716053181907	-96.5532877482729
130937500	-23.9577655919006	-81.2472316082971	18.3901888121819	-60.247502602392			-47.6826846616165	-28.9788066991252	-8.08083707733609	-101.861139754236
131625000	-24.534714501629	-86.7540434832412	18.8437692633515	-65.1133069010717			-46.3962719549652	-16.3818288703912	-8.58248671465969	-107.163052204071
132312500	-25.1079115395263	-96.7796896244433	19.2287092313456	-70.2501111379287			-47.5827127410017	-45.1761071305038	-8.91290755810889	-112.435911326089
133000000	-25.8559277906186	-102.808503554614	19.5598297825232	-75.1827958253492			-48.2465557711056	-30.5183008693774	-9.42143418723598	-117.395603789965
133687500	-26.2367951234115	-110.038064216579	19.8305816772607	-80.0344059262396			-46.0210808363825	-38.6512742895976	-9.72341003467623	-122.575748235924
134375000	-27.3908161665193	-117.592467834639	20.1660956546386	-84.5082469591117			-46.8087527197461	-37.4349186427514	-10.2570800246917	-128.35899029027
135062500	-27.4963355626126	-125.809198910494	20.3470044043869	-88.9059351072486			-45.7904390563311	-53.2498673175795	-10.6319553682644	-133.531153803002
135750000	-28.6871144257275	-131.458289427164	20.5650087746244	-93.1869643659198			-48.1102158972847	-55.6864905631479	-11.0688903673469	-138.28952119374
136437500	-28.754923032537	-138.262222150402	20.7422116878314	-97.5940570399307			-44.1506899206891	-58.928483863763	-11.4755051362365	-143.818934931112
137125000	-29.3684141292924	-149.287650415337	20.9522375779545	-101.264084919042			-47.2250322527056	-60.7847878236099	-11.9408254760279	-149.084034814575
137812500	-29.9257791703131	-155.522398239546	21.0681991885621	-105.633271144091			-44.032931593102	-67.1874132362513	-12.2996237535613	-154.567494347941
138500000	-29.9963262996061	-165.040512750941	21.2794532079467	-109.312249138971			-46.3358129909134	-78.9331330427761	-12.6050826799746	-160.376562967496
139187500	-30.8151182592902	-170.510305887715	21.3714398688575	-113.409602557178			-44.6592983528749	-75.3976984415441	-13.0926842498995	-166.243375723538
139875000	-31.0154019542813	178.064886317388	21.5319191273212	-116.762271153671			-46.3743809950227	-90.5078067771364	-13.3837040389206	-171.447274120283
140562500	-31.8541204587483	169.719934649563	21.6159423905636	-120.729333646649			-44.4105829707615	-67.9338803062402	-13.7796575542412	-177.968424445798
141250000	-31.9523269564362	162.794648668016	21.7602271396718	-124.210950305202			-46.0263404175297	-89.744343743538	-14.0008872019372	176.230373748243
141937500	-32.6255746082598	157.496344479227	21.843338100884	-128.097998325492			-45.0120266201022	-87.6994339006535	-14.3278095810893	169.928512028818
142625000	-32.6608862312235	148.007417212182	21.9650080780707	-131.389515692789			-44.1528626818461	-95.5945407773049	-14.6075540618784	164.742546362155
143312500	-32.5277021920381	152.675566788584	22.0611018698115	-135.103969920235			-45.4339102669102	-96.1276386741648	-14.8225326228498	157.597893537465
144000000	-32.8954742226374	140.866378372794	22.1583202310032	-138.08196042319			-43.5083951554704	-97.3131907981397	-14.9084892149345	152.482693327757
144687500	-33.7095327573992	137.756543401992	22.1866060689228	-141.886817367889			-44.9394646711063	-99.9028812593147	-15.2079010834943	145.063298041908
145375000	-33.0480893258865	137.694835908357	22.2482069366564	-145.158190978502			-41.894752859715	-109.705311463841	-15.3152137120618	139.931470478585
146062500	-34.0267702686913	129.148043003415	22.3009006040039	-148.762647810163			-45.2393059210168	-95.9218600177508	-15.4824531473307	132.657423331985
146750000	-33.5193807011281	130.889616959592	22.3796926788831	-151.679476944562			-42.1319627284682	-116.424882334859	-15.6174964769009	128.413607207881
147437500	-34.6899147224534	122.364469730869	22.3745794151947	-155.060629122307			-45.1692766203821	-124.587575942617	-15.5707162916795	121.926155497086
148125000	-34.0318231438182	128.295218879301	22.4171924701238	-158.082761357814			-42.1493151621009	-113.493587340019	-15.7751502158761	117.604235346932
148812500	-33.3534309568782	119.821410191501	22.4332850705142	-161.522519246504			-44.4440601726551	-116.592108882013	-15.6080000055795	111.329905698211
149500000	-33.2541884353616	123.934155695119	22.4609219301243	-164.181074872777			-43.0823742258839	-120.362472061228	-15.7605697044768	106.156304861855
150187500	-33.3180880238266	120.242025306752	22.4685254077564	-167.528216036274			-46.1560409885351	-136.829401251654	-15.6771815582703	100.813433728129
150875000	-33.154436971701	122.268561641007	22.4667967114312	-170.12662546238			-43.4542295075578	-123.16154265904	-15.7136792940359	96.6978850683909
151562500	-33.0600486669945	122.512361008042	22.4713785761111	-173.069503543644			-42.3016940842244	-135.709375355337	-15.4857170193397	92.3347949761262
152250000	-33.1684270203064	121.894437050024	22.4860272171927	-175.899565823444			-42.0783304076339	-131.670756378637	-15.5649660996564	87.7713817133612
152937500	-31.8122610873728	117.989344868016	22.5015653771151	-178.46780763229			-45.105286620243	-137.300968675865	-15.3485127628224	84.293036028011
153625000	-32.7064393597045	120.149368274634	22.5067372369441	178.812459285916			-43.2904577809282	-134.899219334065	-15.4147194391115	79.2811509837717
154312500	-31.5917405584969	119.440789780008	22.5228090717874	176.342132054128			-44.0777921036716	-154.000402124442	-15.1990695221651	75.4950587637434
155000000	-31.7659435132774	119.591939526062	22.5191905481021	173.523886749365			-44.4295377937818	-146.460064603146	-15.1589613840445	71.8443196024042
155687500	-31.357680429829	117.566336589891	22.4994980050424	171.344289916081			-43.2049031293865	-158.836508564936	-15.0706856135477	67.7562549428093
156375000	-31.6081891857102	116.904722329273	22.5513701999802	168.675847853734			-44.5263456822462	-149.73096785671	-15.0225701345792	63.7699194319969
157062500	-30.3081949467245	114.667999599507	22.5293692705167	166.1508008835			-41.4582863846938	-156.812732280741	-14.9394844922202	61.1292500149002
157750000	-31.2300585583976	115.55744376267	22.6063394045777	163.944635983279			-46.1490540412632	-168.451355547682	-14.7404445971429	57.0910291021154
158437500	-30.1863604685381	113.988219546765	22.5736626000289	161.355022039848			-44.190737296458	-154.048523512932	-14.749996828149	53.7966535644079
159125000	-31.1097789673198	109.162863085287	22.6428185003167	158.864728482053			-46.1810460456614	-171.427365657253	-14.4775814880659	49.7327220127764
159812500	-29.6704199829603	106.737050279456	22.632201755422	156.403493467008			-41.8871819092208	-162.750269893801	-14.6274089160046	46.0099543331795
160500000	-30.3359692119493	101.81342470815	22.6554511654899	153.937044517878			-42.677289297489	-179.215573596395	-14.4502030870089	42.8934840377286
161187500	-30.8400785419274	102.009682981606	22.6087117600328	151.685917452669			-42.8716723776474	-154.919137906268	-14.4568931986763	39.0983523060367
161875000	-31.3319052636289	97.7211746516864	22.7052223707868	149.255251894181			-44.1934404962454	-174.011377956751	-14.4644392257852	37.2634131857406
162562500	-31.5212233196916	100.240444823699	22.6538840429246	146.526290588982			-42.7831001614801	-174.605015759083	-14.414937514894	32.1319723989596
163250000	-31.6229962559193	98.9550277463159	22.6987093435539	144.291083526843			-44.6691899032592	-174.738261877799	-14.3026534581711	30.5036756316503
163937500	-32.1826022783203	101.75440901535	22.6870873284377	141.816176927655			-42.1194301052325	-168.969775991573	-14.3388597262716	27.0887573727859
164625000	-32.4933471026023	93.9523019835948	22.7127438624256	139.501302398827			-42.9783425382439	169.866854280595	-14.2405149895196	24.306394604543
165312500	-32.7841534042902	101.563695904311	22.6998166627347	136.873257917633			-44.6985425029925	-165.77027611232	-14.2006751058396	20.2601935838142
166000000	-32.6427163251427	95.9639234076953	22.6992397067478	134.747716601232			-43.931579478807	173.498812607973	-14.1280776571044	17.4176052419612
166687500	-33.485077014466	98.7835975938056	22.6860475682044	132.163777247249			-43.3597728088262	-175.847110734613	-14.0612223349042	14.1133502598282
167375000	-32.5843875269425	96.2025102445065	22.7154337528014	130.31027085318			-43.8587878611306	163.697676988181	-14.1178833585639	12.1802264680682
168062500	-33.8742551922457	100.451310014087	22.6830149141251	127.955287648708			-45.2451341368075	166.60753832853	-13.9552603243727	8.08965369000196
168750000	-33.1206371176378	95.8004502534185	22.6914117100586	125.86082433861			-41.894677251165	164.44143470781	-14.1048181643927	5.35745938892525
169437500	-33.6039637908725	96.1885736907366	22.6284471929205	123.372977849099			-43.342543057053	161.5914486857	-13.916598548094	1.78639296967087
170125000	-33.6733886731351	88.8060032116932	22.6627680353542	121.44435755122			-41.518263485537	157.403040585002	-14.137460028763	-0.81480810317682
170812500	-33.7250042628605	84.8519454902222	22.6053670277162	119.188054862268			-44.4166981355136	152.632086277671	-13.85370254503	-4.13988442217881
171500000	-32.867504000085	88.8639280478107	22.6297585001581	117.168357802359			-43.5474039642822	154.966965838582	-14.0359360692396	-6.65389830592181
172187500	-34.2144792568745	77.9423381729493	22.5608400109616	114.775670559928			-45.86547227165	158.01172760891	-13.7954169813778	-9.86836808372899
172875000	-32.6634808170881	82.4191739566387	22.6238653107705	113.170319835876			-43.8581382166384	161.125992478156	-13.9551883371966	-12.8780814287593
173562500	-34.29543664689	70.8133814295293	22.5640147059364	110.93425224456			-42.9837232695372	146.404797624628	-13.8172760120777	-15.8542101229705
174250000	-33.9597495089108	68.9452933190041	22.6210655323664	109.074770167215			-42.4533233076243	156.376187342507	-13.7614411842646	-19.778889462765
174937500	-33.5188539987094	56.712794905447	22.5789830893949	106.98451356746			-44.5470818139471	134.900145377876	-13.7356227050411	-21.903233907332
175625000	-34.6107585920581	57.8518000931129	22.6199955212853	105.186368758254			-43.5463750829381	152.879029080959	-13.6989220941347	-25.7754330227633
176312500	-33.4968754241857	42.9941275791296	22.6090585410525	103.075654342617			-42.5885868264908	129.909535717222	-13.5506460495471	-28.4144184793517
177000000	-33.8343505228898	42.876471091484	22.6361013341568	101.429714534085			-43.7216657403636	150.819087844406	-13.5398289018159	-31.9881565387271
177687500	-32.7779532126292	33.3442378116468	22.6268417598425	99.2446598928637			-42.3702842391187	137.473764772164	-13.5401347997692	-34.5804130694746
178375000	-33.9721277720589	30.8801647588626	22.6702470578494	97.5063956000382			-44.521887911697	139.053247792691	-13.4442374892036	-38.5109283934347
179062500	-33.0671617519518	22.1060805320474	22.6866977271083	95.3423041062229			-42.589171687626	118.255360237641	-13.3979110306964	-41.0580501273899
179750000	-34.019477326199	20.4877493056234	22.7171775652555	93.6664978225933			-44.1526211865973	150.520502138579	-13.2412603064103	-44.6965496835282
180437500	-32.207014795572	14.2322393987302	22.7380005580154	91.434997747563			-41.526751014506	127.456686909963	-13.2812469645058	-47.521142569994
181125000	-32.3383593809899	11.5138041442456	22.7489801514056	89.5602271514887			-43.4258772605208	125.211063490702	-13.0855780545599	-50.1128338821537
181812500	-31.1576877746119	7.42006808587807	22.7767674424654	87.5547917989647			-42.4076173249047	125.304821543729	-13.1180232054403	-53.2327757428613
182500000	-32.6583614094564	-1.50448689093855	22.853679993704	85.5780097966079			-43.0975526948551	137.840456106917	-12.9462345592643	-56.1054766574707
183187500	-31.3373588996345	1.63090384516217	22.8765210100424	83.4114546252787			-43.1312129484311	126.709154117777	-12.9756377148856	-59.6407569680808
183875000	-31.8949653342275	-5.9491013875906	22.8774632875662	81.2362950764349			-43.1216596009858	112.107514088463	-12.9097335227511	-61.706095786307
184562500	-31.7114177215785	-7.04643150149541	22.8820133012957	79.2377513738768			-43.8778982018157	130.38748892625	-12.9124176695401	-65.6277936088168
185250000	-32.0070748376343	-10.4624647248374	22.9296695583334	77.1363047345343			-44.7813382755146	108.594244777728	-12.7795841394612	-67.8971600320423
185937500	-31.7237079132533	-10.2950656774219	22.929986074871	74.7632274486828			-43.5639213603747	110.328954012267	-12.7524423801468	-71.3544503736719
186625000	-31.7053886012048	-17.4037717268955	22.9537835696997	72.8454168200582			-43.6312830563088	111.558803534546	-12.7701129893019	-73.6543645421104
187312500	-32.6479448338898	-14.8933737954931	22.9458158745288	70.6170662626692			-43.1033017749705	111.197054858504	-12.6219646270623	-77.1581632632731
188000000	-31.4750714183999	-22.109505616151	22.9539868755685	68.5073054173876			-42.385274567595	104.08918066546	-12.6548590424669	-78.9710273682408
188687500	-32.3052194021842	-20.6727719568994	22.9534772531796	66.1206407663883			-43.2070651916257	110.496971101806	-12.549391401124	-81.7352638699107
