# Hz S DB R 50
100000000	-32.2673041024143	8.71719314315869	-12.8082805966643	-5.51662041344182			-67.3922016667729	118.562537784457	-3.5821848053912	81.5201521630718
100687500	-32.4780847408058	8.13251610940675	-12.3396900756906	-8.27026245173754			-60.6943133836226	-94.438954630672	-3.5176653529644	78.8936935353037
101375000	-33.1556325319097	5.08839642808266	-11.9684080372898	-10.1597767424329			-60.1216727045833	122.714816531716	-3.56784968145059	76.0712499634823
102062500	-32.7300160315721	9.05936107493989	-11.5367387513222	-12.750094010396			-57.396364586318	5.43502655004729	-3.54740558654269	73.2033201314371
102750000	-32.850739575646	6.67511720692567	-11.1969598109897	-15.0964415522512			-55.5788238467704	128.554371348877	-3.57223912233171	70.2337897321273
103437500	-33.0272904945831	0.974655845351015	-10.8251290262275	-17.7154905682046			-56.2106068815427	39.7374320850315	-3.5276174646824	67.5306151889395
104125000	-33.2428974274679	-1.14828930749077	-10.5257071475057	-20.2751856206832			-55.079485009685	-123.992951287364	-3.6319407984483	64.5089431390742
104812500	-33.0864768584024	-0.142439539207985	-10.1718659052687	-22.8652166928228			-53.8413070256423	-33.9501757873607	-3.61100856273913	61.5001357109168
105500000	-33.128136270647	-0.963123667780162	-9.89504580074116	-25.6736296480574			-56.518750262854	-127.216904245169	-3.66367906298355	58.6513815058321
106187500	-34.0350478207444	-0.592495152827961	-9.54709514775318	-28.4602096616358			-61.809370276562	-7.43500184369134	-3.64917853694101	55.7294916817793
106875000	-34.1193095497554	-6.59082439699304	-9.37461346134744	-31.2006110024852			-68.417929487416	-102.636491171687	-3.69937959726083	52.6840828303981
107562500	-33.098381440918	-7.88102525819551	-9.14892417414595	-33.8634569467993			-59.2931023293114	3.5145786062911	-3.65251122623904	49.3586287273231
108250000	-32.7827594320717	-11.2815113014615	-8.96342889779629	-37.0029587324199			-57.8882407488254	-147.523005478839	-3.76282010259683	46.2750341600128
108937500	-32.9684338773428	-12.9264227163701	-8.83812780782775	-39.3124044520468			-65.4356212663374	53.2035985780689	-3.74325256059077	43.2432043731142
109625000	-33.010119636895	-12.7011395478995	-8.67757500719769	-42.4529290094213			-54.5172921241161	-61.3913934469317	-3.83563802524952	39.8792369486374
110312500	-33.0717220116768	-13.1396797548953	-8.57978747997041	-45.1957549768019			-60.2090588613114	120.614236698585	-3.85150006278896	36.9937959503948
111000000	-32.6073618783768	-19.3049003564857	-8.47427593565831	-47.9365866214142			-61.6156857982548	-122.275395094324	-3.93821876313102	33.6467684928022
111687500	-32.6338160198592	-22.0617588997742	-8.50246236791716	-50.6473113051646			-59.7447709153538	72.38602037882	-3.93047123352497	30.265677763848
112375000	-32.5565832539624	-20.9713012228702	-8.50670738269265	-53.319995751311			-60.2510921099242	-22.0289672897988	-4.01454437416412	26.7596987286084
113062500	-32.7176506235984	-23.5724594517055	-8.60226010651314	-55.9144030291939			-57.6025111114258	103.958105929333	-4.00875122026384	23.8001848967308
113750000	-32.0331307994872	-23.0823801897096	-8.69225199729395	-58.1636776421747			-66.6600359652796	67.3835382670476	-4.11510008588987	20.188110302992
114437500	-32.5518100374859	-29.1198228973945	-8.89540473250304	-60.3321878085463			-59.7678959136589	142.548406414682	-4.07806346364823	16.8239749406771
115125000	-32.4258802873019	-28.4658095219146	-9.08064028342538	-62.1450226209929			-57.6890503861943	-84.2057224734972	-4.19345614220908	12.7617456278822
115812500	-31.9457279185197	-29.8890772413132	-9.37647143576507	-63.7258406016353			-64.7757409041338	48.4989824213225	-4.20627629910428	9.19733683877033
116500000	-31.7941140455513	-33.9847758446275	-9.72573476149626	-64.5306505189667			-55.5752922578025	-8.70075027556547	-4.27522115859239	5.1489469443848
117187500	-31.2803620401213	-35.5642428346283	-10.2096803993402	-64.9742272220237			-60.8589537872914	-101.460669915115	-4.31278578648109	1.59852136236025
117875000	-31.314537740901	-37.6957206641356	-10.6177373608832	-64.0652325546175			-62.8610263815429	-19.681489431074	-4.36431549061805	-2.53737487821873
118562500	-31.0820329367592	-37.5647975966277	-11.1347133350047	-62.2134869365649			-57.368166057351	139.539895504925	-4.40581802755346	-6.40837076289977
119250000	-30.7343552549142	-39.9520819617968	-11.5465630576768	-58.483073582386			-67.02388273835	0.713229569411972	-4.50885697157785	-11.1364183805479
119937500	-30.6376207099279	-43.3249464423757	-11.9575554051195	-53.2024220458556			-56.6949417814897	-136.167654767139	-4.54104275292105	-15.5124801256688
120625000	-30.7847259598047	-44.0097912924216	-12.0472016280804	-45.556031974803			-57.0176519633421	22.6662387852523	-4.63374203093381	-19.8963019940134
121312500	-30.367285620673	-49.0702820067276	-11.6976064886411	-37.7296951072566			-62.2822283201663	158.580396857523	-4.69413730025963	-24.8972946849731
122000000	-30.4781959150594	-48.0972395723556	-10.8868395578391	-29.4308000658169			-55.6577024278432	48.534606006648	-4.84318967780392	-29.7734201583434
122687500	-30.3176450560812	-52.4846960166876	-9.69675002472638	-23.5669955567724			-59.1783342876427	142.151738971714	-4.94473233574193	-34.5830745924259
123375000	-29.983963097137	-52.0893759910859	-8.32060774305233	-19.2519749795033			-59.1236737933196	139.18014228385	-5.08167010932716	-39.9796009524885
124062500	-29.6344860667929	-53.5389838621674	-6.85592877779895	-17.8828670952015			-61.1469336464985	73.8490686952396	-5.21402689312179	-45.1704992355314
124750000	-29.7584261634609	-56.4022982417582	-5.36072888245705	-17.8236837590716			-54.7641547028024	89.308392904628	-5.44812665614947	-50.6422727398937
125437500	-29.6355369429965	-58.2027701233331	-4.07749436570927	-19.5700651493572			-63.4020265580921	-88.4178072686315	-5.61889990348368	-56.4371528595477
126125000	-29.9248397052311	-60.5624840095842	-2.83307924223901	-22.583785067639			-60.5533947876532	-18.4954396576367	-5.91736946855	-61.6001664969813
126812500	-29.3161400850002	-60.0888033363594	-1.67960311277126	-26.1077526255316			-61.4626178953753	-26.575626350446	-6.16057494197885	-67.4267326660448
127500000	-29.1355877291928	-63.1779782967364	-0.666704947633501	-30.373376033182			-54.301730802677	100.424279222803	-6.56811603354516	-72.9545291064233
128187500	-29.0545044229082	-63.8947511813532	0.262247656271749	-34.8895771803034			-68.451610995122	72.0496908835648	-6.84680275947898	-78.4568868777109
128875000	-29.0875090940268	-66.077612959887	1.03565259283625	-39.9859684675279			-61.1314416477637	-92.6034152003207	-7.29666102897687	-84.452340749266
129562500	-28.9922244601871	-67.8960788667985	1.74278097112193	-44.9155726443829			-67.6526339118026	-56.7187368540678	-7.6531261989095	-89.7445031923346
130250000	-28.5967455396182	-66.9111874159493	2.40957144716502	-50.0838451954675			-66.1416037102801	162.33954585754	-8.21734624065089	-95.4627353379785
130937500	-28.6415393787541	-71.3674116179544	2.94343132607618	-55.2742638188365			-57.6869020390791	-78.9080323074359	-8.5274395792694	-100.435737649852
131625000	-28.7349613357533	-71.1777664456272	3.3729968341832	-60.4039854736469			-60.6152267138261	-154.296761484199	-9.18696040651964	-105.911723227399
132312500	-28.8685422638127	-70.2736769676805	3.8314621972265	-65.363696873436			-56.9851795530381	-3.9758230580228	-9.58688235210328	-110.543649684934
133000000	-29.0278351542831	-73.9640820000303	4.15184629938168	-70.5874882257269			-60.8230733377316	24.0238189168273	-10.1301073096068	-115.928529917552
133687500	-28.547201649157	-75.0942736027539	4.47017566761991	-75.2007968350856			-52.4905905067235	-25.2093243428549	-10.6112109867559	-121.050343318186
134375000	-28.9090278793121	-75.0279271785051	4.79163149498568	-79.8877601694908			-54.185106467011	-154.506388648471	-11.158007943449	-126.708980430303
135062500	-28.7621796535299	-77.2027933655187	5.01094418548555	-84.3093876641874			-57.65317239927	-129.394388876605	-11.7238666651639	-130.945842949001
135750000	-28.7782587010346	-73.8783960610611	5.23717286959792	-88.8954983588309			-55.7963734043075	-59.5056361210906	-12.2011664890697	-136.19236814557
136437500	-28.8208860468374	-77.5679977226924	5.45559575327546	-93.0716460067887			-56.0045865936784	-43.7994216222149	-12.7925061492286	-141.527843991424
137125000	-28.4174392975362	-78.4847808520933	5.65547196538464	-97.2308109436395			-54.2154229787323	-100.305700895038	-13.3041001165409	-146.266571515476
137812500	-28.3851238408096	-79.1928394320338	5.79761511507494	-101.36360097509			-52.362198788777	-28.1535507458606	-13.8150020328608	-151.537698939172
138500000	-28.4206348591112	-81.4282867491808	5.98874069996107	-105.415909038896			-56.778177001254	-55.0802605022158	-14.2509081562307	-157.501368946172
139187500	-28.3221570159864	-82.9265914019844	6.10850677416462	-109.222454570953			-58.8920886582427	-75.6427664688423	-14.7802365910596	-162.829655567074
139875000	-28.7706882128382	-82.320302649593	6.24271410935779	-113.060168119359			-54.8448586653526	-119.700251038676	-15.1941631826326	-167.94447336549
140562500	-29.1721059973966	-82.5698604418081	6.37040024422756	-116.787000160245			-64.6897865524846	-67.600752547105	-15.6845253060378	-174.908051957093
141250000	-28.7571268203084	-83.2441238598493	6.49707811338176	-120.30757818113			-53.5704881568951	-77.7382044899452	-16.0363293605533	179.708291034909
141937500	-28.8132461028176	-83.4101173586147	6.56309041699615	-124.250545597773			-60.700016045163	171.7201600522	-16.4457516323263	173.318598279631
142625000	-28.8674655292918	-81.3588021656376	6.68612521865828	-127.667198418597			-53.8451934949766	-53.7178610881002	-16.7906404349498	167.299876333504
143312500	-28.8703219918894	-88.4006141767355	6.7521034203094	-131.170497801471			-59.1116855461157	-57.0385676790415	-17.0994735716009	159.968742730035
144000000	-29.2876391711824	-86.6137600658179	6.83388315020341	-134.408770365291			-54.2835710555431	-73.421948398726	-17.3721093694992	154.652014435981
144687500	-29.3222573541408	-88.2889237135622	6.88407506426411	-138.230599386099			-60.0118401057627	-110.395813592666	-17.4258349894036	148.190352795749
145375000	-29.4165606041369	-90.6810585396408	6.93706494624791	-141.453874928807			-53.7356577604348	-97.1782408180807	-17.6970299967463	141.701714119186
146062500	-29.1596851046007	-90.2112009835357	6.99461229814737	-144.767985973702			-53.8678548236032	-179.434029394589	-17.6773478245459	134.199738549701
146750000	-29.41772376771	-90.6243331064158	7.04576661319845	-147.935470191237			-61.3067886160091	-67.0220510500921	-17.9754412450489	129.35825889716
147437500	-28.9499306213967	-93.3682451206229	7.08368929772675	-151.259771937032			-57.2404811324459	-100.43371327768	-17.7790121658514	122.529675188744
148125000	-29.4968972238328	-94.7583292846121	7.09109249498413	-154.335800108645			-54.788630538192	-89.8531660323564	-17.8770459212905	117.59486481236
148812500	-29.7281690552582	-98.3168748925766	7.15311997804304	-157.331398731943			-52.724660732024	-135.341215921684	-17.7816141874263	111.360904271066
149500000	-29.4789189810003	-96.5830717300912	7.14514658063976	-160.337905539807			-55.233712141308	-92.0191664309296	-17.7907178637364	105.019852886416
150187500	-29.8119882119862	-98.8331085585619	7.18460688426539	-163.399526448081			-55.048901572619	-136.851001475711	-17.7667994378001	99.876549783475
150875000	-30.1388359121702	-97.1500596451371	7.17959720200666	-166.172126386237			-53.872562613065	-105.359415868346	-17.6765150835682	95.1235598303958
151562500	-29.1713499786147	-101.176822675691	7.20189371608319	-169.032995378002			-53.6430577318326	-163.238836399557	-17.3665559054134	90.4314668247363
152250000	-30.1485353395778	-105.964656115356	7.17775987318244	-171.837947320836			-72.2660351641278	144.787925819521	-17.3854845824095	86.1859086730096
152937500	-29.8493425169935	-105.338402249424	7.22419962900412	-174.382180642703			-51.1209384020691	-152.175395733918	-17.225165143752	82.0402196538049
153625000	-29.9904320819854	-108.169701279323	7.20063245117146	-177.128792825016			-59.4566681549484	-144.67085221469	-17.1640270362908	77.1803894675763
154312500	-29.6474047398914	-110.518082685749	7.24987741897077	-179.70071158799			-51.4444497356039	-123.315107096199	-16.963504579813	74.2259370754068
155000000	-29.4210608298107	-113.860705473557	7.23210950195917	177.367771714183			-59.9407132031161	172.043624353974	-16.791254236281	69.5050393887137
155687500	-29.5370702627045	-116.099400488938	7.25330690157697	175.249273930584			-54.1090498713421	-135.768317530363	-16.776709965612	65.4461273091525
156375000	-29.3598437648597	-118.038586822456	7.28357672132415	172.539434303974			-57.8521975835308	150.266770589124	-16.7252342301551	61.7568257019892
157062500	-29.5560429079154	-120.871929108111	7.26977088628152	169.927332413139			-52.6712147433034	-156.448636351752	-16.6543212524878	58.8297805398852
157750000	-29.4004947796658	-122.485396457653	7.31482089689761	167.589744692638			-55.7628190950496	-161.166168198794	-16.3959315121961	55.7492572905269
158437500	-29.256686769824	-124.35572037341	7.29940219675743	165.206797751637			-62.3095664925244	174.396564274496	-16.3541892380215	51.0759001987576
159125000	-28.8064870155202	-122.883511361344	7.33571889410742	162.732332580562			-58.094825879244	149.010940914699	-16.2682177188159	48.4896843305437
159812500	-29.2504426828503	-126.979094067648	7.37102766064153	160.227617910358			-75.3883323846081	-158.169536629629	-16.1482393977256	44.4041390419388
160500000	-28.7465928484459	-126.400341029276	7.36405969822551	157.761785144349			-61.9972081823682	123.487718323469	-16.1029924279653	42.3140920551609
161187500	-28.7056646707551	-127.054407596054	7.34610743449863	155.584997133912			-59.6003387833951	-139.780578355913	-15.9912902466216	38.5133211312
161875000	-28.3081694371676	-127.622942674883	7.4332376086128	153.184207881746			-53.1723554725038	173.368105258956	-15.9079903304257	36.1561527281527
162562500	-28.3559957504146	-129.900597896184	7.38010973616004	150.449764606379			-54.7791931457712	-126.089499935091	-15.8388913074065	31.7398870578342
163250000	-28.2502077201096	-130.626034001614	7.39327010018392	148.137009335844			-58.5199308607396	-138.334835503844	-15.7256680394094	29.9653708085036
163937500	-27.8112703828182	-131.891183085881	7.42491687240595	145.894763474719			-73.0404740419189	-145.959533607914	-15.7302245319082	26.9110650531814
164625000	-28.0347084142029	-130.458555845526	7.37711195249277	143.386932093732			-56.0196140960618	-176.635930905522	-15.7125698115665	23.8183136649992
165312500	-27.8362006168778	-132.884023302199	7.41596410325093	140.983218181941			-58.6046160881096	-173.292272461946	-15.5618129725526	20.934030001449
166000000	-27.8692177385692	-132.401478135325	7.41269613772739	138.752278870785			-54.6847648737695	179.66520423669	-15.5942394157225	18.5366999281135
166687500	-27.0841569416733	-131.818043567244	7.40563048765459	136.443955062405			-66.2122772832095	113.524717108534	-15.4199506578375	15.5608580727962
167375000	-27.2583765613306	-134.283769147792	7.43216103045816	134.33740890213			-52.684215675167	139.625508859903	-15.4617244772012	12.7151433712186
168062500	-27.0952687818633	-133.928974717324	7.43110112772443	132.015437102202			-56.2433215449432	93.471890619573	-15.1974117517939	9.66360320337733
168750000	-27.0595235888399	-132.725648824115	7.42658471739131	129.875294667609			-55.1357097453668	-125.686658665085	-15.3390831737123	5.6977825717194
169437500	-26.9747669967862	-134.508016272158	7.39002229625462	127.586354789815			-69.9469076699223	8.37074551502488	-15.1290735148925	3.45142670237106
170125000	-26.6512991304296	-133.257393524011	7.41544937091627	125.590124515196			-61.6710048328148	-176.297158118101	-15.2277227933706	-0.176196330017627
170812500	-26.8901814878193	-132.676209829584	7.39516198592549	123.13287661208			-53.6586183871408	105.326087400548	-15.1396928308431	-2.91960222912166
171500000	-26.916365929316	-135.777879192466	7.37356491052277	121.142577803571			-59.0260291593717	-86.5523985820287	-15.1522487411617	-5.65960794546778
172187500	-26.3992138145768	-134.224097060977	7.38126798808596	119.03311814109			-54.5989438839063	152.185548159419	-15.0546682512076	-8.45190129823745
172875000	-26.7504252709283	-133.870106119252	7.36371933431599	117.121638508058			-57.9623343732361	-169.050152167889	-15.0413607673812	-12.0538809341482
173562500	-26.4940685946457	-132.244131265347	7.35866322263265	114.989146544359			-51.9598613115834	157.94145458381	-15.0581493738253	-14.4055626497768
174250000	-26.512419575773	-133.835131322977	7.36533443498453	112.947659323062			-61.0220295354385	145.206321051217	-14.9147085732919	-19.2526917135655
174937500	-26.461291149878	-132.947658483355	7.37259862141646	111.040996434617			-54.7883528956966	140.120067040572	-14.9054575733669	-20.3531108353175
175625000	-26.2296163047978	-132.208963513866	7.3579387688754	109.153774313571			-62.2918772154978	168.589561270329	-14.8642728462138	-24.2952160045555
176312500	-26.2316721472833	-133.175450635542	7.3832609368103	107.064796987627			-52.6125059507115	156.568077631576	-14.7648983728247	-27.1277114499888
177000000	-26.3799090680065	-134.454650233459	7.39455762114341	105.376949449139			-56.6987723956078	103.698406276856	-14.7136882946859	-31.1828825430669
177687500	-26.6181208743655	-134.28321824357	7.40283106291512	103.135601845578			-52.7039989431722	159.781370690226	-14.7658769185891	-33.5128218140609
178375000	-26.2519131948764	-133.916186037618	7.41454127770675	101.209039488076			-55.8507344903197	142.925500648138	-14.7131808242273	-36.6445837226523
179062500	-26.1383673343547	-132.776394201886	7.47065344371085	99.2324995474052			-52.4034269551015	142.321555253824	-14.6738772890777	-39.9514157995926
179750000	-26.4472275074462	-134.388353624445	7.44856489748668	97.1966504841255			-55.7540757779698	152.035281510939	-14.5301837173721	-42.7966925249453
180437500	-26.2969596687145	-135.141104023759	7.52868133844026	95.3367911378565			-50.3103966733413	158.127056454939	-14.4828738824898	-46.089510168587
181125000	-26.3953419827151	-137.022905556771	7.5233860088357	93.3765401374797			-56.1043029101054	75.4341059406294	-14.4480052797346	-48.3851358595671
181812500	-26.4542458731252	-135.885551712585	7.55536873242672	91.444180240234			-54.0371600213785	171.673047766177	-14.4982107348424	-51.5658466911752
182500000	-26.3579165465252	-138.695320915412	7.57769483229333	89.0799216236655			-54.7211149825625	101.933803536837	-14.3636082046749	-54.5201743378896
183187500	-26.575998378288	-138.236044824501	7.6227552243611	87.1714294902055			-54.2549367875596	158.343746744707	-14.332569352722	-57.492649481605
183875000	-26.6388819989545	-139.05269194258	7.61471543518113	85.0863508539554			-52.201620473137	74.2284943017324	-14.3026273548055	-59.2079817323756
184562500	-26.3474443900869	-140.443340129656	7.62542409930584	83.1547747838241			-57.779830982579	112.688109104403	-14.1801474909012	-62.6674276089375
185250000	-26.6992714368131	-141.532701414005	7.65923128939925	80.9833294640299			-52.6153181797176	108.781224972497	-14.1663855683637	-65.7571875523841
185937500	-26.7113087441972	-142.56851186398	7.66107186392412	78.7423257264249			-58.170592069274	127.943915759562	-14.0844783268151	-68.1780094852409
186625000	-26.5759550479485	-144.010974503615	7.6746199754225	76.5318586795258			-50.4031148640607	91.8422315837772	-14.1404513050703	-70.0453165630483
187312500	-26.3623182521421	-144.95581882891	7.67273842784941	74.6031269360736			-58.5591469461143	158.315195074358	-13.9246025599409	-73.1347392146696
188000000	-26.5586922882997	-145.496609702225	7.67327660325894	72.5486502686473			-54.427832800421	105.578687258457	-13.9761885911578	-75.3096914898642
