# Hz S DB R 50
100000000	-26.3331386150108	10.6665254386281	-29.1237228075567	7.88792987067219			-53.2071323136014	-3.18187198436295	-3.57874341789591	81.1367783884605
100687500	-26.7032657523604	11.5581523465612	-28.621570127814	7.40589228802845			-57.9883700978973	-135.923271051978	-3.54620264244245	78.8499582000646
101375000	-26.388482631332	8.84965646557527	-27.8161961610423	4.28114652407052			-57.2208085130913	-41.7978853317998	-3.533381458934	75.5651528383181
102062500	-26.8118871657056	11.0398896083422	-27.8101991444235	4.07053829960683			-63.9265523803181	77.9892680578897	-3.57086115019198	73.0224967305156
102750000	-26.5443607631043	5.93612037941112	-27.3706674827507	0.222788345000882			-62.9877471364143	-52.826697881984	-3.55792857472131	70.1616130988409
103437500	-27.1457694217624	6.87666913514679	-27.1615961665298	-1.98522349792663			-67.9422212717698	112.160578039238	-3.5534041454881	67.4134328409926
104125000	-26.4791064865849	5.54782786507009	-26.497030638695	-3.8419348941529			-70.6139272867305	29.4499713300569	-3.55631116498546	64.4062060688429
104812500	-27.2834182268352	3.87383592425845	-26.5925399489719	-7.59595782346654			-65.5921672076795	-165.55065471523	-3.61691142066653	61.7191213881588
105500000	-26.849814536318	0.908531884395433	-25.7095010325072	-9.22949724064815			-67.8358019747121	15.8826790487849	-3.58507232403944	58.6902334009913
106187500	-27.4028751136139	1.94948624745088	-25.6923223607839	-10.8512417304921			-73.8961995225667	14.9253541367297	-3.64213664523363	55.859574661548
106875000	-27.1566158404518	7.76082640808338E-02	-25.2857888204819	-14.0011278986957			-62.1562138115666	-20.2597327578562	-3.63746780236221	52.7968158008145
107562500	-27.4998579272246	-1.81203506566935	-25.4090508017799	-17.8015802114312			-56.4295155979531	-97.4008330470484	-3.67775019919786	49.5230292298428
108250000	-26.7648929277925	-4.24289602291247	-25.0448650668772	-19.7729732720108			-65.1747976623811	18.6867398795997	-3.71458661104302	46.8528754628947
108937500	-27.516769478017	-6.67994414967568	-24.9905291406418	-22.6229627096471			-57.6152111529938	-152.900075853991	-3.73728511499597	43.8377347235045
109625000	-27.1606029287679	-3.98390166509333	-24.6814664114889	-24.9709184670109			-63.6107308113531	123.39263641058	-3.75470991429431	40.8533028918604
110312500	-27.4892048666085	-7.68742565460788	-24.7085846087628	-28.3587429015444			-57.1627087296565	135.807159414477	-3.85287366543622	37.6925676948647
111000000	-27.1341716658374	-8.72684433267291	-24.5362635937515	-30.0463374167867			-52.9580614453825	132.110164744566	-3.88727575301437	34.1199594606178
111687500	-27.118433804883	-13.6434453608176	-24.4434589418623	-33.2756705214328			-54.62552304851	-130.13607143321	-3.93263793785404	30.9185706713956
112375000	-27.3523577571403	-10.3423366032303	-24.4098060153143	-33.6558596990239			-58.7686703239303	110.116602097733	-3.97578876192097	27.8302658899466
113062500	-27.4068299895269	-16.5737269463435	-24.614812385118	-38.0650808762255			-59.7722147141259	-92.3256052004603	-3.98882757510474	24.4029996892785
113750000	-27.3520011415625	-14.2715947370198	-24.6688223702429	-38.18700597686			-60.128088577726	116.892653278154	-4.07714793297109	21.4624991931492
114437500	-27.3735901922301	-20.5495708262479	-24.6917684120967	-41.2653541730725			-67.8290999586019	50.8339461104261	-4.09969437241174	17.6759682585227
115125000	-27.4271580679312	-17.0158575477216	-25.147326309496	-41.9202583040961			-61.9223265559888	62.7938805637632	-4.1998143803848	13.8795302438908
115812500	-27.1677526364614	-21.5076569648543	-25.126427224835	-44.159490710371			-61.7243714455319	-52.2161865026322	-4.23005198604327	10.33741931699
116500000	-27.7193915130812	-21.3277231974002	-25.6439835691119	-44.5500259021228			-63.1915046094763	-162.574906841853	-4.30996218297167	6.53442191725396
117187500	-26.9690487608537	-24.3081234925463	-25.7220411635894	-43.1620148335975			-56.1148947048969	-88.6433921053631	-4.34039893449475	2.9308284504926
117875000	-27.4682910076982	-23.2512209308039	-26.4250053314068	-42.6559932505442			-59.3432163573478	118.589442291532	-4.38982761999564	-1.10282283969889
118562500	-26.7616024361682	-25.7039739192809	-26.3490754209634	-41.8231361376865			-63.1704406311543	-55.8344477533408	-4.44901492877534	-5.01391455953394
119250000	-27.1264648536266	-27.4657479704491	-26.9498996375084	-37.5068220387392			-60.5134091128932	145.338160733772	-4.5386085571067	-9.2612058148982
119937500	-26.8815256156995	-29.6890314390845	-27.1329402588596	-32.4338464393439			-67.9384693300361	31.0330640988682	-4.59387560470197	-13.7050234930326
120625000	-27.375889091449	-32.1910221434971	-27.3074624793136	-25.3704957969802			-65.1162046560039	149.038885162227	-4.70019965007455	-18.0976903460048
121312500	-26.8595819686665	-33.0236351272796	-26.75983569893	-16.9625555598634			-54.6204096948541	-19.4063844264311	-4.81754484143038	-22.6759391685571
122000000	-27.2685229353262	-35.3271533373204	-26.1093931319127	-11.2644894893212			-66.0473838417529	142.920641041868	-4.93765060460926	-27.4935300814533
122687500	-26.731857831741	-33.5268355748806	-24.8598952499395	-4.54848926653318			-59.8438886233958	75.297565755385	-5.0895716968554	-32.1895824837881
123375000	-26.7428829067666	-38.4743747482707	-23.5583214516565	-0.464089185113299			-59.3809105215488	-109.035983944483	-5.25327036520384	-37.4821464258513
124062500	-26.6271293614701	-36.9429133744032	-22.181107646882	1.84252336116137			-66.3393503275623	97.7008418817574	-5.42428802891631	-42.2488997920667
124750000	-26.8227223801519	-40.1671149852494	-20.7005560990168	0.601166674717087			-63.0126729342415	-44.3841456109513	-5.62218801168085	-47.9975131413356
125437500	-26.2987162934539	-38.1849676129731	-19.3674744838082	0.23189757827671			-63.2452925400443	65.6913981121713	-5.90998106390792	-53.3267212372959
126125000	-26.6400593474175	-43.7908602543333	-18.0737913504268	-4.00610673537591			-66.8441412872055	-133.611633539487	-6.22851619782629	-58.6894216232551
126812500	-26.3899174895555	-39.7855395793259	-16.957968338117	-6.28490176798402			-66.1845499768678	165.005055485954	-6.58648226005442	-64.0902160883891
127500000	-26.2187014381804	-44.0892519029837	-15.811111047544	-10.8602831699211			-57.4510069429456	-76.459453676313	-6.89047579589157	-69.2464366097326
128187500	-26.4251693272913	-43.7959440656737	-14.9648645134496	-14.8831098041633			-56.5121628472429	76.1730064926224	-7.35320865727575	-74.5979210085419
128875000	-26.1272370096913	-45.3637807230745	-14.0665274896803	-20.511974417625			-63.4650840414294	-45.4748765478995	-7.80201870683998	-80.0304886764961
129562500	-26.4459124071513	-45.97662975425	-13.370026552064	-25.3612350848152			-58.1655397651527	153.158106421692	-8.28855621695479	-85.4686047400981
130250000	-25.7258450686825	-48.933135997724	-12.6167432472862	-31.0142550714817			-56.6695990665478	-34.2504874684292	-8.87286554966844	-90.3251734452696
130937500	-26.2677909262184	-46.7920031689572	-12.1640982421592	-35.9892497563684			-58.6574437185443	179.616922075209	-9.32776830047592	-95.308603087355
131625000	-25.7642571411632	-49.2592146911839	-11.5799178060338	-41.3907423391359			-60.2751557278871	-42.6678421640317	-9.90504688454475	-100.100886025847
132312500	-26.2861927348211	-50.0481028822966	-11.2530428628028	-46.4063551282842			-58.1187348114073	74.7550141250169	-10.4316101324786	-104.601258203614
133000000	-25.7607447983527	-50.9230276704045	-10.8209566489107	-51.6451450611687			-68.3702156952044	54.5694686271405	-11.0803259961169	-109.127623557632
133687500	-25.7783987692558	-53.818157273677	-10.6103052111001	-56.542199193801			-57.2010112313896	151.70635736549	-11.6029407325729	-113.507730792004
134375000	-25.8703427330896	-51.3540974511541	-10.1939251910233	-61.2641614720264			-63.1909566938469	-17.7414185670123	-12.2409942819972	-118.431946828106
135062500	-25.8753996319667	-57.3037146535766	-10.0117797553189	-65.9142749985224			-58.7361314110654	-147.237083332938	-12.8229465439655	-122.186015462087
135750000	-25.3294831297736	-51.5289040114917	-9.73952867484281	-70.1718783868615			-56.3886569377436	-26.3212221414025	-13.429074820851	-126.500086420889
136437500	-25.6370185364609	-59.0885046974913	-9.6033476196068	-75.069360772646			-54.1582872627508	-117.350897063054	-14.0115280607669	-130.998088874318
137125000	-25.4421338106721	-54.7503958113011	-9.32663973045283	-78.8314604553408			-57.5997020205991	40.1758971870706	-14.7022648743905	-134.88934040077
137812500	-25.598105681003	-58.5288755619566	-9.25020077938931	-83.0841007015445			-58.6995402426111	155.107189065088	-15.2200314757138	-139.442722699187
138500000	-25.5914433754607	-59.4750023307378	-9.0317361892563	-86.8562806643875			-63.3227400358986	130.312856707328	-15.7972822821701	-145.557789083409
139187500	-25.5744527019766	-61.6661789318294	-8.91778991690674	-91.1979166557711			-55.643161946103	-116.034892639738	-16.4325156878661	-150.034869805301
139875000	-25.8003005473066	-60.7108618001121	-8.81309733315784	-94.5344048505486			-61.1087721002853	-23.7797747344007	-16.925565113541	-154.14530030278
140562500	-25.6768021807605	-61.8977748437584	-8.68643874392152	-98.4912118231343			-53.0210465205803	-110.377868673629	-17.5536514191273	-159.547033114975
141250000	-25.8705649568807	-62.7861700029192	-8.53997753516307	-102.244618990946			-58.1350612960351	-29.2618935743667	-17.8838916869377	-165.844998972826
141937500	-25.6550524592663	-66.6209941627183	-8.48201016797565	-105.569585771006			-57.1789678434531	-128.274051348251	-18.6809553450729	-171.310545684779
142625000	-26.0697424330628	-62.9119916961165	-8.39010806306197	-109.388466525783			-67.4702405136696	174.045697746441	-18.8279887985149	-177.631130457473
143312500	-25.6886992942901	-68.0085514230956	-8.30162199410982	-112.757373427379			-54.9921736833534	-105.390755791615	-19.3596980365402	175.686929448712
144000000	-26.0260853856039	-65.4743137047535	-8.2147536284402	-116.122144727056			-64.652541607424	168.876377003064	-19.6031999544283	170.004922122
144687500	-25.6720582453582	-68.7900148244846	-8.22932156100821	-119.587132825146			-58.6956306820141	-80.2653557422162	-20.0336273947397	163.53198013923
145375000	-26.4089843862175	-70.5163212202712	-8.10649050499129	-123.126534583665			-55.0080057782464	-175.814716157321	-20.0688657121372	155.570833336627
146062500	-25.7504247062317	-69.0238329574159	-8.08142062016309	-125.965799094139			-57.7947227228362	-56.4672384092219	-20.4860064045225	147.754276161073
146750000	-26.2353753521271	-71.6086361456855	-8.01270235402716	-129.292723800927			-65.5218229931822	-136.777451000262	-20.3750172181088	142.322434730354
147437500	-25.7188861308849	-72.4959042741165	-7.95563052357307	-132.395507194425			-60.2444411358101	9.20481151859849	-20.4935466138039	133.7976825524
148125000	-26.1349731218626	-76.0661873681952	-7.91951065832649	-135.729015505938			-65.8872395546797	-135.76879681958	-20.4255599529832	128.729207856187
148812500	-26.4986204837155	-74.6725959223295	-7.92169406061528	-138.66388642819			-61.2654665352978	-30.8651244024039	-20.2015387545421	121.482252880308
149500000	-26.5385991422978	-79.1704784385036	-7.82405200069335	-141.555026092031			-58.7565707721934	-120.27892221092	-20.2227240950474	115.679728044454
150187500	-26.3858682546498	-75.6120084373856	-7.86543371408334	-144.319673402522			-64.4658391602662	39.9391262332407	-19.9665677572568	109.532538353988
150875000	-26.4838954645837	-79.9487935274078	-7.79111091317315	-147.509582335094			-59.6519750526993	165.482572030979	-19.8979879071942	104.845197751543
151562500	-26.4360354393097	-79.3292803071266	-7.89605537221679	-150.057991267986			-57.0427289858733	35.9187857398067	-19.5656147667378	98.8422465636698
152250000	-26.6607542213279	-85.0661866180885	-7.79059266680093	-153.084920213633			-62.7101790398088	-99.622165282603	-19.5769281885395	93.8301751276153
152937500	-26.8635159952155	-82.783616125477	-7.82014046913838	-155.389617581218			-74.4339615775456	66.4905370818541	-19.1284985071783	89.6965904332313
153625000	-26.831438285095	-88.8102520421384	-7.7535986282453	-158.210846934033			-63.2191250878061	-109.347966825814	-19.087652389184	85.1931140820974
154312500	-26.9607241362517	-86.7351222693463	-7.79890796392035	-161.021252077284			-64.8854174691139	151.821111831924	-18.7039376717873	81.0817130646536
155000000	-26.2968358975666	-91.156521723972	-7.74483167057333	-163.575412708778			-53.6649078364666	-105.059863874409	-18.6406068794175	77.0513973142699
155687500	-26.9352828667015	-91.0746850361934	-7.77652063315283	-165.850599970426			-67.5244110684792	-168.161158559912	-18.2769745733428	72.4109681546266
156375000	-26.6428460837183	-95.2731057633328	-7.67596203046745	-168.486099404145			-58.9839696203062	-104.070258187993	-18.2359155250424	68.7889374861942
157062500	-27.2308514670317	-96.0626016475833	-7.75543099859384	-170.976731643429			-55.2386467743423	126.082253455937	-18.0927286200167	65.7927788624545
157750000	-26.3485326529145	-97.2976139184036	-7.63366451156493	-173.139528115897			-51.6863101327546	-60.8779726257101	-17.7928568471839	61.8269422395354
158437500	-26.8759681453588	-99.9859100567378	-7.75427770074127	-175.539768922217			-54.4433731451142	149.342131980815	-17.6180047953781	59.3007888750483
159125000	-26.1393227917263	-100.921445376209	-7.62565144434695	-178.132153779429			-54.9597682082085	-122.681559948368	-17.4343662168928	53.8708548330872
159812500	-26.8308999055486	-102.437430238265	-7.63553352819597	179.382319343977			-56.0107708131738	151.907873629789	-17.3627974929707	52.3715331630493
160500000	-26.1305048790355	-101.559857111385	-7.59601213230667	177.011102372233			-61.7583533880117	168.963687976845	-17.1129161920343	49.2457777157314
161187500	-26.4109916521204	-105.520879832656	-7.64779250233561	174.761703097725			-58.1493454807295	144.284441639188	-16.996211172475	46.017985575238
161875000	-26.1879684299606	-104.792844176194	-7.55970956950689	172.482067537259			-54.0252189498789	-47.7231085507994	-16.7817258130957	42.7093666395885
162562500	-26.261021255138	-109.776221591324	-7.56862660571218	169.912753318076			-55.073572614543	152.495107999214	-16.8519236553982	39.9150106558795
163250000	-26.209684790761	-108.576875852526	-7.55547328548181	167.657272744158			-57.999047860974	82.9163235791013	-16.5268445351989	37.4225477376066
163937500	-26.0919918449078	-114.117608900192	-7.54080289794104	165.501889135628			-52.040276863824	-174.963443022385	-16.5636848066119	34.6803902339136
164625000	-25.7599413788286	-107.236941664809	-7.55174055642572	162.942506026624			-65.9690284325112	-19.7933712755082	-16.442880485973	31.0687130332419
165312500	-25.9154501788101	-116.653728487451	-7.54430813254687	160.791520746202			-55.8495167306434	-150.372204924752	-16.4162127599658	28.5878463921539
166000000	-25.8599967512192	-109.84767946	-7.54798683659271	158.244154927873			-52.5069062880884	24.929089736952	-16.1526437045259	25.1120308797574
166687500	-25.4872592470689	-115.33419101407	-7.53608018963866	156.348395644225			-59.0125283523115	-87.3643967775119	-16.2212812865601	22.7359589469385
167375000	-25.5632279751585	-113.078297934354	-7.50321687233389	153.966558332088			-59.3085585038736	52.3010138047906	-15.9808047303978	21.0971261840993
168062500	-25.2730311396682	-116.062564496787	-7.53415184455645	151.910776091167			-59.1760626543051	124.264027949013	-15.9048744119175	17.1377670412525
168750000	-25.3901703516156	-116.034065072614	-7.50065140774106	149.542633266865			-59.0423679826848	82.5258464216425	-15.8301351843295	14.7371687422065
169437500	-24.9304163696427	-118.376730694285	-7.53225590803846	147.687008843632			-60.3951781053907	-78.4110711193063	-15.7040448471774	10.944102480361
170125000	-25.2319066321208	-114.799002029011	-7.48627618452851	145.01183149899			-59.3715907109349	68.5393307197865	-15.7108024832615	8.89120744979965
170812500	-24.7128100527917	-116.568866647138	-7.54964273297647	143.300676651448			-62.488371305456	-127.536874228856	-15.579254855343	6.09915112660814
171500000	-25.1610219835303	-118.353435595813	-7.47374212232343	141.135239963059			-52.670359041938	94.2115705495767	-15.5477355058658	3.68672267106035
172187500	-24.5589305986551	-117.605658797777	-7.58818449906261	139.026801100908			-60.662551274967	-74.2583512437058	-15.5268382115842	-0.898210314647066
172875000	-25.13167670845	-118.905613276056	-7.49083344792636	137.199896752771			-62.269873497163	115.812012582716	-15.4306561605217	-3.26493486445251
173562500	-24.5187417674973	-118.623757324306	-7.57679646645003	134.764312720012			-59.7651207206352	-98.6391828609955	-15.2954584507332	-6.25314618533835
174250000	-24.6364444392678	-119.170410382373	-7.51949474798452	133.119089036116			-55.9940005833203	127.652422523657	-15.3818289733014	-9.88588359809456
174937500	-24.3500091394031	-117.062589089014	-7.55412029746273	131.323433890727			-62.0638818811405	7.29919127459779	-15.2620427716288	-11.9963875744844
175625000	-24.1992751999956	-120.665157671731	-7.46540998585995	129.220101239682			-59.024760983768	99.2669006806531	-15.2417246097208	-15.7234716996217
176312500	-24.4509753392584	-119.159491060288	-7.54262637747534	127.346081981249			-61.1819927525868	19.6682161867557	-15.0280853495697	-18.1460876026569
177000000	-24.5302986329421	-121.214027060988	-7.48726324696068	125.634019188836			-53.9731234181786	124.122258282887	-15.1204966308903	-21.5425623935679
177687500	-24.5514560752069	-119.123953735272	-7.53611609691593	123.428097796427			-61.8538469026264	-154.658962605434	-15.0612148148035	-24.0524559041473
178375000	-24.268930769214	-121.428359179947	-7.42594033457841	121.521166072574			-60.9826418935991	159.179540405564	-15.0556735304847	-27.1529026871255
179062500	-24.2358844044092	-120.123058405779	-7.46989302954854	119.539366737021			-73.393482447557	-85.4835330893525	-14.9398510916065	-29.7393657272456
179750000	-24.2400787614437	-122.873006632424	-7.41888328609397	117.943286735479			-56.7087912183933	116.951325383177	-14.9244289699553	-33.4344561645895
180437500	-24.2284948415278	-120.125085101018	-7.38789618763216	115.840985549404			-56.8446193788718	-19.4149972067186	-14.8009448196538	-36.0744865669195
181125000	-24.1696318605072	-122.634675197891	-7.32010242183054	113.79775172653			-62.5953141604761	157.376928529845	-14.7464193410919	-39.3394337403866
181812500	-24.3822550849458	-120.969556096098	-7.36540614727805	112.009360011157			-66.3976587723132	33.5576190354248	-14.7024089712936	-41.6107847327163
182500000	-23.8386410558511	-124.764348840912	-7.26384626883691	109.927659214902			-61.8409268412845	-169.819756580402	-14.5945120001891	-44.8441978341004
183187500	-24.4710697112686	-122.84259151845	-7.30224036222962	107.590826672758			-63.3521093047687	153.053505471839	-14.5750710398557	-47.5707885021917
183875000	-24.3182023430135	-125.541814951577	-7.22527545672344	105.904376027571			-63.7487963339088	121.945405895709	-14.4509332981728	-50.0611477482898
184562500	-24.3742316371459	-125.347461435189	-7.22881993540992	103.957202974127			-65.0902357529468	105.169448970087	-14.4452459085516	-53.4761002444682
185250000	-24.2687640375102	-127.89862212409	-7.15114641791236	101.849956288493			-66.5673209541722	105.692248272995	-14.364195837104	-56.0412159957904
185937500	-24.7649547147817	-128.547139664267	-7.20988140003824	99.6746996441352			-59.9887633694109	93.6716803458653	-14.368035937615	-58.6178030771865
186625000	-24.2909122154704	-130.631814238415	-7.1628097992263	97.7372487192745			-54.3706276476196	-116.397271476023	-14.2671660567741	-60.2760003992683
187312500	-24.5022302385482	-132.657702143368	-7.16623121616559	95.6152165830913			-64.9424912637823	20.799653427446	-14.1741512799412	-63.2354530679029
188000000	-24.4446352992565	-131.565840813583	-7.17992293143465	93.6143228419201			-63.4279362194528	-69.6976753533393	-14.0786088715811	-65.1133930928142
