# Hz S DB R 50
100000000	-30.0571685083338	1.08051982609416	-21.3759179164527	-1.37924096712527			-66.0668082329335	-155.68771344054	-3.573098654058	81.3130411116163
100687500	-30.2165683766391	4.10102892492561	-20.7645466302378	-2.84590097726486			-73.6153671077657	115.853251018042	-3.52360600231745	78.8993853542375
101375000	-30.2691266377482	-4.34758878412959	-20.3993946566887	-5.60097743957842			-59.8361929699694	166.886939632302	-3.57804265302736	75.832276452641
102062500	-30.4537179592079	0.640856270425879	-19.9802818813606	-5.93802666531903			-59.6416519349166	61.4681577969449	-3.55531792490611	73.2112075718626
102750000	-29.9512316220434	-5.22311132655002	-19.6452252664687	-9.58156525935015			-59.2088960674608	35.4658207727726	-3.58478894725716	70.2513175206467
103437500	-30.8422269214014	-4.27255921019824	-19.2448900566474	-11.3936514254833			-56.4837118100548	28.763236486108	-3.54935086640279	67.5474142673206
104125000	-30.5733278316049	-7.55274843552389	-18.9075998428319	-14.2069248800381			-63.4136416329571	153.729170075037	-3.61564738356243	64.3167931546999
104812500	-30.9193363084033	-8.58259386703118	-18.6803818829976	-16.4887580259267			-54.9722647230604	113.638492023407	-3.62314883583249	61.7327226355777
105500000	-30.6445868841173	-10.5489534201396	-18.2656878381209	-19.7182692517148			-66.2411983080787	10.9856746388945	-3.62832913336742	58.7645809720758
106187500	-31.6453289533515	-12.2268730304009	-18.0667719826181	-21.3887432037825			-60.9283794290779	87.9054336305438	-3.63297110805459	55.9462891507294
106875000	-30.7633954995546	-13.7302632371447	-17.7519552963324	-24.9816068821558			-59.1194268406012	-21.1923036886054	-3.67360271009888	52.7234518412582
107562500	-30.79877572516	-11.8275655442188	-17.6340590540505	-27.1087435867938			-62.9785510547552	126.922411001505	-3.67830633013616	49.8157966328317
108250000	-30.256434876862	-17.3929886516189	-17.2833299202402	-30.3687734090247			-57.7376385200787	-78.0088371234035	-3.72964937521719	46.4561200656148
108937500	-30.8003412125588	-17.3419679823052	-17.2170460648739	-32.3945438938118			-70.8037012472233	65.688259970644	-3.74275415920873	43.6500894918403
109625000	-30.5144860568138	-16.2216735870736	-17.0067551633088	-35.3650866379431			-58.2142248714502	42.4419879661946	-3.81033684200504	40.544050711088
110312500	-31.1065486048267	-19.7403644943847	-17.0308443617529	-37.6195794315316			-56.4227258667709	-162.085517490235	-3.84119519462818	37.4880116796007
111000000	-30.4611853142984	-21.9642329348639	-16.8117531706006	-40.5153273305171			-54.0930692887019	3.44874185220363	-3.92122039764863	34.0285792153727
111687500	-31.1780560036583	-25.2405644649514	-16.935116373476	-42.6111727050286			-66.5416887437402	-108.25266771614	-3.89460737597838	30.900844874558
112375000	-30.202592422474	-19.410730971004	-16.807869091833	-45.2367726475503			-64.650592797064	88.5605595724665	-3.98997912277593	27.4246476770764
113062500	-31.1773194212897	-28.0063776939735	-17.0251974437946	-47.9418053870305			-57.3177156283303	-178.78352775668	-4.0103568205524	24.471790445913
113750000	-30.5507940952043	-24.8376781414844	-17.0165483794005	-49.6125462606603			-71.1424348273394	-4.3957467251184	-4.08489400352701	20.8436179198342
114437500	-30.9680470201355	-32.1695749934211	-17.2108643153706	-52.1242531596815			-55.1159060746429	-151.339871159623	-4.10906816203304	17.5314577505032
115125000	-30.78791638289	-28.4030343142917	-17.3745320905508	-53.2717425191706			-61.7476995704997	86.4446911286517	-4.1781778318718	13.6750044463088
115812500	-30.7360547731279	-31.6882747881034	-17.6264706069308	-55.0314940093075			-57.2875012154546	-179.821164596206	-4.23354192016229	9.96601861039196
116500000	-30.7631288285634	-34.1446250145737	-17.9173213304002	-55.0957559143448			-60.2590469948752	43.8342871175428	-4.25015664518008	6.01745353610874
117187500	-30.8205400255568	-37.3468955744037	-18.28016150808	-55.8150842871452			-58.6281276877695	-113.408433355578	-4.34289481004106	2.64910927546872
117875000	-30.9897128678165	-35.1297274977119	-18.7163971642488	-55.4273485671597			-70.0084514358952	96.4733101147659	-4.38695613347628	-1.44322071054985
118562500	-30.0064384881025	-38.8906537742333	-19.0888727472109	-52.7925088840269			-56.3422612125054	-101.397292423528	-4.43076359412728	-5.37857451218356
119250000	-30.7236556623341	-38.9341101827886	-19.6065506198785	-49.4209173190388			-60.835980609888	43.4218814338291	-4.53649507906644	-9.66930963333027
119937500	-30.1710568048922	-42.3712114286783	-19.8292602966696	-44.4439390631786			-77.4287416474401	-130.075394713334	-4.585947337459	-14.2470888135862
120625000	-31.0359706374623	-44.5058778794476	-19.910834107953	-37.3080692535397			-62.1622129125125	116.626194461154	-4.66129491150291	-18.5866596437717
121312500	-30.0311025663524	-47.2747593048781	-19.5541273406143	-29.8595981436659			-57.464589649268	3.44241889033178	-4.76282005352443	-23.2927883207058
122000000	-30.6521503977651	-50.838729466683	-18.8412397285765	-21.0330475432846			-58.2508736755673	100.881146940941	-4.87823739089368	-28.0057266641886
122687500	-30.2095399612218	-48.7144370646797	-17.6510847879704	-15.7423117295406			-57.8354761476504	-142.818789123094	-5.03060240501176	-32.9028941876727
123375000	-30.3825976254576	-54.7329406045976	-16.3056543640554	-11.4554886958154			-65.1423123524612	168.305749271991	-5.18650380355113	-38.1543675562247
124062500	-29.4880018842684	-51.8466323723795	-14.8403541309438	-9.31982201816934			-54.0333491762356	0.210170504285197	-5.3796733299035	-42.9489836542544
124750000	-30.2238750776599	-56.5544613541205	-13.3930538375652	-9.25141267518135			-67.0332031975226	-93.8464804180004	-5.57118924466648	-48.5646771043634
125437500	-29.6745076426559	-53.6929785502892	-11.9667844206061	-10.9208435184839			-54.5192442132939	-13.3021035938265	-5.81989003163471	-54.0676377432234
126125000	-29.7972489912998	-59.5385736906352	-10.7577323692227	-13.9144922382734			-55.5068756343005	-174.509717464568	-6.15241473119878	-59.6184081073942
126812500	-29.3237919591187	-56.8525200097394	-9.56936987546892	-17.1915399852204			-55.1876222148846	-16.6968524399119	-6.43059864800498	-64.7942340576314
127500000	-29.5797645827472	-60.7424216089006	-8.54459495997017	-21.679636136514			-59.8540132535419	-154.810491293875	-6.8097590835829	-70.4588816542941
128187500	-29.3385398863407	-57.9004817099091	-7.61021156036777	-26.0218280756662			-71.6296840377908	95.8182178559457	-7.2023183383297	-75.6137152512644
128875000	-29.235169728964	-61.5414713995909	-6.76667661043587	-31.3237458210605			-70.3536550260817	141.506508699613	-7.64979535809835	-81.6070825006549
129562500	-29.1370414839216	-61.9286396245569	-6.04834460111376	-36.1474528224528			-59.2897195269782	36.9775502239216	-8.08484252221131	-86.5248829205111
130250000	-28.5638665632869	-64.0793063989587	-5.36073755753121	-41.6850278140988			-54.4068155423192	-84.9709671573105	-8.62261312035051	-92.1161312388599
130937500	-28.7078324464202	-63.2396339377813	-4.81676739611727	-46.5749770613441			-59.0391175724292	-45.8623406389031	-9.06668070194532	-96.7204887871193
131625000	-28.4029959392926	-66.7251172304952	-4.34518568885633	-52.1766824551769			-60.7646865926597	-128.682481088996	-9.67493513830078	-101.933915528774
132312500	-28.7645918971247	-65.9705891967289	-3.93076975761857	-56.9387179130334			-65.8963670919661	-3.76860899960504	-10.1754261972995	-106.556708459769
133000000	-28.589333443016	-67.7317701782063	-3.53629641296366	-62.4561078006585			-55.4434938824234	-123.645599819709	-10.809075816866	-111.819899436617
133687500	-28.433891349697	-68.3919362300939	-3.23456982924646	-67.08160342313			-85.9373313584259	-44.0368770718365	-11.3625901404509	-116.007812885935
134375000	-28.3736469044222	-69.8726042775771	-2.91909289492809	-71.8548848235094			-61.0391655232216	-18.6091654327208	-11.9415401038849	-121.256692881512
135062500	-28.3990977208793	-71.0860929754835	-2.68832414282259	-76.1336708716407			-62.462072321045	168.794051127177	-12.5460478346518	-125.471601821983
135750000	-28.0379853223812	-67.5490478871617	-2.43414569717435	-81.1307755595854			-56.5201545529633	-29.6195118657798	-13.1512416712134	-129.785959407451
136437500	-28.5497798957559	-70.4857663111578	-2.29845819781143	-85.465961101883			-57.6469143409229	-142.972995247329	-13.7259834873779	-134.475427144844
137125000	-27.9116184059141	-69.920254160015	-2.05583282822007	-89.4761588678567			-58.6606570515623	-68.0404330953436	-14.3766398423273	-138.875103617988
137812500	-28.2768811473851	-74.8113518067717	-1.92829836361257	-93.6171728423986			-70.878093671555	127.158078548073	-14.8947205917435	-143.553608025948
138500000	-27.9473741707097	-73.1204260850072	-1.72576049554787	-97.5971356826042			-61.8926400387801	-15.3077368589818	-15.4069170586386	-150.251114167836
139187500	-27.9635440252177	-76.4434731465973	-1.63281961119094	-101.598757622613			-72.1985918479279	-83.6871639978091	-16.0863104583076	-154.16857178775
139875000	-28.4110674847539	-74.20168962423	-1.46489131950468	-105.449693604958			-56.8465098185203	-69.8688208066006	-16.5121791996187	-159.777486824959
140562500	-28.4932371688564	-74.9030336332191	-1.3668609185794	-109.212997495678			-62.5819817106127	150.902011407599	-17.0632998046731	-165.565748510712
141250000	-28.1833637279956	-72.1796716832658	-1.24022135828074	-112.877425193387			-58.111691987293	-48.9295155393253	-17.5936375403511	-171.36482474249
141937500	-28.5428084526977	-77.6340456950003	-1.19116346610869	-116.606749348513			-54.7619795771283	-172.083664189304	-17.9989446914433	-176.930098307035
142625000	-28.6535305988657	-73.1815372964614	-1.06036140194754	-120.329646962406			-55.7698068704462	-40.4058769097392	-18.491327569889	176.716922840029
143312500	-28.2708769626999	-81.5131451998349	-0.981387349818924	-123.728930011876			-54.2393604619318	-119.619815821186	-18.8688336224473	169.980956199208
144000000	-28.9626756520504	-76.1412668296898	-0.92333171169313	-126.79497723701			-68.1026292025592	92.1529920614687	-19.1841389117213	163.763128491723
144687500	-28.781108009752	-81.3575928601176	-0.857006953542003	-130.523842012103			-64.5052002559907	-119.602692763075	-19.3946468448612	156.659724398612
145375000	-29.1634158151938	-82.0539770887992	-0.803069517437997	-133.935779086979			-58.4056114322706	-42.2213152817941	-19.5452558993086	149.26390858462
146062500	-28.7393382295979	-82.4768815420868	-0.747170707326778	-137.144305395214			-54.7543688453803	-144.339247758208	-19.768889235138	142.633244844004
146750000	-29.4337198346414	-79.73073152542	-0.70002875389891	-140.302825628044			-59.9663629656349	73.9460847783132	-19.8622028261749	136.170795344973
147437500	-28.9403293636632	-84.7448174145848	-0.66545774348295	-143.481500210938			-66.7454922392917	-132.66350715998	-19.7801845955934	129.073275568461
148125000	-29.7080562269446	-88.0460591947463	-0.643824395384321	-146.903336120245			-60.483401669524	84.7800653265025	-19.78497535267	123.838016079802
148812500	-29.150588726132	-87.1300944335573	-0.579026484252978	-149.66539219584			-52.4710911021138	-101.366820077756	-19.7719485004877	117.843669942788
149500000	-29.9176742035584	-88.5364532981121	-0.54311821806686	-152.821999051978			-56.1678178576057	-105.047627859413	-19.5863837704461	110.927502910219
150187500	-29.607359365699	-90.8640800691752	-0.548739215894398	-155.461661606687			-55.4090932648523	-79.8557447234181	-19.3958596229706	105.586888826878
150875000	-30.0198412610754	-95.0904771621289	-0.527216280926166	-158.816681079464			-58.9248972316798	-136.381011706315	-19.3070516466682	100.023991518087
151562500	-29.6372910476932	-97.8789967868877	-0.532041954144193	-161.267951615049			-56.7985204609688	-75.7625643868416	-19.0408928935915	95.0287515470194
152250000	-30.1896124467696	-100.096555410735	-0.510015341874976	-164.314658360237			-68.0659772877004	160.258439543351	-18.9275988356782	90.5552705783254
152937500	-30.0879713169395	-98.1817366171562	-0.475922132083636	-166.73420326257			-73.587716075781	-22.2965496271323	-18.651890446362	85.9822622492716
153625000	-29.9795336868051	-107.905607088224	-0.503734879744225	-169.715524210102			-61.816555415464	121.407363708407	-18.5940718773772	81.8618670198463
154312500	-29.8878496287599	-103.364276270186	-0.483070438391492	-171.845418695206			-64.4761306835012	-137.456326586843	-18.30043394552	77.3147966709345
155000000	-29.6442848800745	-108.960625814273	-0.465843678564115	-175.037500765045			-56.6427606406673	177.844812133289	-18.086837950577	73.4030377561363
155687500	-30.1070678445058	-106.602503050563	-0.473641113876861	-177.004389547094			-67.3798424836736	2.59844645127468	-17.986803331906	69.7468632350879
156375000	-29.4820909739847	-113.612786897964	-0.431532050765179	-179.937099748574			-57.4820345674271	-146.979723674307	-17.916207490491	65.508993588306
157062500	-29.6825321532193	-111.5974977377	-0.446109805728705	177.802289423118			-54.1803636818087	-48.2462042774117	-17.6644669327982	62.507039643055
157750000	-29.0169837216982	-117.797526217847	-0.377344075229047	175.068285652991			-54.2668066101475	-148.681812928278	-17.4941377560968	59.440569335335
158437500	-29.5306894295795	-117.97060481377	-0.411155210581939	172.962942623172			-64.0388757448289	-78.1143723768615	-17.3527214325353	56.030689565779
159125000	-28.7847020531054	-118.993326644067	-0.341318184356147	170.254178178579			-58.9981999620343	-168.748245470939	-17.1540041097552	52.9223528148948
159812500	-29.7425902171746	-121.387701250059	-0.3414363826977	167.918624224286			-64.070034628448	24.0881231135717	-17.0404998029066	49.5545303825138
160500000	-28.2940473974194	-122.138641064952	-0.315023481086918	165.198134363584			-56.2904446975264	-134.376108434174	-16.8833715917717	46.8900666714513
161187500	-28.5042345773931	-119.505682306414	-0.364347309676773	163.333324684416			-58.7925614476281	35.2128365318142	-16.6895461725864	43.53310559625
161875000	-28.0561897824522	-122.056925046177	-0.276005429210155	160.592089288134			-61.5751334831314	-164.411442871483	-16.791207732269	41.1510097692014
162562500	-28.4163038793715	-123.936704830914	-0.306052995657019	158.385879889561			-65.5806686695214	150.156216800956	-16.6281636543463	37.1067275549312
163250000	-28.1067491448741	-122.895917620781	-0.303528907277465	155.753579176413			-59.5336600376861	-125.131180940294	-16.4841708260751	33.9225896400762
163937500	-28.1213118942797	-126.692814863209	-0.275803711541785	153.573425560126			-55.2292959448756	161.909404123591	-16.4495463846203	32.4815233489224
164625000	-27.8569938032275	-121.800245715542	-0.281841935976526	151.033048813826			-60.7774660537513	-115.360218107126	-16.4227430819994	28.7327897024672
165312500	-27.6531033773483	-128.351834326044	-0.292701800388676	148.818931941481			-58.6017994056823	86.4632312232266	-16.3009790566256	26.7028332987687
166000000	-27.6119168136608	-124.666495924034	-0.264976570026447	146.482378357585			-54.7550635530683	-53.4109563508588	-16.1541295826246	22.9979913237047
166687500	-27.3873552706679	-127.946249883275	-0.282043249818354	144.346700776919			-64.3449009125124	167.823612866806	-16.0054000302085	20.5735128622884
167375000	-27.3398035310975	-126.937989541622	-0.243564073134486	141.967353130781			-58.3438076594143	-65.8688779896785	-15.9503043360264	16.7372400636502
168062500	-27.0668276529129	-128.811917257365	-0.24177598241092	139.765469212841			-58.6888356284543	125.556364352588	-15.7833090011882	14.9756614787895
168750000	-26.924321319609	-126.242836987521	-0.238839892837765	137.563506313809			-66.9558022985927	119.829168803654	-15.8071508023752	11.2486101740059
169437500	-26.9025076064436	-130.964876656592	-0.290771631280126	135.350475171901			-53.3234821045767	144.302644727701	-15.6379123123809	8.77996046673515
170125000	-26.8804276032171	-126.641790223877	-0.260295836451545	133.112819871078			-75.0332806909085	-85.3075200845814	-15.7402252890655	5.19422378613376
170812500	-27.1330457175389	-128.571162686227	-0.294012476880286	131.114235553719			-53.7724586586978	-170.034482476144	-15.5405111961384	2.7830366244985
171500000	-27.2400247284208	-128.524860471502	-0.280728759612092	128.827121404369			-68.5098152974834	62.2927430594238	-15.6098100771518	-0.202765618276117
172187500	-26.354554069106	-130.399446169195	-0.309106986847255	126.80100245952			-61.3711816336337	159.725945387931	-15.4850468971721	-3.59783990678537
172875000	-27.2899598886726	-128.685009003378	-0.296454402214335	124.704854821185			-64.0650924971714	1.06114301441067	-15.4625439042774	-6.67006482420817
173562500	-26.3589660227223	-127.748791767375	-0.324245175795954	122.885254174625			-54.9956495004416	-156.001040860709	-15.4173547805344	-9.18358562452714
174250000	-26.8281453079827	-128.330305694364	-0.288579911958031	120.606204617967			-58.5103011233726	66.500451165528	-15.3041101425878	-12.5209581705079
174937500	-26.5424175852144	-125.851254662408	-0.300134311412791	118.94421940459			-60.2372082383817	-162.766327827601	-15.2177186076055	-15.3263508691208
175625000	-26.4675556678095	-128.343541659187	-0.307780843375488	116.662394098655			-69.8041246625203	75.8069104140461	-15.1550795213746	-18.3535948477954
176312500	-26.5510646078938	-129.450917522331	-0.311994694740396	114.951788673175			-54.3601540595601	160.531545534243	-15.0842508288399	-21.4477349889233
177000000	-26.6612435333045	-130.868422666285	-0.274072608608235	112.779772808521			-63.4568868296536	92.6768578585393	-15.0702230619737	-24.8003157690646
177687500	-26.7286189347202	-127.248021623764	-0.308272198432592	111.018982711752			-61.7743246537809	-128.097659807076	-15.0755873507305	-27.6428716800182
178375000	-26.4960514894329	-131.020024461774	-0.252905317052466	108.957937598543			-54.2612241520838	122.249466147843	-15.0816586964581	-30.6625810012798
179062500	-26.6039194711758	-129.192111331971	-0.215852066208181	107.019613690589			-60.4860043102022	-160.907719766326	-14.9898503983866	-32.8801675791039
179750000	-26.5672176374071	-132.591964645808	-0.220590340102851	105.131518369434			-55.818834937969	69.2402029834268	-14.8586918319843	-37.045239935312
180437500	-26.651700166408	-129.896546941428	-0.173298466366347	103.377558849759			-70.8214454970856	-58.7697811778158	-14.7172128055349	-39.5559647133397
181125000	-26.6873758394723	-133.126975669948	-0.153563143669152	100.971739496427			-53.263044181821	130.497794135574	-14.7085012101597	-42.3354429008554
181812500	-26.7940759604688	-131.945189963491	-0.162422242309123	99.3097168481477			-62.2580621852998	145.847397214068	-14.6871136888142	-44.5334042792688
182500000	-26.4959764583272	-136.617010237204	-9.37646477841854E-02	97.0345719167989			-58.2928827477217	142.817294042371	-14.6164826754918	-48.1074077077641
183187500	-26.9936604943077	-133.631655022362	-0.08950187759814	95.0776775668246			-71.590214156803	117.539717052843	-14.5345725405006	-50.6401892060272
183875000	-26.8986917551446	-138.437594447455	-2.83211499203772E-02	92.9060516533618			-59.4946884160203	133.042526542851	-14.5264697272588	-52.9336843778435
184562500	-27.0168089586625	-137.042176767794	-4.99096402540479E-02	91.1566326404932			-53.3517676789409	58.6058487973988	-14.491744189025	-56.0203478054801
185250000	-26.7809441627007	-139.136111453877	-2.25076193706494E-03	88.8818702181842			-60.6722973873795	134.120308513263	-14.346152366816	-58.9903586889711
185937500	-27.0759508301001	-141.390111913836	-0.040519665760727	86.8967675950894			-73.1562471754257	-164.654869102995	-14.3514984915867	-61.180472086348
186625000	-26.7862670046391	-142.147165865594	8.38648290418498E-03	84.6085094488507			-60.8473278175786	176.679869895379	-14.3487053427703	-63.8949125953547
187312500	-26.6822914926481	-144.470983922913	-2.03888207592892E-02	82.6184689311702			-59.4824907775406	50.8474790611315	-14.2342266177153	-66.0764972828746
