# Hz S DB R 50
100000000	-19.5622061753195	121.426318184383	0.609233301634821	-0.96381713042343			-74.1165715080184	-26.9513825550301	-3.583236276571	81.235939059759
100687500	-19.2904938745871	118.575591085915	1.03414941826165	-2.75670829115914			-53.8545220141621	10.8642731791682	-3.52410759373807	78.7962243499161
101375000	-19.3783678577794	115.440740541241	1.45101499735731	-5.20875784566667			-64.0082885924213	-0.147488833417064	-3.54389849468965	75.6627058549117
102062500	-19.0906769762124	112.674166782176	1.83861826745528	-7.27310275754382			-54.3347578347928	52.9588240944704	-3.56453594369057	73.1898942006847
102750000	-19.1490960337336	110.099721648121	2.22894845164223	-9.76400049883723			-61.8590263856916	-41.60903064213	-3.58558219724869	70.1312637632261
103437500	-18.9146772427093	107.770266318497	2.55723526107458	-11.9362526033955			-57.9336750089693	50.0004589939944	-3.55024095608587	67.4967412103577
104125000	-18.9855019774709	104.108048654909	2.93167844548519	-14.742176117096			-55.9639326551921	-58.4709812458789	-3.58078049387557	64.4188416864546
104812500	-18.8190882418306	101.935845687731	3.23461828262624	-16.9138920215569			-57.2304771895414	108.018713624502	-3.6283538856644	61.7107619627691
105500000	-18.8358803366072	98.5986767658847	3.57487443923321	-19.7563490661076			-60.1254271073502	-99.8100202264169	-3.60769489705847	58.5210095850746
106187500	-18.5950331773823	96.4811571535806	3.82533510384135	-21.9510775796576			-69.7401155159758	64.8501922178249	-3.64508110121714	55.8937666089563
106875000	-18.719660986939	93.5271266932019	4.11894461779577	-24.7682461395955			-53.2562887106763	-64.9348467955609	-3.69070663401956	52.5855366715349
107562500	-18.4894197048831	90.1455703488755	4.33296116045602	-27.2903765601085			-67.795572163452	-46.3755370213845	-3.69556866689078	49.7517073059353
108250000	-18.5893157217462	85.645715847319	4.54992503056732	-29.9196172562666			-59.9349998779263	-43.888099247259	-3.76291916976731	46.5307820916702
108937500	-18.3847133949154	82.9976327571517	4.70349804970649	-32.4405993069729			-63.3647868015632	143.607163185255	-3.76099326834154	43.9910571667901
109625000	-18.3150470878712	78.9436306441687	4.91933489635875	-35.1573687664222			-53.2493211419457	-20.5541977029981	-3.7923784474527	40.5201404145
110312500	-18.2377394438736	76.2530216912697	5.02836821824119	-37.7621407866809			-65.3715753869963	-96.1314904587728	-3.84187579030259	37.5549132664703
111000000	-18.1492608779221	72.0841745827278	5.11939177701934	-40.548404582758			-54.2122010721963	-19.3346404588456	-3.91241474811226	34.2799438206564
111687500	-18.1439114116847	69.427218078922	5.12175693766365	-42.868174758766			-59.2356003714155	-69.4880362044026	-3.93954492818539	30.954616820787
112375000	-17.9782423380812	65.1293083055136	5.16641360811995	-45.4345830273411			-62.4313404408275	-3.67568809775565	-3.98031662523236	27.6397630484475
113062500	-18.0932734469485	61.9916917185783	5.09151551337636	-47.7295840127601			-62.691874836604	-125.870252429877	-3.98791221046551	24.7233409974295
113750000	-17.8032134552594	57.4128820037447	5.03510970025405	-50.0428623143454			-54.0296110574282	1.98562694235798	-4.0725066680704	21.0925350694717
114437500	-17.944688566448	54.1561955865736	4.90723246377261	-51.8496691315093			-65.7053835662863	-15.3126152317082	-4.08583037483455	17.6318668202078
115125000	-17.758640892773	49.7448437184303	4.7614927933321	-53.3998562995462			-61.0258636866016	0.12767597614896	-4.17929750183161	13.9578923087979
115812500	-17.7051181995021	44.8695216648434	4.5267901226193	-54.8657004808092			-60.1937724758147	-152.012260275904	-4.24040708563031	10.5220889079754
116500000	-17.6399304962425	41.4993623973957	4.25110085178842	-55.7283121681392			-63.2249369144169	-27.9880985099723	-4.26926967555823	6.54421225940595
117187500	-17.6239398858229	36.1523786398653	3.8875976459703	-55.7836453447375			-70.032419113609	-40.3327837837887	-4.31303781818627	2.84440290856187
117875000	-17.495019206068	32.9419819753769	3.48092570418196	-55.035809612406			-77.5767141313972	26.3559241129802	-4.39182632949598	-1.06891132657603
118562500	-17.4267140124504	26.96756680115	3.09431413618454	-53.0650918378975			-59.8227883019246	-59.5139641684008	-4.45225740211752	-5.05408061326245
119250000	-17.4153274458196	22.5589801170613	2.74371336023473	-49.8126614047307			-55.5197616745412	19.0148209406969	-4.55622159609062	-9.19409497563523
119937500	-17.4041624480204	17.1288188401364	2.44310019778123	-44.5264896219445			-56.0998102149504	-35.3801299120336	-4.6281066962604	-13.6907107983295
120625000	-17.3879010682003	12.8064516489988	2.43432968621406	-38.0847868866552			-57.1577174494689	60.4991832872439	-4.70695643150685	-18.2048043793226
121312500	-17.2170096649487	6.72699073657961	2.78034153919384	-30.3642947439216			-55.5574683712055	-62.7985716858639	-4.80753759408888	-22.6977118149276
122000000	-17.3944888223641	1.49662341186255	3.58181518219377	-22.9726927114947			-61.16078131185	-141.574017700304	-4.92551406799986	-27.423916660198
122687500	-17.3265110970153	-3.44120580199099	4.72576221495839	-17.0743011233696			-60.1323251751245	-64.3716240637528	-5.08089920671181	-32.1324144752564
123375000	-17.3862820339435	-9.41743726850696	6.12651535242074	-13.3917348066101			-61.3204350069005	69.9985728931506	-5.25742122386544	-37.630136731494
124062500	-17.2729308179344	-15.3119592790874	7.55249798257537	-11.4055718573463			-69.1920882469787	57.7251131167124	-5.43144888397058	-42.2972146590346
124750000	-17.4497328152847	-20.5189122941734	9.03999026564956	-11.8421397705656			-58.015546204803	-14.0016929727903	-5.68085929828298	-47.9797837308236
125437500	-17.4295253509492	-25.9221385255892	10.3743274445206	-13.2399395179277			-54.4031047268635	-4.54762424520437	-5.89042727736513	-53.3454665597648
126125000	-17.7909683354542	-32.296830504223	11.6546922266366	-16.4914896271409			-57.6117001453454	4.10886046176899	-6.24052550704922	-58.4790100868438
126812500	-17.7711357804384	-37.5738618185991	12.8035140888227	-19.9748395505851			-50.1066414437146	-13.7809840760797	-6.53773019252564	-63.6338765817723
127500000	-18.0830782832538	-44.106110132945	13.8642906037186	-24.5546342458122			-56.7385560671821	-0.768196910863628	-6.90087622810908	-69.2514054765409
128187500	-18.3436079909856	-48.931694798054	14.7723718704529	-29.3213721355514			-49.6929505897549	-18.8641210841529	-7.30283565405133	-74.0876126365515
128875000	-18.585946793893	-54.9465654234853	15.6132758502765	-34.6127539167403			-52.7164289795564	-29.2104593988348	-7.77844607094676	-79.7768064237007
129562500	-18.997279086466	-59.085887057334	16.3166358328997	-39.6661771830099			-49.2271814044673	-6.82954479655821	-8.18255353173249	-84.5199136003717
130250000	-19.2472834997593	-64.7558947287356	16.9725901271386	-45.3556817722851			-47.5796794522847	-58.9988795931028	-8.73347157052967	-89.6759728756404
130937500	-19.7274205707381	-68.4386699455666	17.4864840543603	-50.6280098707967			-48.7811980966301	-22.6002522221556	-9.19107475475863	-94.3114464170605
131625000	-20.090681342102	-74.1303347720236	17.9817761000158	-56.0944473040905			-46.572236488247	-44.2560023159745	-9.73506505414146	-98.9508607102871
132312500	-20.825751568508	-77.4813573096309	18.3828467651701	-61.1359992507189			-49.2712155407137	-25.0879256480156	-10.257596427325	-103.235134782248
133000000	-21.0979985116278	-81.8480747136553	18.7569609942034	-66.6186310772367			-46.9291280072878	-45.873911622061	-10.7999480990479	-108.016639119591
133687500	-21.7017307007133	-86.4520276421022	19.0321856650089	-71.400076340497			-47.8868906013251	-46.3819037686811	-11.3450341720947	-112.668066618472
134375000	-22.2004294371636	-89.3685416794793	19.342726766436	-76.2544409810771			-44.6349873534004	-72.7723954662308	-11.8757261046275	-117.266689507118
135062500	-22.8402892224992	-94.001928409294	19.5461664636468	-80.6575550164663			-47.5983457871016	-43.4762642169506	-12.4650733945546	-121.563114236298
135750000	-23.4108662208177	-93.1771308474648	19.7801066793181	-85.4196679136485			-44.7379555277535	-63.6570907198879	-12.9792056764987	-125.639318018838
136437500	-24.2107224224314	-99.5662416170789	19.9534762878411	-89.7235218009395			-49.8148627521004	-70.0190665893027	-13.4825396424434	-130.8675651351
137125000	-24.6351071585723	-100.472824188616	20.1406742405083	-93.9848127411495			-45.9659489448015	-69.5160677697862	-14.1054944283845	-134.760482390776
137812500	-25.3536184731168	-105.433684380835	20.2805151824347	-98.1217968454301			-45.4679259556689	-81.3606790445738	-14.5000524105714	-139.772841686574
138500000	-26.053441278027	-104.976656853287	20.456966766674	-102.203455785232			-44.3281727929732	-82.2925894348102	-15.0364657428055	-145.679111171103
139187500	-26.6972288847741	-108.692715103336	20.5472351646116	-105.986714709272			-46.8202144509032	-90.1180307009989	-15.6302306073987	-150.238127325215
139875000	-27.8422196985395	-108.270637214365	20.6996725663757	-109.936157520306			-45.2645436843547	-77.8151689877655	-16.1408800278358	-155.075547530269
140562500	-28.1450104276785	-110.849081121344	20.7974798838596	-113.626072762548			-44.3295167026103	-97.9726555719868	-16.5926979844434	-161.078728709498
141250000	-28.8424245974657	-109.042992297398	20.9306876779073	-117.454044957757			-45.0528631869707	-78.4761222435135	-17.1068234506716	-166.7638811996
141937500	-29.1448340224993	-113.859871209948	20.9783206688406	-120.948428536886			-44.0198562229652	-98.8380243988535	-17.5811981362356	-172.968212309489
142625000	-30.7992611469945	-106.993718138102	21.0904507677954	-124.661676269338			-46.4608823510928	-102.795424272501	-17.9719192963985	-178.940134440665
143312500	-30.1540232631844	-114.652249426241	21.1727208506925	-128.018960315704			-43.8679351397098	-111.141920309557	-18.371068515972	174.539933524194
144000000	-31.6921856309105	-110.834296097602	21.2642703159179	-131.419614960836			-44.8890403129984	-102.929532547189	-18.4080583912572	168.807165609876
144687500	-30.9926250096851	-111.904708497813	21.3004122742796	-135.043015969418			-43.8016128690181	-111.280022995996	-19.0334248187667	161.268791978083
145375000	-32.169001015863	-117.716097433321	21.3993914800174	-138.583551914125			-46.05802227053	-107.665290325436	-19.0882800586641	153.600154379735
146062500	-31.8983298550737	-110.839121059813	21.4251931116052	-141.607335488778			-42.2066170489257	-109.7204149882	-19.3110329596988	147.087178197766
146750000	-33.2998367760084	-113.036128146328	21.4960936430971	-145.079776591043			-45.3770598778147	-130.711664634639	-19.38950203685	140.670982227545
147437500	-32.3894266686573	-111.365725213533	21.4951246488774	-148.183828088242			-43.4297713817524	-138.070180915315	-19.3982438028128	134.523828154041
148125000	-33.3530321949342	-121.002477160183	21.5253879595752	-151.524714291226			-43.5692553033853	-117.924295914532	-19.3106210959058	128.478900007563
148812500	-32.8525355740452	-118.758955437113	21.588172531412	-154.413081000171			-43.5827842810947	-121.326164943405	-19.3951430691672	122.409990742936
149500000	-33.5671704578926	-121.429773568962	21.5982581172495	-157.624715764722			-43.5902697366002	-139.811807170319	-19.2721279603823	116.146436941664
150187500	-32.8208954495904	-119.135636548178	21.6004655921897	-160.489211704204			-43.4358007926889	-121.734941831345	-19.2563080456698	111.494849687364
150875000	-33.9769325017835	-130.795176250611	21.60654049636	-163.490503272236			-43.2936741229892	-153.334377194137	-18.9079784949726	105.895587618034
151562500	-33.1829277339401	-126.678131888239	21.6444621320577	-166.210300482056			-42.9716928754309	-137.633876861613	-18.7595996328551	100.846932028583
152250000	-33.7731885414668	-142.971020464999	21.6282445310001	-169.10804503397			-43.1960837408685	-145.778944429971	-18.4885562064257	95.9735990565662
152937500	-34.1085067022061	-142.515644444499	21.664420305051	-171.677898671167			-46.0990615869629	-135.469367010089	-18.2281788954159	91.6210344695179
153625000	-33.147913070995	-146.25558960292	21.6665038536613	-174.614195374586			-43.6559395847137	-162.586292020081	-18.2212859223674	86.8859864685328
154312500	-34.3368146673567	-148.244747305277	21.6895379253584	-176.91779742806			-42.9884259459139	-137.548280461714	-17.7742514256176	83.5381026459768
155000000	-33.1979310820342	-154.827350541132	21.6883384403987	179.943301991998			-42.1025167702897	-162.637299745234	-17.601579256573	79.0188646509541
155687500	-35.245069966173	-156.751280709705	21.6808451148236	177.834925636328			-45.726442737452	-151.492494359164	-17.419935064673	74.7313792935165
156375000	-33.6753975000942	-161.999217047658	21.7319372460375	175.020333591895			-43.5111504733661	-172.40107514905	-17.2772171917693	71.0583436255711
157062500	-34.8116675875891	-168.488767363097	21.7120869333651	172.661567164406			-46.7477412716667	-166.936046396226	-17.0476024904621	67.9469910768671
157750000	-33.3512841794682	-162.442785739446	21.7785124554954	170.001672484425			-42.7984296052761	-162.040306220225	-16.8752012707603	64.1790302920472
158437500	-34.8924826810674	-171.980794592908	21.735687722556	167.751194316356			-44.1316979966213	-168.255427879783	-16.7430298679631	60.6752568537216
159125000	-34.5129130944336	-163.596982757793	21.8085719227488	165.087454341777			-44.4220075508949	-168.17418285477	-16.572606703731	56.7291660176928
159812500	-35.5453352893821	179.928571387286	21.7999186818015	162.648416478289			-46.6470681385384	174.540897126027	-16.4396130359594	53.4229873677483
160500000	-35.1592162319151	-164.235319177103	21.8392851110853	160.113480580623			-43.5059767419825	-163.11697410057	-16.2260260517176	50.8928658133162
161187500	-35.0481287541472	-169.583481701156	21.7941737898342	158.034802490482			-44.5727333263698	178.408848533772	-16.1332430930322	47.4926521982913
161875000	-35.4107185284209	-163.907518980568	21.8722570296925	155.354626202979			-43.6932719064315	-177.607390235154	-15.9873073825164	44.4350754151574
162562500	-35.359909245792	-173.397708499632	21.8323527726634	152.852036010294			-45.2628667745626	171.0778647614	-15.8280341440292	40.9186829271077
163250000	-35.3143173013073	-162.27847695079	21.8725640625274	150.320804255279			-43.0398798328703	167.369719062344	-15.7105878908665	37.8917559443264
163937500	-35.186225251622	-172.162527350815	21.87315827134	148.163763010255			-44.6757189558108	166.803400069121	-15.6978286491237	35.7334713956924
164625000	-35.628611566907	-153.931941332246	21.8888335495256	145.538287012764			-45.303305731327	176.923456720891	-15.5719671085723	32.2070458433933
165312500	-34.4900577192839	-168.619862933546	21.8724111423188	143.315958936051			-44.2085974801153	156.003506902239	-15.4812462220606	29.9778320786567
166000000	-35.3306495551568	-157.381838935973	21.8831219010424	140.797101779706			-42.8057198681747	168.10927331206	-15.4458101730323	26.3006348370834
166687500	-34.2128053516654	-162.970569844234	21.8611566799592	138.639312060543			-45.0159885728655	159.874241526519	-15.1884716169256	24.5289812585143
167375000	-35.041500793468	-166.124668771928	21.8919526860723	136.300318286491			-45.2337672672725	158.964570472968	-15.2033222701601	21.6032367775133
168062500	-34.5718831036242	-169.08198828355	21.8868975748535	134.151561915685			-43.4533795123637	155.650204056228	-15.0845566086107	18.1682562261665
168750000	-36.3992770339836	-162.208625199326	21.898565197833	131.869868549862			-43.5808756564992	157.220251912376	-15.0483901281986	14.8690842669914
169437500	-34.1400111799177	-165.379574585469	21.8402972174315	129.492337609742			-42.509741257408	163.045331928244	-14.9193004044278	12.4376947498453
170125000	-36.4996084786675	-160.913831554995	21.8805991775784	127.18366045896			-45.1222177894471	151.254422180325	-14.9044166102129	9.44219172918909
170812500	-36.8160775979062	-159.048822209769	21.8434970249408	125.207236132886			-43.5311228792745	153.517284799497	-14.8800766118772	6.51317533261304
171500000	-37.0777335664193	-166.328389483954	21.8607159035377	122.845702846201			-47.1324717567324	134.050210099765	-14.8375708085986	3.97648971725991
172187500	-36.3214820833146	-159.834854611637	21.8274747573762	120.925611488954			-42.6858090747189	155.155001774775	-14.6859765605091	0.843752846788219
172875000	-38.5212386453105	-164.073954299717	21.8300550641058	118.80274493723			-43.8270107444824	132.977457366221	-14.6744454782658	-2.51107913200089
173562500	-37.9393347449424	-150.9499343536	21.7908842163785	116.733813318122			-42.7534713591279	146.565285155053	-14.5171708745308	-5.02588255268885
174250000	-40.2996211925136	-145.314349396345	21.810401612405	114.604418583767			-44.5886955041613	134.70130378845	-14.5185032879774	-8.86083045992211
174937500	-40.1740734433591	-141.57259404945	21.8000554210265	112.804920396734			-45.0548158457894	139.705155819864	-14.412540330479	-11.0626945640335
175625000	-40.7023257254397	-138.547899640243	21.8192598629531	110.700751778585			-42.5584425578769	134.630954462929	-14.4004774053978	-13.9874237398288
176312500	-40.8901212746572	-122.667572118251	21.8077855107331	108.842792980881			-43.8632702005996	144.171934425133	-14.2195799656693	-17.549958145837
177000000	-43.7411222366097	-118.505377686718	21.8451039359438	106.982071634436			-42.3994274093837	129.172050832073	-14.2612755362197	-20.0982232976782
177687500	-40.7593329682061	-95.5692937375162	21.8508280193493	104.981268069932			-44.1833175561474	129.347094484863	-14.1787482214087	-23.1656521986028
178375000	-40.8427902717636	-95.383007831903	21.8888249740625	102.880779088485			-42.2551993252329	150.463234138031	-14.0842821047993	-26.5315874468961
179062500	-37.9833114893349	-85.3334233953472	21.8891793887801	100.929797496569			-44.3891172894977	125.944959646353	-14.0065919348028	-29.1555787973295
179750000	-38.461039804376	-87.2058608628638	21.8824923551895	98.846473702853			-42.7142719260413	138.058196633461	-13.8974160713861	-32.5274907846882
180437500	-35.9112878953264	-77.9455458703799	21.9511346599039	97.1774545670935			-43.9974608600521	123.159334783267	-13.8934273825779	-35.8929535740235
181125000	-35.844829002621	-78.4600074247916	21.9629757290048	94.7901409776008			-41.3332786802634	122.793569004576	-13.7471876287924	-39.1731003986478
181812500	-34.7742797850394	-72.723901458893	21.9768275173134	93.2476986590814			-44.0760041766058	121.469051771954	-13.779558076017	-41.6118364490911
182500000	-35.3930217907161	-84.2228878711041	22.0286842275806	90.8362176318063			-43.0049522923161	119.067850211122	-13.7428570386433	-44.7212477482957
183187500	-33.473898104229	-71.6393570828371	22.0497957120506	88.7983279032086			-44.7812716316007	114.110677010913	-13.6047338090823	-48.108767726792
183875000	-33.54770634371	-81.5969562751088	22.070817177134	86.5394691665761			-42.8535381381996	120.996158047276	-13.5647954692786	-50.2981511798066
184562500	-32.9901834831606	-83.3926124644146	22.0499304380861	84.9193892434328			-44.0777602637022	97.992381478396	-13.5457374476781	-53.4913781024894
185250000	-33.5666405568194	-91.9832908573878	22.1175951019338	82.6428711081338			-43.2605381373161	107.698237866358	-13.4860314860387	-56.5056251335418
185937500	-32.9862170752305	-82.6974633660096	22.1016866521974	80.4664222734492			-43.7167399112441	103.855851019129	-13.4555907871617	-59.0531286544403
186625000	-33.0575092673278	-96.5682828352766	22.1474089240935	78.1319639972003			-42.0331084170303	105.065654716574	-13.4142350215372	-61.6287928693386
187312500	-33.5073353656847	-97.6703033359377	22.1566764524257	76.2526085910459			-41.6560828328684	90.6313376229849	-13.30861864872	-64.4251401823455
188000000	-32.7199397116231	-98.2205580017253	22.1575879010525	74.0508184900583			-44.3093640074869	102.693481367005	-13.2747502643829	-67.2416595171637
188687500	-33.1593575536486	-95.5769548029331	22.1354219351394	71.9236697661108			-44.0799806552439	94.3949055258729	-13.2129642527748	-69.1951053743148
