# Hz S DB R 50
100000000	-33.4450953586343	83.8187509781	-5.05374484048679	-6.27281375829937			-57.506820771968	66.5942462388344	-3.52619934233609	81.3784244762801
100687500	-33.2162957585137	85.4715637713728	-4.65802917360393	-8.78234026225634			-63.8006557692768	60.2545441802398	-3.50215718638916	78.9926547389831
101375000	-33.12241347381	78.9780572227333	-4.24868060910324	-10.982830321852			-60.8189461302682	40.9021242900121	-3.49021318165149	76.0310039131895
102062500	-33.0513676766343	80.842439564856	-3.86546814886381	-13.5352199184046			-63.9808387513678	161.372325490288	-3.56278386269606	73.1149134521659
102750000	-32.4060922855541	73.7447360328083	-3.46680936837168	-15.9006568157365			-54.493961117257	90.5852270103862	-3.56176391347656	70.3533652508966
103437500	-33.0443356703803	77.2687338352107	-3.13812964228112	-18.7452682775389			-67.8019198558524	-30.4389810398197	-3.56976863661232	67.3322033683265
104125000	-32.1193847308289	71.2525864875532	-2.79563323508449	-21.1933446517697			-60.1960785207123	23.5340087675701	-3.59521219618332	64.5792458576272
104812500	-32.9227031701702	70.961700800969	-2.50024482880799	-23.9977645919879			-56.1444029387527	-66.519367782656	-3.63005637961871	61.2821141417887
105500000	-31.8296260397555	72.8036756519961	-2.1399687104788	-26.6127242425972			-56.7046530049077	101.445451969873	-3.62589229778111	58.5502168837791
106187500	-32.5769697458929	68.3936611653905	-1.87797207547203	-29.4869188800717			-61.0248910822068	-42.9574434658944	-3.66063374567348	55.4102598157378
106875000	-31.3835419254152	67.4779037388155	-1.6213994016865	-32.1401959686952			-67.9633096922557	91.0237406307668	-3.70102352329311	52.4755029088284
107562500	-31.8849722995757	60.6665497685014	-1.42399966039269	-35.3204001292649			-54.7032463786548	-0.324549429763164	-3.6873587818425	49.0590073506216
108250000	-31.730568993836	57.3942714849542	-1.2080015524492	-37.9227019105654			-55.4925394664727	113.963335926339	-3.77573396786542	46.3264534667519
108937500	-31.8976784483904	51.6193217648113	-1.09141505012476	-40.8165599894902			-57.826713014678	-34.0013348863443	-3.77420617885186	42.9194850076028
109625000	-31.0359302442363	53.4946881881829	-0.905332256651842	-43.781626635939			-55.2680991954966	159.846036033896	-3.80937026818223	40.1865280990452
110312500	-31.0800657567961	48.1525430379645	-0.819171511160065	-46.708336839521			-58.4614864173398	7.44439729780653	-3.83330561115705	36.5536913760246
111000000	-30.8276748810985	44.1292973296776	-0.737245028807753	-49.5013220274301			-64.0745692862292	106.546093145637	-3.90648896703968	33.5289627089513
111687500	-31.4471338300635	36.6431680452939	-0.76701283094599	-52.3969181328956			-52.4485500618089	-0.6253476786356	-3.92344920685592	29.8054213967648
112375000	-30.5264935292843	39.5097688201019	-0.774570227212898	-54.983226998918			-60.4972694176699	-17.5807576209761	-4.03207845397668	26.8116647266786
113062500	-30.6386898732792	32.3136893997791	-0.869316539045005	-57.736844447973			-55.0257416984311	38.4414513266963	-3.99197655664926	23.4089232358219
113750000	-30.2415950485419	30.3251616587303	-0.951816572583597	-60.19123918607			-53.8188458461661	171.86758172933	-4.07636057435037	19.9698306876043
114437500	-30.4804847833063	24.7526947398875	-1.14081606355647	-62.3806375220622			-51.0981777604616	23.930299318209	-4.06946415075147	16.2711114544164
115125000	-30.6442634047982	21.4020559884011	-1.35092801873487	-64.2265958717413			-57.5384442242947	-92.5191782500714	-4.18444240298403	12.596481035957
115812500	-29.4191454398017	16.5927677880754	-1.5510526452643	-65.9849245080495			-54.261253400126	60.0306945626932	-4.21953901428663	8.67174342447381
116500000	-30.2221140252318	11.6638732118779	-1.90982315044598	-66.9476395325013			-64.8054731925844	140.885036148218	-4.2458029446805	4.6662116143218
117187500	-29.3092315227552	8.9532362838664	-2.35005641556237	-67.4611261216647			-59.3974083710582	41.9780823925239	-4.30058363051791	0.939987586068839
117875000	-29.5917196051079	5.12291794740963	-2.84109823671445	-66.671959617585			-58.0756842232183	-74.1644038851981	-4.35405206307649	-3.06290316421064
118562500	-28.6917550788632	-0.438317677258618	-3.3638010008378	-64.743839226718			-62.5291610130109	26.4751551904117	-4.39505025628714	-7.31261698527404
119250000	-29.0483640098927	-7.83260273339638	-3.86357543827732	-61.0319406219555			-58.7130974877285	-64.6323504932614	-4.47905493638623	-11.3021621567781
119937500	-28.5554330187048	-9.77735626431703	-4.24255359252544	-55.4260805785321			-63.3258038751102	-112.277024769703	-4.51304679163523	-15.9641002711518
120625000	-28.7031724084995	-14.5002338572883	-4.2980444133565	-47.9998649332233			-66.558017023353	34.9249839645013	-4.58719987112871	-20.5512673223229
121312500	-28.0105167769167	-17.950832418967	-3.99527736271288	-39.6096362649733			-63.472780703232	156.744849910214	-4.66715730115967	-25.3811407936228
122000000	-27.9249564664342	-23.8131184751505	-3.09652851397714	-31.4828012958006			-62.0104340528419	-87.1797760204927	-4.76541218993961	-30.1893235353273
122687500	-27.9964460757115	-27.47709639582	-1.89941179863446	-25.6010191687636			-58.7961081170516	118.454335446246	-4.89472485218474	-35.5245538458566
123375000	-27.5503653847662	-32.2540002398439	-0.470721664766637	-21.9157677208174			-59.3501712650922	-68.8289826200693	-5.01397852572132	-40.5142853487979
124062500	-27.5065380110468	-35.0538426262096	0.957326316077425	-20.258404150926			-62.2820356710202	61.6461129217762	-5.19675435171109	-45.922565502107
124750000	-27.302580350304	-40.1943591670978	2.47485926238391	-20.6466235524057			-56.4460762127884	0.706116209665405	-5.3540481999861	-51.3504939511918
125437500	-27.2551126233635	-42.3327777439225	3.75658946359366	-22.4374353671954			-64.8650582707148	-68.3119004305291	-5.57133967433373	-57.2611304384119
126125000	-27.105276954218	-48.8404774926411	4.99006008932288	-25.4610939560357			-54.3699463157725	-39.0343720880947	-5.81853548596735	-62.42325672962
126812500	-27.0935800028438	-51.6292784918557	6.09589784598957	-29.2054888101375			-61.5740751663755	155.547307665998	-6.08929665103791	-68.3911287144608
127500000	-26.7764820983494	-55.2083808541518	7.11226510020399	-33.336783731386			-57.6635602697488	12.2804547132392	-6.42144733038571	-73.5930716468651
128187500	-27.1045953973045	-59.0042887922927	8.00180935533036	-38.2216350671596			-65.1893960324827	36.7146520575341	-6.74420948103396	-79.6764970392298
128875000	-26.9115812549982	-62.4751494699903	8.77390246406351	-42.6771660764978			-56.9942646308172	-29.9836536024553	-7.16304175921138	-84.8768481410061
129562500	-27.3633364867238	-66.5359220519882	9.42640318012706	-47.7319839648015			-67.3543072079226	-60.9896514760783	-7.48789288037794	-90.8449777721973
130250000	-27.0114724934485	-65.9492096431489	10.0884247880359	-52.7748051643779			-58.8838453757778	-3.49888575950321	-8.01557075073372	-96.0247501834042
130937500	-27.4550927493034	-70.8363542100428	10.6034873186753	-58.305111124946			-53.9951569455213	-13.6624192667915	-8.35366992740333	-101.339654407065
131625000	-27.3183841585871	-70.9038298851653	11.0662703227414	-63.1392055434913			-53.7029627032743	4.33352183580587	-8.93378977593471	-106.626537100011
132312500	-27.7462661247038	-75.0684653688965	11.4806137834772	-68.3106114110128			-52.7528946444685	-38.8178233022629	-9.27023757556297	-111.804189279354
133000000	-28.0501762840857	-74.5365928627824	11.8274956231249	-73.3131416928024			-53.2047147095935	-27.2258872552263	-9.89421619253696	-117.124292872458
133687500	-27.8306148588894	-77.990436848074	12.1031448964528	-78.1470524956385			-52.0994555448368	-76.7492599994855	-10.2665928321908	-122.049015948065
134375000	-28.5108987779133	-78.1197956688239	12.4263909993466	-82.6847001317809			-53.0083689428867	-4.90428618103934	-10.8335995741583	-127.806364210986
135062500	-28.2451530939461	-80.9331368606731	12.6210340739914	-87.1703654126868			-53.3405458129693	-57.9182074650335	-11.2717781835265	-132.472128033638
135750000	-28.6218422771129	-77.7139002334606	12.8692790896527	-91.6625797253995			-56.8753282047153	-112.676874266803	-11.8267537767482	-137.661692218119
136437500	-28.3537715033163	-81.5169475099773	13.0424892824267	-96.0861058991252			-53.9447312729869	-40.8226459503028	-12.2882258439536	-142.786582883543
137125000	-29.3045772628037	-80.7112651487542	13.2809203634667	-100.061234168683			-53.9944795472203	-87.8972042147491	-12.7729656063693	-148.121811055574
137812500	-28.983323188297	-83.8362160712945	13.3795557115599	-104.124704315286			-50.3227168801088	-92.6018447858035	-13.2487864691556	-153.162626205516
138500000	-29.2560459255299	-88.3518709424672	13.6027418284849	-107.818306435496			-52.7460499817675	-105.323051083287	-13.5796962915895	-159.727399827045
139187500	-29.0992510074934	-84.7009339103733	13.6876619469501	-112.09694644064			-53.448714432006	-61.0040860414466	-14.1696965659551	-164.695029427663
139875000	-30.3805643013586	-86.8326089431114	13.8573910241407	-115.629390371394			-55.0552425730444	-115.344108770694	-14.5055827519718	-170.504322492777
140562500	-29.7798009769905	-86.5812288545492	13.9468916175786	-119.519233069593			-51.1002047053385	-86.2967595680834	-14.9329457133869	-176.234999492683
141250000	-30.2860537054946	-87.7147232232282	14.1006609389541	-122.942100655627			-49.096220159184	-102.396445549156	-15.1840411253123	177.972485841984
141937500	-30.4012625471237	-87.4913994934847	14.1474987747018	-127.004198921607			-50.7013015351535	-53.6374330663952	-15.6027449373109	171.093108783185
142625000	-30.6713190424995	-87.8910305799173	14.2785594816026	-130.169736025073			-48.4310202009083	-124.482541368846	-15.9006277123787	165.541791923972
143312500	-30.3114770212662	-90.4639541155006	14.3689073140625	-133.954519097322			-52.5769894055613	-96.0122895190304	-16.2186328882849	157.995309152145
144000000	-30.1472013904482	-88.6933330659146	14.460896603469	-136.990705727622			-48.8606001081943	-120.812702938018	-16.265740581712	153.425703072019
144687500	-30.4999578813784	-90.2343149833655	14.4940694255019	-140.89678879021			-52.4620719893501	-70.8786302424326	-16.5698897795068	146.205912511172
145375000	-31.1011459062365	-94.2687219466277	14.5513714701483	-144.058156674482			-49.1105554161406	-99.5883369931173	-16.7410834012557	140.346780383781
146062500	-30.5790475119211	-89.8020549489092	14.5998649626488	-147.54674530734			-53.163363612569	-116.170563899375	-16.7362764897203	132.785890018768
146750000	-30.8703200244729	-91.6379086656555	14.6544133392333	-150.633214118728			-53.6785918068145	-110.417145243853	-17.0181647017159	128.675271392755
147437500	-30.8551658633843	-91.9858397821775	14.6450875032399	-153.914435309843			-49.9150586141397	-119.476168021	-16.8308013619317	121.572200347436
148125000	-30.9236830512139	-97.1235818365212	14.681086626	-156.962976868617			-51.3080157235685	-128.397508562537	-16.9663402392448	117.318676752411
148812500	-31.0563187535406	-96.5554778239531	14.7241332846845	-160.213328047745			-50.8653693448735	-126.961624295241	-16.8693623478345	111.483954324938
149500000	-30.7510007247383	-101.765134584689	14.768371846993	-163.169752585658			-48.9527588026412	-119.694906001645	-17.014930057358	105.45944649193
150187500	-31.3491988680422	-98.6204810879055	14.7468792382785	-166.226520775993			-54.1419364890651	-144.254597108568	-16.7641569448484	100.067014997861
150875000	-30.8393145645753	-105.204268576016	14.7873305081296	-168.91371032079			-49.2873221061706	-113.992280138471	-16.8213513180761	95.7024742742309
151562500	-30.6358271574675	-104.175928163224	14.7741774524877	-171.903921262782			-50.2263763615504	-163.841287095828	-16.5159303821293	91.873036977925
152250000	-30.7704017230634	-107.637536881833	14.7975951543335	-174.438412945866			-53.4370512735435	-117.929628261862	-16.6144687684866	85.9108430713641
152937500	-31.6177392142531	-110.557222670325	14.8091696247255	-177.418839811824			-51.3593454304724	-161.694250924374	-16.376906002733	82.8437175090864
153625000	-30.5614450769126	-114.533426700689	14.8042660622178	-179.845002776292			-49.3897906274858	-130.88943101159	-16.4645820814874	77.9024697387058
154312500	-31.2998164684818	-116.212169271788	14.8220198585513	177.56772623404			-51.1151173004706	-165.996149331921	-16.1590948180488	74.2602639441924
155000000	-30.0804158651079	-116.054383234861	14.8144222456059	174.801324199418			-50.7686303509681	-130.717199221111	-16.0344104287117	70.6835049439209
155687500	-30.6360127593873	-117.979349715245	14.8203342304296	172.527826305237			-49.3775688160231	-164.079909596307	-16.0457092534004	65.9725034266249
156375000	-30.35805179762	-120.297587175016	14.8727622962739	169.904904987987			-59.2137158929395	-139.409459839837	-15.9435327965956	62.3219443653096
157062500	-30.8064614244991	-123.989258653142	14.8574811408536	167.402720552556			-49.7110298341351	-161.012086133512	-15.9531024157442	58.8371197486895
157750000	-30.3492484592579	-120.931009841207	14.9107975354044	164.981027795089			-50.8403287991642	-150.033356308365	-15.6498226452538	56.084065305344
158437500	-30.6428449721943	-131.536822320421	14.8822041382302	162.395842646037			-46.209142748528	-155.932541573789	-15.7010553471604	51.9575348143803
159125000	-30.2766313710476	-123.733482803367	14.9342596117046	160.054499723504			-53.9544647719533	-140.473417918271	-15.4857753104042	48.4735376794307
159812500	-30.72104416373	-131.852837579739	14.9399502550362	157.516271660861			-47.7401221448775	-171.799915518226	-15.5155727001126	45.613710937198
160500000	-30.127977532776	-125.3905154662	14.9708619006973	155.131938490394			-52.3206298185307	-165.426021942437	-15.3704728059366	42.3654322461405
161187500	-29.7777851885296	-128.730135128214	14.909957467695	152.757919815911			-49.3008056351584	-146.800081921926	-15.4409725222544	39.2830268856158
161875000	-29.8593310453027	-127.704983895681	15.0020024212201	150.416527924961			-50.9590670632301	178.94531662244	-15.2863815259081	37.0988088102414
162562500	-29.6772454206204	-132.268173524962	14.9635052605302	147.821851755342			-51.2676681435699	-150.224624794065	-15.2803504603187	31.5977750219514
163250000	-29.6627395740597	-134.37919488767	14.9822836036986	145.440159733873			-53.741031681342	140.338074555781	-15.1056852171703	30.0804352705448
163937500	-28.9348609487964	-135.087994992524	14.9955200296484	143.028148483808			-52.2346499886529	-177.447613629343	-15.1932626302246	26.3104892877186
164625000	-29.8081921693166	-130.433641156538	15.0205706233606	140.744969027178			-51.9501873027939	173.156594545878	-15.1307121803688	24.0594822829305
165312500	-28.8990618349287	-137.195922051747	14.9874817128454	138.176477237799			-54.3290664000644	167.322124967319	-15.0285214151516	20.3982037162931
166000000	-29.5432337615354	-134.378628385291	15.0201093899919	135.998287266497			-50.5607100324873	147.200156563703	-15.0517297896757	18.2732632602506
166687500	-28.638771871281	-138.082159851487	14.9755497858504	133.665154658156			-52.5602717635251	166.857150385164	-14.9541206222823	14.3524064483024
167375000	-28.6691073873005	-134.37898267896	15.0235887357061	131.454401532475			-51.5848128745149	152.321333606035	-14.9366134024321	12.7193066862024
168062500	-28.2891300689254	-134.810198297199	14.9957210340993	129.175913105241			-55.1372507196525	-151.875978988016	-14.7549633654092	9.03327572285889
168750000	-28.4858804696166	-135.098634813754	15.0109471354071	127.122345899368			-50.1604730322184	162.406375496461	-14.9047956653391	6.22539462672743
169437500	-28.3961054465795	-136.128474336294	14.9453715111392	124.588322133737			-54.6928770886012	122.657417618456	-14.627806176706	2.34564200760308
170125000	-28.385449356669	-134.004836260584	14.9985515186593	122.736199171544			-48.9067428400844	152.064686063852	-14.8181204452036	0.218093141414103
170812500	-28.3707184488882	-133.038651674593	14.9490749352846	120.320829708536			-53.7482119080764	132.78280585465	-14.6288393917337	-2.90677966038284
171500000	-28.4167272423807	-137.492909911573	14.9831665206521	118.348472548814			-49.343183962387	163.758444246269	-14.8022338823719	-5.58054910500944
172187500	-28.2103750474472	-135.267198505176	14.9071791520784	116.221374661899			-52.9373507688051	141.630515384372	-14.5604358162118	-9.3152415158529
172875000	-28.4642191176321	-136.710557272843	14.9525379982441	114.300306436435			-50.9776952266339	148.894376718525	-14.6819672705405	-12.4810799379616
173562500	-28.0437346313301	-131.905325488978	14.8971575035548	112.117325240143			-50.9194661247907	144.214321613063	-14.4946244611669	-14.7386761615301
174250000	-28.0235513793541	-136.138204779019	14.9510309536029	110.217197068357			-56.0382625042	136.187626916301	-14.4928858666917	-19.1813507760389
174937500	-28.4040731850891	-133.016838357649	14.9320187661318	108.118620858396			-48.5215417414099	114.835815537815	-14.4688484998487	-21.100527954009
175625000	-27.8566495645071	-134.998780452186	14.9382062721062	106.398464367291			-51.4029215625238	157.378628821049	-14.5065903178607	-24.7385575449769
176312500	-28.3220377327759	-133.950553864853	14.9332336050196	104.260248842125			-48.2619197705786	114.87669825735	-14.3370043943236	-27.4390448519503
177000000	-27.8422239408649	-132.970661082829	14.9908778553647	102.679422399168			-49.0393569275295	150.839367458106	-14.3183285733422	-31.5163156347351
177687500	-28.6799234829473	-132.3511836357	14.9815601502729	100.478175181877			-49.5026156424268	107.017001978784	-14.288989700904	-33.9878486931424
178375000	-27.8537675901948	-132.572363042099	15.0286554445038	98.4939943404113			-52.9529893833336	161.719565691406	-14.3062775866384	-37.0953518794369
179062500	-28.2335776884307	-132.976458783164	15.0391335956474	96.2879707907929			-48.8762277150489	138.306611264236	-14.2653927715346	-39.9225393116846
179750000	-27.8489271961674	-131.984218778875	15.0579747396155	94.5907461527485			-52.8191106003957	160.942484185983	-14.1003774683297	-42.842163531304
180437500	-28.1845867386319	-129.497797694821	15.0770179162418	92.452938527787			-47.8619180832374	137.273791935751	-14.1382556952831	-46.4577689592256
181125000	-27.5051869633113	-130.571577489157	15.0808144983667	90.569318282396			-52.931810675774	108.954526056595	-13.9917382793108	-49.0545190417174
181812500	-28.2997486710228	-130.014045891035	15.1004122581019	88.2853364697366			-50.8927983621064	106.494686800329	-14.0360676325399	-52.1040557259091
182500000	-27.7607327753014	-131.815915013225	15.1533515468105	86.2595660519208			-53.432204241022	87.5920001358962	-13.8541949431602	-55.2994406902648
183187500	-27.831854145905	-131.271436420408	15.17002589403	84.1305105166649			-46.9386444023367	126.86065420762	-13.9168281819333	-58.3201657420189
183875000	-27.84381646404	-132.516087204464	15.2082317926368	82.1585071558859			-52.5479258258663	90.1668179057975	-13.8188683667276	-60.4390083842632
184562500	-27.9050408897559	-133.478824497906	15.1855848141477	80.1206953340105			-47.7051719371643	132.417330189797	-13.8191475681157	-64.5040335027628
185250000	-27.5165906720433	-134.063462057873	15.22645519264	78.0612941597121			-52.6084653580521	89.3997836508166	-13.7187184538708	-66.2860094087868
185937500	-28.040793767836	-136.39590300199	15.2307724391295	75.8343628593911			-53.83838832466	154.119712700373	-13.6828976871937	-69.0402737089134
186625000	-27.6973322637368	-138.671410195509	15.2508282486835	73.8830719382166			-49.6107013118112	83.5376147440914	-13.6408334869473	-70.9089850144447
187312500	-27.6716464331327	-140.712473630755	15.2421062131819	71.4827111306121			-48.6346066519232	118.242749367684	-13.5788386665016	-74.8082492606901
188000000	-27.8529686494384	-139.169581273607	15.2447267970876	69.5834363800817			-50.1413131841891	77.0445090254144	-13.6040417474585	-76.3123417784973
