# Hz S DB R 50
100000000	-29.5048613805866	40.5742790934929	-6.80680775978188	-1.11194937146312			-60.7906923508868	57.299345834629	-3.57924576162569	81.3109632567842
100687500	-29.8981346554534	42.8447688515854	-6.40497869874156	-3.41245379782332			-73.1475774517721	-99.6845896879401	-3.53084076698522	78.8299617181259
101375000	-29.4958785667962	40.6654633081535	-5.97877560547602	-5.22739105894398			-55.7430105718264	35.9354822478682	-3.55165431551847	75.816377265867
102062500	-29.3934125948842	41.5816592048579	-5.59302703299103	-7.68795628855483			-67.4194220362269	-24.5357835816546	-3.56587410535433	73.230561501096
102750000	-29.0197322958852	39.0929284492487	-5.1836713526584	-9.90157300146931			-58.7945842773833	-80.3207239383489	-3.57049092623924	70.3079158723689
103437500	-29.8793864943206	39.0392334064379	-4.86692340511661	-12.6271991000155			-62.7671333640351	149.685089750782	-3.55357426537411	67.4424032685045
104125000	-29.0981496431146	36.9701781316684	-4.53549360901319	-14.5944661638932			-57.0893132298277	83.347976215678	-3.59352272623297	64.7835137960996
104812500	-29.259913752473	35.0018936838828	-4.1886358615662	-17.3428961285132			-61.4602411161982	-42.8154931982092	-3.60694288294394	61.6406050715754
105500000	-29.1069035444371	36.6784406466094	-3.86474180796609	-19.6539833199546			-64.2455960862723	63.3940589307132	-3.61750285568011	58.7597501260223
106187500	-29.6016945983611	33.6585342998544	-3.62273985291139	-22.537314948913			-56.4203049738264	-23.4913501631241	-3.63147810852623	55.6263779485384
106875000	-29.3467739861111	35.4436795853447	-3.36002917891988	-24.8084310843626			-72.1398389440743	137.704213553282	-3.67280762531769	53.05178915499
107562500	-29.0948782208395	29.9507483156419	-3.11585641355894	-27.6545003918594			-55.7792232567541	-98.7021461454595	-3.69322931857595	49.5496677716172
108250000	-28.6014707070645	28.4590772253731	-2.89716448387826	-30.0763640879201			-69.9263744641099	-28.8361451501143	-3.74747880337158	46.8136370485127
108937500	-28.5766927704263	25.6243367466457	-2.73689611035969	-32.7150408958547			-75.4235304200549	-19.971513557678	-3.7267038215597	43.7891742516018
109625000	-28.4194749003388	28.3588393024723	-2.56152146133485	-35.1344103074089			-65.0942555817106	-109.482620396092	-3.80045143856642	40.8501328770845
110312500	-28.1745002881689	23.2121974289908	-2.44151684969855	-38.0279364026166			-55.5152964024661	-23.0125880402167	-3.81589146433068	37.5452234720639
111000000	-28.1199793011042	23.9093268897252	-2.36086624646223	-40.5306155067686			-60.6247510837134	102.225248903262	-3.93777896733246	34.4901503289334
111687500	-28.256117821771	17.438423605995	-2.34086443297759	-43.4807906162018			-55.3526033753605	22.7306028171008	-3.89693703646668	30.9007160551826
112375000	-27.9954093499262	20.1923471277707	-2.32318514627907	-45.6290252251035			-60.1502761680719	-142.411131010505	-4.00099636076409	27.8782501755726
113062500	-27.6567667508267	14.852028728735	-2.36885704825034	-48.0871741299174			-58.2382946411832	27.766135451316	-3.99994557165391	24.6025094247168
113750000	-27.6572215285598	15.304195830052	-2.45938340276547	-49.890166638093			-59.9833401656705	31.8013433337843	-4.05827725776225	21.2354621423716
114437500	-27.5191967827675	10.4404202830267	-2.60477883044698	-51.982138866006			-64.0489388770612	12.3297645159545	-4.09119190991725	17.7489054619768
115125000	-27.5851272173072	9.20604584995951	-2.75207469945307	-53.5703756991556			-61.6965619855784	-60.0451483865657	-4.17493822717156	14.0916320962035
115812500	-26.9961504314755	5.86148831249363	-2.97492506032294	-55.0678437724529			-57.9396460332286	58.5338707960077	-4.22178248166131	10.3321566087596
116500000	-27.2639515277324	2.49648377986507	-3.28443239955868	-55.6655709679586			-60.2405917921339	-84.344660281795	-4.28881478463637	6.58258594368187
117187500	-26.7901615642942	-0.982331985518704	-3.63029673810583	-55.9853126773835			-66.4143187789515	43.1073399546726	-4.31387346041879	2.95393798113
117875000	-26.7229702536123	-2.85905978091856	-4.05074367808161	-55.0994229486307			-63.2604112207517	-94.6266235875036	-4.41264518267534	-1.01508563660878
118562500	-26.3629013597733	-5.43856736789163	-4.45346632423237	-53.2795090758903			-63.4966977348546	154.538249960065	-4.4632277211379	-4.99608974023828
119250000	-26.3643359471848	-9.33901918198278	-4.78407157272989	-49.7149107533111			-61.3415446073837	-115.190163240377	-4.56009865711433	-9.20333260324567
119937500	-26.0277208702136	-10.8516560681406	-5.11760169753622	-44.6334576644415			-59.6490539116912	28.5947118276426	-4.61168805533288	-13.6612222750799
120625000	-26.1566865174789	-16.2554154344678	-5.11639259551516	-38.0415095703664			-62.7269945351867	1.91587929589151	-4.70457697237802	-18.0487741714746
121312500	-25.593961628586	-17.7537893609034	-4.79335579366467	-30.2729528526943			-65.5925497498133	-134.397400823181	-4.79685151737851	-22.7199852781922
122000000	-25.5535408845825	-21.6578369607777	-3.97990271518649	-22.6858791427247			-62.4349133599522	-47.7355578067421	-4.91050791144325	-27.2776330632268
122687500	-25.7363546909388	-22.4375346560765	-2.83286137178534	-16.8059076269747			-58.0067028665392	82.1386329481977	-5.07821074008854	-32.3111565038399
123375000	-25.3774473695039	-27.6600758618929	-1.42960926279372	-12.9592829539074			-52.7053199925158	-54.7448716008468	-5.21935696980184	-37.2943082558732
124062500	-25.0683405182802	-29.7767615674263	-2.61305444112164E-02	-11.2234372753965			-69.783286320404	77.0518958198438	-5.44235532432846	-42.4169572957521
124750000	-24.9962067128745	-33.1410285220782	1.46015190517986	-11.1310139583623			-54.5089432790871	-0.477406821676467	-5.65634319368769	-47.6176999368666
125437500	-24.8939867080802	-35.0509733332974	2.79560691460539	-12.846142897986			-57.7333929908454	-99.3318974039763	-5.8968378135791	-53.602603885366
126125000	-25.116645835271	-39.6450084320806	4.06753806728557	-15.7441217750177			-52.0594041679054	11.796257910058	-6.22228540841335	-58.2457569137186
126812500	-25.1535542300285	-42.4160532113883	5.22580979311353	-19.4710775359919			-64.502689934248	-61.3632141559108	-6.53999849860427	-64.2273002482294
127500000	-24.7420567555786	-45.926887081907	6.28782040891171	-23.7107916502049			-51.6985843250191	-8.64984733180393	-6.9057104033091	-69.0199526214542
128187500	-24.9769255873354	-48.7888601870422	7.21623401200848	-28.5432310426236			-64.1429128843334	-11.3865526603747	-7.29366955067732	-74.5728028134381
128875000	-24.8791956510352	-49.6698440397069	8.07341210712986	-33.4845647381799			-54.19176511384	-8.64452709836545	-7.80770027275904	-79.6999319380473
129562500	-25.2939291454847	-52.2718972075098	8.75605521466122	-38.9283540690359			-59.8990224465075	-87.8042249894377	-8.19043653519778	-85.3313576256961
130250000	-24.9725121920685	-54.9640442258008	9.45187547723361	-44.0825782553279			-55.3091725240959	-1.88200253728306	-8.82777240461438	-90.0216355381601
130937500	-25.3962152632751	-57.6886789201866	9.96541193999846	-49.7405321721999			-54.9400056440816	-49.213069049283	-9.25378747608165	-95.1158557763999
131625000	-25.2027695465435	-57.4328504733376	10.450831840061	-54.8463148744756			-54.1904691965401	-30.8945506065879	-9.89437637690724	-99.4906413023247
132312500	-25.5667213761635	-61.4211831987103	10.877253678424	-60.2184386033986			-53.0139013661321	-60.4517989097654	-10.3182794165529	-104.247165045904
133000000	-25.9459126648605	-59.6328419521243	11.2346997272166	-65.3814483134549			-59.8783269571124	-42.3186994309159	-11.0463169918909	-108.519859021145
133687500	-25.6583405063563	-65.7763447182317	11.5474676311925	-70.3376209206792			-52.4843739090475	-67.1408322141053	-11.5203362623993	-113.039607829718
134375000	-26.1475744324796	-64.4680169029191	11.8728855937455	-74.9898556420164			-61.1482040699168	-13.1069131127182	-12.1448628873938	-117.844929093066
135062500	-26.2605306636814	-66.4031428984596	12.0712738648925	-79.7515584886716			-49.7012372880098	-53.2904604233436	-12.716101366304	-122.000626453827
135750000	-26.5899342573378	-63.1065036533447	12.3148042242047	-84.4222942190331			-55.3605775455843	-64.5274308024502	-13.3460939427062	-126.150379088191
136437500	-26.3830734143239	-67.8288409273868	12.4672748416024	-88.8661482866107			-54.3648992377916	-64.976893367956	-13.8688029676693	-130.240704837346
137125000	-26.6482582312093	-67.1536756831317	12.6778181118048	-92.810821725185			-56.4247018441257	-76.3997406659615	-14.5082462606336	-134.536715279406
137812500	-26.7779227722912	-69.5713865667162	12.820493924807	-97.2926111077426			-51.0371755137207	-68.1603022949555	-15.0807481703392	-139.051361682637
138500000	-27.1678091408785	-67.8607630706246	12.992475805293	-101.138684864866			-56.6885314173553	-124.145723258347	-15.5618117852715	-144.86976903228
139187500	-26.860271407747	-68.688404633748	13.1076705250482	-105.433851027979			-51.3467296752737	-90.5927216810157	-16.2718472928983	-149.039475097467
139875000	-27.6760998181701	-68.924981540736	13.2580758983027	-108.936682199765			-51.060716002439	-96.1022050562612	-16.6148181228534	-154.65996356011
140562500	-27.555289180548	-68.8277977958262	13.3400225770133	-113.008307293112			-50.623433096298	-80.5999270066111	-17.3274660316571	-159.49437919209
141250000	-27.6295041338421	-68.4737079382175	13.4967740721758	-116.442363354606			-52.2418275412974	-122.441017535948	-17.5955533666819	-165.025044844393
141937500	-27.3361889423902	-70.7042076321924	13.5232081249052	-120.343752548874			-47.8869687876573	-83.1693819903738	-18.235804021312	-171.461117401043
142625000	-27.8129331057718	-70.6337040996892	13.6464079064725	-123.755490691224			-48.3912151751873	-121.857834421054	-18.5676174800203	-176.601700213158
143312500	-27.5212378109866	-73.7853587846681	13.7217140382234	-127.48577618776			-51.384266305144	-80.3713760122136	-19.113363533323	175.52921790914
144000000	-27.788680168926	-72.0733997749518	13.8054220259186	-130.565286685041			-51.2608079587185	-119.159154004676	-19.3810813183149	170.666876667478
144687500	-27.7907684660199	-74.3123096772095	13.8409042950835	-134.404764768275			-53.2010996086672	-132.257611049433	-19.6372297202017	162.395180673822
145375000	-28.7041448925779	-77.3846715520852	13.9216488593909	-137.521398133667			-48.6582439100904	-122.663734476141	-19.6989628029562	155.997773153893
146062500	-28.1110427278324	-73.1663052048608	13.9577687119124	-141.000753456706			-55.2476040206584	-115.540205396164	-19.8462448321002	147.257850472285
146750000	-28.5726864213255	-76.7391752187023	14.0103366438874	-144.126958602319			-47.7562266037437	-110.392310487317	-20.122763843171	143.181758754238
147437500	-28.3020079455261	-77.1040375931988	14.0351670138887	-147.583653243378			-56.088382111169	-141.898894904766	-19.9887684154608	134.832615793146
148125000	-28.5555773715947	-81.5342011920064	14.0741601764283	-150.565205451109			-48.2123871423441	-117.592614755154	-20.0203059553258	129.127850435736
148812500	-28.635393387812	-78.6175693318722	14.0880426999835	-153.851271908036			-52.0701183070997	-142.305881132669	-19.684327814617	121.87121675845
149500000	-28.8417815372965	-82.2291622288193	14.1286377194316	-156.61345130001			-49.1175435526766	-128.399994556745	-19.8978389312417	116.501473043021
150187500	-29.010157331187	-82.9898700093836	14.1167750676598	-159.784807440085			-54.0637246147762	-154.291226033292	-19.5709530839762	109.825115614872
150875000	-28.8143526316561	-84.7570914259887	14.1793532294453	-162.680032995759			-48.3999537864201	-111.06951010471	-19.6262051402557	105.479307073567
151562500	-28.6503568293006	-87.5193104871012	14.1610326540655	-165.650429356811			-49.9139075525638	-147.971333614152	-19.1693134038543	100.968355897626
152250000	-28.8830437170188	-90.3929798939371	14.1908350730226	-168.330675259722			-52.5442833091539	-110.870712923787	-19.1800358684597	95.0520981579821
152937500	-29.6680849323779	-93.9101934099412	14.1938934004671	-171.056725997807			-50.2928619390954	-167.52651581877	-18.8295960941259	91.0176462460729
153625000	-28.8879224861425	-95.7291194009913	14.1968747199862	-173.59682540685			-54.7974458745183	-142.084088944385	-18.6861166969818	85.9889087967376
154312500	-29.4374822309306	-94.6304249104811	14.2163764440027	-176.388092094318			-46.9100815767585	168.233620938617	-18.2701586540263	82.8027309545796
155000000	-28.8262590518315	-98.826715287829	14.228397548759	-179.274534021192			-59.9732082223831	-126.064416408806	-18.159550440263	77.8962828455898
155687500	-29.4874822102952	-101.527230506452	14.2066810340638	178.493033980828			-48.7717942660591	-152.503362762026	-17.9752902943602	74.284258860969
156375000	-29.1647352444687	-101.190433754785	14.2727414697029	175.900264981802			-55.5744409533454	-154.245786642425	-17.7935000614731	70.2419333558611
157062500	-29.727507230677	-105.44919233752	14.2421906866597	173.171438506052			-47.9903389385831	-164.735807479171	-17.7776972196764	67.3218349622729
157750000	-29.2988067738999	-105.188148590948	14.3105636122002	171.009060078791			-49.3286095186377	-168.343985704902	-17.4272190407207	63.6088865752185
158437500	-29.8453478294073	-109.775534330022	14.2764549127746	168.24186756564			-48.9630385366233	-170.461782411213	-17.2918262660545	60.3096389764377
159125000	-28.896602044533	-108.263611224776	14.3232734462346	165.90797586239			-51.3625744444817	176.789301945026	-17.06440646942	56.5753683431104
159812500	-29.4224983467918	-113.868020696289	14.3409482651921	163.301378015693			-50.7169294953371	-173.5567952053	-17.0513918045871	52.9329738595789
160500000	-28.9653845370761	-111.535859067324	14.3701960587933	160.848737323144			-53.6023272121273	153.313896950504	-16.8030610810266	50.0800602442926
161187500	-28.7292099403283	-112.706028916318	14.3232290107657	158.693057626254			-49.5917681727639	-164.752732962695	-16.7227713551523	47.1108687674269
161875000	-28.7935209308955	-110.285990259549	14.4077762448852	156.167467406154			-52.6702186876778	125.675332651324	-16.5293968154028	44.8464810684113
162562500	-28.3379632084597	-115.406188175699	14.3559883516187	153.572960641488			-53.8588158693965	-162.450786038843	-16.5065985299885	40.6714878719287
163250000	-28.5003100794929	-114.699788403564	14.4129595144574	151.211303776363			-49.8110266300175	171.689408767535	-16.2675710736856	38.9573106282544
163937500	-28.2422023014232	-118.291277793436	14.3777174278929	148.810887816897			-54.7517914678248	155.447233448847	-16.2735979620635	35.8095577130742
164625000	-28.381734008316	-113.872342823799	14.4264663516469	146.495347377393			-53.0078392210146	153.927235109612	-16.1053722202518	32.4587447766144
165312500	-27.8199217110289	-121.112363413871	14.4015471561282	143.95954132757			-54.3064627716542	-167.044384648557	-16.0457988718074	28.5780198842437
166000000	-28.3737891636116	-119.354112526644	14.4266609106542	141.555133765036			-50.5445524259699	138.694167550674	-15.9986537998208	26.691055967595
166687500	-27.7790420260249	-120.180861706249	14.3968559142499	139.299244019207			-55.5734382087769	131.789870785316	-15.8463979313959	23.3490583217262
167375000	-28.0665976945193	-121.772540027527	14.4453368320228	137.14633198795			-50.8144723607308	153.967747182385	-15.8378233256538	21.764198435385
168062500	-27.318574301646	-121.474231552934	14.4060426445411	134.821870991375			-52.7064126868916	-164.396524427752	-15.4542221748665	17.554723948807
168750000	-27.6491825216309	-120.822534264259	14.4298876689991	132.802887473371			-47.2219016660064	166.571640790626	-15.607626642685	16.1824450300647
169437500	-27.4706844349566	-122.337292385515	14.3545712557579	130.341951034481			-53.8798558905449	-163.433471767775	-15.4288253154534	12.0553026260968
170125000	-27.2437928312825	-121.998309452022	14.4273652751373	128.171859521244			-48.9078619186075	159.713048475686	-15.498644312499	10.3425474512854
170812500	-27.2619344769195	-119.471534168092	14.357729637369	125.707354469865			-55.2681520573659	147.441774452537	-15.2475093316067	6.29113133929552
171500000	-27.535699904899	-124.625595746357	14.3810835646945	123.750674760045			-50.2539867043477	154.749538182049	-15.4526489090159	3.92951501991601
172187500	-26.9310118921015	-121.07819637351	14.3502291528637	121.516697271738			-52.097254412081	155.020753684706	-15.2135129463089	8.62947699701351E-02
172875000	-27.3851815810061	-123.737055864733	14.3845339765569	119.587214287359			-50.1217637140406	146.146399297731	-15.204180357874	-2.66544215383277
173562500	-26.9349851537878	-120.857707738218	14.3383172238837	117.476431939863			-53.2880804463548	140.471244220726	-14.9949321593952	-5.63232282499672
174250000	-26.9369336719526	-122.695727487313	14.3787871892995	115.526968362321			-52.2759529459528	175.879344518581	-15.0943769399697	-9.27102152003917
174937500	-26.9394484373053	-120.92502740896	14.3617395968632	113.323090292611			-53.1822593319155	153.863811773256	-14.9987619099967	-10.9108309018356
175625000	-26.6543710838094	-122.96692556972	14.370514003695	111.60263556255			-50.9761173255297	144.0934535416	-15.0118626482329	-14.9890888283823
176312500	-26.8207559939374	-120.026269708877	14.3579390310253	109.52103355003			-48.4843779183934	114.682786021996	-14.7006413582514	-17.7921839588645
177000000	-26.8035057442126	-123.21856130451	14.4022196483736	107.686870740109			-52.8216043895966	170.216466980106	-14.8040902708849	-21.058370709588
177687500	-27.2022037823822	-118.595616295284	14.3709284379194	105.552071997752			-50.6615659866535	136.146148365265	-14.77751874119	-23.2741643130184
178375000	-26.4853816169608	-123.165774622861	14.415083754386	103.606849289347			-52.0645270359455	154.324538296583	-14.6517728342915	-27.1383245089329
179062500	-26.8017886424948	-120.298639235865	14.4157136457168	101.483179868873			-51.7532932935577	137.215773476057	-14.6638849681625	-29.4146077524102
179750000	-26.4666366158266	-121.289345578877	14.437384849507	99.7837039818565			-57.463501009606	140.015984540653	-14.4952117125217	-33.0859994000783
180437500	-26.6160241272007	-119.087619047905	14.4951878435591	97.5404282639286			-48.7362050576649	110.651125776365	-14.4324645187148	-35.7054693724696
181125000	-26.3076703897356	-121.215291460711	14.5071977780504	95.6934321840991			-55.6394578242052	97.4613813947992	-14.2800782717526	-38.4008051849874
181812500	-27.0311586595069	-120.900874134145	14.4972674561634	93.4834085234041			-49.1976662339859	122.515521023428	-14.3873356294505	-41.9394029963429
182500000	-26.289164083726	-121.087522218735	14.5479212769955	91.6589894700302			-53.2803936480475	85.3583740662037	-14.1852954499453	-44.4126074812473
183187500	-26.2792363088927	-122.654588580243	14.5773251298586	89.3681661313941			-49.6320670128971	113.157929554474	-14.2307522105419	-47.9847153428219
183875000	-26.5232621433088	-122.638828509493	14.6176198165289	87.3936028311567			-48.3509705290218	104.574227856219	-14.1709422797155	-49.4030952076833
184562500	-26.3615948689371	-125.370226421644	14.607154893206	85.4809973041292			-48.0603367916039	118.698635596949	-14.169557850436	-53.0466713432587
185250000	-26.2007200891865	-125.800656731169	14.6555543606763	83.3859963423232			-54.4956288914882	98.4522270456997	-14.0348904245866	-55.2005995529068
185937500	-26.5702444065847	-128.032880059048	14.6339779876546	81.0643844957564			-49.8870217359926	133.543146415401	-13.9883616459569	-58.6021152656159
186625000	-26.3653963459066	-128.011736248835	14.6607140014988	79.010364424129			-54.2458141461715	93.9124566044833	-13.957378534064	-60.0209706157834
187312500	-26.3988026870388	-133.157611724265	14.660895931791	76.8522642088091			-50.0558257576912	82.8679320254472	-13.8773935677966	-63.5094064942341
188000000	-26.1567499175384	-128.375215393116	14.6819191675861	74.8272609421102			-50.5059158976657	79.5430072308708	-13.7515579201215	-65.5844080535322
