# Hz S DB R 50
100000000	-19.599892178687	120.941282195445	0.5868917514174	-0.901723140118052			-56.292931228654	9.53502604832961	-3.56304884167238	81.2162989988015
100687500	-19.2795690062025	118.011440009785	0.983606661810253	-3.04877579950529			-55.7341559906747	72.2691379526236	-3.54021846398214	78.9010610825334
101375000	-19.3812875777454	114.679093172923	1.42869364242457	-5.13121848670293			-57.961228205352	-38.431265341894	-3.54540807234027	75.8475569711166
102062500	-19.006550781454	112.543492209691	1.80373736484494	-7.4352762151674			-61.9805977108405	26.335786970185	-3.59447467259006	73.2171707927048
102750000	-19.0876961511323	108.642245334072	2.20854788369079	-9.78415474703667			-54.577742284367	-7.41965897361399	-3.56446544206769	70.2480922497378
103437500	-18.8405026846632	107.27203259913	2.54957619602451	-12.127020670911			-59.4828070099397	-6.74379841481149	-3.57032021343035	67.7225828254677
104125000	-18.889078748667	102.729221724103	2.90556580644078	-14.4619180436345			-53.4576080791808	10.8190629122952	-3.59126308410808	64.713019960541
104812500	-18.7996038588797	101.089895491799	3.20565212146844	-17.0844848040786			-59.7173525843734	-20.3902736305241	-3.64592559052569	61.879657118626
105500000	-18.6272931152122	97.5081691878431	3.55843022650166	-19.5355860936914			-54.8818059384516	23.153008271892	-3.58084248257486	58.8997182949419
106187500	-18.6291074148401	96.3305301281811	3.77171967468184	-22.1422090741186			-67.8030540274041	163.346657183399	-3.6716134370509	56.0797722015064
106875000	-18.5530325570806	91.4487243672917	4.08043086404819	-24.6945128480159			-54.3461384157985	3.17078888005973	-3.65108989121543	53.1579483937492
107562500	-18.467436993055	88.9937225382846	4.28163369371595	-27.3531479173766			-79.1437297246862	-172.165222981554	-3.69512612207	50.1547355528933
108250000	-18.3050745437146	84.3356910714631	4.55014940836795	-29.9434601074971			-56.0276864590182	47.3463317505456	-3.70167586034886	47.1021562333918
108937500	-18.4244972855281	83.3273675957914	4.68888552000799	-32.555634088029			-59.5518807180678	-87.509700781176	-3.74410808028352	44.056763664604
109625000	-18.2204730214207	78.9516636121856	4.90957312640821	-35.2066701239902			-63.7302200615468	-94.2162810824856	-3.78423331840061	41.0583219676868
110312500	-18.1771208901528	76.1606465258325	4.96595325944318	-37.9461364703774			-55.8338639214306	-50.4621786076775	-3.8626225160774	37.717252031638
111000000	-18.1200743535848	71.716395027435	5.13897928031204	-40.4926972544288			-54.4377477185964	24.8986664802827	-3.91633966529961	34.500237731334
111687500	-18.280655655376	68.2414948117895	5.11320606257581	-43.2015695966465			-62.5616088386457	-64.549241688261	-3.93119570136845	31.0163140953678
112375000	-17.8623954924925	64.9851186993132	5.17018166579667	-45.4908440374503			-60.468882128679	44.0982241935164	-3.9841865129521	27.9473310403433
113062500	-18.0328902449535	60.6608751497217	5.06393949372266	-47.9559102878686			-58.7530295927217	-32.7909067724573	-4.03736016498337	24.6465769624577
113750000	-17.8053998358878	57.8179864052947	5.03093515577451	-49.8467841154796			-63.8536371268792	-2.33615356950195	-4.0822545072352	21.2369541648011
114437500	-17.9658743089934	52.5751329753822	4.86049731022187	-51.9265754680297			-54.6520128329184	-1.33975656838689	-4.11642266861416	17.6133245488131
115125000	-17.8036141420102	49.6414982517605	4.74160649395541	-53.6667755786878			-60.8718938355283	-152.734875506205	-4.20726979258682	14.2129906405045
115812500	-17.7796983112078	44.2586493645871	4.51094387740287	-54.8856434275567			-55.5600206177247	-15.6837677610153	-4.24814625617639	10.333852475204
116500000	-17.7082405449558	40.9343919177846	4.22821173287698	-55.7573707938518			-61.5357513809474	-117.293645612699	-4.30424963199375	6.48899105050024
117187500	-17.6453652573364	35.5667660199953	3.85516986876075	-55.9510475786886			-59.2455406087254	-46.4104104256876	-4.36736856770732	3.01250213379441
117875000	-17.5095414422411	31.8003620773904	3.46543815444626	-55.2036304913191			-70.3117511897575	-90.0028410222778	-4.42764957943831	-1.00268940744283
118562500	-17.3317619996042	26.8408785186993	3.06161067942834	-53.2694573270831			-59.1567121256944	-16.9602603616646	-4.50559852649717	-4.93334133320554
119250000	-17.4645792967342	22.0471362746844	2.73098432303179	-49.8870152263378			-66.2480815014074	171.028699951513	-4.60641758672187	-9.47509092470714
119937500	-17.3359728939034	16.6101606551397	2.43636450205107	-44.8339633741751			-51.2546514225658	20.0959564018502	-4.63659042833888	-13.5166903894202
120625000	-17.3056478822843	12.111398851724	2.47830072913257	-38.2956055043327			-67.9413221214544	161.871219348465	-4.72125671195463	-18.1401047820242
121312500	-17.1567738129801	6.30042307344886	2.77208587968937	-30.6244012029259			-54.2150363912986	-26.0192419975396	-4.83493038994073	-22.8104562991977
122000000	-17.3183316528528	1.19329832661308	3.58225875930763	-23.3222212496946			-63.2771705321177	-45.259081843194	-4.96333993749536	-27.5150276264522
122687500	-17.2278571388696	-2.69329801268828	4.7076084256012	-17.2585785578592			-52.8634901923842	4.5515316820073	-5.13279069287293	-32.2017938815235
123375000	-17.3115869317923	-9.83655788780471	6.09161963559347	-13.6768514028082			-57.8758407180159	-99.2610303951028	-5.25347350815787	-37.4982162986932
124062500	-17.2124139403888	-14.1757894187171	7.48943976551313	-11.8522076412788			-54.1034256651904	33.4614978592943	-5.47916957982447	-42.5717554189786
124750000	-17.3795063309923	-20.8277141749502	8.99699828160371	-12.2054662813375			-58.9843148177843	-12.8451104037832	-5.65025617995007	-47.8171610310643
125437500	-17.4037409761392	-25.3029120862776	10.303359005576	-13.6521709908009			-49.9730664494859	20.3282785627254	-5.93700045677283	-53.2551770259326
126125000	-17.72154801046	-32.0752835619039	11.6299351404659	-16.9097073309114			-51.0433750018303	-24.8142802453189	-6.22961625541536	-58.6035662367195
126812500	-17.8292892415889	-37.0356262164938	12.7492307168748	-20.4724009232601			-50.9714330332673	29.6485410991057	-6.62113915148648	-63.8141998736371
127500000	-18.0392631633234	-43.3489634941222	13.8139668844348	-24.8870919520653			-50.3497940392476	-34.008880860814	-6.92288834789666	-68.8669737240833
128187500	-18.4532374560489	-48.0162444186031	14.7251285526726	-29.6409492801605			-51.9518484834437	-4.34285848648722	-7.32986471635186	-74.2052732209525
128875000	-18.6338778645785	-53.4343357083299	15.5868516028096	-34.8430979302698			-48.8402341013764	-24.3339352980377	-7.79140152628575	-79.570211441092
129562500	-19.2146519324716	-58.2070602870902	16.2369625727996	-39.9550954956457			-50.9042291584186	-11.1793502431778	-8.22154859737652	-84.7193506965359
130250000	-19.3002262138511	-63.4318879874155	16.9370738115813	-45.466223443797			-46.7291104858348	-40.2515611329474	-8.77375343152585	-89.7727605833689
130937500	-20.0214046949969	-68.682106701425	17.4367671648677	-50.7889935983624			-50.1618887247907	-12.5370369242512	-9.22691074838974	-94.5791750991208
131625000	-20.2874818881178	-72.7125589137043	17.9404694721911	-56.202891428499			-45.0530436891454	-41.6388739820707	-9.78198466443385	-98.7330852802597
132312500	-20.8973322953537	-77.1361853761473	18.323559424346	-61.3473365685979			-49.7167786147011	-31.3943885255971	-10.3118688297638	-103.462721922962
133000000	-21.3215838914076	-81.2720793993302	18.7080677877017	-66.6728003977532			-47.2695397907276	-39.1725245091502	-10.8927374618697	-107.895146778285
133687500	-21.9667168889514	-84.8679997392005	18.975591568456	-71.4662383276076			-47.6332233975838	-59.5326698126784	-11.3425470718488	-112.554709582951
134375000	-22.6340408286862	-90.0905339348861	19.3109350664267	-76.2894557609901			-44.7625228938801	-38.1333087487031	-11.9429556178185	-117.273079697182
135062500	-23.0797748940537	-93.7393123340112	19.4735531582049	-80.6695733114785			-44.8440458116752	-67.7997270860052	-12.474601339601	-121.298493946862
135750000	-23.7877452290482	-93.4339385251971	19.7499726928088	-85.6041646888206			-45.4276259407105	-55.5928007635733	-13.0313334360308	-125.808203758167
136437500	-24.0595779341765	-101.02579720687	19.8898208500409	-89.898656960377			-45.8236589712044	-77.0461730676776	-13.5729668575401	-130.449701665662
137125000	-24.91058433193	-102.097153150668	20.1400349343478	-94.0217530907671			-47.257212335312	-72.2307455346029	-14.1370408858464	-135.20106503111
137812500	-25.5814159304891	-107.674053574641	20.2229492516597	-98.2099090050417			-44.3624272542691	-83.1182411965799	-14.6057450608301	-139.163992689363
138500000	-25.9710815439474	-108.27660531707	20.4208975121229	-102.057265951821			-47.1293194768451	-81.646666420129	-15.0803511326723	-145.801136045278
139187500	-26.6147230040849	-111.706715169451	20.508456627506	-106.162956160891			-44.8685078058263	-83.0572135279224	-15.6637946322926	-149.653620500919
139875000	-27.7336787315095	-112.609978953682	20.6760173663778	-109.800025481731			-47.4230567333462	-79.9124631581328	-16.0239745192185	-155.551238168125
140562500	-28.3263571041417	-113.152762910785	20.7279260265158	-113.694962032739			-43.1349462512638	-94.4856563460297	-16.7249619989065	-160.434739145605
141250000	-29.3741361328663	-116.746122878791	20.9000493603463	-117.370384908059			-45.7654622463779	-93.9268702927543	-16.9592956658058	-166.826979548639
141937500	-29.2946233379087	-117.979971588998	20.9166706680337	-121.267878412456			-42.8863003739102	-102.870553018852	-17.5462555206255	-172.593887360498
142625000	-30.7005401723772	-117.716244104068	21.0536713782083	-124.731580042026			-45.389952077999	-105.029741012953	-17.855906607255	-178.742014859681
143312500	-29.9518560733942	-119.599425624369	21.1259985507692	-128.234838847747			-42.3572572426889	-100.554465303934	-18.4196369540538	174.784912913235
144000000	-31.2742269020591	-117.322295344122	21.2230913728575	-131.367127007503			-46.5503670169263	-119.482725117466	-18.4435667512628	169.006227475289
144687500	-30.9678627213316	-118.192106400764	21.2739782719559	-135.166718478015			-45.0015392253579	-99.6056949849372	-18.8358135103245	161.961404314562
145375000	-31.9356237987333	-123.032625878629	21.3401965206493	-138.507002718538			-43.8397028714312	-125.471699647014	-18.891472206257	154.917167511376
146062500	-31.3259086904349	-116.453783513111	21.3647143644753	-141.693141860709			-43.6895585312317	-114.598594104723	-19.220725206856	148.079843291891
146750000	-32.2107015701225	-121.572549600121	21.4440264340822	-145.115681895778			-43.4924444837001	-123.082162585045	-19.4161680350271	142.938502372327
147437500	-31.4975360459872	-117.496947714029	21.4625740761999	-148.172397759664			-45.0818571081355	-107.182126910435	-19.4275433135059	134.199438412564
148125000	-31.5333650452067	-126.632067458175	21.5197201908686	-151.356771880653			-45.2994746760885	-134.148177534293	-19.2675390926153	129.77032092538
148812500	-32.460087530589	-124.124610427406	21.5164117202955	-154.642402165699			-45.663997753589	-128.756275219947	-19.3039357714182	123.166886643627
149500000	-32.1349507358544	-131.936801393601	21.5902056161614	-157.508886846711			-44.3466394004035	-143.166632891746	-19.2332105584332	117.306345171241
150187500	-32.7100387138028	-128.854718131535	21.5617327892441	-160.565754658789			-45.4057723125186	-129.98205126443	-19.0021683877514	110.600401340558
150875000	-32.4790861669546	-133.699744229458	21.605967421296	-163.520132046154			-43.1799975621831	-140.214756840686	-19.1167221712968	106.720968224649
151562500	-32.7044743087829	-132.462886450967	21.5784410038031	-166.217759307047			-45.0128822459834	-136.805245362123	-18.6248755288471	101.67936129604
152250000	-32.6263831864713	-141.056954505119	21.6095289118314	-169.202957331752			-42.6293220120942	-140.74259800618	-18.6854080164962	96.3626321723022
152937500	-33.7996501602668	-143.414102258241	21.6194805786461	-171.863600169078			-45.0861491740408	-147.559370092655	-18.3017196021041	91.7102540476622
153625000	-32.4147136118676	-145.288879144965	21.638002084877	-174.674642057588			-42.1439763375172	-147.827934205654	-18.3378428599225	87.5897512912498
154312500	-33.7759265054365	-144.614292151115	21.6282225473418	-177.097619302721			-45.568606070492	-149.847864120541	-17.8092472833748	83.7169741575399
155000000	-32.3325562950926	-147.06295016514	21.6604316412625	179.885075064347			-43.9820804646821	-138.941303849015	-17.9021025929751	79.4854917789184
155687500	-34.0794679205438	-154.099346833411	21.6331239731197	177.719682341389			-43.5672984786367	-159.186346276092	-17.5958909929224	75.3478767949431
156375000	-33.2061084063193	-151.764921893748	21.7024200020479	174.786417769741			-42.9110801833989	-158.052819817374	-17.5137751472658	71.4316438227676
157062500	-34.3537205493011	-161.048806547766	21.6524997659896	172.711305199847			-43.0612466715342	-161.795831295856	-17.2383782297153	68.5500445264324
157750000	-33.5396958657197	-154.425357802225	21.753635720593	169.966810615498			-45.0333229294947	-162.122113675247	-17.0327285908906	65.1046638251568
158437500	-33.6750643423338	-166.563918660244	21.6960329248264	167.710015562484			-44.5196707520053	-179.098190254673	-16.8181760966208	61.7590122141736
159125000	-33.2670714473984	-160.760639905942	21.7952371441856	165.10425887563			-46.9803156678997	-167.872062323727	-16.6489505733409	56.9191511421108
159812500	-33.6058192974143	-176.596725501498	21.7514901368213	162.741500468963			-45.3556905313953	179.872115412503	-16.5856776775847	54.557125397931
160500000	-33.779908755444	-164.638591168747	21.8195822298747	160.170785867425			-43.6170447879771	-161.94874429813	-16.3875180381958	50.5868110919613
161187500	-33.9669422013335	-173.768261006802	21.746492336662	157.90617030836			-43.4399192234457	-178.594414349292	-16.3577593574458	48.1368072661644
161875000	-35.5593698823747	-166.825422629413	21.8820916631991	155.368865861832			-45.0863969049627	-162.1602772448	-16.1266911665549	44.4566988607685
162562500	-35.0305556555759	-168.731862343927	21.7964039386325	152.819993471202			-42.5447244281357	176.024691665094	-16.1021969800555	41.1365011297598
163250000	-36.2338066172739	-165.626739592247	21.857099703567	150.359845896221			-47.8117774782118	-167.007585936907	-15.925619233715	38.3475790280483
163937500	-35.2568589782399	-173.701153575858	21.8260125259432	148.114821920602			-44.8967293376224	173.553855035509	-15.8986009235147	35.6906650605785
164625000	-37.2078419766399	-160.953993565478	21.8682457045797	145.553535128373			-45.2405820616421	175.057735555687	-15.7141347324749	32.0107396715325
165312500	-34.987457922733	-170.062622192849	21.8267154955167	143.278013161289			-44.1572274165574	169.037474221297	-15.6462028756008	29.4105349574165
166000000	-35.3661775295888	-163.505748631053	21.8907032575159	140.774863953271			-42.9233419064086	165.316875242199	-15.4651436500139	26.4225505488678
166687500	-34.7416365635032	-162.8982072512	21.8464790281722	138.589770160721			-42.3020672687909	169.326860958495	-15.4921407875539	23.0164031721138
167375000	-35.9642106964942	-163.459365278062	21.8894877005365	136.204664338608			-46.6856584233737	165.946172840672	-15.3687634934322	20.892493784443
168062500	-34.5736003320974	-164.764177098793	21.8345234976085	134.061761875006			-44.142448812686	167.698037635826	-15.2527155684721	17.225402031568
168750000	-35.0763058455654	-162.774314720789	21.8891622772441	131.555508386638			-44.4280369973084	151.833129018225	-15.264483809915	14.5530769068716
169437500	-34.1604183801099	-164.719350342771	21.7979630470766	129.406934631884			-45.5547226038092	156.778541823549	-15.116864558326	11.1214267286655
170125000	-35.4600695507294	-162.175711581368	21.8553278370361	127.109381206763			-45.7097944712986	140.223994498284	-15.1535142994298	9.03810257497379
170812500	-35.843100818456	-161.94344111217	21.8003584249283	124.986528613379			-43.7993415928745	158.964716314033	-14.999769779399	5.74091258104708
171500000	-35.7589531646053	-169.204163394075	21.8305328715292	122.938316146292			-42.730553274785	151.968145963807	-15.0751844520184	3.71051616589128
172187500	-35.5671969107492	-162.439745949719	21.7595917769098	120.831459989194			-42.0845487786931	133.728265316419	-14.9151134309658	-0.10796129365986
172875000	-37.2093308712083	-171.895889672631	21.8429313558375	118.739723007473			-43.1743414976991	149.043983285251	-14.8412650125636	-3.12764344683338
173562500	-36.6593000181608	-153.380664767998	21.7636300398347	116.638509420853			-44.9465456690895	149.723814167897	-14.6558803998465	-5.69884116197223
174250000	-38.4009032715504	-155.51193102357	21.8346176902986	114.633386911716			-43.8512342496635	149.898740173739	-14.6828653078746	-9.24666034305204
174937500	-39.7610230726332	-136.861948544401	21.772845768903	112.574237282044			-45.1351677274231	142.571950219259	-14.5403114747078	-11.6894028013772
175625000	-38.3476787783631	-145.730693563676	21.8052403889758	110.627879146716			-43.5977013915971	127.116985740746	-14.5661570768991	-14.8521462631028
176312500	-38.9882867036657	-124.557596042259	21.7970048453512	108.651632262795			-45.0014847876571	127.785390959906	-14.3389127359246	-18.000074045715
177000000	-39.5240230871225	-130.628895132564	21.8453367985443	106.827778545986			-43.6038835121165	136.331413141865	-14.4631617815153	-22.0234525371764
177687500	-38.2003641025015	-108.119707272453	21.7805964147395	104.857916361759			-44.7922121228356	123.412865800853	-14.2611768152983	-24.1929227300393
178375000	-37.1610072318879	-115.042052917529	21.8563209186953	102.759326390992			-42.7984518827465	132.975606868159	-14.2663359932784	-27.3601996228811
179062500	-36.4995623877819	-104.014828142491	21.8305505288087	100.747391493671			-44.7475198475114	112.183428765768	-14.2119497837554	-30.0151196402398
179750000	-36.9735593411331	-108.152868667446	21.8700061721472	98.798205962952			-41.8284695201706	134.731724992383	-14.0104092243547	-34.0813923416127
180437500	-35.2551354478865	-95.1179185385499	21.8764761505595	96.9190940743829			-43.1482521980534	125.721730489193	-14.0065609307903	-36.3399378693989
181125000	-35.0328376185535	-102.588113710678	21.9139328981685	94.843124103129			-42.1345318382494	129.854064836031	-13.9246516755985	-39.992071762314
181812500	-35.2160183967164	-85.7861436166176	21.9389027633072	92.8709967031973			-42.2653131184174	103.70031078813	-13.8836590902665	-42.4273775978962
182500000	-33.5221766277597	-97.0318995247912	22.0230646633795	90.8515883686624			-43.4077382725262	125.343915273651	-13.8133295229785	-45.3009163509352
183187500	-34.0810505063422	-88.3157993175843	22.0072389708832	88.5707672248609			-42.4973099059016	114.833350890689	-13.7257555783431	-48.3536982063325
183875000	-33.3900322893098	-92.8995149361698	22.0589526830994	86.5037577657757			-45.3294522742747	120.000840000409	-13.6045496642323	-51.1530502881579
184562500	-33.0906939792924	-96.0430798261307	22.0286447215967	84.6514950350112			-42.9824003023579	111.203728967884	-13.6498303683267	-54.193806933959
185250000	-32.4966931337634	-96.9685156294339	22.1076122308809	82.5133128140488			-44.4627094311756	108.313139572745	-13.4898448031355	-56.9009243169881
185937500	-33.4116194216824	-97.3939629713547	22.0750817232324	80.2986381461081			-42.7273592237171	100.756991866624	-13.4815238662267	-59.6918108844244
186625000	-31.8370212552417	-100.519434772951	22.1336282081045	78.0737475437383			-46.449906818548	119.397630874687	-13.3960417131733	-62.4156475816061
187312500	-32.9731458862812	-103.5941314787	22.104693749213	76.1433266717692			-42.9714994962186	97.4475917320857	-13.3646972547538	-65.057443518117
188000000	-31.7241947919632	-100.381672859075	22.1330199955558	73.98391595983			-43.0513560627426	99.7215621893676	-13.303403908323	-67.5422102417111
188687500	-32.3396313086004	-104.306996702965	22.0898500534798	71.7347980021821			-42.7326094722474	96.5979682594721	-13.3305385181338	-70.2387402985417
