# Hz S DB R 50
100000000	-29.0130147914811	5.61924999112278	-27.3917608561113	3.39973352335284			-56.9743782750579	148.70550819596	-3.54343171566517	81.4587782673892
100687500	-29.2321651505167	8.54396466625382	-26.5843363335266	1.46835354974247			-58.6438075038164	31.9789258842764	-3.51551128946822	79.0153344473984
101375000	-29.3668912727371	2.47476147847424	-26.6669402919289	-2.39321145975084			-71.5977131702731	129.539615203568	-3.54865624120216	75.7000472765223
102062500	-29.7665352972376	4.60835714281668	-25.9071998809618	-2.84810378523299			-56.3077622458828	13.4108221218663	-3.55955099074267	73.2658820021312
102750000	-29.4145648416164	1.25299403148245	-25.7344042395166	-7.37401066887097			-51.2040168243152	-91.1998740565986	-3.56333915796383	70.289012278791
103437500	-29.7535192695482	1.37985708860833	-25.3393981359148	-6.73799509632614			-55.159936125587	-9.0897095686807	-3.52112160296833	67.4192656024344
104125000	-29.6293461785389	-0.326376954420892	-24.9068058018211	-11.7043244766565			-54.312976529853	-115.704232277402	-3.59851579039208	64.3126861769566
104812500	-29.6766755477658	-0.987593768754662	-24.6242852341817	-12.920733689035			-55.6353943545545	-142.018760302534	-3.59666786967011	61.465893646406
105500000	-29.4665151849264	-2.99301289938315	-24.3170274559037	-16.6352788801257			-63.7625374433169	-97.2920083675385	-3.61825004689245	58.216427624801
106187500	-30.1825122781697	-5.07019156421388	-24.1020303666531	-18.3328545884483			-59.1797245923224	132.601302848715	-3.62234144506464	55.6810600375485
106875000	-29.9689760599021	-8.69218926048394	-23.6337345167436	-22.4474803501343			-54.0853450314803	-26.4017418944672	-3.70008938026512	52.1945624185278
107562500	-30.0900369886997	-10.1148797263924	-23.6325791390417	-23.7575185000941			-55.9164582121754	133.721468864311	-3.66108003759061	49.3416926418203
108250000	-29.5244222610861	-13.3866452568886	-23.417274216991	-27.2810975799392			-63.5291385558317	-41.3810667346921	-3.7620781597431	46.0475842598032
108937500	-30.1452289928198	-15.3830723521971	-23.4563902028242	-29.9315067719521			-63.6357555682883	147.954616840967	-3.76031634580029	43.1154751594359
109625000	-29.8797909819248	-15.1924762961427	-22.9310007295667	-33.4638681277991			-73.4787785222142	119.11793652674	-3.83060862122825	39.9234874540628
110312500	-29.9543899996709	-18.2504353138374	-23.2207351770571	-36.2645572915593			-60.7464349516825	-165.459856358323	-3.87013545162977	36.9704262994674
111000000	-29.7821244219729	-19.6679158547554	-22.7506062578802	-39.4227909709464			-63.4617553751052	-63.0178038259699	-3.93120859634153	33.2983416083044
111687500	-30.2810909460523	-25.5029670031049	-23.0748310413973	-41.2428800116161			-60.2086736112246	127.953339239457	-3.9574132662199	30.0240540585373
112375000	-30.2201695221656	-21.6859834675634	-22.9353532001688	-44.0889745595411			-54.6852599219477	-23.0215686132312	-4.0227346967185	26.6442122571601
113062500	-30.1091281478065	-26.62312198149	-23.0771573551912	-46.4870218289844			-69.3694465331849	-139.162770220742	-4.04254447437968	23.3850777311215
113750000	-29.9494270676552	-24.2555694686933	-23.0080696398175	-48.4034837056914			-60.6518527847659	-14.9140472455638	-4.06527082768534	19.8332130407004
114437500	-30.5935104505441	-32.8726397507197	-23.4169038418202	-52.2552740331164			-57.7855116996166	138.710867871839	-4.08461665276618	16.5257025905251
115125000	-30.0253203227865	-28.0044686764019	-23.5682720327038	-52.4733710221571			-56.6170983578429	36.1373002123761	-4.17483409000301	12.5054129813977
115812500	-29.8124979405888	-33.1197969837803	-23.8718357434261	-55.4859630894076			-64.0851057956065	89.6422953684983	-4.20582189965447	8.6738846649168
116500000	-29.8025550892541	-32.9694654064503	-24.1583677557803	-54.6290745605085			-62.254624634644	157.618914291119	-4.27262944291475	4.7284547293694
117187500	-29.490241827563	-39.7635472946933	-24.7081286038874	-56.5576702731884			-54.3071282433297	-120.825592321262	-4.31032799520663	1.13748593327371
117875000	-29.5575157159885	-36.4103520554788	-25.2439046882425	-54.2920365389491			-59.5731752092233	20.5417925799255	-4.32708952808314	-3.17075620521376
118562500	-29.1423648664377	-40.4209386502988	-25.5390038472544	-52.9256109869922			-54.8183268004291	-118.697717171904	-4.40732552919397	-7.0409795625144
119250000	-29.3426674282136	-39.9891271182748	-26.1964052300401	-47.6206306759156			-67.9438430174107	-149.604122704645	-4.49517567165825	-11.4435011053944
119937500	-28.63279770746	-43.1861455257411	-26.6394609517557	-43.6544970804615			-67.6657687699469	120.270484709604	-4.50561063500163	-16.2499805892638
120625000	-29.6813353973816	-42.5816710997106	-26.7147343639588	-35.6284489498983			-58.9141583953225	-150.821153131582	-4.57221632516036	-20.7769801287174
121312500	-28.477005359427	-47.7262490686379	-26.1733410259299	-27.1483735010579			-63.1321894873331	-64.1628402288686	-4.65665580249987	-25.4091925989205
122000000	-29.2632197403126	-48.5861895240497	-25.4963070480064	-18.3429631882797			-54.5916705564687	138.435973105243	-4.76180015940726	-30.3291618668486
122687500	-28.6317980347732	-48.2500676194335	-24.0633845891781	-13.6859711715328			-63.8083319591388	-64.0708897912295	-4.8817708599193	-35.1479954440259
123375000	-28.4814732943669	-52.1315809859415	-22.852562695238	-8.78183819521632			-59.3896865666231	-170.158975756364	-5.00618511707231	-40.688699643483
124062500	-28.1813910761543	-50.6456945647232	-21.2802907596474	-7.31781018954739			-54.0226765004984	15.4191625728842	-5.15979373174033	-45.6796642759705
124750000	-28.633090770696	-53.531766714069	-19.9346969048642	-7.5787296904159			-66.8627350317576	112.74907114134	-5.36614057094617	-51.4380691628444
125437500	-28.316889306955	-53.2581808055617	-18.5413645957819	-9.35821133256907			-63.0109064088162	111.952118726697	-5.53853469714904	-57.2972683277715
126125000	-28.4988544192554	-55.5835443726947	-17.3930054556177	-12.1787625444527			-57.8675604678204	-95.0340508417656	-5.83113003272588	-62.6460654774879
126812500	-27.9336552408394	-54.3324487442569	-16.0668922147758	-15.6102415760189			-68.4213277887688	177.961353630695	-6.11589646026392	-68.290047169422
127500000	-28.1899300296015	-58.0023101297117	-15.2500059752897	-19.7630648015435			-55.2880891375908	-105.824908504391	-6.43748134807982	-73.9013261295326
128187500	-28.0672672160259	-57.0979835130945	-14.2726084354627	-24.0561118716685			-54.3285730748399	5.21038852830912	-6.74321108126516	-79.4108852936238
128875000	-27.6441751544943	-61.1497129085863	-13.4639077117401	-29.8667889252577			-54.8350720318051	-138.689204549546	-7.15400399563923	-85.4578370969003
129562500	-27.6694425597119	-58.5592346472199	-12.7588802073306	-34.0435101447929			-69.2908845985537	-133.889806727537	-7.51293619885755	-90.8537494181277
130250000	-27.2825877504719	-61.2693221026819	-12.1581384318632	-39.781746181629			-61.0901201647548	-147.179918745904	-8.02453267666259	-96.5091922263436
130937500	-27.4697981555839	-61.4819942181606	-11.6082460877256	-44.6584075383228			-58.3524441515983	96.907194314687	-8.41267147213995	-101.78723429622
131625000	-27.2668449506392	-63.4047355700149	-11.1432134441182	-49.8072825106718			-59.2969410424814	163.774516787074	-8.90476846672949	-106.975199602984
132312500	-27.6169516984294	-63.9749175407372	-10.7409231138662	-54.2066741948751			-58.3673180776844	78.8896227062176	-9.3954396269098	-112.213305855451
133000000	-27.0634613557747	-64.1803650867329	-10.3774078059541	-59.7772955441973			-59.6508382918919	-126.197198292832	-9.92376512664752	-117.640331390647
133687500	-27.2919625824005	-66.5432237345572	-10.1541700594936	-63.912637352734			-64.2733615896261	125.16869234786	-10.3942991816771	-122.723094868458
134375000	-27.0742361322317	-66.6320685225203	-9.73430046584335	-69.1331890272662			-59.8197446333622	-94.1655815740621	-10.9232470134904	-128.112110019835
135062500	-27.3824355746777	-69.3058235358267	-9.60312509083853	-73.0359774350102			-65.3395674624464	-158.976333810984	-11.4444480573136	-133.568648751737
135750000	-26.979180469399	-65.1858311064764	-9.25078021530442	-77.6596423265717			-76.3690793913516	-16.5264810702715	-11.91414290778	-138.448995692049
136437500	-27.1961789554699	-69.4886741391242	-9.16984474572325	-81.7182413397498			-62.0146356952117	-169.496873285544	-12.4167014004869	-143.67178312636
137125000	-26.8213768332921	-70.0250050660179	-8.89864832921448	-85.5618035011036			-53.4045360778427	-62.7596399783926	-12.91870733626	-148.429263994167
137812500	-26.8696852726794	-70.9687336662285	-8.81432589695244	-89.816266074508			-59.619371887094	127.985889971628	-13.379534998604	-153.921807280032
138500000	-26.712365035357	-72.1847167545932	-8.56633215792091	-93.38383349561			-65.1403155124237	25.9741105645177	-13.7913565455834	-160.486567267878
139187500	-26.8711314811898	-75.2182635419168	-8.44605615745343	-97.6306964110155			-53.5481861340205	-174.658947284369	-14.2637634060227	-165.334924509816
139875000	-27.1106091612598	-73.4930615767594	-8.29260316806381	-101.217975848703			-55.9147147082286	-105.779835309794	-14.7425786038116	-170.785096307301
140562500	-27.2846213951974	-74.9292885283722	-8.19516097312002	-104.760393213584			-57.2970897519578	-161.049925333465	-15.1060410722666	-177.386230002346
141250000	-27.0287131481464	-74.7605278925102	-8.05275513615849	-108.240573070692			-56.9689086848281	11.01679843781	-15.49980788666	176.714236945354
141937500	-26.9920073012172	-78.7334344456338	-7.99355475185496	-112.286960189472			-54.9559053818067	-76.4146477237775	-15.8591946802307	170.91769922459
142625000	-27.3443698120252	-76.1196074040993	-7.90573323639666	-115.449784436328			-52.9689140141604	-8.07697878062519	-16.2006007132517	164.209620143099
143312500	-26.900861898985	-82.05891672908	-7.79746831631642	-119.00615824688			-61.6629523184988	-145.723503477406	-16.4226608893941	158.172562955156
144000000	-27.3038631367648	-78.1909535163713	-7.72197473543732	-122.175169119614			-81.3696763408787	86.5012224985294	-16.6415160794104	151.894772800017
144687500	-27.1657300105065	-82.25297148075	-7.63262066586969	-125.948200870324			-60.1875144376142	-144.32032515763	-16.8643381349043	145.984366741351
145375000	-27.5549174299391	-83.710682891694	-7.58239413631024	-129.310967580342			-59.0487360132958	-10.8483077370273	-17.0243836700088	138.649046030448
146062500	-26.9114954340009	-84.3818095340929	-7.48352615343125	-132.492513851331			-58.0519618703428	-149.083351623223	-17.1533753850189	132.697227425141
146750000	-27.5047361733363	-85.5804251110857	-7.48534636920042	-135.561039327637			-55.5594364930292	120.135074935819	-17.1084469778914	126.955514203339
147437500	-26.6895026792014	-88.2440052467994	-7.44422185080999	-138.439756958873			-59.5348336349135	-73.9314925707505	-17.1101906546555	121.096547725019
148125000	-27.5784448223048	-89.2472385484636	-7.44608812619097	-141.96776435672			-58.8390996683921	40.2469750846343	-17.1357220056661	115.85800764105
148812500	-27.2877415388494	-90.1829762977554	-7.41041173255801	-144.65671028168			-58.4226630185415	-134.135542275077	-17.0645979159914	110.051963660321
149500000	-27.653079027833	-92.4277037396345	-7.38788573259352	-147.558997096718			-53.5461508385575	63.058236984165	-17.1094980297782	103.610315397458
150187500	-27.5294418538773	-93.389230410055	-7.37098339628617	-150.542286986194			-58.7804381621272	-89.2535888938869	-16.9841141210691	98.2291773995347
150875000	-27.7001664007301	-94.8134912477598	-7.33263035586956	-153.534145234067			-58.1984969949073	156.677185501984	-16.9886546649551	93.7367875755931
151562500	-27.2219799408302	-95.4497417604835	-7.32211146581001	-156.001393899858			-59.6018569262604	-121.571791318718	-16.8473596923247	89.4538225226633
152250000	-27.5713194429767	-98.8657065952414	-7.3459649193974	-159.037239011039			-70.3449794840237	142.837045850246	-16.8149897609406	85.1487351491253
152937500	-27.5776220395134	-98.4437661401299	-7.29038963117643	-161.220966466876			-69.3171431507488	-85.0584824940949	-16.6874970800501	80.4681662711093
153625000	-27.5041137748942	-104.68637910125	-7.31456106940008	-164.229968924577			-58.4679734802287	153.750612046743	-16.6514068810853	76.1863944063408
154312500	-27.4995011626277	-101.350542665681	-7.26236446646399	-166.176305725715			-56.3080021539301	16.1443520889517	-16.3926285414542	72.9862911427627
155000000	-27.2779775551957	-109.255769384398	-7.26608608060066	-169.513140719509			-57.2933930695583	149.813940377283	-16.3885794754144	69.0740064995409
155687500	-27.6430624100655	-106.063854022688	-7.31378275688704	-171.530113180499			-62.0524232693668	-21.844239484535	-16.2492145414897	64.4401273591315
156375000	-27.468538778159	-110.042887112666	-7.22713365503666	-174.458385811166			-54.944337269563	123.604513205454	-16.2321018945332	61.1008985476587
157062500	-27.6715537148608	-109.358877119179	-7.26030030549245	-176.29950227381			-60.8093678044761	40.6469706045122	-16.1338650396916	57.48146813316
157750000	-27.1461175422116	-113.960753573532	-7.19820907227093	-179.111548979843			-63.9985364607213	-144.360257731139	-15.9474574079599	54.3712229408819
158437500	-27.4772314046809	-112.845960627638	-7.21866776550391	178.892289243866			-56.3806091210829	31.5891193778762	-15.884953292739	51.0819319836382
159125000	-26.7357432447281	-115.259005185742	-7.15523256234362	176.334785331666			-67.8663733572146	-144.500005675575	-15.8425363579633	47.2876258277281
159812500	-27.4835442921841	-117.532808376179	-7.17626763440457	173.950524291661			-54.4624020241833	75.6944262127928	-15.8081291470216	44.1805769903521
160500000	-26.5737424035799	-116.643283010071	-7.0937163358985	171.274380820212			-55.1678626572409	-121.026972428441	-15.7443591912458	41.2802794271979
161187500	-26.8411790689977	-118.85563893173	-7.1749644174799	169.39265670044			-58.5914198206569	26.1776192434235	-15.5226966460735	38.3348042291507
161875000	-26.4815431531304	-119.19492970834	-7.10663523035979	166.883359153684			-58.3419165775659	-153.092673553657	-15.6595528642916	35.2022471798005
162562500	-26.5680424350219	-121.051433481307	-7.13545001361997	164.444376074419			-55.2883096947116	116.979061694366	-15.5647512343154	31.651723982276
163250000	-26.1411215146271	-122.736907470861	-7.09594812723262	162.065191615034			-67.1893076742382	-21.1940083540193	-15.4208178074485	28.5137640735742
163937500	-26.5591535935404	-124.94020068325	-7.07864062568189	160.035897227854			-61.9756754121308	139.587813675125	-15.3989664351304	26.1478367928176
164625000	-26.2263215437054	-121.83512816877	-7.07079710393276	157.49830530874			-59.2764588467128	-51.5206543305163	-15.3687284704223	22.0913528282178
165312500	-26.2345348062321	-125.920366509969	-7.07472455512883	155.253406128008			-54.6923170508871	119.214241813869	-15.4047349677726	19.5340729102148
166000000	-25.9457921224762	-123.372671418315	-7.07195104875391	153.097484670184			-59.9932737499057	-54.4283647380424	-15.2604442567949	16.4255209790328
166687500	-25.86131191371	-129.1248898877	-7.05525462926604	150.789075742091			-59.8215297299442	75.4836355268583	-15.3047771758312	14.0206597972385
167375000	-25.8116763513586	-126.533509270253	-7.03581937829794	148.748302201202			-63.0107895521182	-100.02337438217	-15.1985399007171	11.1516735095693
168062500	-25.3120601988706	-127.733672283455	-7.01550517204689	146.526160507512			-61.7811862739621	143.303056500706	-15.1133586946068	8.39324994863638
168750000	-25.4405044271341	-126.659404764675	-7.08717855915276	144.405715294629			-63.7699290518988	-74.1897016014738	-15.0991834787042	4.55161757990247
169437500	-25.2598218516694	-130.794221270307	-7.05457552537502	142.436477018577			-54.9704892991822	135.689866547877	-15.0473010317746	1.98088845215392
170125000	-25.4476391684301	-128.619136801227	-7.07923015550596	140.034897906766			-62.9959297870017	-47.4538022306623	-15.0647578974258	-1.20843759177124
170812500	-25.2529300000474	-129.184404018393	-7.06658730505131	138.14158484277			-63.2547943492777	-63.8517519624109	-14.8663061117897	-4.02717723877246
171500000	-25.5575226273924	-129.572243604463	-7.09193965594638	135.842597424565			-66.865189201743	102.25497826418	-14.9728695833104	-6.76344780459926
172187500	-24.7491186827622	-130.434522603331	-7.07061551538595	134.155712295443			-60.9098933680364	146.330308032852	-14.8232876860824	-10.2273707163007
172875000	-25.4719338972032	-131.815122914176	-7.0990937423365	131.985483807871			-65.9134598227757	144.161371920025	-14.9203773582172	-13.8672835688265
173562500	-24.658911625291	-129.533709320109	-7.08078294008744	130.289292571667			-56.4452742588933	-146.229604894897	-14.8626082528165	-17.0552124463248
174250000	-25.2333543217286	-131.432529014087	-7.10272243209646	127.985295798853			-59.8412986508994	45.0194533794059	-14.7335579103066	-20.3472320374837
174937500	-24.6784067514654	-130.616191409226	-7.05876162005715	126.318330363587			-51.9877414510963	-169.32090623502	-14.8162108278375	-22.2938633965407
175625000	-24.639747868894	-132.134666193403	-7.06354550556022	124.206022928301			-59.0398134520482	76.7683671109528	-14.7403912082207	-26.3936161799537
176312500	-24.5533605679434	-131.120903473695	-7.07086147432037	122.62406162726			-54.6777373092357	-113.916452298843	-14.6772019127121	-28.6097067046394
177000000	-24.8959941389049	-131.227427231153	-7.01263908593309	120.69822923717			-55.0600158289129	36.7733886980536	-14.704097858454	-32.5369338675368
177687500	-24.4849126798704	-129.786601963351	-7.01381332197503	118.812675091942			-54.2955723992119	-128.909038442769	-14.6088193899895	-34.973808265948
178375000	-24.8450088913138	-133.348020659285	-6.94010374362712	116.476077434766			-53.3637578810664	93.8429812415624	-14.5906114457169	-38.3090068093355
179062500	-24.6879271818494	-131.481958191824	-6.99352829456543	114.997303778267			-61.6865599980809	-106.925563155938	-14.4900482493625	-41.0711893769715
179750000	-24.6189303774119	-133.279019169586	-6.91605281548562	112.826029577008			-54.8000731101149	105.69086627248	-14.4214169674911	-44.4421537012944
180437500	-24.6422588892029	-132.025180068916	-6.91089041413411	111.103070236985			-67.2659070522877	-67.0125402599249	-14.3772705047629	-47.7637843628792
181125000	-24.5638352229965	-135.215059384463	-6.86037050354921	109.013265927669			-52.0418728642173	152.124745981875	-14.3077324249345	-50.3470818767251
181812500	-24.6515393609299	-132.337320309258	-6.88537320626762	107.186640951931			-75.1241348428401	138.703463440968	-14.3712229917593	-53.3750690351569
182500000	-24.3737862057363	-136.371621270774	-6.79680953440435	105.04327774157			-56.5726536438011	54.2115515631702	-14.3541115888487	-56.0061151104346
183187500	-24.8080503579514	-133.506866133568	-6.81704759932725	103.010131813112			-65.4272871849553	-74.1786015215128	-14.116293889137	-59.0893900924462
183875000	-24.7551163524647	-136.834875247584	-6.73310787020789	100.840813645465			-76.7655952768012	25.4228819612341	-14.1947524208099	-61.2703655052045
184562500	-24.6948785228961	-134.984386594959	-6.80334471510383	99.1062681874007			-59.506642909137	-21.4054010190939	-14.1287717598285	-64.5395469368706
185250000	-24.7653048886048	-138.331093468057	-6.69662682722833	97.0371442300911			-58.1179166022018	155.596464313329	-14.0398226891248	-67.0264315142459
185937500	-24.8385228715864	-137.925298889887	-6.73464603345487	94.9414655948882			-65.427201257506	55.4095315188028	-13.9865035336205	-69.7269357008744
186625000	-24.6759009290548	-139.648225297494	-6.69383993576514	92.7786520566163			-60.2906756482234	-176.45436636498	-13.9649201532634	-72.1740529251079
187312500	-24.7552678269147	-142.318390144317	-6.70073834778446	90.7959888435616			-55.5003846363573	78.6730433007244	-13.8659026547212	-75.0947593691788
188000000	-24.5664723549034	-142.883074673236	-6.69762249869103	88.8676652076051			-52.4522776580101	-175.406079189475	-13.8232488775561	-77.3342878403572
