# Hz S DB R 50
100000000	-34.2541766615715	9.29322292489286	-12.1365884852716	-5.18216445607814			-66.9071608524717	-30.5311174141211	-3.53759383559792	81.6866260161668
100687500	-34.701795505951	8.70980343236296	-11.68364864142	-7.87411123451499			-55.5877231143139	10.9367038733661	-3.46223761777049	79.1211212313007
101375000	-34.3176498469836	7.34893711732321	-11.3579298240457	-10.1862037653764			-70.8904548275427	141.627821163293	-3.51863261991851	76.2086162255688
102062500	-34.1727744367795	3.64257582984781	-10.8953921068506	-12.7718898957642			-61.0308803801436	-45.5721531453841	-3.50794539532196	73.4372245179494
102750000	-34.4063129087844	8.08048048384321	-10.5701272321984	-14.981457497772			-62.2308192443489	10.9563633133843	-3.57963405056382	70.4207603152672
103437500	-34.5886305221002	1.8640503499589	-10.1463391826052	-17.8591467258051			-59.5776033987038	-14.9538885822886	-3.5434094928103	67.5721040460568
104125000	-34.4115269242585	2.37720143899413	-9.83975310187663	-20.4418482090332			-72.3902613397674	-7.39169616839218	-3.60186487105052	64.6542900998561
104812500	-34.7687356401878	9.14826242744487E-02	-9.47992986310697	-23.2630381792151			-56.8426023971263	-9.68580623105199	-3.58594866655833	61.6614454290186
105500000	-34.9916322080605	-1.80298495733161	-9.20991666438051	-26.0422948856678			-67.5808439807031	-112.371660898571	-3.63323237707064	58.6547457884639
106187500	-35.163363727151	-3.73419720079105	-8.92331325241935	-28.9271613873713			-63.4172493168772	48.0184399744613	-3.62756489986507	55.4931265288913
106875000	-35.6359951181922	-10.8388448703938	-8.70313481610093	-31.8247688662892			-71.6740938201518	-61.5155432308217	-3.71321896218453	52.6313520543241
107562500	-34.7416934793489	-7.1162695506441	-8.46637415861144	-34.4198167105463			-62.5554028602462	-28.7925232087121	-3.66886875483379	49.5601624175533
108250000	-34.4148038562863	-11.3992149096174	-8.29393284965353	-37.5924469064022			-62.6940840765513	-165.122263999367	-3.77951110874701	46.279748257827
108937500	-34.4280016930321	-14.1557904090628	-8.1475031870628	-40.2819301874422			-58.9132371189036	-45.619211019411	-3.73588868313085	43.3124273573164
109625000	-34.9951470002176	-17.4466088487566	-7.91942340908135	-43.4597977506734			-56.4616782386505	-66.5891048596388	-3.83743518108027	40.0225117402521
110312500	-34.7320876427394	-16.4345475827804	-7.90525946966473	-46.2411041474502			-60.2200698315662	-44.0149756856148	-3.85026577830624	36.8763480513737
111000000	-35.0708635576096	-23.4984557538082	-7.8276453590419	-49.3843680154996			-61.1395822927449	-141.723679069584	-3.94157002149617	33.4218831457307
111687500	-35.0416989509481	-23.0465159282157	-7.81770111243238	-52.1233228769422			-62.7134273772191	-43.8650720701554	-3.88787850516747	30.084797949192
112375000	-34.251634029497	-20.0352598953946	-7.83740303643655	-55.0360127229283			-54.9894571142853	-75.557396007832	-3.9985006866849	26.5821688083415
113062500	-34.4604944464501	-27.5388766727686	-7.9346982108172	-57.7689369872063			-66.5822646608777	120.46687260495	-4.03007741668473	23.2989576660303
113750000	-34.1530992822717	-27.451754643556	-8.07278496896324	-60.0204578031488			-59.0486656280747	-63.4303252379183	-4.07535856446137	19.3643676607512
114437500	-34.9327425800906	-37.2497318586766	-8.26836865805676	-62.4913569633704			-59.7889732215067	89.959026100869	-4.07471736541455	16.1499695413674
115125000	-33.8425068992485	-37.0885505660583	-8.49080271998711	-64.3681977584249			-57.0577646934574	7.01461035963937	-4.20540823598429	12.1573548691156
115812500	-33.696163736535	-34.7620239889113	-8.82010264204587	-65.8630914344765			-61.0309151836297	100.338876591062	-4.23423009093849	8.28617333829912
116500000	-33.4502048496435	-40.4659097416654	-9.16718334306503	-66.8979446132079			-63.1844624304082	-38.7588113905449	-4.26411810584331	4.27486766964269
117187500	-33.2627777143094	-43.6760392347102	-9.63870471632761	-67.2302862281025			-65.4156918062452	135.484662196573	-4.28948930092447	0.778263003397138
117875000	-33.041432350892	-40.3161519407574	-10.1326949915792	-66.3599322708793			-63.195927622249	-51.7743083551799	-4.36288143244171	-3.52689157482276
118562500	-32.6871836424923	-42.6773163784975	-10.7193880796786	-64.7611031113211			-56.6513740629831	-123.517572275352	-4.38444611398426	-7.41314312368511
119250000	-32.1662730291845	-48.1421367064627	-11.1938032983719	-60.6934354936773			-58.1060263022978	-31.1961544023193	-4.45979435504265	-11.9258230109697
119937500	-32.3135786183629	-49.6814052661391	-11.6574360046369	-55.1360359431903			-72.3576762461303	46.5973208029921	-4.51546955970686	-16.4288676639598
120625000	-31.7508326378195	-50.1756239739434	-11.6764949855088	-46.9824029915687			-55.5904218577942	72.2143246004079	-4.56803006556694	-21.2329444833972
121312500	-31.1927939098941	-55.7232856440457	-11.3172974867213	-38.4997138885423			-59.3135917565781	163.32199554868	-4.66743434414806	-26.1738508335774
122000000	-31.4677399424357	-59.46739329818	-10.4246781517245	-30.2104440391386			-56.6673457791968	41.8616990656857	-4.7255301979508	-30.8056061242369
122687500	-31.2649243942771	-59.1805929868711	-9.16600579164646	-24.1384638456695			-73.8131948021837	-154.302758513681	-4.86119528647004	-36.2512697727275
123375000	-30.8069134060237	-61.4154390899166	-7.71426640217572	-20.5735043982326			-58.8233132867827	113.952243701964	-4.97652481802371	-41.2959443798725
124062500	-30.3237883293072	-63.2250385011062	-6.26874333730133	-19.2107771472813			-64.7707473572932	-47.8343805690907	-5.11178959172672	-46.8175499145961
124750000	-30.6180359470261	-64.1966006511589	-4.79011128449567	-19.3928998236364			-56.1399628350996	94.8270904585605	-5.30472614246045	-52.4287103721794
125437500	-30.1552125627664	-64.2393065748686	-3.51690541359367	-21.3666205311524			-62.2307879609566	-29.5724386275023	-5.44433724679499	-58.1900598732561
126125000	-30.2642405878516	-66.2957443461913	-2.28501237998888	-24.563399593577			-55.4597568503302	67.0747078102104	-5.77404768405686	-63.433791250741
126812500	-29.46079136645	-68.8433595769298	-1.14430458930183	-28.2042828349291			-60.185649628561	-96.1093872739705	-6.01720567046265	-69.3014639227863
127500000	-29.6694047094673	-71.2519901938629	-0.177106920688154	-32.544464387935			-58.9784810463005	29.6826600267587	-6.34088150253514	-74.6869298894002
128187500	-29.6275482331877	-71.0740729466177	0.748124177900906	-37.2910223955682			-59.4774099180428	-73.1115020998958	-6.59826615507018	-80.5610849885996
128875000	-29.5986692359818	-73.6117962432681	1.49551905038327	-42.2333512906942			-59.5231623377759	57.4500702575659	-7.07496717845731	-86.4124110428997
129562500	-29.2554173389167	-72.906088876129	2.19155634393064	-47.3038108844949			-61.1194187412968	-55.9847964634305	-7.34486235137265	-91.8925615166839
130250000	-29.0901425636234	-75.13618950873	2.81213737691411	-52.5267200966411			-65.4684897695989	-7.41440895080876	-7.86082699874407	-97.547752714456
130937500	-29.4492763931582	-74.8209374039761	3.36049718620332	-57.5508512898076			-54.7071585234068	4.12422308844851	-8.18703426388443	-102.572828606944
131625000	-29.4812406918457	-80.559104739634	3.77691764201434	-62.6478272149458			-62.207965853276	-134.060779727167	-8.73683654255405	-108.122088936655
132312500	-29.2449394009424	-78.6490978733476	4.20702182489902	-67.7693163727971			-52.5831493937919	-37.6873016216391	-9.08065225288508	-113.191249372913
133000000	-29.592496130951	-79.3878007566989	4.52408077745692	-72.8824908553166			-60.1371490693427	128.45133502987	-9.65322333481346	-118.885825298986
133687500	-28.8822436686444	-79.3650097057275	4.82198740322336	-77.321220902417			-52.995648274498	-20.6742283897844	-10.0973670046234	-123.819027654003
134375000	-29.4464212047062	-81.5645344671715	5.11350366553416	-81.9872745439982			-64.6550120480335	-40.1149528107423	-10.572561056706	-129.640615698481
135062500	-29.0938960706683	-82.8145001134157	5.35651581825189	-86.1671346011507			-59.8533622503404	-0.728707346961806	-10.9738797431691	-134.413877044247
135750000	-29.2708108438142	-80.2101101147181	5.58312837579504	-90.9077339904069			-52.1491882484388	-72.8024027085934	-11.502451627541	-139.367814735119
136437500	-29.0277151781602	-85.1932205574401	5.77244163151164	-95.0214281500257			-56.6476619943226	-3.05196298978477	-11.9464178900077	-144.796453371037
137125000	-29.3608824875433	-84.3360074349254	5.97558597318091	-99.129529459052			-63.8387259544863	-103.976981578852	-12.4615429318259	-149.965342999791
137812500	-29.5684785108331	-86.455439000315	6.12670569299951	-103.141465892045			-69.5281144588964	-59.6075711874566	-12.9203246511027	-155.207174075405
138500000	-29.43042203632	-88.248398270935	6.31025048698138	-107.104113295262			-57.8397549631288	-106.402427387425	-13.2476971180017	-161.738622980021
139187500	-29.3709292899704	-85.8486574865507	6.4281494313089	-111.109829288782			-59.3509531947905	-54.8052086335869	-13.7700668596387	-167.028769379932
139875000	-29.5916880986266	-90.7043344786265	6.57655276678634	-114.683261529419			-54.4422114735099	-116.206722661308	-14.0525819577647	-171.993489129995
140562500	-29.5924467537007	-88.9492744983802	6.68500873891182	-118.501644811579			-61.9815910058754	177.824527317055	-14.4739596505292	-178.204023887712
141250000	-29.556681404672	-88.9237837957505	6.81492368241863	-122.000651055659			-59.7140844465381	-115.585419255479	-14.8365614658478	176.129025559356
141937500	-29.5302077310644	-91.4277994843021	6.88338378354477	-125.849567794961			-60.3455336633146	-82.5007720645904	-15.1052950641306	169.469957279224
142625000	-30.1753569512421	-91.1130779005266	6.98444817624358	-129.274410379401			-52.4089412790184	-57.1351371435315	-15.4714239503484	164.227388870905
143312500	-29.7628787633022	-96.3927179532535	7.08168793414216	-132.933590407557			-60.942669668664	-168.591441296462	-15.7086595038913	157.584323456666
144000000	-30.0276460509254	-94.4981214750251	7.13651480278339	-136.110140599008			-51.9076826796604	-103.089585447925	-15.9036375122872	152.357688163259
144687500	-29.886972949443	-98.2107851942965	7.20419592323472	-139.76794593054			-61.7894780906286	-86.0135075146659	-16.0082526878453	145.360970484743
145375000	-29.8722387498076	-98.0829921336809	7.26677407227649	-142.957456529826			-55.3965885858752	-106.252043478769	-16.3033004719197	139.728701192184
146062500	-29.7887466156944	-98.368726113926	7.32222025939905	-146.440700206884			-56.7290562122021	-133.342152638161	-16.2998830751335	133.351285954018
146750000	-30.0315209076665	-101.70630766087	7.34652205478332	-149.711007557743			-61.6951034334173	-75.6193410660963	-16.5825020716885	128.248484908582
147437500	-29.6200100524335	-101.915217614831	7.4228834676205	-152.887773939603			-54.1801806992832	170.981291356815	-16.3762617391548	121.163785804675
148125000	-30.3140650814504	-104.237417189493	7.3870093758626	-155.992195061005			-65.8245579809816	12.6168160612868	-16.5208758594207	116.345703314668
148812500	-29.9044326069336	-105.952169788339	7.47194940853764	-158.932668421211			-54.0132018802381	-139.720193771099	-16.3911388939876	110.912713893849
149500000	-30.1853478733286	-108.582510366411	7.47431925561358	-161.894028953915			-60.9217237505084	-129.862499366964	-16.4830232480204	105.650330039316
150187500	-30.3131479349751	-107.798617924306	7.4786865349176	-165.061278172375			-55.4913193748077	-150.393743784863	-16.5052543582412	99.9612048409596
150875000	-30.3364471699386	-108.184956751611	7.4952795537041	-167.762700251788			-65.3861210997359	-148.543915804851	-16.3945257689398	95.0339793545962
151562500	-29.906407709847	-112.111631191161	7.50216663677872	-170.628652899625			-52.2288642730668	-104.964303939575	-16.3014393798975	91.1265974800151
152250000	-29.8340420437647	-114.838793432887	7.49356257003475	-173.425081135131			-63.5863019883214	-45.2758039462989	-16.3649363449671	86.0179012014526
152937500	-29.8545562133403	-118.381850836598	7.52421039159464	-176.02218276219			-59.0063492015441	-162.142814550555	-16.125760413924	82.174778268536
153625000	-29.8620905201424	-118.51463985202	7.49336787803132	-178.746899995705			-71.0974570002323	-176.088824148917	-16.1626681878337	77.4352641728418
154312500	-29.4914446363218	-120.92320580682	7.54195272602326	178.944256811252			-55.9873394219831	-108.737598384119	-15.9272291164805	73.5563076273967
155000000	-29.2296417726516	-122.275247973831	7.51853352465206	175.975567049312			-62.442395381793	176.091135399914	-15.8984454675331	69.8322368484977
155687500	-29.3313214028856	-125.148920056598	7.52255119278499	173.711825248571			-56.4860910843636	-110.693049358573	-15.8850125141035	65.5427945131695
156375000	-29.6416428899607	-123.611818340724	7.56689885881058	170.834985072931			-54.0638242157086	155.300328389948	-15.8456605271036	62.4429635767961
157062500	-29.7598982302006	-127.954990234534	7.55418973433896	168.484629763085			-52.2709176462069	-146.483988296254	-15.7708661577195	58.3760843938421
157750000	-28.9790094344529	-128.987622355337	7.60313371916255	166.008415361826			-56.845626231996	-166.61454196472	-15.6546204747432	55.0550506418949
158437500	-29.270263667872	-129.442642350927	7.57774242007227	163.719610789931			-52.7423581927833	-105.506273448001	-15.5762564611537	52.1536462140332
159125000	-28.7929958637813	-129.438902017368	7.6395267539166	161.227315777672			-56.7554143338264	154.713766148268	-15.473886808186	48.3855688543028
159812500	-29.5597769375238	-135.353551520191	7.65167659647399	158.646574788063			-55.6641332226776	-132.573443851429	-15.4834561215565	44.7928899164012
160500000	-29.0362176068117	-133.056264142342	7.65806358879345	156.288453521295			-52.9179995189344	-171.186643575764	-15.3613973016415	42.2510760353234
161187500	-28.6780647479983	-133.194181448403	7.63455211866949	154.126340316138			-55.5449523652031	-111.775556286863	-15.3058354637991	38.1646963504819
161875000	-28.5485567248197	-134.164632003031	7.70153294892569	151.660186742998			-50.1823866802868	179.509719130837	-15.2787539302102	36.1372548485025
162562500	-28.6258284461217	-132.790456098227	7.67339450892271	149.092229302331			-59.2868480302647	-91.9105229939278	-15.1184604422655	31.8753779688332
163250000	-28.5683090103425	-136.172598502304	7.6799905002558	146.676525796499			-51.4049954226718	163.106250646519	-15.0961236423385	29.4180352119679
163937500	-28.274634882367	-137.224907057758	7.70961931972179	144.408323167331			-66.0222361124933	-118.94478871627	-15.0441333786244	26.3589613525965
164625000	-28.3525352096515	-133.649075248313	7.69452715491864	141.945490387142			-51.6880647452939	169.222816679174	-15.0911693235166	23.0440960875111
165312500	-28.0555282961759	-137.817301218618	7.71171171241644	139.639802994495			-68.2660909436965	95.7254244742837	-14.9393599316269	19.8818873722973
166000000	-27.9819249755629	-136.261785420853	7.69296763718362	137.229581345577			-52.6008547947851	-155.522089744937	-15.026314397738	16.9124318168987
166687500	-27.8374966840538	-138.826836345939	7.71693407722931	134.888883713153			-68.7666481378058	138.514678495906	-14.8267506303915	13.5879695837714
167375000	-27.5625956957011	-138.178546920941	7.70866237371845	132.939681050714			-54.8002694387633	-176.942430916262	-14.8742874903393	10.6150336832357
168062500	-27.3897783655523	-138.405582707697	7.70255822496417	130.500594222324			-53.5791826765754	107.134315248898	-14.6995599602657	7.94146523449783
168750000	-27.4156083501946	-138.427463347488	7.70897533412973	128.428522146059			-53.8506665769939	-163.349052742125	-14.9000352522582	4.17653036864058
169437500	-27.2660990466236	-141.838161838481	7.66714376958574	126.100673028511			-57.2084328273457	158.709617194157	-14.7279970778885	1.51453262981221
170125000	-27.2254885713313	-137.075716768886	7.69042584610273	123.939670721431			-52.4693285770837	-119.537087466039	-14.7860064226468	-1.74882552334518
170812500	-27.0010722960303	-137.782950705554	7.65964097526412	121.925876661873			-57.6750724259213	119.64339950713	-14.7038220011741	-5.08177940573225
171500000	-27.3963640255357	-140.310616821922	7.64592043357864	119.796082384183			-53.0252015219865	169.609284808664	-14.8207773621676	-7.85065784160067
172187500	-26.8655498071344	-140.513558352878	7.64360372890381	117.64816536522			-55.4476271313216	143.605187837621	-14.644638682244	-10.9700992092624
172875000	-27.1335247570462	-141.261068181567	7.65367710078691	115.830606652997			-57.5823676213212	-124.3979551121	-14.6948179212411	-14.7864250903182
173562500	-26.8398117184116	-140.534200791314	7.60883365944245	113.697573619127			-55.6223093343773	152.589399543404	-14.584655979769	-17.0219919319624
174250000	-26.8228618775782	-139.669930189284	7.64024120189415	111.683864393692			-55.5910374675898	176.824289124704	-14.5373820468181	-21.5101260970479
174937500	-27.1319353265737	-140.452143404337	7.65485015073046	109.670863520613			-52.2867391066083	134.93920876782	-14.5761569067972	-23.0950855955019
175625000	-26.376767443269	-139.598341043162	7.63941003923137	107.876527965771			-63.1554893925766	51.7782026821216	-14.4180777881398	-27.1138769342495
176312500	-26.6949889223891	-140.911647138981	7.6659337497862	105.827299092793			-51.0179896592679	118.741581890221	-14.3947133868909	-29.8667487606169
177000000	-26.7104395027826	-140.542660390044	7.67544305046422	103.998828675993			-57.2089154314706	110.402691619514	-14.4131819040897	-33.9224470507168
177687500	-26.8079978772121	-142.924206942282	7.68239542141132	101.945024709149			-54.3912049597723	-172.05808050785	-14.3937741928774	-36.370531003629
178375000	-26.5322261620989	-142.485352497758	7.70375241379732	99.9100601608885			-57.0397114935549	51.4285830265345	-14.3551118016948	-40.0248629828948
179062500	-26.5899872808408	-141.128229559445	7.74173925189451	97.9386198935789			-56.8780988785156	169.29186545485	-14.2922578269578	-42.2982762676322
179750000	-26.5271551904019	-141.183614159166	7.73826068501604	96.0640955056039			-54.3997964879551	111.480382945648	-14.126394959032	-45.977012365566
180437500	-26.7051201549868	-141.050207985617	7.79725601650592	94.0350524965836			-68.5061084675064	114.197237806606	-14.0699265927126	-49.0147002075508
181125000	-26.7296108361953	-142.125534984962	7.79484755580162	91.9740832860624			-50.7799824541824	108.217236298636	-13.9856992079549	-51.6309437787958
181812500	-26.5621635302765	-142.226293126846	7.82587057398266	89.9594003572771			-55.8612809711359	146.261148474012	-14.008818480754	-54.8153228225846
182500000	-26.50333119052	-142.903546465156	7.83527318448049	87.945068315084			-56.9579482942878	109.898461360823	-13.9462910295384	-57.4227973489437
183187500	-26.8300628567443	-142.983065204421	7.90335662029251	85.6580200859996			-54.3120354492167	169.398791842462	-13.9120480061725	-60.4281315205924
183875000	-26.6177470352101	-144.200383884481	7.89887783913554	83.7428555965122			-58.0900001262025	82.5245502904068	-13.9377244963877	-62.2433067744891
184562500	-26.6411461287935	-144.632091641506	7.89357335864196	81.8275085553773			-65.7343622163657	-128.614785070257	-13.7842314348939	-66.3618885677143
185250000	-26.6493287967871	-147.08524054512	7.91071529268602	79.6394028722271			-57.7912927479516	115.045725029634	-13.7711182083639	-68.2732175747838
185937500	-26.7533542072765	-147.950091124883	7.93595968323279	77.4486676526348			-51.5294186120827	169.256786581348	-13.6895954753592	-71.5407277330091
186625000	-26.712277638911	-149.839072612524	7.93002051026993	75.4069386638529			-54.3218840410957	116.441012852386	-13.6837059395145	-73.5488665346239
187312500	-26.4392986678343	-151.235246911595	7.94842686599729	73.2721061296201			-59.2712696025026	135.401815544899	-13.574725714453	-76.3207449614612
188000000	-26.7004386516784	-151.263638251182	7.93668452761385	71.2636744626167			-54.0036374845752	117.144154122048	-13.6685621134594	-78.5788345617264
