# Hz S DB R 50
100000000	-15.683131798916	139.517146459491	2.34264182629678	-5.60219832621864			-58.7545986400442	79.5734709702138	-3.56446233319202	81.613841302088
100687500	-15.6559727851899	136.937232306244	2.78505484511266	-7.97017154554089			-53.2960064845722	0.604736238870099	-3.48523897073387	79.0353001576879
101375000	-15.6997867937596	134.207843757203	3.16644855441037	-10.0756792682088			-57.6178006582198	116.004221007046	-3.55613375333577	75.9069589503334
102062500	-15.5796879150825	130.993654958681	3.59053196293776	-12.7423210989324			-56.075821199046	36.8724488664739	-3.53091361438477	73.1681788703855
102750000	-15.6361145527034	128.704854289994	3.9377756219683	-15.1549429749447			-67.9204553359288	67.9860105012572	-3.54562160064847	70.3108973841574
103437500	-15.5999408609096	125.664362154141	4.30904170497558	-17.7898725608369			-54.3883343795131	-13.6810209445554	-3.51550957664249	67.4727583988881
104125000	-15.6174109287526	122.474819915966	4.65368285029738	-20.4856616531217			-59.1637391731691	92.5308481991897	-3.62883354126171	64.4654064345401
104812500	-15.6203561820282	119.18492130048	4.98185204474254	-23.0781658975856			-53.6632014295436	52.6751512888709	-3.57406720107398	61.3936130102823
105500000	-15.5980839120407	117.00419308439	5.27281067411158	-25.93123907549			-61.3237142834239	34.350418363729	-3.62245665177311	58.3771311010732
106187500	-15.5413040029381	113.896513622177	5.55867693382924	-28.4977408894184			-59.782487114281	2.87346803023854	-3.63025042300136	55.3309741656206
106875000	-15.6416716837923	110.7617866546	5.80334877415296	-31.5507806123613			-53.2321826917511	-53.4155315081062	-3.7184874132458	52.4542663904219
107562500	-15.6352648470249	106.666092015488	6.02802361402238	-34.2814643024785			-53.2353098767624	-8.56466122534355	-3.66891483045627	49.0232679940265
108250000	-15.7376187659591	103.486809404472	6.22774496706898	-37.2581951759044			-57.1375554060226	-111.921466183959	-3.80810403221172	46.0914179079019
108937500	-15.6723563401555	100.09365627831	6.38446529136897	-40.045502709439			-57.0749487136957	75.5125563204004	-3.73375209456137	43.0098180056876
109625000	-15.6939273430194	96.9785056709153	6.57003733275478	-42.7277702370534			-57.3629595304708	-46.8601709575002	-3.84581068143108	39.7913801007111
110312500	-15.6830038658081	92.8150805102601	6.64045078571698	-45.7638240059632			-60.0050624484869	75.9519587540758	-3.8342546985661	36.8562399614014
111000000	-15.8861937791591	89.1181747032888	6.75123352427513	-48.6749898299554			-56.7747068660018	-83.1146541932943	-3.9514718403108	33.2627469371036
111687500	-15.827250253081	85.3935835253357	6.73219456268526	-51.6019969311305			-60.6003229072304	143.701521040783	-3.88060912932711	30.0914896126131
112375000	-15.8853273138077	81.7667720676656	6.72055290253193	-54.0533318263407			-55.5158945529774	-41.0706564137473	-4.02486561080519	26.6616339637112
113062500	-15.9849466848813	77.8115933915795	6.63669051810666	-56.8755265746165			-53.7072434790771	59.3111383830224	-3.98141813127078	23.3021402295669
113750000	-16.0108559596418	73.8543807236662	6.52518150895371	-59.0855892282481			-54.0671745629949	-39.5005390222364	-4.11344452277949	19.7258062960624
114437500	-16.1210909720902	69.6483847705787	6.36219645549955	-61.5283695203528			-64.1818373381809	80.7876610224631	-4.06870627740789	16.4399600530787
115125000	-16.2539110295315	65.0360452577274	6.14091583101835	-63.2827445121935			-58.5465287033049	-13.6111549438727	-4.16615574549331	12.4669940514955
115812500	-16.197963417426	60.0479678578503	5.87965764759534	-64.9172513841806			-69.8495796590718	133.315310559301	-4.20636094827799	8.61507597794302
116500000	-16.416554642525	55.9148731968927	5.50407027428331	-65.8527236029897			-55.8333572012394	1.08461201515724	-4.25745849593319	4.6972185639317
117187500	-16.5892265167974	50.6133604143602	5.07118266184416	-66.2927226282821			-58.6186794791201	38.115962946643	-4.28154978576145	1.17666257976367
117875000	-16.7062686344794	45.6461823950552	4.57957965490456	-65.6148633237505			-54.3909259729132	-6.65253148065357	-4.35853687034915	-2.99753833260827
118562500	-16.7223661933719	40.1512995669803	4.10530927619983	-63.7620129316151			-64.1535984402047	-56.8525866425944	-4.39415118348813	-6.96478986948847
119250000	-16.9202791747501	34.9174098608157	3.6130468265021	-60.0187925770467			-57.6193732986965	-17.524291341256	-4.48523421114865	-11.3771926694672
119937500	-17.0231994009438	29.0642858787495	3.25834601034783	-54.610903648862			-70.3873004420342	-2.4477698423209	-4.52123909801605	-16.0650533485039
120625000	-17.2583473760444	23.6461938934963	3.18418035543995	-47.1962957714256			-53.3953271117235	7.21943460838053	-4.58198564170215	-20.5882026300863
121312500	-17.402281131086	17.316504241147	3.56109872873089	-38.8259238999117			-61.7089557556798	100.872461727302	-4.6866558306902	-25.5654833449333
122000000	-17.7073379207134	11.5051040989147	4.41009008996575	-30.6342604590574			-55.0326786748899	30.5052522493163	-4.77044501547477	-30.2867250962994
122687500	-17.9023185638734	5.3978699815513	5.6587327224265	-24.7875033892832			-58.4648303255838	26.6633317071557	-4.86924751155949	-35.4386309992166
123375000	-18.2247227093264	-1.63006596868604	7.08165579830733	-21.3232437727601			-55.3961205995407	29.3315680561615	-5.00528253919201	-40.574231532456
124062500	-18.3624981046348	-8.7975684238965	8.55040446486461	-19.816172015578			-60.5569280331449	-62.5191917299349	-5.16041790681698	-45.7421800597061
124750000	-18.753351979796	-14.6268934270061	10.0202879717907	-20.3044200017076			-52.9429116591327	8.06354237298205	-5.37110639094731	-51.2580495587169
125437500	-19.1144389462879	-21.8689964039403	11.3311453415352	-22.2730762492758			-67.7666589466957	-17.7304704820549	-5.53655003569952	-57.2384697376378
126125000	-19.6566503388599	-28.7369950179355	12.5745331991645	-25.6497542292419			-50.0895675284904	49.4146034772863	-5.83036394071175	-62.1838947230532
126812500	-19.8784813911682	-35.4511821914054	13.7180904449065	-29.4240622122673			-58.3918670422665	-30.7379883310316	-6.07976806374587	-68.0758654781941
127500000	-20.404118664729	-43.2578202012781	14.6925724314175	-33.6602031533619			-53.0390566784624	24.0992193351464	-6.43256496285618	-73.2426183258146
128187500	-20.8859983591626	-49.1694265511665	15.6048407961743	-38.3629722682577			-48.0271503879102	-15.6895390267951	-6.70029578304438	-78.9576774420767
128875000	-21.4605532882822	-56.8399868493123	16.3796169835532	-43.5941056191712			-52.6705329409393	25.4965134164144	-7.14945621027362	-85.0167450220085
129562500	-22.0073048572946	-62.6818881248504	17.0578435826623	-48.6548552470922			-49.6886449583892	-3.17561384849729	-7.41716001670087	-90.4496014283749
130250000	-22.5766127489278	-69.7562263107855	17.6881102875873	-54.0632845130296			-54.1261394341714	-8.53745980855847	-7.94511640741878	-95.5267816455879
130937500	-23.0969549602768	-76.6606371918404	18.1937873537927	-59.3046698279835			-47.3753194159587	-30.38094413403	-8.25599976262654	-100.673661602437
131625000	-23.8210981147714	-83.0400477271217	18.6400568669447	-64.4434132145453			-51.5943037431054	-24.2706170181297	-8.81676821300103	-106.161954653349
132312500	-24.494586518487	-88.9791166282243	19.0539566738324	-69.5440182998711			-47.3150066214251	-46.5648388962503	-9.12579398519479	-111.401449197665
133000000	-25.2761644203466	-96.3088681208744	19.3592997312555	-74.557125704307			-46.6457835578652	-39.1258288917823	-9.6515425858133	-116.489814190589
133687500	-25.6978549282969	-103.063286699563	19.6684953031234	-79.1808870540914			-45.6801995854541	-40.4195920859529	-10.0435934466792	-121.155254109017
134375000	-26.5465552139031	-108.786977316679	19.9644810288036	-83.8778561085025			-48.7396219736367	-44.1089553342802	-10.5283632579065	-127.209414545608
135062500	-27.246951302569	-116.306216554544	20.1962115262109	-88.1933435970567			-43.8896107908973	-43.8704674526357	-10.9642040752447	-131.778532739672
135750000	-28.4554573326104	-119.297276545735	20.3933239826981	-92.7845307669615			-45.3804658621951	-63.3586392804209	-11.4181729105913	-137.192718737755
136437500	-29.1263553324497	-129.799619972116	20.5927323679675	-96.9180269395546			-44.1897149372174	-44.8541015390408	-11.9036611888165	-142.573403346446
137125000	-29.5387789220807	-134.716230015776	20.7748030564607	-101.02808030074			-45.8569651061664	-66.7294295729974	-12.3426266976374	-147.77160675307
137812500	-30.5059280880765	-142.077545571252	20.9454957933158	-104.990620680349			-45.6438171223396	-70.3059527030537	-12.757560118236	-153.228583313534
138500000	-31.0573148366497	-151.152316109393	21.1132389411434	-108.686685875102			-45.0312085340179	-79.6274400720718	-13.0765870635534	-159.332199491246
139187500	-32.37940165337	-160.016339407884	21.2330535925446	-112.767485505173			-46.511399885582	-68.465859046774	-13.6033906932393	-165.508386417732
139875000	-33.0331696472386	-165.612796612352	21.3738756414033	-116.447184285537			-45.0900857697379	-86.1112273979265	-13.9207754817401	-170.176529529245
140562500	-34.9842896331374	-173.344768184532	21.4896454821394	-120.153755530533			-44.2079681838809	-75.8240332211269	-14.3532565653705	-177.47919460029
141250000	-35.1786731689622	-175.900372802675	21.6268395260174	-123.87168865857			-43.428341875063	-75.2953413729476	-14.619526253246	177.107241638856
141937500	-35.4170732343454	167.438665880165	21.7067320432409	-127.68624106832			-45.633122066879	-91.1632872810205	-14.9219446940935	170.189801270142
142625000	-36.7781540267426	165.559922233873	21.794015950392	-131.048767279697			-43.939382086345	-89.7201240261801	-15.2303835865416	164.748213114223
143312500	-35.5090161109218	165.97385690493	21.9086132881649	-134.593401581515			-42.6080301949777	-102.132846855701	-15.4678279587375	157.294871147641
144000000	-36.3954215947644	153.653065886481	21.9549878510764	-137.896728004826			-43.9301210191983	-88.7346561717803	-15.5357129173229	152.751615882173
144687500	-36.8624614038799	154.683370720771	22.0147553911311	-141.527610892748			-44.2172172090463	-123.35372232982	-15.7739064622298	145.273962307893
145375000	-37.5878245884274	136.370359822416	22.0678757884334	-144.858432034311			-42.3623103783041	-97.495610741074	-15.9767557895765	139.350578354162
146062500	-37.5617062954034	138.486187750751	22.1554669003024	-148.089964872406			-42.8928797673054	-115.873270339368	-15.9387382160439	132.875869917537
146750000	-37.4570240648028	128.669149169167	22.186290532598	-151.550023169055			-44.5339420396298	-98.2587911879751	-16.3011868383526	127.444916876455
147437500	-37.4378679814099	133.084610673018	22.2376569967977	-154.633554969588			-42.3568148052634	-132.081133415533	-16.1299852595008	120.933479093513
148125000	-37.4754043986306	132.446651652579	22.2284743722308	-157.779658374896			-43.0115423478286	-105.861635972076	-16.269683826276	115.809106314206
148812500	-37.3849399726907	129.572272147385	22.2996850802588	-160.951530322754			-43.1314107817428	-126.127202936255	-16.2064381207869	110.31090298994
149500000	-37.4811393138829	127.349406760621	22.2845278404932	-163.810575129618			-44.3942456227332	-115.866585572286	-16.2455007539326	105.065318636178
150187500	-36.9568908817399	125.245845449155	22.3150003160989	-166.809894101053			-43.679865025414	-130.622048705549	-16.1616341763551	100.248233655822
150875000	-36.8499260336648	122.439118022413	22.3083941411294	-169.638172759048			-43.595795884228	-124.523766315471	-16.1878746881065	95.1751618517391
151562500	-36.5318244383299	132.647041487035	22.3135799799764	-172.479159370716			-43.4157843761711	-136.007455978339	-15.9776958885013	91.2983397417191
152250000	-35.6493859597808	125.804869412422	22.2989730981047	-175.433981078599			-45.9048190865912	-128.701996120209	-15.9678261133742	86.3793137032228
152937500	-34.364067354497	125.102699607607	22.3769700538078	-177.881133320721			-42.5872524091245	-136.249950341775	-15.7939772101902	82.9276373933853
153625000	-33.6225466710837	124.231490200083	22.3105182772717	179.28690928846			-45.6184488644769	-151.711558270393	-15.7051656743853	78.2495974401836
154312500	-33.9136404830913	124.27760002879	22.3870646909613	176.739769052009			-44.5072518253088	-144.834699825084	-15.5201469690093	74.7043287930971
155000000	-33.9956908830082	122.044755569565	22.3581129189421	174.002223643865			-44.5018736227784	-148.378505359793	-15.4883754087083	70.8349143786709
155687500	-33.8896136306511	121.465353172748	22.3725221061597	171.7835324152			-44.0823891006272	-144.251726963968	-15.377563676164	66.7206323321832
156375000	-32.94796497643	115.279332719828	22.3979901461168	168.888507981697			-43.662469558433	-158.465049846361	-15.3084649835786	63.0701168671187
157062500	-32.5143280956285	113.357216988663	22.4107184426409	166.591273521337			-43.5727989427365	-153.256784074909	-15.271108624153	59.2485389556201
157750000	-33.3434487250091	114.028199145143	22.4511808407123	164.20946087377			-43.7289041844503	-159.591915458783	-15.0722431139179	56.1844051696763
158437500	-32.1195686276353	110.592897716165	22.4515009680115	161.735386823052			-43.5574298377398	-151.394613718536	-14.9718879824092	52.7684124144224
159125000	-33.4636667410832	108.285018612704	22.4727687138595	159.233887867513			-44.9140590133008	-176.023154395912	-14.8544736481401	49.5445428452254
159812500	-32.4420654595659	108.482984854309	22.4973063775879	156.739550640764			-45.8803144744431	-172.551547306531	-14.8001017916759	45.6941135874311
160500000	-33.192840089076	107.792352811663	22.5217356409439	154.277018331368			-42.920347638697	-171.067865136323	-14.7936460010871	42.8668515194462
161187500	-33.6976373739524	108.9795546381	22.4853005392739	152.047639234361			-45.1552352080514	-163.124763087632	-14.6582185785178	38.4929431142096
161875000	-33.947519432776	105.607079896244	22.5415573611258	149.470162880925			-42.6046185109032	-176.749652341832	-14.7117703755907	36.8191299302652
162562500	-33.7999460361357	105.537254421274	22.5203367708251	146.95250595485			-46.3683035810752	173.997954291885	-14.517796617819	32.2741402267323
163250000	-34.4403638565883	107.223229298298	22.51710393414	144.673246331388			-42.9601205336412	171.199720262356	-14.547818174868	30.065747526433
163937500	-34.6968044521649	99.703059446352	22.5568446984784	142.318731915615			-46.717827695025	-170.579268687847	-14.4562395222159	26.5133283289246
164625000	-35.0207592725611	98.9568140793052	22.5397866383535	139.799388461455			-42.3711668753465	-177.765358777197	-14.5590342219556	23.2296796779847
165312500	-34.8511752614809	110.938588604728	22.5525966705673	137.419337430454			-45.6359686156372	169.779450628175	-14.3691390892868	20.1523071263579
166000000	-35.8360586906803	106.458593638272	22.5529943961356	135.208463246926			-44.2214128191314	179.516423595054	-14.5116869618386	17.5224185681122
166687500	-35.5121394572364	104.527637593276	22.5197508542888	132.78291941629			-45.4442268204466	168.949038560499	-14.3533777469936	14.5872890046582
167375000	-35.6231803061045	106.916558763813	22.5480928307104	130.693889360784			-43.0163196763809	179.345698882728	-14.4298613064941	11.7412100498489
168062500	-35.1722602719318	104.75200175027	22.5431537470879	128.469385522418			-43.56771908774	153.791495789178	-14.1907772886053	9.27533976804204
168750000	-36.2330616200093	96.2758989689788	22.5282530723038	126.243756290793			-42.792904316753	162.008121590143	-14.332732843944	5.82334686615068
169437500	-35.5833703320718	99.9416218092725	22.516680912783	123.852474756543			-44.8059323118297	152.185570947205	-14.182132839556	2.97537903742937
170125000	-37.0904849817864	93.1952859087969	22.5334511593465	121.700291736907			-43.7895614219431	155.522336706273	-14.2917691529984	-0.239452400082765
170812500	-36.4851168445272	84.4080279234038	22.5029372955471	119.529407723431			-43.6297311630848	152.300496533295	-14.099106882673	-2.9212175770721
171500000	-35.4576128433133	85.7671260539566	22.501823314523	117.535679269071			-43.6260936065571	163.274935937597	-14.1737416489567	-5.87408238397954
172187500	-36.7132433432475	80.1505996566279	22.4941592045588	115.290006662289			-42.6758165552764	149.385310015699	-14.0337623738121	-8.78472482124606
172875000	-36.3133479951028	75.2494248286581	22.4722247887219	113.37528229605			-44.4042160745696	151.581123637427	-14.0546802760709	-12.1277500633201
173562500	-36.6437236130742	64.568346930207	22.4586291667068	111.397675008331			-42.2398449925492	140.012051693932	-13.9232343363326	-15.0220221212427
174250000	-35.8692498566426	61.7304124428533	22.4722206102113	109.355960908772			-44.3983204953567	150.998222152119	-13.9662723426854	-18.8110692180601
174937500	-35.3623499919682	49.2204699450669	22.474426141184	107.404574759448			-44.208246673293	146.688743226653	-13.8593752891984	-20.9045937298109
175625000	-35.9527437142094	43.7259370021631	22.4364746020718	105.574916948872			-43.7250968984724	143.739917749292	-13.784512632969	-24.5933647988147
176312500	-34.8443733440381	40.9976541408762	22.4725607817254	103.577236866145			-42.9203369869232	148.664373933721	-13.7167717444974	-26.9916173846103
177000000	-35.2711740123235	32.4707521545538	22.4887163403795	101.800425930432			-46.3999244705467	131.242450544656	-13.6644903005905	-30.8530824949197
177687500	-34.0399107968565	23.9914342436898	22.4973515020054	99.684141783804			-43.0842873266308	130.154249723337	-13.6755063163547	-33.5082653231554
178375000	-34.2910837065637	21.6289022515863	22.5414958210608	97.7735311342894			-44.1894706257399	127.980815000336	-13.6013361663635	-36.647815818382
179062500	-33.4636359868887	14.5209850901833	22.5424578989594	95.7945659861344			-44.1068026652093	136.825451712282	-13.4679483560808	-39.8518572278188
179750000	-33.5443356539396	8.27104956281979	22.5518813531354	93.8928709852525			-42.4422486433141	128.895962390347	-13.4306158382309	-42.642755296373
180437500	-32.9073513106862	1.81405437949153	22.6282300703982	91.6557665953249			-43.0635001650823	137.966162002309	-13.3377150393898	-46.4366155472645
181125000	-32.1252692023297	-1.91802573901564	22.6282845521795	89.754612451544			-42.3595945648638	119.175148214016	-13.2933498845231	-49.1926575744907
181812500	-32.1363099252539	-3.63721795438412	22.6606097072394	87.7906062298958			-42.2320657551179	133.464486975498	-13.2825043203671	-52.4056005653042
182500000	-32.3751541325973	-12.0655370068543	22.6884651683477	85.6342418107683			-43.2149184605155	126.427291470144	-13.1889254888207	-55.2625789311234
183187500	-31.2773906362207	-12.7685838920016	22.732119939224	83.4590909870328			-43.1171675788933	126.231204661319	-13.0516352963591	-58.753134858166
183875000	-31.9894200249477	-19.3232365219338	22.7372237494622	81.5140499595786			-43.8711534461122	112.473196484658	-13.0146966878147	-60.7205957259382
184562500	-31.4918081607948	-22.5928060637862	22.7641781048522	79.6134571199635			-43.1810297060712	123.209652327644	-13.0056112385693	-64.6193512908958
185250000	-32.0920057384396	-23.1280463587712	22.7926858513892	77.3527758175254			-42.6057268523054	110.910711111997	-12.9508194411963	-67.1302501959899
185937500	-31.9277542469041	-25.5778389642151	22.800549499808	75.2444979894867			-44.5967063961129	117.675702789613	-12.9285180255541	-70.2125775669459
186625000	-32.9133777228442	-28.7928987434114	22.7964761543437	73.1298232594012			-41.4326180697945	113.234811280965	-12.9862309987623	-72.4793704704626
187312500	-33.1773062959901	-28.3268610198613	22.818396644517	70.9390463915367			-44.6955801247838	113.770279410604	-12.7511524168456	-76.0385042841381
188000000	-33.456027674734	-30.5828485524035	22.7967068168813	68.9840889928031			-43.8611513596338	115.79212500311	-12.8552630040379	-78.3219603434733
188687500	-32.5667375461005	-34.6873852677606	22.83413565803	66.7546187336			-43.9413020346601	91.432400265696	-12.7794742219229	-80.8487081287605
