# Hz S DB R 50
100000000	-29.0069216927896	4.88789732223371	-21.4775141284945	2.44458109285289			-64.452569095491	-2.80607917356456	-3.59513114767616	81.3968088862902
100687500	-29.4381242919188	2.84725815899554	-21.231781988854	-0.200087110630932			-65.9570523484862	-179.633738199362	-3.54947333448338	78.9456519049587
101375000	-28.9604259014083	0.828953703935049	-20.6401535054528	-0.810890543177741			-52.8465420647665	96.4138308093229	-3.57253510630873	75.9325002562047
102062500	-29.5170062576685	1.49111470958947	-20.3997385107601	-3.69792822531183			-67.2598180173755	4.21001948509503	-3.54875854111111	73.2125079142592
102750000	-29.3889818592065	-0.692047587476766	-20.0772693079741	-5.6715127014196			-59.1714105854082	43.6116573349734	-3.57822948888373	70.4156581589583
103437500	-29.9948946197167	-3.35429652703823	-19.7159716998899	-9.12490749203056			-60.3424310322909	-150.05660940419	-3.57081497123523	67.5356658441675
104125000	-29.3463944133917	-1.52777765648308	-19.3227159701893	-10.2389849732191			-59.578116917728	51.4310094127733	-3.59417787991486	64.7727460331181
104812500	-29.7061158773763	-6.65572534974237	-19.0188725245342	-13.9545922168276			-69.6292966339012	85.8999843241416	-3.6250316742788	61.4843109970025
105500000	-29.7331551181003	-3.74057049694258	-18.6153309118112	-15.7785580610696			-68.7907216482083	-69.9083275416279	-3.61890852171076	58.8531551915195
106187500	-30.3231424077072	-7.29350111928375	-18.3572506387915	-18.3364019112194			-58.0343775999489	-45.1599658701898	-3.63780393449056	55.7600387825583
106875000	-30.5817883346881	-6.87018032476	-18.2233166121806	-21.2192458850709			-66.016835479953	-143.559848809747	-3.6671881839264	53.0343558827216
107562500	-30.0181765972411	-12.0073690177725	-17.8614274056423	-24.0407017091158			-66.6677311303646	73.095626899807	-3.65732927938111	49.4192738370736
108250000	-29.5565083353978	-11.6128197426188	-17.7223878424992	-26.2632283125413			-62.3917140453754	170.929377748408	-3.73985018094437	47.0021528602199
108937500	-30.1184332463922	-16.4465306555135	-17.514011758954	-28.6137838946959			-54.0544862777793	-0.614726558521497	-3.73311941871611	43.5509167011836
109625000	-30.3102336332837	-12.0033161402242	-17.4698233370061	-31.2347142689957			-64.4755971596112	172.210188904852	-3.828083336233	40.7924550738461
110312500	-29.8171793723856	-18.6787485312044	-17.2391805386118	-34.4250221533471			-59.54584123408	81.3308148724674	-3.80805475028929	37.5380222949207
111000000	-30.322775002856	-19.3750280956243	-17.2246061069336	-37.1525691698195			-78.2757603474794	-141.508532595971	-3.9260835086679	34.5357723588096
111687500	-29.7951000344179	-24.1697808375485	-17.0738566753338	-39.7099114858906			-57.947637851997	-9.91759542365318	-3.91093032124215	30.9665333136235
112375000	-30.4915519372902	-18.8353628547686	-17.245842903807	-41.8812336479032			-58.6214619025216	-169.880989195635	-3.98709426940736	27.9682536816686
113062500	-30.0363920284018	-21.8063069678631	-17.2153827277809	-44.3091131979024			-58.8425481313573	20.0770217701949	-3.98416794416806	24.3702760017767
113750000	-30.2673614833961	-22.6686135971281	-17.3491726896621	-46.2387465067458			-61.9250084083735	-149.141609402427	-4.113410346419	21.307146218765
114437500	-30.0399054805785	-29.471270329087	-17.3633685742497	-47.7948506599173			-61.5093027701666	26.0054849533901	-4.10051686229227	17.6877447068632
115125000	-30.4230431456212	-30.1409066783917	-17.6096437787952	-49.9289688290361			-58.9948634777475	-87.7304678488531	-4.16674950511479	14.2000334448741
115812500	-29.9542191907554	-26.3169621890707	-17.7957925240074	-51.1482541038272			-67.8049991405504	18.6249710461882	-4.24243749741632	10.2309942998183
116500000	-30.0109299239654	-32.0994835685113	-18.1248808436764	-51.8484302262294			-68.1820800348907	-7.71233242413215	-4.28726711069379	6.52378917917785
117187500	-29.6448670159507	-34.9387660170946	-18.4609243504097	-51.4330412209868			-55.8729235104962	86.1312445071252	-4.32378668285714	2.97281797085822
117875000	-30.0326964061833	-35.2622482696559	-18.8737955175863	-50.7656711789786			-58.7407756778409	-117.945032123015	-4.42363619810496	-1.06352822936436
118562500	-29.737370531346	-33.3632604226419	-19.2843104396337	-48.6985898336263			-67.4609100503073	-22.2863445024745	-4.466279526606	-5.09009682584689
119250000	-29.8194002519914	-39.2476113022222	-19.6360518625085	-45.7099431381554			-58.9988757865548	82.0165181994951	-4.56355420022338	-9.26338758842037
119937500	-29.3844447682619	-41.7826932391231	-19.9973644601483	-39.7284425951512			-66.7366009625504	51.2521741585314	-4.64921841874578	-13.7869148082362
120625000	-29.8224504905303	-42.1941702808339	-19.899719724712	-33.7553836512937			-56.884154287642	-100.567169158793	-4.68531017942968	-18.0481120937417
121312500	-29.4432401078851	-43.6861607037237	-19.6827170315579	-25.6735164650493			-58.7082325516313	107.507514738152	-4.82275777804411	-22.5531011479211
122000000	-29.6232660064979	-46.1838123313124	-18.8223420321077	-18.7445914647769			-57.9895235666429	-75.9682017660211	-4.928418142347	-27.3261321546021
122687500	-29.7081581473268	-43.9139822615903	-17.6657583962943	-12.1971996524623			-55.7155389240394	142.457898356585	-5.09782711941951	-32.2962396284351
123375000	-29.1994584121993	-49.5782625943624	-16.3257808434951	-7.93902385202668			-59.4238353109697	-49.7372222183597	-5.25947320650286	-37.3476469689608
124062500	-29.3364772838495	-47.6342179144637	-14.908985714395	-6.4259186318209			-59.6535717118653	169.853267164659	-5.46603658866632	-42.6021001083348
124750000	-28.9343399714992	-49.5798508612781	-13.3679651329619	-6.67344558662611			-59.826762169707	-69.5984766010348	-5.6442300505562	-47.9164524182472
125437500	-29.1003145757041	-48.8311047252147	-12.0585973832876	-7.80697877390686			-57.9286451890451	161.219393618363	-5.90527843162898	-53.361880503655
126125000	-29.2506144390919	-53.0435316661918	-10.7321949659531	-11.0190924694344			-61.267090139424	-127.793809365874	-6.20981633675824	-58.3965381892405
126812500	-28.8237360574076	-53.9166794574966	-9.65246174603142	-14.620621870948			-60.3998008423492	71.6939788477741	-6.56442449894148	-64.0518196189447
127500000	-28.5372672062015	-54.5466621681097	-8.54160332494726	-18.6274976854453			-57.0822869114447	-20.6232251112582	-6.93162665888621	-69.1326555327331
128187500	-28.9969395820204	-54.3078407080574	-7.66012866869303	-23.6211778966547			-62.1595005631046	-135.640257354453	-7.28873646625013	-74.7477120165889
128875000	-28.6434089667481	-56.0079197723788	-6.77934053777718	-28.3301719581496			-53.7082855011961	28.5648458027173	-7.82526687917778	-80.0305454546087
129562500	-28.8667482730632	-56.9345290538897	-6.11171214588299	-33.6882895181669			-55.9297305862728	-98.9998583701317	-8.21830026498795	-85.4161549712927
130250000	-28.1367886052067	-56.6420686259255	-5.39246749784252	-38.8729101209702			-58.7069115199154	-21.9574027712502	-8.85899907721121	-89.9999920145042
130937500	-28.4235161471133	-60.3599332575479	-4.88337657814487	-44.4964130818489			-55.7994378674639	-96.1974361541048	-9.25531368076413	-95.3368037640575
131625000	-28.002503376434	-58.8172895315953	-4.37694463880805	-49.3828048210542			-60.4236335632306	25.7151326311848	-9.94408142249307	-99.7898655702207
132312500	-28.6120559696349	-62.4677216788529	-3.93731413880091	-54.8767035502697			-53.93643042549	-46.6537469503425	-10.391571951828	-104.532926397728
133000000	-28.5108248933173	-61.1227789357966	-3.59381377880491	-59.8019990412317			-68.6503237423993	-116.100859016717	-11.0905820833885	-109.048642782027
133687500	-28.1451183508363	-65.5475744420503	-3.28318909057352	-64.8359071714402			-55.0017965293681	-52.7108180616927	-11.5728545474318	-113.396605119512
134375000	-28.484386506142	-62.8412809975098	-2.93464135242814	-69.5338637283381			-56.8400389674184	65.8292907327657	-12.2908997664076	-118.182056171085
135062500	-27.9549897964622	-65.6345551942559	-2.73495925219333	-74.2511585475555			-74.9744110882313	142.304805711793	-12.8367941070553	-122.302784359986
135750000	-28.2303672154394	-61.3899191122612	-2.52867699227035	-78.7245625108544			-59.9332680151715	-94.039191298037	-13.4719489543936	-126.360339542121
136437500	-27.8948108221191	-68.1309142705939	-2.32528833000344	-83.2937398074249			-54.2936182130951	-59.840572769305	-14.0823508590199	-130.672720039884
137125000	-28.0404152551005	-64.2310122637859	-2.10734086031879	-87.3883208737477			-72.1138453113413	-170.205216091346	-14.758713247095	-135.343032674966
137812500	-27.8927539799079	-67.6057921058076	-1.97181439863657	-91.6897024469593			-58.4862525370422	-42.877231532073	-15.2640219106476	-139.563686668175
138500000	-28.0006612096759	-68.5192260915438	-1.80533587952253	-95.5096558546881			-58.9367619036622	148.421358461892	-15.7804297960168	-145.51101495152
139187500	-27.9786070752822	-68.2430692620013	-1.70972265922441	-99.6288874037818			-56.9818770534037	-99.8304911067119	-16.4616065628838	-149.704067694748
139875000	-28.3657362267528	-68.8675677604874	-1.52662699663296	-103.348469582985			-75.117394937324	11.7591314761822	-16.8769616992514	-154.794865145441
140562500	-28.2197545638625	-69.3853719989077	-1.45942039059216	-107.163911938805			-56.774132958456	-45.820256832777	-17.5943603566608	-160.50681754245
141250000	-28.221561152124	-72.6059780728842	-1.30010914244659	-110.92122416152			-56.7096659999008	-146.798162794313	-17.9025482734932	-165.605722581566
141937500	-28.3322642434377	-73.0342017035507	-1.27761815522675	-114.661230135786			-53.8006139202179	-0.608125889276569	-18.52568532863	-171.725116326888
142625000	-28.3714399405796	-74.5615374446775	-1.1284888435398	-118.134689171638			-59.3392679048618	-54.9150794426107	-18.9188067509303	-177.419626349855
143312500	-28.1306278919913	-76.5612846537432	-1.08155104642133	-121.684897706627			-61.0299239016037	-129.302201234728	-19.4615527717724	174.939413702308
144000000	-28.1404291990745	-76.622510662052	-1.00235045334873	-124.756721246652			-55.8328814110427	-98.6284653151244	-19.723597422129	169.560069166662
144687500	-28.2074639819082	-77.5559367314834	-0.953851343434385	-128.616072489407			-71.1981824339609	-23.3016140351974	-19.9020681154073	161.781789371224
145375000	-28.8238592308681	-78.5817624919954	-0.871299832676305	-131.925112657948			-63.2160011413496	-109.476845154028	-20.0847377005337	156.380653987098
146062500	-28.4277158012747	-76.1453540194203	-0.85783691750037	-135.210890796437			-63.0871864314982	-27.8645092862737	-20.2503723629258	146.405772664026
146750000	-28.7028418897175	-81.6224513745839	-0.762752573454936	-138.210848784279			-55.8590163124229	-99.4594884961331	-20.643092504907	142.720739288222
147437500	-28.471946396519	-82.0410379263295	-0.775864019993683	-141.708167356857			-82.7415076137351	-149.811553565584	-20.3421973231369	133.876802616253
148125000	-28.7019930192199	-85.8687970818682	-0.698745469558854	-144.728861080342			-56.4154501390623	-123.673152982534	-20.2967181277857	128.291763745032
148812500	-28.8996526143684	-84.3897829991024	-0.686835803339188	-147.837816287515			-54.460017000091	147.833174536817	-19.9664571827415	121.70411533316
149500000	-28.7750114551398	-87.5311689058478	-0.655584755923219	-150.684913918897			-51.0901177172363	-73.7521013973423	-20.1819521997662	116.034320572921
150187500	-28.9556653694586	-86.6637304248467	-0.652901545810665	-153.731432755689			-63.1235299132359	-109.690809912846	-19.9484097864362	109.580102752678
150875000	-29.309609856807	-89.0899477760915	-0.595322011053333	-156.550907471511			-62.069926571754	-107.883460692716	-19.9650761842294	104.283350311281
151562500	-28.8557060286175	-90.3072904882465	-0.613835564777025	-159.471371499506			-59.6361279479696	-171.142631305141	-19.5372584982231	100.049378953546
152250000	-28.8053614110101	-94.122684586875	-0.595869946341152	-162.246315612613			-64.4432743517736	-76.7189616577218	-19.4562716210885	93.3262367395425
152937500	-29.9316588487362	-96.6901356296408	-0.592565916770567	-164.99115866388			-54.6170966528844	166.73840584454	-19.0910406303086	89.7728279841415
153625000	-28.9507688107014	-98.1311270933305	-0.580400549127996	-167.496102071543			-70.5800897998027	19.9206412501722	-19.0566305245021	84.7083342464294
154312500	-29.6111679893431	-100.010267772912	-0.563221455367477	-170.355129288161			-55.0814627963368	160.204417971193	-18.6082794950349	81.8931867202208
155000000	-28.8819507959995	-101.402194907336	-0.554990660414413	-172.993694550403			-52.1337747945251	-72.1258519427646	-18.5695945574077	76.8015067463775
155687500	-29.2052386244211	-103.514079538199	-0.557398185524374	-175.234150380634			-55.7242447509898	177.108105789782	-18.3727356370595	73.1969404530321
156375000	-29.1757275153505	-104.553798935208	-0.500876310232418	-177.885699638865			-57.2945236008968	18.190554310482	-18.1033264042209	68.4219954638821
157062500	-29.6440504147979	-108.622906088776	-0.515432073657068	179.432424006186			-54.0959103282432	-145.676396317924	-17.9444809789284	66.3108172585644
157750000	-28.9748592501372	-105.891973496494	-0.490243238758274	177.169869478291			-67.0813198668439	152.567107019405	-17.7346324548957	62.1083620698165
158437500	-29.1753312802368	-111.789225909269	-0.498379740597923	174.73501789599			-58.1146598316942	175.686538644884	-17.6156832765895	59.0693217723825
159125000	-28.6218192849384	-109.393821084542	-0.45477022580309	172.089314330491			-67.5164252578182	-93.5162298224852	-17.410333455544	55.7501897811214
159812500	-29.1558758039153	-117.694669094173	-0.428050978868619	169.641265389069			-55.5296745350985	174.941543501718	-17.4749944639466	52.6309635452438
160500000	-28.735143836792	-111.330944754727	-0.395955604055693	167.164905722939			-63.1103205695758	132.876638396279	-17.1403557779249	49.7692922907538
161187500	-28.4788577223922	-117.65364069975	-0.453984742478288	165.135493918386			-53.5269175926507	-87.7910695368177	-17.0073738615976	46.1404010806502
161875000	-28.9650737788228	-115.297287249804	-0.37597161336858	162.552588461119			-60.5616470196426	-81.2451513950728	-16.8360007599037	44.0727649962765
162562500	-28.093449784211	-119.469288387175	-0.415393391033853	159.93213642871			-62.1839240405559	-104.327118875815	-16.7805940470107	39.3774206584292
163250000	-28.2556683185442	-119.550134729475	-0.379104139683638	157.655232399267			-69.3138359500426	81.2664144056863	-16.5649731533353	37.4726755568515
163937500	-27.8230245188256	-121.09084022326	-0.37650054182419	155.258212083129			-65.1553728232389	-79.2857678889387	-16.5507765002624	34.3720864287887
164625000	-28.0099164479007	-120.398475476783	-0.350051009554027	153.036944025405			-64.0460862623169	60.0784144173149	-16.485992972825	32.070913033344
165312500	-27.9435446865501	-124.651555225918	-0.380312497303131	150.550538166861			-61.2509838356131	82.922370604039	-16.3357001111103	28.4202283610454
166000000	-28.1635484281133	-120.987930038127	-0.374179058611039	148.248859391459			-62.206228028202	133.267792916422	-16.2427865909391	26.4274905645356
166687500	-27.4511026844619	-124.065626017807	-0.372148079607876	146.044780082728			-57.242000895954	-83.1140988539741	-16.1569798543612	23.0523636843984
167375000	-27.6533942711238	-123.72454487486	-0.321717725210047	143.935791085626			-54.3007853360826	145.362266662603	-16.1236432316273	21.2646667005331
168062500	-26.9158778308226	-124.653171338417	-0.360799064047382	141.524697460387			-63.4686607178805	12.5096181418169	-15.8986478470323	16.91802292661
168750000	-27.3188781941484	-122.424569363969	-0.347245484588388	139.272786620387			-68.9161941668895	134.964030468995	-15.8911013352347	14.5392301741831
169437500	-26.9105693929774	-124.309139670184	-0.403993708110017	136.92841617337			-57.6844019672107	6.30601565899364	-15.6443795730906	10.6807261163922
170125000	-27.0186721469877	-123.968545989974	-0.309236143399044	135.013233212836			-54.9948949283822	158.715419522901	-15.7734515766284	9.04711373862895
170812500	-26.9614355477585	-123.608064245952	-0.412643155543982	132.470621941021			-55.8567225312387	-7.06124476336739	-15.5064909412966	4.9670634919267
171500000	-26.9027165093399	-127.107530045053	-0.368391007306435	130.876495037323			-52.9922277453779	171.477051770201	-15.6766216123187	3.32500603395887
172187500	-26.7589976367565	-126.106358152028	-0.436206435118116	128.420524123009			-61.4107134862383	90.542300105135	-15.3685818815157	-0.462112234270564
172875000	-27.0974684504453	-126.569206719055	-0.385228252684117	126.516155178497			-52.906389000981	-173.713602787803	-15.5325763653457	-3.41144668573288
173562500	-26.6406515669411	-124.188096031177	-0.440558751308006	124.356520299554			-62.6414371740597	89.0720572585277	-15.3191249665356	-6.72762810051919
174250000	-26.624514301392	-126.414384238036	-0.369469760975551	122.51496076263			-59.8981535081175	-85.4692103309185	-15.332025701802	-10.3349880603056
174937500	-26.7151532025613	-123.914871592161	-0.419046157546211	120.287492346355			-57.1180975155802	69.5398436516641	-15.2513260069289	-12.1153660039877
175625000	-26.3154741811726	-126.53367790615	-0.43220378674211	118.641266500746			-55.4762450913178	-146.074582651756	-15.3039752415649	-15.6435786443295
176312500	-26.7022209612701	-125.731032569907	-0.399733768116132	116.339066073753			-59.1639923512981	106.058109609394	-15.0881308670701	-18.1000333224699
177000000	-26.4603201084476	-125.990140446055	-0.362041304081534	114.812116718717			-63.3588668894434	-35.0733666231133	-15.0849913031289	-22.1378778487746
177687500	-26.768722894927	-125.019468831741	-0.395559618667928	112.533438207449			-73.0824165449679	0.284284555067476	-15.0468748107113	-24.2218998911752
178375000	-26.1675158318379	-127.573342927209	-0.331545644738686	110.812671908002			-58.1193021708873	-120.354600997211	-14.962358194948	-27.9449492218665
179062500	-26.330888542927	-127.08260613255	-0.326421827605099	108.650975282676			-55.745961064604	158.997182918243	-14.9906294589518	-30.002589432102
179750000	-26.1225330419284	-128.2489228761	-0.321050308675231	106.989435024897			-64.423009693815	-23.0566970662767	-14.7917724176806	-33.4722712317641
180437500	-26.8483829871841	-126.213060916524	-0.277963337833831	104.725674204796			-65.5828501254622	-156.851315469821	-14.7741462272634	-36.4291810880274
181125000	-26.1457697733395	-127.585487384585	-0.284977762460856	102.872091651937			-63.3824164251713	37.170709376384	-14.6327182566916	-39.079342692459
181812500	-26.7236782051748	-128.209582001212	-0.239719576459385	100.817100369426			-56.384533061015	104.278892769981	-14.7454282029152	-42.2045691444439
182500000	-26.164526727989	-129.133646670433	-0.206366082019331	98.8546007684528			-64.102170649679	81.234506742635	-14.518305224921	-44.5897979841954
183187500	-26.63297237227	-129.988833562499	-0.181718587796828	96.5695115138818			-55.2825385534697	174.263520342179	-14.559430247763	-47.8809739799382
183875000	-26.5032991475465	-131.608119953131	-0.150878592146246	94.6717881070598			-67.182659481599	-12.9733388577681	-14.4187179269117	-49.7093666607599
184562500	-26.6138911704452	-131.952403491863	-0.140619633771948	92.7786422606552			-53.6430213938951	163.443565947506	-14.4486149792855	-53.4884061604817
185250000	-26.5547851776144	-133.938954151743	-0.100132922966951	90.6923686648882			-59.0045852048585	-14.8318632272092	-14.3233101505242	-55.4615510620538
185937500	-26.7589761176767	-133.748345130172	-0.126637521214063	88.4326873570096			-51.9098839900135	172.851326845235	-14.3403750822095	-58.4900709227448
186625000	-26.5719058049747	-136.258220314472	-9.76346407310413E-02	86.3536459404795			-65.3595663991579	89.0794948821466	-14.2350646071987	-60.1618563125253
187312500	-26.5593692499435	-140.175325758927	-9.56384685908156E-02	84.3016695681609			-53.6674439014678	-168.235962056421	-14.1121596238218	-63.3926133001066
