# Hz S RI R 50
100000000	4.61811450755202E-02	9.7373004094017E-03	3.47283666332102E-02	5.44183013941728E-03			-5.67735069078793E-04	1.33597716394367E-04	0.100071848397677	0.65257409963322
100687500	4.72467678663771E-02	1.08916304398963E-02	3.88836352224144E-02	5.24358160949817E-03			1.68801085506471E-03	1.03768261453678E-03	0.126539930213394	0.65195149983423
101375000	4.54569688711775E-02	7.71949729330815E-03	3.84320139472129E-02	2.05784766274489E-03			-1.1779498419386E-03	-1.72013869548416E-04	0.160970842166416	0.643232768265094
102062500	4.60925616440228E-02	9.47666691715413E-03	4.16713063062385E-02	1.85191413440698E-03			5.59399421907958E-04	1.48651723166586E-03	0.189312020526435	0.636222159802418
102750000	4.60024244449723E-02	6.00127116180864E-03	4.31040097229444E-02	-6.00866565009198E-04			1.95935741943809E-04	-6.83442924819094E-05	0.222054435284943	0.621543809958879
103437500	4.48918419534459E-02	5.97149014178331E-03	4.50227392013035E-02	-1.71319348248298E-03			6.16800476573079E-04	5.58059834567181E-04	0.251617874843379	0.616349627884446
104125000	4.65459151442903E-02	0.004801912834124	4.53065141343448E-02	-3.80594272324991E-03			9.98617705931752E-04	-1.22971436796106E-03	0.281230225973415	0.594907215864825
104812500	4.48973075292165E-02	4.41400000873705E-03	4.81943138873216E-02	-4.9806234618064E-03			-9.61587100444087E-05	5.9252276013572E-04	0.309246119493518	0.580729208979461
105500000	0.045185035651897	3.6520359397757E-03	4.96804467817735E-02	-9.02221095507614E-03			1.41321139456755E-04	-6.42594564051611E-05	0.340174664689146	0.562435329521097
106187500	4.26818876020804E-02	1.26141676670682E-03	5.02215977020213E-02	-1.16438528941581E-02			-5.571720274232E-04	-2.94038707344175E-04	0.366154713531795	0.543202309091124
106875000	0.044191888424808	-1.92908238305694E-03	5.21315741368833E-02	-1.40784816720438E-02			-1.46825134607515E-05	-1.35803815576163E-04	0.393406138202106	0.520730583748311
107562500	4.38981625219467E-02	-2.20888028968969E-03	5.15401541193458E-02	-1.55641799789189E-02			-7.46283773938237E-04	1.17451569027466E-03	0.419383842576477	0.503130240782149
108250000	4.66161969550902E-02	-2.94241219504038E-03	5.36739318514788E-02	-1.90711271212057E-02			7.38893526744702E-04	-2.35989478008676E-04	0.445082348757584	0.4746361085266
108937500	4.29961725263429E-02	-3.99316289525915E-03	5.19961150085289E-02	-0.021893889153585			4.45091083160039E-05	9.24550467132136E-04	0.466937256030127	0.451230074264656
109625000	4.28660403756882E-02	-4.09921189748117E-03	5.32702652210245E-02	-2.50085895591169E-02			3.95216277493128E-04	-8.40732901668605E-04	0.490013972489588	0.42089295154918
110312500	4.10137360742598E-02	-5.85619542456648E-03	5.13034599813214E-02	-2.69386694393866E-02			-1.87017121078763E-03	-3.6208973474601E-04	0.50704365581836	0.39307279931599
111000000	4.11248354325213E-02	-6.32425418592429E-03	5.20521063110028E-02	-2.96744777374599E-02			-5.42517707697579E-06	1.17822753881383E-03	0.52549514874505	0.359954589375706
111687500	4.03820321282936E-02	-8.21196059221748E-03	4.94676966313497E-02	-3.14607562524304E-02			-3.14305155947954E-04	4.34868279476188E-04	0.542028832647125	0.330217846791326
112375000	4.27441887497371E-02	-7.27061014629952E-03	4.98507298879166E-02	-3.44392304899512E-02			1.2149938826117E-03	-6.87532721257169E-04	0.557897629971446	0.294998083246591
113062500	4.10254678030052E-02	-1.04701392500798E-02	4.66767068768198E-02	-0.035545212684527			-1.06720395511527E-03	-3.99921572222613E-04	0.57170474555252	0.263103238154883
113750000	4.23149620129762E-02	-1.15834555483452E-02	4.60877588281425E-02	-3.77899155975951E-02			1.97085112442047E-03	7.39253851909736E-04	0.580690296154234	0.225569619566271
114437500	3.88444533392686E-02	-0.013885376072151	4.31861689932089E-02	-3.82840909916759E-02			-3.17296675239015E-04	-5.77342130192969E-04	0.591550768552525	0.191266866256149
115125000	4.04547971947932E-02	-1.27838371793651E-02	4.26041264350215E-02	-0.038010035740114			3.59182013205886E-04	-5.52860275488156E-04	0.599313477325356	0.150661947232761
115812500	3.90705050091903E-02	-1.42912611437705E-02	4.01708386463671E-02	-3.88094557422766E-02			-1.61178678066179E-05	2.00139198643242E-04	0.603158480369248	0.110001316401257
116500000	4.02170616442129E-02	-0.016861987270237	3.90322688198383E-02	-0.037050213261019			8.05004128930612E-04	1.10557646087416E-03	0.605339453196818	0.068935721349289
117187500	3.96605791889169E-02	-1.88155826327671E-02	3.59465781087657E-02	-3.57213321141384E-02			-1.8500437378915E-04	-1.23019540208037E-03	0.604387924762746	3.24007842915544E-02
117875000	3.85608157746587E-02	-0.016954515163361	0.035679769052984	-3.29611635332064E-02			6.64752962275779E-04	1.93868162099041E-04	0.600573278909952	-9.62707632802279E-03
118562500	4.03352146630047E-02	-1.96065524141921E-02	3.43656944320912E-02	-0.032625018906625			2.96397577890498E-04	-3.19762687536763E-04	0.593472070510805	-5.08925858093312E-02
119250000	3.87147654168858E-02	-1.88263231453574E-02	3.50447247920632E-02	-0.026032860335154			-3.00784201424307E-04	1.23703397249933E-03	0.581564120711738	-9.45189249169062E-02
119937500	0.039484006940835	-2.28081077357253E-02	3.68635287049073E-02	-2.39390945949463E-02			7.07390629796236E-04	-6.91436658194233E-04	0.567769720624931	-0.137879595917175
120625000	3.60927705492542E-02	-2.21682692817653E-02	3.93786451039735E-02	-1.83346047800861E-02			-2.22902926799365E-05	2.20082426033647E-04	0.550101040020129	-0.180110929840831
121312500	3.93234275761906E-02	-0.025473603286061	4.23231575354557E-02	-1.48495221707639E-02			-2.28423257743401E-04	-9.15226930723263E-04	0.528922045347436	-0.219820629481122
122000000	3.68076498047659E-02	-2.39277635406936E-02	4.76236558623091E-02	-8.62512306020555E-03			-4.4410346720466E-04	1.07459947081876E-03	0.501541027562131	-0.261034997090784
122687500	3.66871218973792E-02	-2.52791730860533E-02	5.70266308189516E-02	-5.87827377316561E-03			2.40396413217246E-04	3.13389474408328E-04	0.46962313631332	-0.294344797967928
123375000	3.54317985351466E-02	-2.66648012039256E-02	6.59568759933967E-02	-6.86637039681115E-04			-1.44953908369966E-03	-3.54396014466226E-04	0.432544522387201	-0.331498423601022
124062500	3.89593401743584E-02	-2.89975019505168E-02	7.79515470764341E-02	1.04989830913178E-04			1.43380980769054E-03	-1.75144097716778E-04	0.392703025562986	-0.359615224084645
124750000	3.49530763819273E-02	-2.85654605147452E-02	9.26259038839832E-02	1.92287102874786E-03			-2.2574531720119E-04	1.3489048534277E-04	0.349267346168286	-0.385000017776001
125437500	3.74517649321809E-02	-2.95265862418495E-02	0.107821903141928	-1.13954612715172E-03			6.93846686628009E-04	-2.2255152474919E-04	0.302653622503549	-0.405347701928983
126125000	3.37247541636161E-02	-0.030298879851805	0.123546419539012	-6.49186439443519E-03			-1.27294646357364E-03	5.48180923898599E-04	0.251174277185105	-0.413487589210788
126812500	3.54273149942205E-02	-3.16460736729176E-02	0.14217897795576	-1.70626707528832E-02			1.82118682869317E-03	-8.36622009481977E-04	0.206008452332686	-0.420233881700542
127500000	3.34036657815857E-02	-3.16119550555663E-02	0.156822444344787	-3.13457694762758E-02			-9.34451079464554E-04	-1.83245086329398E-04	0.157316504525689	-0.417872854595295
128187500	0.035432780269925	-3.28460933630666E-02	0.172726597474485	-4.74421759647141E-02			-9.92881638307046E-05	7.18447320142662E-04	0.113371385826268	-0.412786862762896
128875000	3.30381047295711E-02	-3.51702418327446E-02	0.183689001922661	-7.11158404749998E-02			6.70204023272304E-05	-1.17101047533347E-03	6.81512251289859E-02	-0.399919469218675
129562500	0.033860148158503	-3.38964212173046E-02	0.19318392815403	-9.25201388682314E-02			8.19450920881526E-04	-8.17549824618363E-04	0.03180702083595	-0.384221279337481
130250000	3.31776585331081E-02	-3.73948479033045E-02	0.197395093470689	-0.11947521332413			-1.73873940841517E-04	-8.57188459182151E-04	-2.74770040875019E-03	-0.358859447636685
130937500	3.24111298707633E-02	-3.63002396513118E-02	0.199842000246827	-0.144896878992366			7.42858730008272E-05	1.17738449786132E-03	-3.03602136086275E-02	-0.340231012709276
131625000	3.38406111976858E-02	-3.89415887498872E-02	0.194419153728647	-0.174331635629567			1.63504336650854E-05	-9.6359191446594E-04	-5.56051530607159E-02	-0.311550155083674
132312500	3.12175624318188E-02	-3.66492259748624E-02	0.188212857845177	-0.198780287802437			-9.37787956400777E-05	1.07987281730588E-03	-7.48482762717928E-02	-0.289861664645163
133000000	3.12705532404572E-02	-3.78930955932271E-02	0.175027358473398	-0.225782318802956			-1.72104144025164E-04	-1.01005711722457E-03	-0.09191097682025	-0.261488880112913
133687500	2.99399518117056E-02	-4.00056089306168E-02	0.164911252829515	-0.246022470797028			2.24743661307933E-04	2.85581007218728E-04	-0.102786673493608	-0.238305704048796
134375000	3.04291133218234E-02	-4.05753590888786E-02	0.146196749848443	-0.270268006802572			-1.42389853157235E-04	-8.65278448789713E-04	-0.114663655752921	-0.213506724993693
135062500	0.029937662681365	-4.03207813440426E-02	0.129346661014672	-0.287033585168031			1.00857015741438E-04	-1.79352997254396E-05	-0.122089151302705	-0.190431771524609
135750000	3.18042046595736E-02	-4.13384168756644E-02	0.108170331557316	-0.306664410822842			4.3716166565373E-04	-1.18022677949805E-04	-0.125480113169241	-0.169715367934614
136437500	2.76494493672252E-02	-4.27560049151052E-02	8.59530100104537E-02	-0.317613854305271			-6.84020023187589E-04	4.72389213307573E-04	-0.129803392239667	-0.148767372364436
137125000	2.89553229317372E-02	-4.26763271268967E-02	6.43171138876035E-02	-0.33400178608497			7.2262481262661E-04	-5.34630931996433E-04	-0.129334481656177	-0.130757556752345
137812500	2.69336235862422E-02	-4.26777262174262E-02	4.03617951232113E-02	-0.342069346440584			-4.4890927908244E-04	8.28686322446424E-04	-0.131364801375988	-0.111963471654482
138500000	2.65931573583508E-02	-4.45323199243282E-02	0.017569542928303	-0.350186445778859			3.40618656828388E-04	-4.35259099750937E-04	-0.13294875719298	-9.23940550638048E-02
139187500	2.47120738554162E-02	-4.40351813970354E-02	-7.91369890255465E-03	-0.354764117964223			-8.80782443953643E-04	4.86190169687585E-05	-0.130149761656648	-7.60669193154399E-02
139875000	2.52948467913805E-02	-4.38228877794505E-02	-0.028660610184099	-0.360572512809482			5.22442477012998E-04	-8.17628038778922E-04	-0.127520009000762	-6.14506582364288E-02
140562500	2.23562378214073E-02	-4.54249690413933E-02	-5.50231489842443E-02	-0.361352774867988			7.26047809835951E-05	3.80642823569066E-05	-0.125564030356372	-4.51204852540258E-02
141250000	2.22796478809123E-02	-4.38808826464778E-02	-7.95416156123215E-02	-0.362878071837938			9.50594004680484E-04	1.40135139787316E-03	-0.122011718366018	-3.14260304315462E-02
141937500	1.94699880410908E-02	-4.50073914549547E-02	-0.102832154255721	-0.359730113506968			-1.3387304268815E-03	-8.49600086562818E-04	-0.117474681035845	-1.83825522482374E-02
142625000	2.10007813392611E-02	-0.045401419931354	-0.127744654735597	-0.358032084663024			-8.77657248472343E-05	-7.58733100646448E-04	-0.111190566190475	-6.40533069275678E-03
143312500	1.67877419519031E-02	-4.77948279292511E-02	-0.149771038283272	-0.352559871858028			-9.72063842888373E-04	-3.59323419450861E-04	-0.106314017093065	6.32478984528848E-03
144000000	1.88328604646791E-02	-4.48878994111296E-02	-0.168394634767986	-0.346055373316442			1.37928591984939E-04	7.92983936324479E-04	-0.101711764922963	1.73084444753641E-02
144687500	1.63358199289396E-02	-4.69296835661159E-02	-0.192702270731911	-0.335884139258575			-8.49857916202389E-04	-1.49217720089835E-03	-9.67241039105892E-02	2.86399207392578E-02
145375000	1.48871550214257E-02	-4.47461497409101E-02	-0.212714969823859	-0.328327515449188			6.64140148315141E-04	8.49488413363101E-04	-9.00698636856989E-02	4.05362235049914E-02
146062500	0.014776706746992	-4.81628769545861E-02	-0.231363105887856	-0.318508099899513			-6.71570005788025E-04	2.20259630234312E-04	-8.23653956291776E-02	4.96864844420218E-02
146750000	0.013405812844532	-4.58520913747912E-02	-0.250065170524715	-0.306307260578308			1.20375072526746E-03	2.17284935621773E-03	-7.57442704261811E-02	5.65148021402886E-02
147437500	1.31035665705623E-02	-4.82662930954535E-02	-0.26791001641823	-0.293659674127656			-3.62449759869858E-04	-2.88582465647454E-04	-6.68726268543466E-02	6.61045621782307E-02
148125000	1.01471834223989E-02	-4.60112521039576E-02	-0.285023764419985	-0.277520367282878			5.69058040602452E-05	9.03128462674512E-04	-6.12317362141719E-02	7.38103585208982E-02
148812500	9.59777727596019E-03	-4.67310190039657E-02	-0.30042042312749	-0.26644432754499			-2.15640616546475E-04	-2.07149656773326E-04	-5.17036855805245E-02	7.99556565419447E-02
149500000	7.78443495828909E-03	-4.63269729568554E-02	-0.31664655569792	-0.249520359682231			3.84453413042033E-04	6.7160210757871E-04	-4.27438724179755E-02	8.61185157857442E-02
150187500	8.75078732001225E-03	-4.65262263644888E-02	-0.32769966968972	-0.235595587623516			-1.31353509042118E-04	-1.65150959282341E-03	-3.39190543498968E-02	9.02257676429787E-02
150875000	7.17328519370132E-03	-4.40985544834302E-02	-0.340357441379173	-0.217072321903717			-9.17942238741617E-04	9.77266734964133E-04	-2.58027818549568E-02	9.70349511513886E-02
151562500	6.7476813392904E-03	-4.87885912837117E-02	-0.351333231906539	-0.202393191334462			5.14020875307217E-04	-3.42498261091876E-04	-1.71681780448064E-02	0.101526796350745
152250000	3.49044728330891E-03	-4.46980787113012E-02	-0.360170424216862	-0.182916301054165			-2.55794705601263E-04	1.10654702868059E-03	-9.42713698935723E-03	0.104286863912847
152937500	3.06700966209295E-03	-4.62664003647368E-02	-0.369755586795825	-0.16930908389312			2.84462388721512E-04	-6.09841491082722E-04	4.02902384262823E-05	0.106935247275251
153625000	4.3406967736004E-04	-4.54805305133997E-02	-0.378910084300279	-0.150809016707369			-1.81039205020373E-03	-9.24391595508692E-05	7.2716216484746E-03	0.108599878046507
154312500	7.45491727101658E-06	-4.72635835906749E-02	-0.383974423083004	-0.135905185232627			-1.54714899273809E-05	-1.76050648904657E-03	1.75591245948805E-02	0.111718095122119
155000000	-2.83787087724296E-03	-4.73524727169726E-02	-0.391576419492955	-0.114852851872015			-2.60123903707614E-04	-1.0327199185524E-03	2.47145099849196E-02	0.112777859943762
155687500	-2.33864224588794E-03	-4.52075261475508E-02	-0.393818360596429	-0.100492988871398			1.3445928938788E-03	-9.19878342043058E-04	3.45899624257501E-02	0.112959776395282
156375000	-4.78026414764197E-03	-4.47968681487108E-02	-0.401268422008296	-7.91569348993779E-02			-1.64834710438137E-03	-7.3300570303377E-05	4.28022709043702E-02	0.110859759276304
157062500	-4.72226740307323E-03	-4.48728359974574E-02	-0.404159163310052	-6.62376843987826E-02			1.65513044283396E-03	3.68967602557662E-04	5.01570288127075E-02	0.110854842962556
157750000	-7.87542023775589E-03	-4.67614394869699E-02	-0.411504229580642	-4.80882665205441E-02			2.70748471528909E-04	8.05884963745489E-05	5.78571069435564E-02	0.111962690417718
158437500	-7.87121591902592E-03	-4.51281154328876E-02	-0.409041558312876	-3.30602629522144E-02			1.34225095800118E-03	6.49506281220621E-04	6.35915610830134E-02	0.109703982134463
159125000	-1.01527634553707E-02	-4.73312332275433E-02	-0.413089604510883	-1.34229691682431E-02			-7.58693584798369E-04	1.49098169220716E-05	0.075714615689722	0.108397722976221
159812500	-1.00763575975276E-02	-4.36728016754902E-02	-0.412856193257583	2.55632742862005E-03			9.70470928595047E-04	-1.32356496599498E-05	8.07221132212576E-02	0.105424959140316
160500000	-1.32316999254814E-02	-4.62647901061641E-02	-0.416247885473676	2.14569137480043E-02			6.00781337780832E-04	-9.27880417841646E-04	8.69964242322178E-02	0.102829481716575
161187500	-1.32062885270578E-02	-4.56325347294105E-02	-0.411769170414891	3.61155241513084E-02			5.42952784457804E-04	-3.97293176018551E-05	9.39964384383336E-02	9.96687466195852E-02
161875000	-0.013198845353144	-4.82157270839639E-02	-0.414011380813257	5.49151084796627E-02			-8.20315396090996E-04	-1.24638667446744E-03	9.93123803930414E-02	9.71520221241203E-02
162562500	-0.015813370542529	-4.51177419152314E-02	-0.409849157760665	7.23849258759549E-02			-3.95316752719697E-04	1.24211398513749E-03	0.106553257981976	0.090486478185401
163250000	-1.67828075306107E-02	-4.74385156979688E-02	-0.406689477687599	8.86597204150982E-02			-1.93158250279992E-04	-2.89956956534094E-04	0.114384176103755	8.73156815285697E-02
163937500	-1.97873649410253E-02	-4.63061057921057E-02	-0.405311301232875	0.105028213157574			4.9596369502978E-04	1.65327864910267E-03	0.118964120419897	8.40676914186578E-02
164625000	-1.69714725171564E-02	-0.048741385317059	-0.401053276176264	0.12034907462124			-2.60008555885755E-04	-1.36135537396473E-03	0.12656146764582	7.79799956161723E-02
165312500	-2.03924254081541E-02	-0.046860656878487	-0.39498338924716	0.137671376717394			-6.12591170239858E-04	8.35486361782138E-04	0.133156617085167	7.21342762643718E-02
166000000	-1.99232926426595E-02	-4.79411796010446E-02	-0.390566678144688	0.155476778757857			-1.02418533465324E-03	-1.24559048806066E-03	0.137784877772228	6.50513052349655E-02
166687500	-2.26730055366166E-02	-4.63382339016009E-02	-0.384662901709913	0.169160105131206			-9.04548240278556E-05	8.20163611955678E-04	0.142997413028255	6.02506229174273E-02
167375000	-0.023185574738215	-4.94025860289591E-02	-0.378118103566267	0.184261644933472			7.50453568098263E-04	-8.2093531572965E-04	0.14684828041626	5.16036092880279E-02
168062500	-2.42721745299548E-02	-4.85023098079903E-02	-0.371117862454904	0.199760033878059			-1.43034821086491E-03	6.75404603735816E-05	0.151028108513632	4.66501192304893E-02
168750000	-2.45811432938999E-02	-5.02313705880296E-02	-0.363667930530416	0.211299155367824			8.50394751844483E-04	1.09330123811534E-03	0.153539264460106	3.59902542543896E-02
169437500	-0.027620386869136	-4.92272718062905E-02	-0.353616900348655	0.226085963530579			-7.29233806566436E-05	5.4314184052049E-04	0.157201049889464	3.14937765896719E-02
170125000	-2.63335770411573E-02	-0.051286376253518	-0.34505492091505	0.239146132285357			6.17697123543819E-04	-2.3020235027216E-04	0.159860289532304	2.18824603288283E-02
170812500	-2.78222410013143E-02	-5.15401809781412E-02	-0.33646642540435	0.251485616905632			-1.88658563180123E-03	6.3603586999188E-04	0.160829917005755	1.30679181751918E-02
171500000	-0.027456105690726	-4.86221368073752E-02	-0.325454462285503	0.262892454298908			1.39476733348161E-03	-2.87409042465023E-04	0.163640370808228	6.86221947980128E-03
172187500	-0.030657333358166	-5.11277249850045E-02	-0.317251515871123	0.275902625895178			-1.39863371114522E-04	4.90465948191485E-04	0.163328902175544	-1.74228770802924E-03
172875000	-2.84455841534567E-02	-4.86443459891701E-02	-0.305565233573936	0.285281436833226			2.00545417280475E-04	6.00247078177593E-04	0.165486473234443	-1.07453475012268E-02
173562500	-2.98694635162617E-02	-0.052394499697925	-0.296880176184949	0.29529423823162			-9.70073730162105E-04	-9.83571926791913E-04	0.166752782677303	-1.97081021652962E-02
174250000	-3.02147212103226E-02	-5.11889847046649E-02	-0.286018013146299	0.307522785080364			1.15125904190525E-03	-2.13734961220303E-04	0.166221771076112	-3.13012473406071E-02
174937500	-3.07470933046948E-02	-5.23505803409839E-02	-0.277597571103003	0.316452817634194			-1.5525546259683E-03	-6.22178570071069E-04	0.165497127282862	-3.73263093626528E-02
175625000	-3.30528483909883E-02	-5.20217391715046E-02	-0.264184748045845	0.324911703494991			2.67715438723085E-04	-4.03423601654802E-05	0.162925827557477	-4.76628006988136E-02
176312500	-3.30606018684349E-02	-5.27109887487733E-02	-0.255470711836444	0.332538792407226			-4.86249423176077E-04	7.12419457743637E-04	0.162188484000647	-5.71594859931797E-02
177000000	-3.26944814822879E-02	-5.13676634420286E-02	-0.242872668255987	0.343551179155746			1.34300809401472E-04	1.22659851631179E-03	0.159747741033026	-6.65239689028782E-02
