# Hz S DB R 50
100000000	-32.305531177377	-4.58829835689556	-20.1950561148828	-3.57138379201525			-60.8445276026268	-6.45336105403463	-3.55712297842696	81.5614182836985
100687500	-32.662058504757	1.84711748064073	-19.7052153822039	-4.96586906744524			-60.9644281807939	98.6414198466802	-3.52621732474314	79.0542024295802
101375000	-31.9887875932949	-8.19310832093424	-19.231051483693	-7.98926710767263			-61.556867783377	-51.4072705293348	-3.52449331118722	75.8482972429543
102062500	-33.3333189704429	-4.87807998915633	-18.942695964623	-9.7526494554966			-59.6034614078806	45.3895475504852	-3.5693714370763	73.2109139001929
102750000	-32.1738754939999	-8.77545045922337	-18.5222624925092	-12.5944866491402			-56.4114299474089	-16.6933197477339	-3.56263929887063	70.4060476330661
103437500	-33.4590130178038	-12.3660311562443	-18.2590593873625	-14.4358760507144			-60.9857575954604	-152.374926635655	-3.58166230387606	67.5145247871256
104125000	-32.2665140528813	-10.8930683076617	-17.882681034589	-17.1615809166667			-58.8982541389708	27.4343588979057	-3.58399994871739	64.4970614766135
104812500	-33.4582034530695	-17.4500550864814	-17.6603757166524	-20.1065501684455			-56.0856965428351	-120.413822474373	-3.65830213971604	61.5925174930628
105500000	-32.33631122656	-18.4155037217722	-17.2756804608014	-22.0434656803134			-55.5736962033535	11.6001438171959	-3.58418676292327	58.4777649737229
106187500	-34.2122161093718	-22.9190108899114	-17.0886408059774	-25.1617832490032			-68.1531406095637	-154.01401207643	-3.65419524034129	55.7248720292829
106875000	-32.9505014883079	-23.4660892014867	-16.7555903497042	-27.9334404692395			-66.5155983635623	-11.8164998128576	-3.6689945240014	52.6617933007194
107562500	-32.9534469745068	-25.5721513545862	-16.5728945346203	-31.2210886259891			-66.3534709626112	-100.627791603072	-3.66380642549724	49.5219729416836
108250000	-32.3082290212134	-21.8050772577671	-16.3997453028185	-33.6344297244476			-58.8876809076952	58.3007565213998	-3.71068743845148	46.4152118251435
108937500	-32.5951366757442	-29.4013706830487	-16.2611101774131	-36.6306610804706			-56.9052087659197	-152.618164870225	-3.78979294886068	43.0659657571622
109625000	-33.0124786935214	-25.8953145013703	-16.0363656229362	-39.1935751815592			-66.9644103153326	53.2927645252826	-3.79596938083251	40.0599882553147
110312500	-32.6868088202416	-35.1288151859904	-16.0720984850929	-42.5226922654548			-59.9885489226443	157.404718607215	-3.89098686219203	37.0028229176906
111000000	-32.8332323602809	-32.5672022359168	-15.8816501159708	-44.8024075273254			-60.2258891811215	25.5112078898177	-3.9090811210398	33.821092159602
111687500	-32.72196152542	-41.9931750793081	-15.9473120636296	-48.234109153516			-64.0898284663558	-40.4828491627099	-3.96343012769296	30.3257505905142
112375000	-32.8001239128018	-33.8371313223751	-15.979914539304	-50.1862934368081			-53.7258661984747	74.9765953722173	-3.96737111938849	27.1636945522999
113062500	-32.3496732940819	-42.6752904878321	-16.0067479943279	-52.7579385437469			-72.5675254231023	-100.913499090628	-4.04583296170435	23.7151404475905
113750000	-33.3196649323021	-40.1964763601928	-16.2236129007284	-54.8386383390929			-63.1564317273879	-176.468402617118	-4.07220604934709	20.3560678450366
114437500	-32.2852820851806	-48.3209762973048	-16.270847868957	-57.0975413150043			-63.1233380452125	90.5358907070037	-4.09108634322287	16.7691954972575
115125000	-33.08275509002	-44.9518794020724	-16.5059140779461	-59.0131171372977			-70.9380557576702	-175.381326137654	-4.1706592154309	12.9430893777481
115812500	-32.1305637434643	-47.0274525195791	-16.7701737784477	-60.8659611328188			-63.2226867061901	8.02569373988969	-4.23936605056112	9.12555525479855
116500000	-32.0699703791623	-49.9675081793511	-17.1416831098297	-61.601981311672			-60.7954533549177	148.597383663524	-4.24197053220117	5.18411753729851
117187500	-31.464792740558	-51.8954736429669	-17.5850044647283	-61.7474365700326			-63.2488642230535	19.8523980078669	-4.32861733136194	1.49960467384321
117875000	-32.3937538905541	-53.4780228771961	-18.0870928601596	-61.506710626114			-62.2765159881744	137.304469778237	-4.37334406231968	-2.54450204478709
118562500	-31.5417168328153	-50.9198267846074	-18.4514629903538	-58.8719019322259			-61.0938500507513	-34.2817919840021	-4.42178712157895	-6.68771641312203
119250000	-31.9368383096679	-57.1451879259494	-19.0472325197907	-55.8671167623067			-61.4613312988593	-168.777837305264	-4.50916661722121	-10.9188988743282
119937500	-31.3882366091965	-54.2050316405629	-19.4298494953227	-50.1240239352858			-59.8713057038626	-143.55510820605	-4.54498516691809	-15.5999941484422
120625000	-31.9040559005162	-60.2036440659267	-19.5082056694459	-42.5829394804462			-61.5986944519524	-126.380042017367	-4.62640609438523	-20.1127847745122
121312500	-30.6407092965821	-57.9974363199491	-19.1207157228041	-33.9338071972503			-51.3801392556365	18.0346186495228	-4.73017309712259	-24.6093206796022
122000000	-31.2245299273255	-64.1733486258742	-18.3002970677053	-26.7177175211932			-61.3017009318023	-96.6382349793558	-4.78977170781568	-29.6701401667506
122687500	-31.4044979159251	-59.0729846390062	-17.1012664930086	-19.7806698201552			-56.833136268813	1.28646522717359	-4.96491666391857	-34.6184664598364
123375000	-30.4766407470444	-66.1125016263802	-15.7422446562832	-16.3635466663315			-59.3685976068918	-104.155689541291	-5.08451320934398	-39.9071845586755
124062500	-30.5966899689695	-62.1535230882069	-14.2528550594268	-14.2350915651382			-66.9721332003106	57.162059428175	-5.25420172103632	-45.0337107111286
124750000	-30.5774656088736	-66.9201786926379	-12.7688181394304	-14.8189302662524			-58.4733118378949	-49.6001512892088	-5.39577786157605	-50.9029585970851
125437500	-30.4854929565185	-64.2180866382551	-11.5144009532067	-16.0748231086384			-62.7206465153431	66.8756252132543	-5.66791680967664	-56.5151205804903
126125000	-30.5159520538725	-71.4994580146269	-10.2205415047216	-19.2154768560735			-57.8760652173823	-111.867010677809	-5.89739805396636	-61.6960878833795
126812500	-30.6281806847712	-67.4348216808057	-9.0992192091253	-22.5198006564615			-61.5815338893674	43.8760206974923	-6.24157448667436	-67.3536331028564
127500000	-29.8329592751994	-70.0907093896714	-8.09325259222837	-26.8612946837722			-66.5522336988555	-54.564863820998	-6.5474083184568	-72.9184131398621
128187500	-30.4045371896303	-71.3113308613224	-7.23028687137848	-31.1917010573539			-62.9297422777752	86.3755241627626	-6.91898031702821	-78.4990767021436
128875000	-29.5668946598762	-75.5480787214441	-6.33304975826201	-36.4648212547522			-57.6389875248128	-71.6801963095137	-7.30464882934092	-84.2496161642111
129562500	-30.0498103753262	-72.9464141031008	-5.68931011424467	-41.1157970596438			-64.9824692383323	104.363482223468	-7.67500391864351	-89.9801717496225
130250000	-29.1582181134379	-72.5866594138044	-5.01415780357357	-46.3922538665035			-53.0744027981228	-15.1526974164651	-8.1874353333299	-95.2275675997216
130937500	-29.5252206885268	-73.8534146954839	-4.53938682100234	-51.5609334640684			-58.368794208886	129.981940365115	-8.60422513588701	-100.547078015625
131625000	-29.0351097721544	-74.4194836905588	-4.01283202309298	-56.8655682609085			-55.3478236918087	-45.7772761611301	-9.14220616951263	-105.637447522102
132312500	-29.8142062484264	-78.0926585064634	-3.63013858972844	-61.8123793447965			-62.3526913374645	-97.2423002739741	-9.59462904285898	-111.114719289619
133000000	-29.3103466549274	-76.2145660354499	-3.25352067623779	-66.7332937262534			-65.7259686301291	-36.1076474012578	-10.1664793009411	-115.841660675714
133687500	-28.9452056067681	-82.836434598011	-2.97608291551104	-71.3228237994233			-58.8539740227474	-153.769803369282	-10.6507869552312	-121.005212567387
134375000	-29.2198077334186	-77.5662611793237	-2.61562074756757	-76.1270046812611			-57.8427264877795	-21.5343826774949	-11.2231711298896	-126.548744012646
135062500	-29.1533625938828	-83.3259916173541	-2.42633501009453	-80.6744168626252			-57.6701037691119	-74.0835556003254	-11.7408820718746	-131.56985336743
135750000	-29.0877134448979	-77.2774252908739	-2.1451122644657	-85.031666368142			-55.9391811454084	-2.07342234881021	-12.2770976373228	-136.385621897469
136437500	-28.7661858423749	-82.7483779009185	-1.9916078753319	-89.2171086355371			-55.1581158030587	-83.9982849275095	-12.7692581228278	-141.541421777967
137125000	-29.1160446152942	-78.0324044499021	-1.75799709001887	-93.2370527106794			-66.2075630399767	-0.687443030512169	-13.3240082876554	-146.703746914639
137812500	-29.1354011168618	-84.1194257783868	-1.60820599090639	-97.4798825310175			-55.7500970029438	-91.9950199336812	-13.7978813620538	-151.800340433807
138500000	-28.6520304495815	-85.0131827451807	-1.40831197938315	-101.2816434833			-79.2073557411384	-15.1308319477023	-14.2423470448793	-157.525651743962
139187500	-28.6302928554445	-85.4826724660016	-1.31952639316249	-105.183523182289			-53.5231994349716	-70.0724108997418	-14.8566391552154	-162.873281938402
139875000	-29.1359179957238	-85.1687086620374	-1.13868285519391	-108.988577200803			-63.0849290172411	150.249816002542	-15.2404395362937	-168.856268428232
140562500	-28.907279347822	-84.8333335426865	-1.07049175425808	-112.821859272761			-74.0899505746561	-140.18499908224	-15.8305476289194	-174.15687737151
141250000	-29.3592230018323	-86.4414964764612	-0.91221899167613	-116.522895840192			-62.8940960473834	-38.0556014308376	-16.0950249634281	179.41470187481
141937500	-29.1749413002472	-87.3077819578492	-0.873248638239513	-120.081117184773			-57.8666595155187	-147.704442923185	-16.5195597212516	172.712338808241
142625000	-29.4044777847653	-87.0895212983533	-0.733632374717166	-123.718430391341			-68.2423424778451	-9.7114162654607	-16.7944287988274	167.103041783908
143312500	-28.5149974111875	-93.3298635776586	-0.687866268161873	-127.168933370784			-54.7612268278889	-63.7933725727525	-17.2669546475464	160.345430416044
144000000	-29.8202587402579	-89.7538128657203	-0.559414780366933	-130.343155655719			-69.6737534211309	90.5343850940754	-17.3341950687694	154.136862462694
144687500	-28.9716821148336	-93.0227913264452	-0.537803134010755	-134.038717357074			-57.7000770127108	-29.5445023805855	-17.6145469112362	147.566400847128
145375000	-29.7988773367587	-96.9519518712395	-0.448905851334863	-137.370518844149			-70.9611048681275	78.43025625069	-17.6563434079325	140.919272446185
146062500	-29.3886234387359	-92.1536903915232	-0.428068629809257	-140.477917514588			-54.6642237286391	-53.849924248072	-17.9320166305433	133.770068083488
146750000	-29.6226897563743	-96.6761971591217	-0.337793099858152	-143.936428737051			-59.8033553352659	-158.143561858117	-17.9902114965806	129.323256451212
147437500	-29.2280772847927	-93.2218902719777	-0.370420331779827	-146.954865879073			-70.4675116657108	-150.32717737122	-17.8892541005373	122.17154283473
148125000	-29.8680000405429	-100.70536275761	-0.301329248214924	-150.215371108177			-57.8282125573289	-158.306972455402	-17.9299338459491	117.583827850499
148812500	-30.1701161981191	-98.2348404135617	-0.291149797379591	-153.039574315362			-59.1454765103135	-99.7921183687968	-17.8496397200699	110.450517736649
149500000	-29.8843882590753	-103.606146782924	-0.255947347340664	-156.239553715347			-60.0389095443966	176.380604799897	-17.8588141301132	105.367779458848
150187500	-30.060197113888	-99.7130816004918	-0.247815226089312	-159.038139479342			-60.4280476812881	-14.475034503074	-17.7361475374257	99.7227529693177
150875000	-29.9055537387878	-105.651682349604	-0.183037004502775	-161.93350011536			-55.5406546291954	-171.212589302824	-17.7330612723733	95.0460177564618
151562500	-30.0876323185496	-104.308262724755	-0.246472053392225	-164.670305126453			-76.7898620847151	-113.823866944575	-17.3612016131982	90.5027940886681
152250000	-29.7980911382714	-111.329254488627	-0.192689509952817	-167.580472642757			-56.8160478098121	-105.013594435227	-17.5626294256556	86.004836169614
152937500	-30.4732600041186	-109.901887736168	-0.207319076941978	-170.132918693366			-65.5736384040163	4.21735338322951	-17.2537161064218	81.3251629912101
153625000	-29.6761742088843	-114.473716240795	-0.159312084822178	-172.801666766589			-53.8082451722189	-132.252896824683	-17.2571758551168	77.4124125744976
154312500	-30.2368814427612	-115.476027609853	-0.178147688197188	-175.284558024825			-59.5341421969081	121.505497595146	-16.9862257264421	73.548283733565
155000000	-29.4809089993556	-118.708039970253	-0.171595270642651	-178.210788085626			-53.8126653576018	-142.764324438649	-16.9244591826215	69.2172255928239
155687500	-30.2081668221173	-119.040578507086	-0.21026059698663	179.605063753891			-74.8274073323084	93.5349092547127	-16.8648928811566	65.3209063890799
156375000	-29.3200161789732	-121.864997536178	-0.107154080484434	176.833686251017			-62.6921574325173	-126.366700469211	-16.8012797207438	61.7009353833446
157062500	-30.277472657385	-125.390101272985	-0.157983583357656	174.714161076793			-57.0335867381554	90.6699062551242	-16.7258234157166	57.5971098653068
157750000	-29.0400115197062	-126.656727931403	-7.77769054548232E-02	172.142601791127			-55.0833010845925	-114.806888831675	-16.5148585302709	54.5278696301502
158437500	-29.9096528711761	-129.712065872894	-0.111957336315201	169.707771918412			-61.7880391806862	149.901496072757	-16.405036406458	51.7105525335125
159125000	-28.6173279987863	-127.367109412514	-0.040981212521901	167.230712297237			-63.9768145852866	-176.312915948417	-16.2771096595631	47.4725921997922
159812500	-29.753972378532	-132.724487367609	-6.44999633033246E-02	164.766755378819			-55.7287014142426	-177.648387523745	-16.2919126033311	44.8471004591813
160500000	-28.675736290525	-129.388375969675	-1.08729651158083E-02	162.284089336942			-68.2121901670279	-137.790675669009	-16.1074126707272	41.4408102156865
161187500	-28.7608267474528	-132.951155488544	-0.096457710510699	160.209328735808			-59.2992444358477	95.1204329002195	-16.076289981165	39.0424630688324
161875000	-28.5968387423562	-129.550163516691	3.28734022405334E-02	157.617663272029			-60.2703294548308	48.7571502566723	-15.9405753254874	35.7973894782538
162562500	-28.6382988474992	-135.820416568429	-2.92713180333092E-02	155.104724842961			-59.9774045672913	142.236916880909	-15.9580560241296	32.0076814229382
163250000	-28.4356294743002	-133.398271492297	1.98111784935872E-02	152.781288688071			-63.7360214428386	123.565140036868	-15.7909119588033	29.6715589296851
163937500	-27.8854024870573	-137.147127359058	3.10158662832206E-03	150.532506526971			-60.0358960639741	-129.431662156409	-15.8685283237414	26.6903571909996
164625000	-27.9102319904373	-132.54567218808	5.06064548447167E-03	148.146855699025			-63.3313849666346	39.9510764759367	-15.7359224251103	23.6515499451969
165312500	-27.4176289236936	-139.898665519321	3.2347083799395E-03	145.924521492077			-58.4339301581303	163.426093798887	-15.7639813585726	21.0762886531022
166000000	-27.9793509264885	-136.019395058764	3.30546836608062E-02	143.521769855555			-62.951771653447	62.8365335876121	-15.614236929252	18.0802878211426
166687500	-27.1657909520927	-138.265709502536	-7.92986122963744E-03	141.333369165285			-61.7909420010138	-98.3401517347572	-15.5346585859656	15.0199307863033
167375000	-27.5406999661822	-138.088658419279	5.54362679239313E-02	139.123842815628			-61.7274765820285	48.8539761561332	-15.398725674148	12.9027062184957
168062500	-26.9005214851517	-139.273755560103	1.15242840171221E-02	136.814736768767			-58.5334989234413	-177.281647796864	-15.4619353081742	9.34070010554378
168750000	-27.2050258259133	-136.58622253856	0.043115638625144	134.584334590088			-56.3076623097984	91.7451483653507	-15.3186046884496	6.43575375911636
169437500	-26.6327919380544	-138.298114422119	-9.71549691197529E-03	132.321527662556			-56.4948704110473	-133.389242722952	-15.2779090535895	2.6403330665305
170125000	-26.8832500979789	-136.10834014003	4.18240007866229E-02	130.080552966154			-66.4857245102511	56.9748180716234	-15.2800016432659	0.367981871454269
170812500	-26.6339868983926	-136.390734266861	-4.09892068053944E-02	127.968421153787			-67.3432193794535	165.023599575015	-15.1674541241816	-3.18643594483275
171500000	-27.0717019850631	-139.708190499343	8.43900440844191E-03	125.844275000328			-67.1748313459296	136.707776418239	-15.2177165725254	-5.4820516454728
172187500	-26.5875976752649	-135.276236885132	-6.28779451359588E-02	123.977787112259			-64.113249855057	-87.3893010493059	-15.072525641156	-9.3636631442876
172875000	-27.1577557229921	-139.366596821694	5.94757756382632E-03	121.998100057947			-73.0439430914909	17.765503483003	-15.0706640093581	-12.1421699015567
173562500	-26.4753401062214	-137.099275395605	-5.87181205426698E-02	119.91044643473			-70.0197618766184	-105.708485757362	-14.9720804552456	-15.3176452736317
174250000	-26.6791373970737	-138.034856306073	4.17476016085235E-03	118.084204046845			-59.498430513646	-136.837424953636	-15.0203887803309	-18.6185734101161
174937500	-26.506199166596	-135.097608573085	-4.90665200217171E-02	116.018156861697			-56.37826236189	0.277095260363049	-14.9207202969709	-20.6965730034197
175625000	-26.431480117733	-138.485793585911	2.93294073936572E-03	114.015878205745			-55.6077410050704	77.5995734147907	-15.0289091770304	-24.5465516208255
176312500	-26.4288425673132	-135.697440515062	-4.42583358801523E-02	112.108517757121			-57.1411150558931	57.6178097765259	-14.8159866149792	-27.3508362948429
177000000	-26.4131139004421	-137.971318433386	3.68464720673244E-02	110.378962716282			-63.1252143390818	97.1459026301103	-14.8645051180397	-30.7082666106812
177687500	-26.6535100500894	-135.840448945671	-3.50829897390327E-02	108.215495060749			-65.2808659630126	-44.823531558459	-14.7433051918978	-33.0759866425775
178375000	-26.3494648811976	-140.758999087135	5.38350246599682E-02	106.208086489557			-58.3494851059797	170.294507963054	-14.7538135211677	-36.9612339128186
179062500	-26.5153329899042	-135.156393312078	2.21386158183382E-02	104.157999324543			-67.234257761195	110.690076079001	-14.7858333198376	-39.233362342059
179750000	-26.1779682248652	-140.52980943373	8.09105518728425E-02	102.356853839292			-51.4479037143721	167.663232950511	-14.5740695941022	-43.2610475476173
180437500	-26.4578781132075	-138.106415338122	9.84419108571055E-02	100.590670648729			-64.3222079084751	92.3875166508643	-14.5999460076277	-45.4298514985138
181125000	-26.3614383796616	-140.531347934295	0.137291595037586	98.4196462981408			-56.6026345267458	-142.443264252987	-14.4529178121844	-49.5029054627366
181812500	-26.8415847903455	-139.763929202253	0.135936203206702	96.4750438268036			-53.3145689682115	97.6100923730883	-14.5561089398506	-51.5436116062675
182500000	-26.2343610292654	-142.860986920171	0.201616116684535	94.3934977390923			-59.5492142247936	161.207400793147	-14.4602283167029	-54.5023335869707
183187500	-27.1728652267669	-140.651152672709	0.212225563765794	92.2733194523847			-55.2098516853325	115.615272948821	-14.3725506806411	-56.9566459307803
183875000	-26.671253823819	-142.594027679675	0.277939124245152	90.1951668763888			-57.8375827575169	-94.8396297326829	-14.2910715611076	-60.1101606875445
184562500	-26.8756395289909	-142.917868404337	0.24432685343418	88.1542052887232			-53.8817825848947	58.0263980399066	-14.3529250194127	-62.9356029039539
185250000	-26.8531648054484	-145.390464877721	0.298810257500277	86.2370201141075			-58.7819365429119	-159.548206132395	-14.1534029959168	-65.3815106985178
185937500	-27.2229216173378	-146.132350577139	0.259681654495918	84.0007333508997			-53.0264948711237	135.040921513491	-14.278646712847	-68.0123215760341
186625000	-26.423039154777	-148.30997499531	0.298325827559501	81.9666590535171			-65.1601213255439	-176.406093396676	-14.1003638666693	-70.294741577543
187312500	-26.8367628419818	-151.774898157148	0.260091051125138	79.94638994492			-56.3541218040997	131.249988246167	-14.1055922147104	-73.2214194510388
