# Hz S DB R 50
100000000	-18.5302432026507	124.129210160957	0.892954988829628	-2.61296628922005			-68.9189352305445	22.0380529328688	-3.54534948517938	81.2941585182212
100687500	-18.352072980477	122.598005518149	1.3070766987415	-4.86693590400413			-63.132859675776	-25.4880836263834	-3.52068395298976	78.7810904410977
101375000	-18.3592895616542	119.365596016214	1.7146384041819	-6.86525963150791			-51.6424740138607	54.2634865308375	-3.52030612165605	76.0237609965781
102062500	-18.1934275347307	116.913268242773	2.1124719070828	-9.36615126320591			-74.7231850584482	-0.734801301993597	-3.58045940477092	73.0977812908641
102750000	-18.2400238769562	113.356755906471	2.50119728344238	-11.5936693955828			-67.4869314845674	12.9814217557132	-3.56550910709904	70.4465765200885
103437500	-18.1361821751479	111.468286078588	2.84368392961696	-14.2194517759205			-58.2529790389585	-58.8535269228567	-3.54081563662952	67.257063361292
104125000	-18.0010005189454	107.538043166826	3.20546110173984	-16.3316006827501			-52.0620657910796	100.062861529678	-3.58743169008817	64.7156007212966
104812500	-18.163494172572	105.139139835464	3.49424262106332	-19.0983211938529			-56.8426888292395	-56.5249714976665	-3.61451600640997	61.4001158091616
105500000	-17.9465937780706	102.230181812668	3.82457489842687	-21.3185549750945			-54.3935137381431	82.8586554821052	-3.6063651588218	58.847671574054
106187500	-17.9991291194982	99.3111317916336	4.10518580892375	-24.0658837063842			-52.4366220661527	2.66485755774499	-3.6141213627348	55.5160563058658
106875000	-17.828582387008	96.6006171973241	4.36793398893081	-26.6203143777686			-58.1530572572048	36.0189493577046	-3.65946032843161	53.0156479696482
107562500	-17.8484391369861	92.9018259746098	4.59254663907645	-29.4985384604079			-62.4555386676586	-30.2140876112801	-3.65008389103808	49.2665268847273
108250000	-17.7645598114117	88.9999590339723	4.80119232651434	-32.0160266275505			-66.0049854521203	12.4462558449786	-3.72047217766397	46.7202059977059
108937500	-17.8846256893787	86.4219615021604	4.95522467435785	-34.5214144849071			-59.71603796086	-10.5126016405931	-3.72438004518335	43.3811357480238
109625000	-17.6323720832078	83.5052036896097	5.15665422995382	-36.9713057151019			-62.7569628062971	-96.8581551141573	-3.77825011934745	40.623638066955
110312500	-17.6695327055329	79.1377786113476	5.24084526150153	-40.0098126306907			-53.5927331205569	-0.417406526827266	-3.80977702826237	37.3703450018371
111000000	-17.6120792570244	75.9308124120298	5.34140993980022	-42.5129312078216			-78.8526848046964	70.4299772184309	-3.88894318372482	34.1868068032607
111687500	-17.7045370168888	71.6108646211166	5.36031272846443	-45.3342892347869			-55.4925675351789	-49.4897658415745	-3.89707372334096	30.6893795293806
112375000	-17.4660608392914	69.0293501023684	5.36433800664602	-47.5676639045996			-58.0097087590081	-60.3269467122595	-3.98974468870784	27.6631490315713
113062500	-17.5141994555992	64.5427781800698	5.29859282725871	-49.9791131977604			-51.3615178080572	28.0561693801581	-3.96072736897919	24.2447762700566
113750000	-17.4419692539504	61.2202183300078	5.24930627545013	-52.084356203222			-58.1955785728586	-88.4477092559838	-4.09117485400528	20.8489720305623
114437500	-17.5327799691417	56.9632901430296	5.11453379952526	-54.1166576407585			-55.9312409829989	-38.9368333317203	-4.06607663010225	17.1854519529577
115125000	-17.4906309161474	53.1239212177449	4.93877844187613	-55.8146318241678			-61.1829394522531	-71.2649267459971	-4.17860595948318	13.8764079402158
115812500	-17.3478992342436	48.0627786516294	4.7048355054245	-57.2921807209128			-59.765328804697	25.1482844133816	-4.21873516435198	9.92330125664263
116500000	-17.4182692162583	44.1957221781386	4.41984537742681	-57.9505282062097			-57.3051745419858	-80.2969078440573	-4.25396772133531	6.2945668391516
117187500	-17.3662718604214	39.2720432587536	4.0313839572896	-58.2183847018818			-55.8276152541718	38.9806340914481	-4.32460354686103	2.59754404051627
117875000	-17.4542734225254	34.9436724025963	3.63615636807248	-57.4367202932642			-54.749527920318	-73.4848205656881	-4.39647788429973	-1.37928827041653
118562500	-17.2047464441852	30.1482718883135	3.1999567771809	-55.7510319570818			-56.3683641225145	15.6061731759514	-4.43409848998594	-5.40948399450233
119250000	-17.3809551036889	24.9113020692395	2.81741826759755	-52.1456152342946			-58.0198477026809	-65.9526139402963	-4.54054054857393	-9.60236259210567
119937500	-17.2665579447573	19.9146084122461	2.50205180664878	-47.1076916949738			-75.9634279287174	-60.5407988956408	-4.59925390996807	-14.2014079447445
120625000	-17.4189242028644	15.1887473565944	2.49534432284509	-40.2865166763117			-75.8920630334714	-51.7449218056002	-4.67135405947219	-18.629646255167
121312500	-17.2506835283888	9.12157836406187	2.80954865784735	-32.6212281048703			-62.4564834263897	21.4469338886304	-4.79191173027266	-23.2440584557654
122000000	-17.3880101835546	3.85356614714471	3.64156693473902	-24.8543774353405			-57.2297885216256	16.4868232168408	-4.89438245121102	-28.0465587618617
122687500	-17.4074153212241	-0.764126633344413	4.79773487507468	-18.9392592040197			-57.4273046873786	46.4920765158233	-5.07129906566743	-32.888737645901
123375000	-17.4883107058719	-7.52161302156345	6.20561155691516	-15.2106341660797			-53.3881832840254	-15.3948680714104	-5.17956329231906	-37.8388043035405
124062500	-17.4639215578972	-13.253979373445	7.62110143805191	-13.4532263681448			-61.7280426848932	10.6108538358758	-5.39163266093214	-43.2111273813152
124750000	-17.7075601203655	-18.8387978004202	9.14415200621106	-13.7062083361387			-52.8839976923279	-13.3196220320904	-5.559242388501	-48.5463528873105
125437500	-17.7949392140158	-24.5530084902904	10.4605459706933	-15.4864313051126			-54.3715746512029	3.22387500129609	-5.82201899458127	-54.2849169348367
126125000	-18.097093526367	-30.2974811501273	11.7280871134003	-18.4100723734392			-50.8101958742102	4.68716780937729	-6.14761707864664	-59.1758416764801
126812500	-18.2899173796168	-36.1717615865272	12.8843010366055	-22.214129332399			-57.8884567393905	-17.7231904304387	-6.42171991942141	-64.799618047724
127500000	-18.4110540247038	-42.3216609942377	13.9396291887988	-26.6640080598206			-48.3198665712845	9.00065286354665	-6.77808131617885	-69.7023734499765
128187500	-18.9378617104253	-48.4309689159436	14.8460138108453	-31.5042363846892			-49.2482037695706	-31.2920533380585	-7.13129687160451	-75.556282964404
128875000	-19.0782759498132	-54.2392011299944	15.6874270606412	-36.6806528799896			-49.3305144305692	-15.8431022502653	-7.61772284432482	-80.8857760041773
129562500	-19.6519314616925	-59.5557950238251	16.3794542085934	-42.0870613220355			-50.0083356547872	-42.173683632989	-7.97164810350654	-86.6279469652728
130250000	-19.9138693422257	-64.1105316162527	17.0461974883788	-47.4155702288381			-46.9215939018133	-14.0037458974115	-8.54893224082547	-91.1253172541664
130937500	-20.4985741806935	-68.5421069041172	17.5422673055442	-53.0321579291266			-48.1902646910703	-46.7421730587903	-8.94261970504162	-96.401080911874
131625000	-20.9510546863699	-73.0266597990118	18.0643392485978	-58.1260941397043			-45.8843033418098	-17.7941911542668	-9.5484263316849	-100.692011713677
132312500	-21.5692236236346	-79.1125679042838	18.4542519077135	-63.4370297394998			-46.2416687536239	-44.7270854097859	-9.96923897599698	-105.671505014566
133000000	-22.2222591457632	-81.9451595372733	18.8153721273062	-68.6076789199404			-49.6555944702321	-20.2675514870595	-10.6139051451251	-110.292027465
133687500	-22.5727044853482	-87.5122929078536	19.0762306478501	-73.4407585435419			-46.0856930918055	-44.1226656613883	-11.0532887959304	-114.959304980241
134375000	-23.3890979863695	-89.8457632438388	19.4097505621788	-78.234941924013			-47.0670166311994	-52.0006289990659	-11.6517006374803	-120.062235577023
135062500	-23.6825138956639	-94.9394735363251	19.6183783463349	-82.6964625032135			-44.7435975891443	-57.3751485692231	-12.1148914138803	-124.374048018511
135750000	-24.8973078486182	-93.5600331168478	19.853351749475	-87.3768965194371			-46.3595946435581	-60.1307907877791	-12.6712670612881	-129.016171909435
136437500	-25.0459048755856	-98.9100122769122	20.0189576393156	-91.9013678460971			-43.5046863671454	-69.2058513337901	-13.135864486842	-133.915986062056
137125000	-26.0038790258086	-103.226721129011	20.2468480480088	-95.7573098324977			-46.2127306387704	-75.2524488213388	-13.6362822327873	-138.45014293454
137812500	-26.5165699088528	-106.419994069338	20.3688759232718	-100.123079627673			-43.0145552424511	-72.0864198300894	-14.2492470430108	-143.430189893201
138500000	-27.2945712070067	-109.171097398911	20.5427386350823	-104.062414792284			-47.7161589923303	-82.6593782273662	-14.6568479789904	-149.492372878091
139187500	-28.282596788685	-110.679646322288	20.645905641124	-108.175398656899			-44.3379364430888	-72.6330619822738	-15.2887464357465	-154.576953584251
139875000	-29.3491331487183	-112.777958319728	20.7875651671649	-111.725188242221			-45.0820973169306	-90.451487424841	-15.5677616504147	-159.873281665195
140562500	-29.7962274334698	-113.799115019586	20.9031703317446	-115.675605173878			-45.3627063044222	-93.4095884419849	-16.2597477545867	-166.160479387757
141250000	-31.3074153374151	-118.655676490406	21.04043488555	-119.106129346869			-43.7270305178123	-99.8713462460587	-16.5644929626481	-171.655078112492
141937500	-32.0170947225783	-116.5305921645	21.0832445660935	-123.032841667923			-44.5647753818908	-92.691141497177	-17.1004779056551	-179.1885037149
142625000	-32.9316168000595	-114.82771643556	21.2256866464587	-126.310716211256			-44.0777613066564	-98.3242289430026	-17.3487633771858	175.76157698341
143312500	-32.851695100744	-118.264130495661	21.2919138422845	-130.115210365675			-46.659083690507	-90.0354816764269	-17.8856078445304	168.655756454496
144000000	-34.3798793751482	-116.225926954738	21.4032350049637	-133.202973002814			-44.2065550055538	-105.059824996498	-17.8895634673307	163.087213681721
144687500	-34.9854052932867	-115.540953822555	21.4309846928458	-137.057740622792			-46.2212162621718	-92.4895090664492	-18.2969537978985	154.208217055209
145375000	-35.1013457504608	-119.718531900005	21.4817165496189	-140.201915698549			-41.0018355983088	-110.257664251655	-18.4508312871091	149.975333126802
146062500	-36.2742846142837	-111.243161127236	21.5350314454421	-143.744178575691			-44.1603458734637	-111.916542653634	-18.6250004055104	141.329193256085
146750000	-35.8301454633283	-116.123059792244	21.6038725256212	-146.617952871871			-42.8223685290174	-113.998058866077	-18.7798647600115	136.700344942922
147437500	-36.3229894001274	-117.936374707285	21.6188995224835	-150.19819033673			-44.7538148159839	-126.066678652651	-18.6673210878022	127.706788538452
148125000	-36.2718531693308	-122.63157476052	21.6512979890229	-153.176845433283			-41.7887214975841	-119.09303205256	-18.7577956287206	123.99820218346
148812500	-37.3379851093585	-126.662979313508	21.6880794227889	-156.461184783651			-45.6824190581827	-137.091660809999	-18.6376971552985	117.248799728818
149500000	-36.7565653234277	-127.183233320892	21.7248476464612	-159.336635437478			-43.7075304335548	-129.370198199207	-18.6477229492136	111.545162025486
150187500	-36.9176495398373	-134.321728483612	21.724070030957	-162.445988912426			-43.4772778026247	-138.393620441542	-18.3975027186733	105.971494727752
150875000	-36.8122470240166	-136.815433603274	21.75214876169	-165.290113929558			-43.1641501842964	-124.52608196118	-18.4617353467145	100.957799448163
151562500	-37.118469225513	-143.296652787293	21.7363024460432	-168.263592191416			-44.1482171346908	-134.537764167325	-18.0030003261343	96.5889699028108
152250000	-35.5249752517543	-142.483324049756	21.7615524078553	-170.972846391388			-42.8230306753262	-135.623059951145	-18.0695102562104	90.9729447615792
152937500	-37.5475985110278	-162.226510777953	21.8029509389248	-173.723944518191			-42.7093106671977	-158.540792360703	-17.7955144508568	87.610568796742
153625000	-36.2486475144	-157.42669079369	21.7828258938463	-176.183192744116			-44.2787746839149	-139.641760957193	-17.7508210219385	82.8347333489402
154312500	-36.2718250268051	-166.896628777269	21.8037216543093	-178.987767750736			-42.7656835021757	-160.189761454348	-17.3226536577728	79.6061774947456
155000000	-36.5590678741686	-160.047023437761	21.8174593044795	178.343527755234			-43.3430311946078	-145.951700495652	-17.2208430589853	75.0117743920068
155687500	-36.4444536379872	-176.903256027416	21.8062944891203	175.955624304262			-43.2643873758153	-164.993736805479	-17.0778939038249	71.7916619177255
156375000	-36.9818228578682	-174.402027304306	21.8436209231382	173.16245835332			-43.6637998276314	-152.873641307753	-16.8563464600772	67.9002058377043
157062500	-36.170134374713	168.219609924454	21.8457895414802	170.661766216691			-42.734440418581	-158.580175707276	-16.863426143068	64.633991852993
157750000	-36.798065404212	-179.856647570612	21.9028473508186	168.399209024691			-45.2934903985885	-158.155880068776	-16.5426096178586	60.3289539475914
158437500	-35.8484096756577	169.084369467608	21.8520613275182	165.885199362581			-44.0806174201382	-162.080682184518	-16.469758766541	57.7561082335387
159125000	-37.5823387348866	177.914300416733	21.9339121802212	163.539306346769			-46.046459418107	-167.971653019454	-16.1889986017273	53.7870006106552
159812500	-36.5373685239034	161.076941444641	21.9281655528384	160.77228921677			-41.8955709466727	-170.363553690875	-16.2049990140702	49.7106261948177
160500000	-37.692138625401	168.064888674889	21.9674477651621	158.462924406715			-44.8292773317927	-174.368407535274	-16.0084513648179	47.4318380867086
161187500	-37.2330736905237	177.196091435079	21.9098778039895	156.079827944422			-43.8805531944543	-175.164892244452	-16.0499633312504	43.6732181446497
161875000	-38.3418397627224	172.583985919536	22.0194320864065	153.471595927143			-44.6952967229671	173.164941095061	-15.7781283663818	41.7104824105033
162562500	-36.7143027128917	168.405572579445	21.9388965821237	150.844034134702			-44.2013303079706	-163.052030471486	-15.7382161306959	37.2435475613365
163250000	-37.5447006036048	172.750514648239	21.9767287016166	148.653479629884			-43.8872641990095	166.395793741746	-15.6536126663321	35.245181971761
163937500	-37.534694657506	179.735281458366	21.9710128237814	146.23167101388			-45.455982285386	175.02973487292	-15.7416507856283	31.8192668919476
164625000	-39.2992080693707	168.616566005368	21.984591638108	143.902171291921			-42.8003841727286	164.938856239053	-15.5242724145537	29.8539410539897
165312500	-37.9134676752838	-178.106191989398	21.9858485244649	141.511912350768			-44.4414603232847	179.73196606824	-15.3889923924575	26.4270797272544
166000000	-39.7079418635188	-177.27356135534	22.0202723372733	139.277227195222			-42.8895472657027	168.096845055124	-15.3208325483981	24.0662984660637
166687500	-38.2767289426466	-168.497227522714	21.9904311639201	136.849368352593			-44.5387291004483	170.716728927757	-15.1538655644981	20.7652678998233
167375000	-38.2105755018123	-173.548944344604	22.0445334308315	134.679877243679			-44.3410622230341	171.041701628645	-15.1833384206942	18.355784642516
168062500	-37.2094469438038	-166.943703429867	22.0115526319855	132.249199450895			-42.8277335970184	157.745916394119	-14.9094050208591	15.007304692601
168750000	-38.4441797110864	-171.573060525703	22.0064821050077	130.08029465661			-43.6051775169986	167.437511254882	-15.0344346683647	12.2546147079574
169437500	-38.2716330411135	-168.505638322831	21.9419143577038	127.758764114005			-44.7285428690063	143.359604412069	-14.8532998254204	9.41360207388127
170125000	-38.6441699878653	-169.833407147935	22.0031761851352	125.660629271974			-43.6269868695475	149.73805481746	-14.9899230305144	6.31623090664654
170812500	-40.7512790850509	-151.324024989168	21.9525311912942	123.329808136887			-45.9515976039682	145.654831904756	-14.7211431233973	2.76480257445122
171500000	-39.3778497431469	163.168056946556	21.9611409519247	121.541538274016			-42.9100262566287	158.299128882691	-14.8814992120766	1.07068013503075
172187500	-41.3935670621277	-166.633975205178	21.9385832582721	118.994409422945			-44.4345454955002	142.969426332142	-14.6041179933949	-2.30250854914107
172875000	-42.5864959924901	171.136568239558	21.9582249068344	117.292275377659			-43.8861790535728	149.668962565969	-14.7194392967251	-5.53004216972116
173562500	-45.221933464644	-140.766746531378	21.9312150518179	115.016988332543			-43.5432077359566	137.560301995978	-14.5496127918676	-8.35924771655296
174250000	-45.4389857935488	-157.170841633543	21.9636568583006	113.11770849267			-43.1963057295139	145.150926188441	-14.5259462945453	-11.9095642938125
174937500	-49.9079430076035	-99.4814392931853	21.9288864660518	110.97416418459			-44.6306153437099	120.947409821397	-14.3965714713371	-13.8681345721422
175625000	-44.8297987347169	-111.94920959945	21.9530473966916	109.305444603098			-42.9207880250436	144.72294503627	-14.4597026036033	-17.5093738647322
176312500	-48.1588469850956	-71.1903318463707	21.943177488932	107.041719288918			-42.3281592887288	129.18923390748	-14.236163168517	-19.903927472806
177000000	-45.3476910477403	-75.3817936488878	21.9640196192133	105.38394242649			-43.864199905153	137.484659277157	-14.2536917716239	-24.1562896784762
177687500	-41.1470042460257	-46.3835111514505	21.964487838729	103.070796501495			-44.2782479895222	130.716695128748	-14.1798313172856	-26.0907645472405
178375000	-40.3781397850267	-69.6913919931956	21.995493468834	101.33313052906			-44.861278191252	131.067460130516	-14.0627496112906	-30.1427260388262
179062500	-38.3366110895847	-49.9352674208885	22.0012564140682	99.2705713697406			-43.5643235515647	118.308394816298	-14.037784967378	-32.5255591834861
179750000	-38.5962330442935	-64.6757411968708	22.0288561287373	97.6163060632972			-44.9276512339305	132.147779507675	-13.9406960659517	-36.0860598344983
180437500	-36.1377496338658	-54.9899821097365	22.0562003693852	95.4140075426606			-42.3499125204012	118.711013920376	-13.8607653402792	-38.7330141232286
181125000	-35.4426355155858	-63.582819240826	22.0785967693891	93.5120275198326			-43.7929991795387	126.20177245741	-13.7879820037962	-42.1208066479917
181812500	-35.2791093584192	-56.4726972209795	22.0954463737956	91.3641426739462			-43.0155420683584	125.738192741269	-13.8367353952518	-44.6184294028443
182500000	-34.7083527413563	-69.015976069524	22.172444660553	89.411558804178			-46.1754362543767	118.633447414132	-13.7030185459644	-47.1381427692197
183187500	-34.679883174724	-59.4717156200169	22.1902163356587	87.0954951286692			-42.910753979004	127.921273558537	-13.6164371469079	-50.8693863852214
183875000	-33.9010333370585	-66.5764267890885	22.2246932703595	85.1928982037445			-42.3401736097148	107.937286772661	-13.5742348686575	-52.8280833544802
184562500	-33.5507541977881	-66.1568989230588	22.1964362213751	83.1065594103294			-42.2683300467081	115.41184554701	-13.5852289745585	-56.8095799507133
185250000	-33.4737133137792	-68.7570413819888	22.2661735656141	81.1060272764221			-45.2989863293027	97.7218886964783	-13.4559043741911	-59.1141475737074
185937500	-33.5026332244767	-68.5318812301412	22.240750245575	78.722466563989			-42.1155122848315	119.277129377694	-13.452760089903	-62.4960552599879
186625000	-33.830533186592	-77.194058210419	22.2848241962591	76.7311810799648			-42.4266189774208	95.8251476369307	-13.445854107917	-64.49630972337
187312500	-34.7409698868012	-81.9659560861038	22.2780689425056	74.4927447683547			-43.9746767910478	116.462528177133	-13.3448823531252	-68.0706014774064
188000000	-33.3867853517814	-81.343167959187	22.2820110344983	72.5339457408153			-43.5829716771421	91.1025504898591	-13.3261990685266	-69.634811267074
188687500	-33.3450207338668	-84.8571490475362	22.2731158798396	70.0666885118999			-43.4067122460328	110.358021109165	-13.2807027837739	-72.9119434120731
