# Hz S DB R 50
100000000	-33.712576863031	8.52517580754022	-12.437831638844	-5.75291745585934			-65.5133090216214	-176.453239580341	-3.56010091729464	81.4709520920154
100687500	-33.2874687827555	11.8581754394176	-11.9697232077499	-7.78212715951038			-57.8190015208696	-7.08968112256596	-3.48399330770717	79.0391874166566
101375000	-33.04247440564	4.27631412712296	-11.5902844899299	-10.3178864932548			-61.9573981796085	-89.4435040839289	-3.55847349998723	76.0326438067788
102062500	-33.2484539965542	8.99195614663131	-11.1958619751223	-12.5439937269033			-56.8891367692905	27.7765709557994	-3.53870631490644	73.3092446176767
102750000	-33.5106472008971	3.04983038244803	-10.8109622144555	-15.6575025900791			-72.5578600157206	-25.9283107195302	-3.58044601892883	70.1318369380786
103437500	-33.7321782660854	2.59265624344349	-10.4705683635443	-17.7204114761128			-57.5947234240936	50.74758461287	-3.51116452193024	67.6024546373097
104125000	-33.5803427822206	-0.61521576475956	-10.0961502756819	-20.8221527050332			-61.8128673631114	-74.4509032830096	-3.63332659658485	64.3600849654843
104812500	-34.4166438136728	2.54563957283527	-9.83348477526959	-23.2830142476712			-62.5336804321576	77.8646903382134	-3.61062056381548	61.6422937206058
105500000	-34.112148367753	-0.826766635282116	-9.51199070698604	-26.4604068606873			-50.967981239162	-77.0046340540311	-3.62143646090963	58.1956966145288
106187500	-34.718016592801	-3.39575440872624	-9.26198927453808	-28.7463618379364			-58.1834047379223	144.121081473069	-3.66014932073673	55.7071350639409
106875000	-34.2320027059599	-9.91144294777976	-8.95862999129722	-31.9619378068298			-50.9389127300186	-8.09754212803822	-3.67148576171893	52.279604071412
107562500	-34.4606058259835	-7.99665160990315	-8.78791429936082	-34.3782608345267			-55.2280071692137	58.391046006495	-3.66567079680673	49.2538591897433
108250000	-33.0807581632774	-10.3377337529136	-8.54986325827173	-37.4873344408803			-60.1226109972784	-60.9312797948344	-3.76541498462162	45.8409682237372
108937500	-34.1294539811235	-13.2795734344998	-8.4719445981426	-40.1290927072373			-55.6117025757465	113.43580349992	-3.75816053068904	42.9456724533758
109625000	-33.9651370359541	-13.213484059651	-8.25146407037958	-43.1555813322488			-57.4284711972458	-63.7751685091888	-3.84699621686785	39.7782934046893
110312500	-34.0201971441099	-17.3622762153699	-8.20813694544605	-46.0844426332424			-79.631582983902	47.405316280655	-3.85847448110706	36.9166713817097
111000000	-33.2430668693624	-18.9448698835715	-8.10272807457102	-48.9561394947526			-57.730428886151	88.4854487770461	-3.89605268131631	33.3141646407878
111687500	-33.9378803209812	-22.7156562713019	-8.14622052117357	-51.8474937983555			-70.2140117130054	20.1242115335272	-3.93836286697421	30.2222373075964
112375000	-33.7008685007115	-18.1884535364115	-8.13286965494248	-54.3063726018472			-60.3217663355354	22.8040389032354	-3.99214328652632	26.7113723168343
113062500	-34.1349244243802	-25.1317337479533	-8.26523471097208	-57.0553636389269			-62.9846114172057	-136.147572561989	-4.02072611345867	23.4112303801272
113750000	-32.6470702892867	-24.8582468820032	-8.36888826946825	-59.3107566673971			-66.4921890836176	149.690778982592	-4.08108589107773	19.8896075915771
114437500	-33.687001966338	-34.0302732976081	-8.53632920036966	-61.5517167444217			-60.989927452918	-113.10499807002	-4.11116174115805	16.4375417765564
115125000	-33.105442052039	-31.210485293404	-8.75384449417718	-63.7152044702239			-57.8532968560925	0.829130747709092	-4.17485219661438	12.6127038644098
115812500	-32.6966374886804	-33.5972790894167	-9.02102118879147	-65.1389776555513			-57.381964318074	-120.748797120368	-4.21079581094955	8.78282325061754
116500000	-32.7480319804197	-38.8918174719848	-9.43965928360264	-65.961646459027			-66.1074389531709	47.2860724848897	-4.22516597157144	4.9866006563427
117187500	-32.0707117683602	-41.4168700096266	-9.84826504019864	-66.3736625802426			-59.2693910061625	-165.251827263831	-4.30718525734033	1.08110721984698
117875000	-32.2780543110563	-38.2915888711996	-10.400132648515	-65.6747719581354			-60.2346496284136	11.23313513129	-4.34715607487533	-3.09414978366635
118562500	-31.5204723848641	-43.7606819717663	-10.8508947662265	-63.7324589827079			-58.6259891402067	-98.715394127483	-4.40731198606492	-7.05185147710769
119250000	-31.3054508942216	-44.9678297177279	-11.4011938149437	-60.0273480813086			-63.1041709289098	70.9471765301435	-4.48612581064204	-11.4688832779335
119937500	-31.2314126614144	-48.2209351931164	-11.6731321148139	-54.1216544638144			-72.462300516783	-115.558515161748	-4.51123040764764	-16.0053305268104
120625000	-31.2986564351785	-48.8200269569621	-11.8544911251112	-46.690737439818			-57.284378655214	0.819815254439446	-4.61869338109809	-20.6537840705333
121312500	-30.4799117262609	-51.1319161046489	-11.4690764973563	-38.3702706059126			-62.6410784920515	-44.6160894115811	-4.65976871374968	-25.2535502530933
122000000	-31.2242422803616	-53.1527957837164	-10.6522124576597	-29.9506061018577			-59.3059960102223	159.442389864775	-4.75368552153928	-30.1611194636971
122687500	-30.2689695420984	-54.2349896149924	-9.42159432085905	-24.1228931133891			-56.3469957084881	-62.1701534341337	-4.89581740136768	-35.1288566192048
123375000	-30.5788753232913	-58.5772911209985	-8.00895286787596	-20.5055032377772			-61.45943819985	119.440745243506	-5.00387572855355	-40.5162766373716
124062500	-29.6705501203882	-57.7893101770977	-6.56065325007089	-18.6121205766514			-63.8789894243188	18.0858626581909	-5.17849680741505	-45.6539493376067
124750000	-29.8950716059632	-62.3364085187543	-5.08057526195759	-19.133278916187			-67.1545103383097	3.15765281511048	-5.36061672792712	-51.4990971469344
125437500	-29.4107875902198	-58.5788555587304	-3.77407535613134	-20.7153761776295			-59.2538464061843	31.105838951662	-5.5509307354153	-57.0545035384197
126125000	-29.7737139010996	-66.3168846631182	-2.53747260646089	-24.0408278402725			-59.5577424618677	-160.148303952753	-5.84511770970972	-62.7380491899337
126812500	-29.5192879801866	-62.9807682983856	-1.41123872705956	-27.2748107017272			-59.6799073974343	6.02250406780653	-6.11168098624523	-68.0315689339982
127500000	-29.1117411131059	-67.6669951726578	-0.403084988375352	-31.7231002155039			-67.4833346230995	-42.5937192547996	-6.44786076142038	-73.8637138120985
128187500	-29.5332096384127	-64.2930230852577	0.509470451011991	-36.0846739665183			-51.9370768199216	-26.3062317620991	-6.7523581982204	-79.4956127752029
128875000	-29.0943720131654	-70.7069471521967	1.28107346607055	-41.382621954981			-57.2785136611393	-156.334551001107	-7.15383582330189	-85.5535412175449
129562500	-29.2832082410096	-66.8990344548766	1.96891821744165	-46.1605739844431			-63.1503034230231	1.90964344482246	-7.52017996116913	-90.650517612621
130250000	-28.5581611218675	-72.1901687431138	2.62536617374799	-51.6292089912708			-57.4666406582272	-136.704642317111	-8.03814036668186	-96.265352637017
130937500	-29.3381864371676	-69.9086843881241	3.13313196350602	-56.6770834481727			-56.7188919948195	-12.9108066722986	-8.41160560337271	-101.526626344325
131625000	-28.6115877296754	-72.6855865545718	3.60896803871488	-61.9399549264259			-58.8955421713515	-61.5201925744661	-8.92300705677799	-107.047332296369
132312500	-29.1691803478814	-74.9917368530093	4.01094795112732	-66.6819278448425			-55.9518510823349	19.5072598597626	-9.35699277590137	-112.061928810166
133000000	-28.8565599670605	-75.0234985445061	4.37920341537401	-71.9315832819776			-52.587230287421	-100.291331273564	-9.89462250840327	-117.574277126509
133687500	-28.8302895743448	-76.921519174057	4.66411485234055	-76.2288344168327			-75.5054912605753	75.2541395783114	-10.3889724492523	-122.232028536326
134375000	-28.6356228552956	-78.4638422123478	4.98078128680879	-81.2415502025736			-53.6929266500889	-76.8012079155633	-10.840261186586	-128.023284137528
135062500	-29.0324491390832	-79.739641054304	5.17404172722989	-85.327976159218			-59.7206623085773	-21.4844010340205	-11.3552058050103	-133.262322350967
135750000	-28.7251270582329	-72.5613540157092	5.43413775753773	-89.9691194325447			-55.5789891223536	-39.0286608779942	-11.8617006249365	-138.030446259059
136437500	-29.1818164109325	-80.9699602610509	5.58213077554972	-94.1792930589786			-60.4759072732178	-32.4833396607578	-12.3725806189277	-143.4845687238
137125000	-28.442581598905	-80.4723278129176	5.84974657986443	-98.3261704591645			-54.4153718961957	-59.0509198952435	-12.9088010621151	-148.659115750679
137812500	-29.0459371238609	-81.1214952351879	5.97354218385959	-102.331121657205			-64.0584071008517	-23.0283568561789	-13.3565582633625	-153.947670225128
138500000	-28.5391935922784	-83.0825174583035	6.15357247695356	-106.428898540206			-54.6390455444059	-84.3458076940883	-13.7760776094624	-160.356677286494
139187500	-28.8813183227877	-83.4433718347914	6.26224029727577	-110.213397509751			-61.7115165095199	-122.771754833007	-14.2671718794746	-165.600711281172
139875000	-29.3343891767938	-83.5455944479861	6.40310245486148	-114.108160682239			-52.9959855160465	-38.4730745937831	-14.6756583178337	-170.96932534259
140562500	-29.5686375218435	-85.4542703331275	6.53100977801286	-117.747708624438			-57.3423521421432	-125.175353699584	-15.0972760683928	-176.946743284311
141250000	-29.4084346833299	-83.1528685078877	6.66821557685099	-121.507263345608			-56.7062064804045	-63.3146514839707	-15.4414499594489	177.157060867734
141937500	-29.350963058536	-90.4285470532245	6.71848819827552	-125.214387627554			-52.8370000478876	-103.060888156499	-15.7322781497218	170.533002846055
142625000	-29.6734686800636	-84.5236105112776	6.85633961248716	-128.854041883362			-59.5692171773806	4.35662507279058	-16.1180641461602	164.569694768899
143312500	-28.9622269504144	-91.6566764695611	6.92993890388785	-132.225950540201			-53.5551473038418	-135.466659954411	-16.2960187877162	158.137322543927
144000000	-29.4021854041224	-89.4647474942247	7.02946760198238	-135.405117675181			-57.314514747272	-112.251536130049	-16.6216522874261	151.91440783576
144687500	-29.1266358300456	-93.8205458676562	7.05623222402366	-139.060212905953			-59.0668138866396	-133.845918144893	-16.7347213908938	145.881349747355
145375000	-30.1592221634839	-94.387076662813	7.10303845107782	-142.466832413297			-61.6081616999339	-52.7928450433398	-16.8735445231592	138.687735899846
146062500	-29.2028327738984	-93.4400556358084	7.15164540812024	-145.601980726271			-51.3156920847171	-98.225861439662	-17.0093675747429	133.723274083898
146750000	-29.9764102155025	-96.2791893446469	7.21185704712735	-149.030408194446			-61.9935395234267	-71.8226269569432	-17.1978747611301	127.303679371375
147437500	-29.3202899796223	-95.4358821426441	7.24074898644879	-152.070626246137			-53.9657652873483	-100.222481537982	-17.1581266564321	120.925515842715
148125000	-30.0907834439336	-98.960327615538	7.25724724169606	-155.463587032873			-53.2877059491488	-164.833590364951	-17.060797224951	116.002209182449
148812500	-29.637785365276	-99.4922423937527	7.31496586847555	-158.379780570451			-52.8739491993753	-91.4535255727104	-17.0686212070449	110.198760710707
149500000	-30.4196191689094	-104.536916293591	7.32469035313039	-161.426115051342			-53.8110403598636	174.686598187908	-17.0395077485236	104.39352839611
150187500	-29.5429110613122	-98.3765032672415	7.34012289723988	-164.326785187134			-55.1863589987233	-78.8718576995592	-17.0502161941877	99.3867785091161
150875000	-30.2875044251291	-105.937282416795	7.35314177983926	-167.332943186567			-55.469043178646	-178.020302566957	-16.8763864094838	94.5487812713078
151562500	-29.3998852103669	-104.528228775545	7.3522845495918	-169.91502168059			-54.7415917259855	-127.404965193675	-16.7719520607602	89.8525686035793
152250000	-29.5746215870978	-109.699901614708	7.35632090754774	-172.898210015991			-56.0887371354393	-152.867335969721	-16.7903573292737	85.3827792453999
152937500	-30.2122827886331	-112.08297420135	7.38049793212006	-175.309046067821			-55.8450274973708	-132.872010090999	-16.5822276487766	81.2490382205097
153625000	-29.9531543845396	-117.401423011271	7.35413525121576	-178.178142164819			-53.3831054531122	-160.937546824395	-16.5832401867333	77.0790997574989
154312500	-29.9754819430126	-113.523093585114	7.38322810606194	179.41829332018			-53.2766984268594	-123.195519452545	-16.344571766405	73.151947576288
155000000	-29.5007281632886	-118.651686640261	7.39826741573577	176.469524694107			-52.8709733941219	-135.267283005624	-16.3320922815477	68.9608244119259
155687500	-29.4986809700867	-119.049541303701	7.39726163465235	174.434966933053			-56.6173080257814	-123.394817848889	-16.1540094917448	64.7818121556137
156375000	-29.4627285156222	-121.939136779362	7.43943424582292	171.59002202672			-57.3229010603453	-176.635650169062	-16.1168063226658	61.3122769828165
157062500	-29.8686698512086	-122.920955545485	7.39933189003964	169.263669493381			-60.928170377687	125.595315372868	-16.0574844051	57.9790770167893
157750000	-28.8435453087261	-124.587961028233	7.46610483802013	166.731322388788			-59.6247044892065	-163.224954680543	-15.9961593095484	54.5862207642755
158437500	-29.2188498122951	-125.672255493548	7.43374161123994	164.352968882134			-60.6388645356297	158.871920721046	-15.8048107035462	51.3854499924638
159125000	-28.7787966021077	-125.877248602282	7.50293869248924	161.709109773385			-57.9755014733557	-159.993432791497	-15.6958292715513	47.5568846034239
159812500	-29.4463167120896	-129.388027630048	7.51185988938811	159.473988218341			-55.4064217876854	-155.343025979296	-15.7634297250961	43.8665303204554
160500000	-28.4403553473177	-128.318179409965	7.5382014402729	156.94062400999			-55.8228995024712	-126.563433758934	-15.6016493446235	41.1080643551685
161187500	-28.9123251328422	-129.137568590056	7.48700930410495	154.733954199699			-57.3247657402267	-113.450572603469	-15.5008525158316	37.8650840272892
161875000	-28.2140836358654	-129.569816744845	7.58230227700049	152.083212087479			-56.1886488451414	-128.02546479641	-15.5611711725461	35.2434421373794
162562500	-28.3072907730225	-133.081391119057	7.52127525674784	149.624900605818			-59.4346672941278	61.1003590913211	-15.4189202719543	31.7383563437209
163250000	-27.9917928414358	-132.112288727668	7.55188259636413	147.125184814732			-49.7095890603208	-162.590240001824	-15.3863264166522	28.6991111083984
163937500	-28.2181275953223	-134.98266897377	7.56289344605808	145.053266232828			-53.0835100019541	129.051129754074	-15.3575903380464	26.4036647529637
164625000	-27.9578724836895	-131.67343481446	7.58198093705537	142.473560825456			-62.4147999627429	-164.175750077199	-15.2944253204757	22.3602330916719
165312500	-27.7529312551646	-136.687679227062	7.5669833457244	140.245413966992			-54.7631080120033	150.574139250676	-15.3127091253978	19.7954239420537
166000000	-27.8338871960105	-133.28565316421	7.57517630901774	137.830559014378			-71.0761739763955	-88.7203400703715	-15.232040536442	15.8404306741348
166687500	-27.58223415449	-137.906802895133	7.54655310132563	135.672336757271			-50.8396344785554	105.083644258835	-15.1282423580175	14.5178256098212
167375000	-27.1311824978891	-135.134004350439	7.56918574450223	133.362497594036			-57.1968938804631	100.322953416221	-15.1639388569798	11.2497433799502
168062500	-27.1978332404333	-138.939836246981	7.58281159784259	131.224385321927			-55.8495190922377	153.675564612618	-15.040524853393	8.52248098426295
168750000	-27.125442283422	-135.299747868365	7.58505619240248	128.92236626078			-74.3484707677229	-103.683609966557	-15.0099427450606	5.1257218028826
169437500	-27.2943045384268	-138.133495139113	7.51590518481402	126.82669996686			-53.0251710062654	140.289268939288	-14.9494121029513	2.43686170919594
170125000	-27.1169140520783	-133.168981349041	7.53103539083177	124.499172819579			-60.8036094861215	123.70214894941	-14.990616225399	-0.162250847773202
170812500	-27.0416856473716	-136.758951872516	7.52228073127508	122.502044908526			-55.7643151864053	-173.417503742544	-14.8765023348851	-4.12984925484174
171500000	-27.2167414010613	-136.780588498655	7.53332671929313	120.219180184451			-65.3615008919164	22.9057330084156	-14.9043325369722	-6.99554679842671
172187500	-26.4391424334524	-138.128167440623	7.50914916756456	118.31185240673			-56.1502800325592	161.304311601122	-14.8430402182106	-9.59004307370412
172875000	-27.3299947242014	-137.175889746497	7.52887964028883	116.194505147536			-59.2970931714774	104.081852355171	-14.8419752188501	-13.541724185009
173562500	-26.3197789267625	-135.252143413859	7.47978379825406	114.259473605615			-52.158264240611	141.814878245749	-14.7306427512891	-16.1900885846377
174250000	-26.8480347645753	-136.777753516066	7.52273683244929	112.096870228199			-59.2239051150923	65.8947658355235	-14.7525958434983	-19.8861857970233
174937500	-26.7661633228448	-135.54790267536	7.51664204415148	110.319796935637			-52.7666567754119	-165.372427968109	-14.672756988894	-22.3332829449812
175625000	-26.6881960252884	-137.25807690607	7.51420962604128	108.248561450329			-52.0624636364669	86.8526148582337	-14.6594542721014	-25.4363092374743
176312500	-26.560038795063	-135.880770819265	7.52554848285749	106.484111702965			-56.5310408008272	131.081126873738	-14.5828914376487	-28.5836228763085
177000000	-26.7798686147341	-139.007554543252	7.55100054685838	104.508597347577			-56.8528960782129	168.894424701743	-14.5777570184754	-32.0188346187469
177687500	-26.5650434038149	-136.793930669266	7.54168966494064	102.552513167573			-57.21712975018	142.721910729111	-14.5475618980506	-34.5261858538655
178375000	-26.5426898587243	-138.583044531043	7.58898742270192	100.274854492824			-52.3070993835054	-178.172264840776	-14.4961045052999	-38.2718618085459
179062500	-26.5518587801705	-134.933197987332	7.58878391217776	98.576842881029			-57.9639826307928	140.306266986993	-14.4660365705553	-41.0480680953081
179750000	-26.6436799393851	-140.177267734724	7.59576848023574	96.442332775484			-54.9775198108005	94.7250050080533	-14.3927508990485	-43.7822868477095
180437500	-26.7849005863174	-136.048044702826	7.67935983699865	94.6292692160036			-58.35671581503	110.874563993205	-14.3153289826795	-46.8862369556029
181125000	-26.7549806010093	-138.469567553089	7.65725182204934	92.1950822804303			-53.3261793852904	121.938930955398	-14.2891371904985	-49.9166895577604
181812500	-26.9125047720559	-137.214699559873	7.66870407226522	90.6032831397317			-61.0903745703312	-107.276074438874	-14.3061359355147	-52.841768593584
182500000	-26.732589835128	-142.375450622773	7.74375715906771	88.3980467016127			-54.4745742374395	136.077214582347	-14.1841525142832	-55.6384971059136
183187500	-26.8183394468804	-138.383547778385	7.76665950167188	86.3002726733907			-59.9534181645346	171.31065509901	-14.1518092997832	-59.2514012161982
183875000	-26.8153626680029	-143.626071606159	7.79490091835397	84.0619881465854			-51.7534154584242	133.544724331452	-14.1216146139748	-60.8525981231793
184562500	-26.758304472294	-140.55324761975	7.76117045172627	82.4902147225569			-52.8339209075742	98.7966941831012	-14.0945360715607	-64.5651858594182
185250000	-26.80873726226	-143.988378059802	7.81532935568054	79.9435925938275			-56.7891334608912	145.634590620095	-13.9562055432993	-67.0622354984408
185937500	-26.9822050963736	-141.957373116376	7.7995686661965	77.9252938214551			-64.7460402218758	113.05021180587	-13.8796811306484	-69.494464311509
186625000	-26.404538160038	-144.777182715077	7.80637512770212	75.6205020655582			-53.6750972550639	131.526304416787	-13.9243612075904	-72.1441818239253
187312500	-26.648085588824	-147.266584250286	7.81710390686109	73.8008681477758			-56.1641326068646	64.8274519391449	-13.7927493165419	-74.8745934031981
188000000	-26.5499047252261	-146.143587208239	7.80396507362232	71.6373967706664			-53.9616806408573	163.888411744351	-13.767965409104	-77.1572884461912
