# Hz S DB R 50
100000000	-30.5088094934802	50.9468916086668	-6.33901738726872	-4.04875498291015			-54.2307653823918	-25.8420712980317	-3.56716089535115	81.2936602780453
100687500	-30.6452511967279	55.0075001142038	-6.00675026027878	-6.38860710827967			-55.1169188975955	134.152844836808	-3.54884270459923	78.9163814235811
101375000	-30.3913908817756	46.2466221627182	-5.55658935468927	-8.17868451178756			-60.2658713262231	2.94869585075314	-3.52994026771157	75.8445937008814
102062500	-30.6321362919758	51.0921779253301	-5.20546346126696	-10.4955556303916			-71.2598194487249	111.303048858703	-3.55793478206694	73.2301497829186
102750000	-30.1706639692283	44.400840965862	-4.7886042612319	-12.988360551126			-63.9107559777334	-35.5431757863721	-3.57588685145231	70.2378257504038
103437500	-30.6221512671506	47.5610104178799	-4.48700717699501	-15.3616092849224			-59.0920668024131	133.865224112328	-3.56986178973211	67.7489337206904
104125000	-29.6708860788193	41.6496538639191	-4.09121780276874	-17.9067790001153			-57.0037896592641	47.3009551088754	-3.60490935666917	64.558764725659
104812500	-30.3059755673365	46.1096877496609	-3.82421819450469	-20.4324372618195			-65.2185704690504	154.006218895814	-3.61233390349818	61.8935818214981
105500000	-29.7958002724711	40.6140823687351	-3.46720882845098	-23.0770222253376			-58.5950194560164	-5.4196371761714	-3.60509112158951	58.726150354499
106187500	-30.270661940126	43.346855162558	-3.24719379626288	-25.7234080419371			-65.3633562337694	-129.050349283929	-3.65359778142093	55.8091641018998
106875000	-29.7129509665675	38.2653183163098	-2.9657774003379	-28.1925639054896			-58.4455063213536	-54.3308098350308	-3.65669157122811	52.750033497399
107562500	-29.5095872472167	37.3114750880658	-2.75217344441201	-30.8935329244093			-69.4476696163492	-87.8069851496895	-3.68869875160708	49.8950919215208
108250000	-28.6992540204652	32.7537943838542	-2.51292055586835	-33.4554984867926			-57.1876549817927	30.8043315352001	-3.71324395314766	46.809974955784
108937500	-29.2595540564305	30.6936034695377	-2.39647641795314	-36.1281472447722			-58.4436042293756	-109.138602810975	-3.75385796715885	43.6894923218348
109625000	-28.7768168732571	30.9238095818635	-2.15515611828052	-39.0113806053688			-69.3313450210897	84.5327963767699	-3.7596962449786	40.8039348396983
110312500	-28.8972743001584	28.684595418409	-2.12715814098616	-41.7814974139078			-60.9747435932943	14.6783630263933	-3.85577358364733	37.6969055632349
111000000	-28.5707819680474	26.7866352135624	-2.00037487220452	-44.2993113664861			-68.9188488652043	-114.636323628174	-3.89143154111449	34.1667891764325
111687500	-28.54872793927	22.4845476936534	-2.02080222906574	-46.9689160263053			-59.1975041557383	-49.9877557655629	-3.93934698909424	30.8752120569332
112375000	-28.1548635746963	24.0665196411588	-1.99088879137717	-49.3794884395679			-64.533109291533	44.3341255628695	-3.95422596397049	27.8261027545582
113062500	-28.3346006659603	18.8653918197079	-2.07673310815645	-51.8834160009734			-60.7150682181929	-69.9239213411768	-4.00784664200189	24.1256152377009
113750000	-27.922609722196	18.8162521756112	-2.13096307280217	-53.7937209673284			-70.5895736526531	93.2617448597493	-4.07464076922388	20.8959300735516
114437500	-28.0576207558724	12.5929335214635	-2.31873631485226	-56.0007474302995			-55.4530332100337	-115.912383980583	-4.09274341529699	17.3957377787866
115125000	-27.8665622364408	12.4260328444513	-2.46176591823988	-57.6844856906052			-66.1342218650885	94.1692576156687	-4.18033522962115	13.6181593546543
115812500	-27.5308476501378	8.96373706601298	-2.70443541537942	-58.9379174399075			-55.001386422134	-50.3780434284493	-4.23766324386738	9.87752941481834
116500000	-27.7253996331683	7.96718836099751	-3.01295825694496	-59.9257836149804			-64.6530253510907	16.1722738909087	-4.27630532637114	6.24385228641282
117187500	-27.180629122812	2.15583226174074	-3.42120035637718	-59.9915511530361			-53.4584413130088	-36.1834408292281	-4.29805109513776	2.51814897101347
117875000	-27.3701335016673	1.10039106896392	-3.82726711303377	-59.3944469601006			-63.6232062470078	172.175991286684	-4.37288759215456	-1.28087170648492
118562500	-26.6335088530261	-3.3221302528715	-4.26778686973973	-57.4003745712227			-63.5093786731483	-45.8102085143052	-4.43005801124613	-5.41832613919337
119250000	-26.8045769774771	-5.99609705660766	-4.65777126204623	-53.9402813251975			-58.528388925427	-136.294714839895	-4.53858906087937	-9.70601323088994
119937500	-26.2256101615327	-9.46172632968543	-4.98936298944401	-48.5198171478822			-76.5333139045865	96.0609131214244	-4.60227749229774	-14.062687853787
120625000	-26.7522148213802	-13.1325452842358	-5.03622480148	-41.9321684559087			-61.1958680131851	132.973748047123	-4.68077544352948	-18.6791657763819
121312500	-26.116252037521	-16.4732973759673	-4.7183643546846	-34.0986486457056			-70.5268740387337	-14.3056965452271	-4.78978348095187	-23.205470908069
122000000	-26.397725520732	-19.9341526993979	-3.89474434761164	-26.2433287462797			-59.3982728016378	91.9190300579437	-4.88393600861401	-27.9434151090391
122687500	-26.0210346652958	-21.7395032471465	-2.75966221726047	-20.1846838553617			-66.9064943812348	-17.8784570858494	-5.03986997904584	-32.9418639102062
123375000	-25.9524491020776	-27.6100197158132	-1.33211164056471	-16.3450339239521			-68.5493301678927	-134.366240070986	-5.16595905567106	-38.3615457593121
124062500	-25.5469230384596	-29.765594844039	3.59691173610443E-02	-14.3740733999982			-51.5579003591661	63.2734618666746	-5.39090263872157	-43.3470178545797
124750000	-25.7397124680332	-35.7460568903476	1.5447558454117	-14.5413168620818			-56.9156510639348	-56.5372921559202	-5.57145505891769	-48.6151587484908
125437500	-25.7297742983311	-36.3028468550558	2.85445311457146	-16.0357633309401			-58.135049645992	-0.749706629390587	-5.81785103583251	-54.2068653888139
126125000	-25.5654623363259	-41.7349747727692	4.15204707674879	-19.138703012313			-63.3446394006199	-119.63360782922	-6.11858554880791	-59.3484962613558
126812500	-25.6880430031675	-43.3444765340694	5.290209840849	-22.5031769833972			-57.8945040992552	52.911907258991	-6.45423621608735	-64.8961059198463
127500000	-25.4599777583191	-48.162805744881	6.3506845596127	-26.873397307282			-53.9308002002849	-1.57527368999851	-6.76442551779145	-70.1477290759983
128187500	-25.7912268593196	-49.1960448852114	7.24500621407811	-31.4122187278201			-52.6508386995309	71.3730397564511	-7.18937982528606	-75.6448852654824
128875000	-25.5290863924447	-54.8132630034577	8.10780972014069	-36.5450392509623			-55.3256295893534	-26.7917315799709	-7.59142475818478	-81.320362843222
129562500	-26.178184403249	-55.2006559445204	8.79941787006979	-41.7416326513734			-55.2257265228608	19.7998905860332	-8.04367155869891	-86.5654636596013
130250000	-25.7153121273852	-58.6881626640028	9.51083274303172	-47.0444335191764			-48.8614783634239	-25.5587758259137	-8.58473782618733	-91.7767250237143
130937500	-26.2971121072302	-59.0707358304906	9.99840823177871	-52.4599380442962			-53.4485865494586	-31.4921094653141	-9.04071243467983	-96.7013869653742
131625000	-25.789246529008	-60.8214156336882	10.5239624183839	-57.7206352123296			-51.8091777930054	-21.6501101243682	-9.6583818064027	-101.254160746874
132312500	-26.4850456597848	-64.8941985225748	10.9100723583049	-62.7254540655997			-51.5743091003355	-42.2018152110017	-10.1248349163594	-106.306088502023
133000000	-26.1531904556287	-64.5544534216843	11.3144258734751	-68.0726396972862			-50.7626577895783	-39.9811230051287	-10.7038205309922	-110.940585368855
133687500	-26.4532042445026	-67.03779157471	11.5749636314191	-72.7386577458547			-55.2703239795141	-77.9084326690117	-11.2218838917324	-115.722227591367
134375000	-26.4142655462805	-67.4935522392734	11.9078509549296	-77.6613212766941			-51.275908987208	-54.6437790311268	-11.8515274105558	-120.464431851948
135062500	-26.7017806629144	-71.626568174644	12.0951190078576	-82.1091850921436			-52.0526712249608	-59.6884426620343	-12.3956140629398	-125.124248258716
135750000	-26.6478742348485	-66.5556951058649	12.3692726167521	-86.7872680003998			-53.0562700786752	-61.1189597155097	-12.9994474620249	-129.683508373732
136437500	-26.9108704795835	-72.8614831144741	12.5220147167877	-91.2365458279823			-50.0892173429774	-87.5275014665076	-13.487662874049	-134.454055731363
137125000	-27.1772941741498	-68.7606970355187	12.7782707891976	-95.2667579449462			-54.3579939955811	-65.6914708910595	-14.2004070848273	-139.040441907053
137812500	-27.1951418015783	-73.1569149930581	12.8792335879011	-99.556743828321			-48.8437501218597	-70.8408296133963	-14.6775756881822	-143.844152653518
138500000	-27.3578832453586	-72.4008052309214	13.1017159475277	-103.567024554441			-55.864307322875	-73.7093894390173	-15.1356699726829	-149.629546586388
139187500	-27.3092577393517	-72.8444627817015	13.1694523560499	-107.489329884548			-52.070518575008	-67.4187369874993	-15.9067337173993	-154.735057676777
139875000	-27.9862912310943	-71.1850798684601	13.3530637554006	-111.254361945019			-53.3668710316468	-67.476782285983	-16.3024000048362	-159.991646732557
140562500	-28.0593967490921	-74.0544600097042	13.43610832728	-115.060291543092			-49.7711990656275	-87.7595604806546	-16.8597824056202	-165.527353995729
141250000	-28.1164824144571	-72.1404272969628	13.5868249864724	-118.909490679342			-50.9238535521639	-89.0453826115455	-17.2490408098072	-171.88953310753
141937500	-28.0797163559286	-75.988756164712	13.6082019986845	-122.482747196544			-51.6519885911237	-61.4695373245769	-17.7496278997764	-177.998096763771
142625000	-28.6262021754945	-71.804745855592	13.7767440326692	-126.148040667564			-51.5372560839354	-100.117621679131	-18.0993319688589	175.830979559965
143312500	-28.122333693988	-77.7498364657869	13.8076803818698	-129.704944240148			-51.6003578532084	-94.0264295390726	-18.495532113552	169.382798072667
144000000	-29.0065742558977	-72.1614117747235	13.8962786654573	-132.920470882004			-53.3106765113278	-140.2739323027	-18.734821411989	162.773242990175
144687500	-28.1909999828393	-76.4393420313281	13.9379637882128	-136.468373928616			-48.8266831271729	-98.6176177364766	-19.0697842981182	155.778180011926
145375000	-29.1906609959356	-76.9688003697674	14.0380304433509	-139.919668362205			-52.0862801697119	-105.32244217405	-19.0042722291578	150.352625381867
146062500	-28.3360923422647	-74.9704818042095	14.0325222610733	-143.177624710524			-50.4649848517106	-93.6724063762846	-19.433609382796	142.284123328649
146750000	-29.2832296185572	-78.5268210279513	14.1051703682732	-146.484236300275			-51.507067109241	-134.240335900229	-19.4633074863952	136.661596281055
147437500	-28.8515704666762	-77.6375928170425	14.1307366455862	-149.416830740018			-52.7833694941275	-118.652291901219	-19.4564699854783	128.350732690199
148125000	-29.3316566189043	-83.1128308563141	14.1852239812388	-152.900800986891			-50.7164831366781	-138.244195734855	-19.3434447601579	123.709335841545
148812500	-29.3806354575622	-78.4449792574053	14.212863057818	-155.969406527526			-50.4175133710364	-131.765425096627	-19.216135752821	116.710295839444
149500000	-29.597892008511	-84.9931897298553	14.2704976837728	-158.861659761914			-50.1742439870949	-148.081793458449	-19.246497178049	111.423289562139
150187500	-29.665110487751	-83.7553735180178	14.2275399364553	-161.960764976917			-53.3085379439432	-82.7513531257235	-19.131597840541	105.348309781037
150875000	-29.4407228784531	-89.337154146554	14.293192949121	-164.861097315871			-48.0822846565284	-143.217959863529	-19.0720733665923	100.956704925002
151562500	-29.5443053181382	-87.658039109278	14.2623199459329	-167.630926135602			-52.6326765284466	-142.912234692976	-18.5284458299801	95.2927859796274
152250000	-29.6681224514181	-94.1492315177988	14.30951478117	-170.556846788211			-50.1968959607086	-115.409647033608	-18.6911739312664	90.8197907929175
152937500	-30.2449287366354	-93.9722095438469	14.3111438629969	-172.990275871427			-57.4395180928395	157.534083514712	-18.2333764399596	86.0839133286119
153625000	-29.3613284594386	-101.000785496317	14.3204115404077	-175.925712190197			-49.3222548699049	-141.415095183518	-18.2932428126464	81.9088047874963
154312500	-29.9227633044526	-98.1647593754619	14.3007324408741	-178.404683476201			-53.5869106366003	-169.462950957745	-17.7901977490988	78.7892382385712
155000000	-29.4603293337436	-105.089851416242	14.3620717937862	178.728420806933			-48.9602214835963	-151.723739458018	-17.7600036615591	74.3133498438697
155687500	-30.2603899317378	-101.925577467128	14.3133443101799	176.535988178139			-53.3445312826665	-143.747380185052	-17.5768470849364	70.6465948983931
156375000	-29.7353662969721	-109.31067577483	14.3997816904912	173.61059857529			-48.8382752897614	-163.070837540714	-17.4693664087184	66.6248387770595
157062500	-30.3285921579749	-111.215120433186	14.3379293885442	171.286688361267			-53.3306244623475	-164.822216368133	-17.3808833183808	63.6041925272429
157750000	-29.0694604012136	-111.963513263145	14.4341695468333	168.770389992843			-49.098721067507	-153.672809801867	-17.1455284302939	59.589826656932
158437500	-29.9665707905089	-116.019794085066	14.3823255121228	166.348662650692			-49.8168337974761	-171.193109257695	-16.9468268275907	56.7921453296417
159125000	-28.8877969046564	-113.60712804438	14.4532594137442	163.798252361012			-49.6894750324109	-157.133864437627	-16.7990774624184	52.5533455018597
159812500	-29.9108440928776	-117.60436464146	14.4485389353319	161.413498293827			-51.0175033397341	-160.711475163419	-16.7763095204751	49.6998250480145
160500000	-28.8312603346654	-115.235664288186	14.4946654575141	158.845370889821			-57.4265905638507	-159.251808802016	-16.5518369269048	46.53427314762
161187500	-29.2803309756698	-119.076877502715	14.4234455540015	156.642627270532			-47.5597445678504	176.92236113069	-16.5311644802813	44.520291627935
161875000	-28.6388346776663	-118.044959582997	14.5370688803025	154.077611903378			-49.0207295533252	157.868603642747	-16.3618495941353	40.9025417112791
162562500	-29.0956716567943	-122.684598548559	14.4768457622429	151.525342118342			-50.2272824684625	171.347157578096	-16.3294618320993	37.6391356576753
163250000	-28.4344636159159	-117.406924603875	14.5410821544187	149.118425838791			-53.1307678329976	178.972156426156	-16.0690537434825	34.9554352486878
163937500	-28.4371288211726	-123.038868170568	14.5101724283857	146.752090660595			-48.0084608888156	-175.393203619498	-16.2181201670174	32.1983618271938
164625000	-28.370972998148	-117.870264536198	14.533114473884	144.326406464197			-54.6961917364465	172.987471089133	-16.0147178299316	29.3489114215702
165312500	-28.1455618317422	-123.723889076035	14.5183628513874	141.983253509543			-47.876966641963	169.653752397401	-15.9861991326144	26.7841057534346
166000000	-28.3043916181929	-118.88775312582	14.5476027059112	139.704841609483			-52.9233549516164	-160.194555755689	-15.7431523216836	23.233931601337
166687500	-27.6263071803719	-124.448638278832	14.4957314531221	137.441226272496			-49.3804094811615	-164.279903018525	-15.7601032793693	20.7202269193809
167375000	-27.9721223570249	-122.13498764104	14.5604417565004	135.367099128181			-49.207197320885	148.893000785825	-15.6251972623894	18.7029120709096
168062500	-27.2907622689103	-124.503948618954	14.5284875092427	132.931899271188			-51.7185226851056	154.58498800237	-15.5563207797996	14.6947063107285
168750000	-27.6219318823114	-121.232572730624	14.5626725716114	130.618181249082			-49.3796381487582	147.920074434022	-15.4765653098025	12.3447836530878
169437500	-27.3773498451145	-124.629986323224	14.4890414435901	128.503859461628			-48.3726860594178	158.738462792107	-15.3998564143309	8.53172351215284
170125000	-27.3746348897012	-121.765771369028	14.5393516750841	126.113031390141			-51.0874474715965	150.195215497004	-15.4441489677343	6.50108811410817
170812500	-27.3257478320583	-122.505775448701	14.4934350079597	124.073309800354			-50.8470141444389	155.709404775904	-15.1777836599238	2.58860021969972
171500000	-27.7909937170797	-126.286516638453	14.5354449125528	121.906526790106			-48.6694721362267	141.717982044115	-15.326041648926	0.937349461273963
172187500	-26.9302545390151	-122.878551264395	14.4442009663191	119.678438355866			-52.1659741536121	179.520563169786	-15.2121701244677	-3.84796789475642
172875000	-28.0277879598479	-122.596395525755	14.5260229306947	117.769442281034			-47.060692441869	156.574507055902	-15.1155317460983	-5.68265057114882
173562500	-26.9600142402529	-120.64761485579	14.4425965238113	115.768023393301			-50.0742062607391	140.871019786079	-15.0045203979399	-9.56031528019713
174250000	-27.4343234562067	-123.862810087538	14.5110113171394	113.665411336616			-49.6677627004246	132.004226376261	-14.9590877376765	-12.4368547837469
174937500	-27.2873243104614	-120.346961646368	14.4591221528891	111.742633028727			-53.3963858907368	145.118436666134	-14.8764317307458	-14.7303646046911
175625000	-27.2217182212985	-124.033815999627	14.5016140505982	109.70090536276			-48.7221323702696	135.45186809318	-14.9213109738837	-17.7257243962026
176312500	-27.3324646456843	-121.405886756126	14.4976018767577	107.83366358075			-51.4543024303105	129.948611394533	-14.7644713261176	-20.8233615483909
177000000	-27.3824191966087	-121.892011681283	14.5476781062706	105.81428083247			-48.8784566013074	151.527901334697	-14.8478315671899	-24.9818608305775
177687500	-27.1924677003711	-118.827743178417	14.4910179830722	103.818138314758			-52.7995448327051	126.231880244104	-14.7274297437013	-27.7069116862648
178375000	-27.0524460630945	-124.549966003956	14.5448709013875	101.861426874078			-47.6261035712996	152.701629792656	-14.7108753416879	-30.3244056270072
179062500	-27.2972294093417	-120.142584529462	14.5369826475818	99.7545491337871			-51.6764704982618	111.198277201036	-14.6379111012176	-33.1490537922409
179750000	-26.9993523263737	-125.57044307228	14.5742834987747	97.862299357883			-48.4915634863814	148.773833844828	-14.5649370496665	-36.9335850630907
180437500	-27.1826603215731	-119.922720774006	14.6018525265457	95.8999078138937			-52.5704873484829	123.210839304157	-14.5045720843204	-39.2153934232066
181125000	-26.9437321895356	-124.840310086062	14.6332255105971	93.7828915335808			-49.9950296629695	129.535927213602	-14.3756608029477	-42.2930538100499
181812500	-27.5009825884204	-124.12866249497	14.6279192269364	91.8705062880848			-53.8984586758129	92.078119615995	-14.4361701776394	-45.0045160148095
182500000	-26.9083858928413	-126.856215253918	14.7185418483292	89.7778585560433			-50.2705860071315	130.259936231039	-14.3172728160415	-47.7465086509
183187500	-27.2656561626109	-123.447368986147	14.6949420144768	87.6833928248255			-51.6576692411185	131.370498388456	-14.2002855012214	-50.5827785049128
183875000	-27.2360381356983	-127.938752241156	14.7619239836343	85.5155507478947			-51.394144105803	150.999748808072	-14.2098612079782	-52.8630011250778
184562500	-26.9923101029465	-125.855661671722	14.7108645470816	83.6968432631232			-50.3864962804444	113.712897714619	-14.1319612440029	-56.1548594556381
185250000	-27.161237151225	-131.395648334022	14.8151481111632	81.551998657107			-54.0246104723651	104.382357247622	-14.0465411269202	-58.7054814013867
185937500	-27.4975824411527	-131.169480116895	14.7598731069171	79.3570475269844			-46.9625112205892	112.287696797994	-14.1206637736845	-61.3641819082046
186625000	-26.7843266490161	-132.437254898699	14.7933807336609	76.9886037847023			-51.4861432872157	128.559459871714	-13.9382845923936	-63.5213865482348
187312500	-27.1023836426146	-135.422907871949	14.7869330043058	75.0238903254108			-46.5656638231794	84.1788551828028	-13.9981873066206	-66.327600214237
188000000	-26.5745793229417	-133.284478670169	14.8137403056954	72.9348855667799			-52.5032532167612	121.067369376493	-13.884031828286	-68.8045929698408
