# Hz S DB R 50
100000000	-28.9675586262487	-5.41917085875852	-14.9462601886947	-4.09557110729817			-63.427033226882	50.0587499431785	-3.53116959426825	70.59349954332
100687500	-29.6447418852994	-6.47049456131898	-14.5628510482019	-6.41339719354004			-59.0172371529267	178.248186823093	-3.47703974147719	68.1033775226686
101375000	-29.1522982447009	-6.1793359143906	-14.0306341832436	-8.08102462278498			-64.4336230901701	96.6064894143739	-3.46762145681997	65.3240740996541
102062500	-29.4697431664138	-4.78356481552407	-13.6667851800007	-10.4986295416874			-54.9917855031407	-71.7313494788226	-3.47583782908277	62.5568358111418
102750000	-29.4211264555309	-3.81044208242696	-13.2534275657767	-12.2100494018118			-54.3816822040565	83.9588838143247	-3.47349814511463	60.282194045033
103437500	-29.5968492603308	-6.85818493750148	-12.8591410728898	-15.0738902116866			-65.7061354519322	-146.137982973741	-3.44932970171274	57.0953378040437
104125000	-29.1372533477207	-4.09277462066058	-12.4575318622308	-16.9635877260788			-65.5241905652893	81.4432193379455	-3.45498601338463	54.5648215406092
104812500	-29.2438125289979	-7.67303081794342	-12.1537909758892	-19.903648756897			-64.171943311738	-89.218279096232	-3.46484477094095	51.5911480980258
105500000	-29.423554729677	-2.9746783238319	-11.8491599026638	-21.8225866229913			-55.8977853184993	65.1252821225874	-3.45482534363836	49.0380828976066
106187500	-29.6679621710247	-9.988047712367	-11.514540197019	-25.209946169941			-58.8046342598001	-100.860785686587	-3.46005801516864	45.9457100675917
106875000	-29.7806623571901	-5.1332987622548	-11.2011366053289	-26.8391040432627			-62.4459193072209	-164.346322124959	-3.52643702648793	43.4557833043978
107562500	-29.6350473601219	-9.82003830208832	-10.9576720003074	-29.8415120310205			-59.1870220325078	-52.9479980296797	-3.48252548248714	40.3888746308427
108250000	-29.1973774579518	-7.48504869695981	-10.7613793584043	-31.8945637301079			-55.0627017839545	91.9629662875567	-3.54128952843541	37.8876232779935
108937500	-29.6201511879747	-11.3145170346819	-10.5257870389199	-34.8184513868792			-58.9607346635345	52.500722786351	-3.51291334886679	34.8623948683079
109625000	-29.8854740167728	-5.9985799653656	-10.3214254528835	-37.0046192244525			-62.7468566022476	130.254233178726	-3.59004853037905	32.2580532961264
110312500	-29.7887752929113	-9.6809032986508	-10.1619916136617	-39.8876406910054			-67.8507157725913	58.4135298052009	-3.6402874651215	29.3135463595833
111000000	-29.7360088388549	-8.90109410236716	-10.0026360646802	-42.3902953179335			-66.28796575813	-49.241178230607	-3.68079720348462	26.4660490515069
111687500	-29.675217096473	-12.9020332655236	-9.92813671159051	-45.0374963640978			-59.3949015001176	69.9422309473874	-3.68920903486117	23.4649730669616
112375000	-30.0268149842831	-8.33569240637485	-9.84792809717096	-47.4916251290854			-62.6683515383625	160.172317960113	-3.7836738861988	20.6297796963659
113062500	-29.6713838233984	-13.2647897546927	-9.8286153485516	-49.6960985050922			-59.403883621034	11.076713621674	-3.76582496153093	17.3983708342912
113750000	-29.7470131986785	-10.1771228278771	-9.80684025689033	-52.0708955982497			-60.4143214036345	-130.082022752013	-3.86458708387143	14.5664467214747
114437500	-29.9160405647436	-15.8509731726576	-9.84684851346679	-54.0108584661327			-66.6329380539476	50.5443021453088	-3.86046926894913	11.2558186486488
115125000	-30.4685690791473	-17.0467511889869	-9.91250392841654	-56.1596235904861			-56.423720903387	-160.521204494361	-3.9589295716118	7.9286369540535
115812500	-29.6761083390103	-15.031637790081	-10.0061479906403	-58.0552601543137			-56.3449114380121	34.9729175212341	-3.97791761246916	4.50349247343548
116500000	-29.9836769360673	-17.8024118329383	-10.1527142251238	-59.7846722575597			-60.6101325623187	-44.2943458967893	-4.04308539917212	0.892080662835429
117187500	-29.8529354392083	-20.0158830602609	-10.4244653281349	-60.8789376156915			-57.2985629954762	-29.3744246619351	-4.0968883802057	-2.38569729553072
117875000	-30.3665043225879	-22.0647953384448	-10.627619333951	-61.5890195597583			-56.8197881990418	-36.2335166293468	-4.19406190659807	-6.24359504707608
118562500	-29.6869274360697	-20.9814361402736	-10.9711937548554	-61.834534825096			-56.4300206839349	89.366327980122	-4.25088691833711	-9.97624970306645
119250000	-29.8603647247083	-24.7539280877381	-11.2926893944962	-60.9660332979322			-62.6494227024177	-23.1582663561588	-4.38422211644674	-13.9403047247241
119937500	-29.6579132180328	-24.11115385971	-11.7263858760586	-59.4865832065004			-65.9013699658149	-74.8331319701955	-4.43096045850715	-18.3979249473468
120625000	-29.7858935268495	-28.677020767589	-12.0643583059782	-55.9996094023965			-52.8147205562653	-19.3935505489445	-4.52909080777849	-22.6762853189005
121312500	-29.4702893817223	-28.5590864139423	-12.3755382312262	-51.4546824627158			-68.7056459560853	134.26861569401	-4.65808831509452	-27.2360181188561
122000000	-29.6690769643539	-29.6497497257437	-12.3366162990522	-44.8776470250123			-64.7515324645069	-73.3821014256865	-4.79306836393384	-31.7112720359185
122687500	-30.1109717328367	-30.301773868918	-12.0590545784869	-37.4407417910829			-54.1707788467192	83.9317997291844	-4.93907707939952	-36.8703441624541
123375000	-29.4903446434164	-34.661694325588	-11.2691507946972	-30.2290370809795			-57.047277387368	-11.5099982474612	-5.0832350248277	-41.723369345166
124062500	-29.7306817938041	-36.3207473515213	-10.231555571091	-23.9508362536861			-60.5963766499563	133.964969154251	-5.27059920840169	-47.1361944071323
124750000	-29.8241612586655	-37.5058233772747	-8.78683312891265	-20.0468078742878			-57.2660327059798	-34.9383755984894	-5.47518631006251	-52.4401196614239
125437500	-29.8484783989309	-38.2354819467091	-7.43106620085098	-18.1795578042203			-55.2908381575141	151.539567361626	-5.71332245966695	-58.4701710913009
126125000	-29.6282172564163	-40.4767123762227	-5.93732768149673	-18.5398231972076			-58.0596783379239	-13.5236706693114	-6.02935255574691	-63.6067624453907
126812500	-29.6234950393629	-41.4687884111032	-4.61230504304261	-19.9577986470403			-58.9265153905963	-173.456990601188	-6.28648794218849	-70.0085390199575
127500000	-29.6264744605809	-44.8407793924032	-3.30828576496314	-22.6930344551191			-63.7854802234366	0.505924587102328	-6.63207926863076	-75.2654263531871
128187500	-29.6988861648491	-46.5826316400858	-2.17654141077381	-26.5718558953366			-61.4892462544953	-114.137091468199	-6.96443189738187	-81.5046430315499
128875000	-29.2482418345324	-46.0536428885275	-1.12366278425769	-30.5461012988909			-53.0856602825067	2.9809744231382	-7.41407544453877	-87.1334633505013
129562500	-29.6079441424474	-47.7106987852494	-0.238256518222658	-35.5551913214215			-61.7654116811839	-147.152122340018	-7.7517446517542	-93.5605742526262
130250000	-29.0563777591926	-50.7771334567461	0.627948003115507	-40.3727459421838			-57.7761468624146	2.96342663906554	-8.33592102268236	-99.2119624875889
130937500	-29.569993281133	-54.0816866657195	1.32028129870728	-45.7770469984175			-54.7196038050156	-120.727830354672	-8.654167059216	-104.832491526362
131625000	-29.0773993197759	-52.4695249538147	1.95302330916498	-50.879895014884			-70.6292958389808	83.5627949354594	-9.30132931857259	-110.181663513193
132312500	-29.4392882768283	-55.6390390762838	2.49784275297203	-56.3507779412149			-77.2425001381865	-48.521934578392	-9.67785084882591	-115.725848692156
133000000	-29.294568026119	-56.04382424078	3.00570114877026	-61.3520399562966			-54.6688605245396	79.8214783161291	-10.3039176577555	-120.64003633227
133687500	-29.40288545724	-60.6373925255976	3.40077541905512	-66.5798971456859			-84.1013035650712	-159.524488899998	-10.6995838876424	-125.645386712159
134375000	-29.6392748641239	-58.5232683793763	3.81269121331057	-71.4640811210387			-64.2821757242983	18.5391535555964	-11.2580240865118	-130.955136301589
135062500	-29.1864305391226	-62.7894760567399	4.09872528701736	-76.3748217968604			-51.5658090043926	-42.4169098705709	-11.7318147692618	-135.199679335402
135750000	-29.2571517008162	-58.9053366349294	4.4352549371482	-81.2042721344305			-63.0619952132546	-102.380383302222	-12.2591335555849	-140.031534040407
136437500	-29.404691698511	-65.0063235616672	4.65966487770392	-85.8948968606513			-55.0105484535572	-80.227861584745	-12.7199614403856	-144.47222701536
137125000	-29.3291799031487	-64.3815012864126	4.93851623962262	-90.2170955398382			-77.8723447530844	126.838998283442	-13.2489216312	-148.127419250723
137812500	-29.0084298958158	-66.6098022302983	5.1045572651382	-94.9060152354126			-50.2593817545016	-50.7228743665582	-13.702566531361	-152.397334494343
138500000	-29.1204347210714	-68.9347743157972	5.34709065290358	-98.9097215185991			-57.7590711951949	-157.394941412015	-14.0689388135214	-157.912245173152
139187500	-28.7016734152998	-67.6603138216355	5.46767594519868	-103.2904077503			-53.0706926728551	-16.1191269222442	-14.7274030027904	-160.552333998492
139875000	-29.4872593090822	-67.6809096033978	5.67805742882451	-107.317965322616			-63.7174095806659	-82.6637395753429	-15.002617047566	-164.708161343783
140562500	-29.1391814576193	-69.8211035239475	5.78682410835233	-111.416395050353			-55.5951329631594	-54.5571953673319	-15.5690312896645	-169.077397844648
141250000	-29.5419285292006	-71.8848618378772	5.95070704918169	-115.235239922293			-56.6675515268813	-103.658102151706	-15.8823648324761	-172.541022608352
141937500	-28.7733851154704	-73.1647970146506	6.02078975171084	-119.381642430362			-55.8742706218238	0.401604785705205	-16.4399202740358	-177.402385031453
142625000	-29.2929009754012	-73.3732270357328	6.16438125859735	-123.035339955132			-53.0967918164229	-140.747682745716	-16.6443864226079	179.727456739132
143312500	-28.4782904534032	-77.3177392613338	6.25626237486102	-126.92050727672			-52.474206133053	-50.538202883593	-17.4266843687046	174.516121087834
144000000	-29.0193397094433	-77.0612118716191	6.37265531120706	-130.164712984843			-58.09396742101	-95.897214679461	-17.7074628626854	171.160020270964
144687500	-28.9486157573114	-75.109669102199	6.40048174329307	-134.101314651787			-65.3025403921372	-140.305772452972	-18.2824879052454	166.179917155283
145375000	-29.1288097118462	-78.8137110025907	6.50058476719951	-137.505342915127			-53.3734256355258	-96.0725354820241	-18.7820532220094	161.783498625334
146062500	-28.403939124887	-75.1646911393952	6.57331750457168	-141.063354394035			-59.6635229676203	-10.5100871279616	-19.2017377079759	155.365647627477
146750000	-28.8088130608433	-78.0180992875118	6.63016591720007	-144.32793045341			-56.6080320628861	-122.819681858676	-19.7000473562098	152.621306664173
147437500	-28.5878991759518	-78.7696965472329	6.65912501384593	-147.828436416088			-58.922641781941	176.982790953805	-20.1761396481789	145.538045437187
148125000	-28.7811281540663	-82.2451977986117	6.71196166367623	-151.155774148072			-53.3572446596185	-136.695188424677	-20.6356361751161	141.224297262273
148812500	-28.9708620905719	-79.7130911341623	6.73238235102982	-154.543763986373			-65.0731420725748	161.297299282269	-20.9689253147232	133.684824077022
149500000	-28.6808647470493	-81.7999872717971	6.77564961609584	-157.309915376818			-61.1226111357342	-111.746361304898	-21.7034183621765	127.579794858446
150187500	-28.968184999642	-79.572224591076	6.80097139293604	-160.794051279524			-62.2612971708103	57.4477829512336	-21.8604716767911	120.134848612298
150875000	-28.6020688283328	-83.0171136342222	6.82981685271708	-163.635613681645			-55.6310175794056	-88.0732369097344	-22.3733903342502	112.815982688176
151562500	-28.6522727698048	-81.8080269398281	6.81913805268049	-166.700570990563			-56.6849391955675	161.733899355985	-22.3135516355394	106.252529386316
152250000	-28.8066967266773	-86.4962359963989	6.86256265323339	-169.533536903962			-53.7597743363147	-106.528710038165	-22.8843891543957	98.0809524153792
152937500	-29.2504760737439	-84.504697850902	6.89666783505487	-172.454783426727			-53.1081239481043	-177.381954266637	-22.4779403246139	90.3052873748058
153625000	-28.9280991416393	-88.5722947118982	6.90920088926054	-175.236369814884			-59.3985502251547	49.4547928490788	-22.7387622837253	80.6812114126242
154312500	-29.5025494590228	-87.6673847522508	6.90189382525121	-178.039324017986			-51.7534888799775	-150.886569208413	-22.3853106072711	74.510779435214
155000000	-28.5418650395148	-89.2645200750601	6.93925170032271	179.068598461072			-58.7143947262125	-96.0637648840319	-22.0457314972447	66.6345304751093
155687500	-28.9575425268316	-89.2296597070427	6.93574881157302	176.669240595161			-52.3931800676175	156.027720338641	-21.8413773722706	60.1869720288382
156375000	-28.8785382708654	-86.9325870963356	6.98307115893327	173.855193218868			-59.9662913181392	-18.5739681533719	-21.4687946090936	52.0310242840411
157062500	-29.252198413811	-89.814949054399	6.95051134395806	171.12222027952			-57.2104788084903	-159.461498169883	-21.2915345789367	46.7090007758699
157750000	-28.6070197663622	-87.6357694113314	7.03478900035863	168.621580147325			-58.7212643441446	147.325059763221	-20.5994006959837	42.6909675891148
158437500	-29.7271154270986	-91.5493104217803	6.988074864532	166.177378156867			-52.1824026274563	-156.714485076839	-20.3598297236155	37.2526931086047
159125000	-28.6078514371665	-91.3194279054662	7.03307448869804	163.553205545277			-58.6823909984655	128.298329285823	-19.5792279134599	32.6846638943212
159812500	-29.5001943624966	-92.9853348738187	7.03775585643673	160.896782857449			-48.8237886574881	-165.350275744757	-19.508156774454	27.6374777559298
160500000	-28.9734706181664	-89.8074449812044	7.06823403944117	158.343663552082			-54.6914468457104	133.59730688514	-18.8554668879628	25.0421470949567
161187500	-29.1457777216746	-93.9421310301263	7.01999831678082	155.836383601322			-51.7201967004274	175.159754837268	-18.6944227767461	20.9054300065369
161875000	-29.0583457409954	-91.6878119305121	7.117244098331	153.417757285454			-65.9892177475049	-13.0634326004865	-18.1802769687447	18.6523616224417
162562500	-28.8116872668404	-96.9053838656648	7.05567581281644	150.762392590215			-53.6451362350688	-164.036162365718	-17.8274210537665	13.730383377832
163250000	-29.260397250822	-94.1491434299285	7.07377045344624	148.379037506218			-51.507155609826	135.032409619883	-17.3819226484529	12.3899560586176
163937500	-29.0446418454362	-98.2980684320327	7.07937550296654	145.922745841385			-61.5750577614888	-115.466151068893	-17.1087734341854	8.9304786584803
164625000	-29.5561426071149	-93.329415971726	7.10374686743006	143.362526114666			-61.5034035191781	141.556646649468	-16.8968151272806	6.91037063057184
165312500	-29.3715919947286	-98.64044142694	7.07734303599856	140.875823561829			-63.2818951079509	140.928300295368	-16.4622664631072	3.23782516058861
166000000	-29.8931512097238	-94.0956117684226	7.13246871286921	138.745178051437			-54.2466107083147	148.030644461699	-16.2910755912909	1.6462080732863
166687500	-29.3376576812796	-98.8401103071675	7.08666465032859	136.087258141499			-55.1125028967785	-164.109760678385	-15.9929092008492	-1.48113240771307
167375000	-29.6907223686923	-99.6629579409071	7.10620834744573	133.99768395486			-51.8250280767112	158.174229576661	-15.9133408183927	-2.90321792923956
168062500	-29.09698202419	-99.3820171534083	7.06903488348953	131.490009812521			-67.2086545784939	68.0375464700537	-15.5517267436967	-5.7713914394616
168750000	-29.5524419783601	-99.5798512748603	7.09879767496668	129.463839399881			-51.4450586579217	159.770699197736	-15.6302187247987	-8.24026417488987
169437500	-29.5464787847702	-101.701757459309	7.02926363086747	126.950921412425			-54.8475034068339	152.884099752036	-15.2931274910434	-10.4568499334951
170125000	-29.9308369934106	-101.002473442989	7.07865415262725	124.840627939129			-52.5040311013183	-170.958597020196	-15.3433772753443	-12.7004129826505
170812500	-29.5113357702089	-100.210585811263	7.03274439954437	122.54988927785			-66.8065345196194	82.54109288436	-15.0634399290239	-15.0917113517908
171500000	-30.4760705939084	-102.917998393476	7.06135036589099	120.550900497068			-53.9063641003072	149.117678247541	-15.1034494383668	-16.8270814411769
172187500	-29.3451269090542	-102.907045808252	6.98816104768631	118.297217870339			-54.9194501206827	76.7684570047712	-14.891645130317	-19.0770075152748
172875000	-30.5300653854324	-103.691709347723	7.05551767847013	116.596072365656			-57.814077669956	137.480557955908	-15.0347423606513	-21.1589954972637
173562500	-29.6225598489934	-102.884338081693	7.01615479228362	114.107082054013			-54.8866153889926	160.599885377784	-14.8351832318227	-23.2218898953113
174250000	-29.8933028794379	-105.87161317896	7.06757870949762	112.214094345854			-55.0727384607591	156.126582224047	-14.8260308038509	-26.2505462066294
174937500	-29.8758633301205	-99.949683638077	7.04538228386183	110.038963430792			-52.3728804172274	139.901872451739	-14.7115303198557	-27.6178054379836
175625000	-29.6162522821394	-107.47784510486	7.05612842187891	108.171346614761			-55.1926109316859	156.911959490479	-14.6933062139525	-30.6083206749492
176312500	-29.8057565341184	-106.665011777775	7.06369639358579	106.035537908088			-58.6023485130369	76.1358603435073	-14.6087990296328	-32.9763148627693
177000000	-30.1422003448971	-108.191701995371	7.09623446174203	104.190073725577			-54.1808085360775	176.977024496279	-14.7478210520111	-36.2160684235722
177687500	-30.3208826164424	-103.91421488349	7.07093020938901	101.924638212389			-51.9171090765445	113.298366868888	-14.6819064848093	-37.910401241851
178375000	-29.7914397050348	-109.161735884052	7.12986676760759	100.081691502516			-56.628542416956	-159.532934886604	-14.7179077998533	-40.846844429054
179062500	-30.1386910298084	-108.035500315297	7.14628628573672	97.8004947564956			-55.0648895546846	81.4618022926951	-14.8012854754039	-43.1841598743256
179750000	-30.262841028183	-111.077214014077	7.15136175790976	95.9024210671544			-58.824494973949	89.7259090906008	-14.6614144229968	-46.7513143356604
180437500	-30.2783966431833	-106.906833924565	7.20712057555	93.778370126413			-52.535488373223	128.501629957493	-14.8024263343719	-49.188790807177
181125000	-30.1289325061791	-110.693514189623	7.22856995061782	91.7268962261307			-60.930159842101	151.195012386596	-14.6991146195427	-52.1101986499435
181812500	-30.4583233609132	-110.443249551495	7.23180105840806	89.6854243174165			-56.1682161459087	152.274189629815	-14.8990872137783	-54.8892210769728
182500000	-29.9137231990408	-114.528278038131	7.29161468187291	87.4812896934048			-60.0086287752127	108.765355722754	-14.8327992902694	-57.5749725854596
183187500	-30.7381263859813	-110.210206630327	7.30367804372319	85.2191465929426			-56.7633800599293	129.260506734151	-14.923448724385	-61.3824603188818
183875000	-30.8006755406808	-114.265731792584	7.32521675381439	83.2415775027275			-62.7833819917527	46.7746585363652	-14.9287431456965	-63.6066232842881
184562500	-30.412531175014	-115.530014698693	7.32439396616358	81.1285918210778			-56.6232158959172	73.8357311673046	-15.0110552812669	-67.8445598100182
185250000	-31.0148342681263	-115.22370095143	7.37819200684961	79.0693118065914			-60.8459202951958	87.8876263127798	-14.9063625182062	-70.2928720252371
185937500	-31.0308354583101	-119.624618880747	7.34796396578718	76.609567639672			-53.7355172621815	106.598070634132	-15.0277995881339	-74.1516011194042
186625000	-30.7163678262949	-120.403522944894	7.38879909473534	74.5011436353101			-56.9080578089205	72.6440815611855	-15.0359225368784	-76.1109533375435
187312500	-30.8741415780787	-125.338467555107	7.36136568158808	72.2917487049459			-51.5626939051971	162.846863892324	-14.9574224676887	-81.026295881745
188000000	-30.9435925898203	-124.015643401061	7.38043143307327	70.1813476429191			-52.2534610242863	69.4151144842375	-15.0232920683564	-82.7800710329812
