# Hz S DB R 50
100000000	-29.4250468678273	41.6594549003755	-6.8475659911036	-1.28434840548628			-58.0930902912651	125.148401478033	-3.58487163810541	81.3896507205193
100687500	-29.4535660134819	41.4766696722873	-6.40566479939709	-3.30107834014868			-67.3985120045895	26.9850498500656	-3.52931709316605	78.8348860349434
101375000	-29.2174075762772	41.6378327307084	-6.0262029591477	-5.46668451944374			-57.6277013138119	60.2762198713624	-3.55720593104988	75.8002452192694
102062500	-29.2374267487701	42.9677941791176	-5.59431156702662	-7.6029375006048			-55.4982205130086	-1.06447193429178	-3.55368469225732	73.1588638422582
102750000	-29.1043632162607	40.7040318998768	-5.26425101321549	-10.0301534509492			-61.6527883594119	-48.9897191242999	-3.60200113492873	70.3501586248943
103437500	-29.4027712339827	39.366583457452	-4.89855267047603	-12.3219737386936			-52.7602577110398	-41.7819351155943	-3.53157577858478	67.6596208707908
104125000	-28.9801216547586	39.3417219831617	-4.54323236387479	-14.7839889574524			-61.1377562764336	-128.826945139549	-3.60766624011774	64.7148817271736
104812500	-28.8385533346014	40.0904911013155	-4.21135244265085	-17.2556231594958			-55.2763700623648	-0.46958269317854	-3.61903394552588	61.6470980455173
105500000	-29.0338086931163	37.8274327453966	-3.93147336616176	-19.8856202426744			-58.1790216508519	-175.418835776556	-3.65607654571427	58.9150074959649
106187500	-28.8562291989848	37.771038564631	-3.61997084336846	-22.2908177947739			-72.8343902966972	83.9278576177954	-3.58726669799271	55.8777221438006
106875000	-29.4633712024662	33.7607303449808	-3.39011684583422	-25.1977329595393			-61.8903174478438	27.1982738195702	-3.69245679215673	52.9800646286167
107562500	-28.6203796875808	31.5123919306139	-3.14075370863565	-27.6314680349315			-55.3452376149797	-2.50702173637577	-3.6588713155111	49.7951854750475
108250000	-28.2939847717343	28.4698782340957	-2.92283410790604	-30.3451476259408			-63.2003492383564	-124.84350768643	-3.76688952493926	47.0249852188306
108937500	-28.2801869811708	27.5352615147219	-2.73232186529478	-32.6483891421886			-62.3659207763407	-45.1110994076815	-3.74089760165033	44.0187485530431
109625000	-28.359253303894	28.4192020994445	-2.55844198513918	-35.3960751630772			-63.2618287708043	-141.287713266693	-3.80439567910669	40.8154983792038
110312500	-28.2275653445439	24.7604695704588	-2.47712382937463	-38.1965188113629			-68.715144107397	113.939771817574	-3.82967887858606	37.7711654614773
111000000	-28.2409931058171	20.8215177296554	-2.38668571672387	-40.7753270258039			-70.87283909155	2.99552245997206	-3.92443580766496	34.2556432843454
111687500	-28.0822798647102	20.2908801519245	-2.35269874824061	-43.3694115314622			-59.1658022862926	-3.13107882197347	-3.91196685093495	31.2160056112941
112375000	-28.0028056130132	18.7537423032545	-2.34016716494963	-45.7348828692846			-62.7019020051779	-140.405512006864	-4.0147785630271	27.9627057067904
113062500	-27.7857095597553	14.7801206152437	-2.41490704075838	-48.0124460448528			-61.5391944566349	100.112673078054	-4.0031194790738	24.6799586705868
113750000	-27.641768548514	14.0631690081567	-2.48572530087306	-50.2543959685357			-52.8687381820633	-55.6701408139774	-4.0854179951689	21.0187564144667
114437500	-27.6171541312577	10.5927531943265	-2.60991204131627	-52.2009745534624			-65.2958580343426	137.729349055547	-4.0975588715918	17.7527164172294
115125000	-27.3303658692627	8.23666382934885	-2.76804979657422	-53.8219856612011			-62.8882971640386	-97.3703629961706	-4.19799074563293	14.0409192074333
115812500	-27.1148315339047	6.72588411111149	-2.99168842906379	-55.1192712796473			-74.3351450831095	117.38881285393	-4.23629610890207	10.4951478316949
116500000	-27.0429970859121	1.56989118656843	-3.31664546631895	-55.8065903462997			-58.205001702705	-44.0542993339721	-4.28687628096335	6.58327287545462
117187500	-26.8249440437242	-0.624071947815716	-3.63979745663758	-55.8681530258848			-62.4040875542292	-164.189489421819	-4.35040561116681	3.03271141378453
117875000	-26.6060771143695	-1.2003097888117	-4.05920639307587	-55.357447291309			-65.88355079796	36.0605877228824	-4.43148018611117	-0.990304550367726
118562500	-26.3990791847663	-5.69934376920321	-4.43061237468377	-53.343217690385			-68.3046636780665	-54.9568010349824	-4.47681994235003	-4.9050650205053
119250000	-26.1334402682445	-7.70070702629674	-4.82316982116555	-49.7528894255657			-62.828566957572	32.1407545254443	-4.58575561350081	-9.20175293793109
119937500	-25.8698815274861	-10.9689817681602	-5.09934988122518	-44.8048962160672			-63.6412317414207	-155.971879620461	-4.66316034896462	-13.7277705245637
120625000	-25.8089458340868	-13.6865067766755	-5.11082036374836	-38.0622398394734			-66.3958408196702	76.6275094940468	-4.73788356327228	-18.170314877311
121312500	-25.6552433812345	-18.7707158209361	-4.78207859305615	-30.5118756032794			-62.6795373593605	-122.451144057518	-4.80860581653378	-22.6021987982486
122000000	-25.6167830245211	-20.8020497364681	-3.98777995624841	-23.0488098302433			-53.7970590571064	7.53751670791764	-4.98483774282798	-27.4008762107378
122687500	-25.4012210461954	-23.6941144524202	-2.8379251509339	-17.2320158638645			-55.5700174271635	-92.7768158835503	-5.10881837872141	-32.505040608421
123375000	-25.4006621514856	-27.0957174535612	-1.47180261256767	-13.3941666052791			-69.6706446883076	150.558686780883	-5.29544783728421	-37.2859876035659
124062500	-25.0258064811836	-29.9291962601146	-5.27715938565947E-02	-11.4540204654109			-57.7892984448815	-65.6724586355857	-5.44666512365809	-42.587557824205
124750000	-25.1164097258838	-32.7242484350869	1.42690080598297	-11.6218055813186			-57.5670893635621	61.7112677042801	-5.70250508765633	-47.8059707011635
125437500	-24.7100860312324	-35.7745517838713	2.75205466966226	-13.2172032139021			-59.4788168137802	-125.5315570454	-5.91933464525026	-53.4606420029071
126125000	-25.1789350527895	-39.9224806322268	4.02395778006171	-16.2995791106222			-57.9397297283868	55.0542301914563	-6.27371259522369	-58.4639061371194
126812500	-24.9797013604008	-41.2765452137264	5.19306806306532	-19.6863271297694			-53.8809794091425	29.976775439957	-6.57786110856508	-63.8423551005936
127500000	-25.1420340053171	-43.7579522546456	6.22188350482851	-23.9876205618905			-63.7577265101869	65.6242396931894	-6.98950940045028	-69.1386460579577
128187500	-24.9422085506888	-46.2673728545636	7.17742456845977	-28.6470192414733			-52.5224828669566	-53.9878824180251	-7.32577354105967	-74.2922391306646
128875000	-25.2968713616804	-49.1590871325942	8.00006133919158	-33.9033297243962			-59.5631122514499	51.6600880812721	-7.88216931217899	-80.1424483291633
129562500	-25.2185595271021	-50.5479668085894	8.73095049509254	-39.0087478549053			-50.782345694616	-28.5317178783809	-8.22304215279022	-84.9972158087071
130250000	-25.3506257040218	-53.3771270493061	9.37148253912597	-44.4001055603647			-67.5018672086862	2.23935012331168	-8.87745375864757	-90.2617014866505
130937500	-25.3071632575773	-55.2422029316737	9.93614724712848	-49.8705381026048			-53.3016031984171	-22.8426880956341	-9.27518153778789	-95.0200949092056
131625000	-25.5965155168709	-56.6266574948651	10.3989769266917	-55.0600774031247			-62.8618294179346	-8.71757235692553	-9.92703369062457	-99.7643094273893
132312500	-25.9520462563238	-59.8147016356149	10.8377395032091	-60.2803250851178			-53.4465944726297	-13.4761632211023	-10.419423474244	-103.982431067055
133000000	-26.2655041721083	-62.1235546280647	11.1807014752831	-65.707921671684			-54.5045328759956	-56.2665076957388	-11.0044026687461	-109.018773478668
133687500	-25.9602156795635	-63.8341737827456	11.4675246658221	-70.3370502097858			-51.3307171192382	-49.6870827713972	-11.5633735557201	-112.770403425773
134375000	-26.7256560360847	-64.28578086593	11.7991255701548	-75.3816430690225			-56.3482560637287	-98.9220727289557	-12.1660684984778	-118.240742167265
135062500	-26.3456272913126	-65.6497295474544	12.0375789974145	-79.9185112499814			-52.9748475281603	-68.4839055948551	-12.7434078193616	-121.985816275058
135750000	-26.7120304498208	-63.5558487154795	12.2395554498753	-84.4839630427606			-58.5417287564707	-68.186708577664	-13.3391857968364	-126.456609217317
136437500	-27.0719814310971	-66.8481829852428	12.4323755581069	-88.9030936813733			-53.3162531876022	-36.6229899600478	-13.9497161317654	-130.991009709179
137125000	-26.8933171904842	-68.3215161412137	12.6383598116625	-93.1310583523596			-52.7606452169822	-91.1387683130916	-14.5032311457963	-134.688170925016
137812500	-27.2730693658359	-66.8505879213096	12.7792862487754	-97.3822839153071			-49.8555577102614	-84.5542025310509	-15.0597434569919	-139.224047158625
138500000	-26.9716478906988	-71.9930416144476	12.9532569993516	-101.319470872144			-48.5352932504647	-75.7871917486384	-15.5883141137315	-145.127303808581
139187500	-27.3987403028379	-70.2660418638358	13.0539291341183	-105.296818880791			-54.8438403147418	-76.6117531987207	-16.201743236311	-149.499206525477
139875000	-27.5793752678542	-71.4345656058058	13.1937847645798	-109.206538139457			-48.7587052705262	-103.026945114112	-16.6777536382779	-154.355101655014
140562500	-27.9518975040312	-72.4129807983085	13.3111454816387	-112.957232819245			-51.4291840645692	-113.037277429549	-17.1944662788937	-159.90408824286
141250000	-28.0689211172355	-71.8369524974376	13.4159493835298	-116.619533089383			-49.0049353681716	-83.4617291002857	-17.6591416142721	-164.749058671092
141937500	-28.3845704706679	-73.1232761197339	13.49086439682	-120.495337870565			-56.344782292388	-114.35191631996	-18.1897441552424	-171.266968896437
142625000	-28.1797804920003	-73.751174286955	13.5898501141283	-123.914296635471			-49.7582130092118	-96.9862821887319	-18.5966026130807	-176.638649060908
143312500	-28.1222848873911	-80.3414327204758	13.6813858791694	-127.537462662334			-57.9701380693241	-130.503192311146	-18.9429128872265	175.39703458431
144000000	-28.2724675283611	-74.3701639549462	13.7303667195882	-130.726717402594			-49.8812261698553	-109.185825823962	-19.3274735497781	169.780317136581
144687500	-28.5508588104442	-77.7115948343115	13.8165520532319	-134.439959067141			-51.6894980852423	-138.935080984199	-19.4469674273943	163.461514090794
145375000	-28.4805361675375	-79.9286064725819	13.8524060153848	-137.694877834101			-51.9587458968425	-110.022645140989	-19.7809695869655	155.788411355366
146062500	-28.1779640641519	-78.1018732146242	13.9165609649512	-141.068159144073			-55.7388412212569	-117.702996164238	-19.8745048792463	148.970357558339
146750000	-28.4562736123279	-79.8919960791462	13.9777868622638	-144.336878065028			-50.339110106766	-117.574723571169	-20.3173006110065	143.293573953306
147437500	-28.2092746597442	-83.5353084685654	13.9998796910426	-147.423453129454			-52.6387983633984	-128.464405152884	-20.0921081208411	136.015070334313
148125000	-28.4414863437338	-83.9620615014237	14.0342567320032	-150.740609254263			-50.1708495129521	-128.907651542452	-19.9736052692312	130.231160625848
148812500	-28.8320102849299	-86.23177811114	14.0838727057031	-153.902094524562			-51.8108416651528	-147.640063962643	-19.7357553269857	123.952082990964
149500000	-28.8639554120354	-85.1740391388494	14.0918588702925	-156.770978805467			-56.2927203240194	-133.954794471942	-19.9596621640052	116.632057897345
150187500	-28.7043976497327	-88.2345179743633	14.1174680631555	-159.83737710754			-49.0197703013507	-137.80241064652	-19.7088941825696	111.33480628655
150875000	-28.8941464459068	-89.7877635547816	14.1185772159959	-162.714900899926			-69.1643897428035	-134.559752753889	-19.7341591567276	105.317434237488
151562500	-28.3989793989767	-89.0512337083645	14.1522997581268	-165.505144845069			-48.8914510892074	-134.900483197069	-19.4136922598941	101.774227050877
152250000	-28.9643612802666	-94.1045628910933	14.1198553119245	-168.41615955241			-50.1476706665814	-177.259970281259	-19.2885736435671	95.8787152354951
152937500	-29.0790159999284	-94.7254966233131	14.1764943514872	-171.033979104258			-47.9052020355743	-137.078741390651	-19.0466744824062	92.1671431088401
153625000	-28.9190702058917	-97.4813763277956	14.1608598869173	-173.793699278648			-55.6868061092943	-160.491243220563	-18.9081221139472	86.6131974023151
154312500	-28.8350201101093	-99.7518385253741	14.1739648896261	-176.365689772762			-48.2632713108113	-139.909668557263	-18.5621532073799	83.1358074500051
155000000	-28.7093010208397	-101.332853140648	14.1807229385466	-179.336991856513			-53.9492050086684	-133.881659929841	-18.3590291347844	78.8325723068625
155687500	-28.6491356531279	-102.950864313521	14.1879926191648	178.548182997167			-51.5447152063922	-131.312103368607	-18.2109160939162	74.1432515601573
156375000	-28.9368388264375	-104.75217686978	14.2246178557164	175.621246163309			-53.9831817443896	-144.631685430898	-18.0056806763779	70.3346225130778
157062500	-29.3809566015428	-106.254277044135	14.2207396025547	173.219300669231			-50.849695061862	-148.87095406507	-18.0004932921209	66.97698383544
157750000	-28.8484557497108	-107.283919553349	14.2600049106327	170.819686645299			-50.5600197038598	178.34376501533	-17.6099410327008	64.080106935314
158437500	-28.75967698098	-108.173527668603	14.261032663205	168.318142787478			-51.2188061267279	176.882055070578	-17.461943579707	59.6566890074965
159125000	-28.6438327038811	-111.074308153014	14.293779968026	165.8838851284			-48.7878027861129	-176.339689423523	-17.2381778005867	57.0575835576257
159812500	-29.1551458553656	-113.495955217561	14.3051341227407	163.277854874051			-53.7785768270031	-166.90948282146	-17.2902156636965	53.8831452043209
160500000	-28.8286935089613	-113.206384855934	14.3280079402545	160.969438542028			-48.4310525701582	-177.337318526606	-17.0882555669718	51.0587487492546
161187500	-28.7003132237462	-113.443343806306	14.3081808875238	158.633696655694			-56.3807137646675	161.060295158846	-16.863073977686	47.2751103878924
161875000	-28.7053838657118	-112.999519342779	14.3730508654889	156.046021652154			-50.7418592946487	164.995689895988	-16.8111049435246	45.29787153836
162562500	-28.6468810629346	-114.590698452167	14.3370010854848	153.577449876323			-63.7131911862137	120.295446568891	-16.6381858845286	40.7392787610803
163250000	-28.6241418848408	-114.826340986013	14.3473342412816	151.145130689959			-47.3582589857143	159.679177543207	-16.5167611116317	39.1510603470385
163937500	-28.3746194149578	-117.345381657376	14.3813245222819	148.782138534065			-54.0882450321358	117.831550261107	-16.3277797897239	35.9768033996446
164625000	-28.2933616570858	-115.057108589691	14.3860256950153	146.369383060604			-48.0152623534497	-177.840598758173	-16.3061106012736	32.4675253788777
165312500	-28.0268511477154	-120.481438960965	14.3986942410069	144.005514929759			-55.3355364017258	146.051556196381	-16.0156304064634	29.5542160859191
166000000	-27.9538795767183	-118.157656383054	14.3856788770264	141.653082626283			-49.6658944532413	-170.223903516961	-15.9937805068408	26.2410363977997
166687500	-28.1180507822389	-120.624950131908	14.3960044435762	139.217256455203			-51.01610663786	136.097212858856	-15.7389023380117	23.7717425878198
167375000	-27.6441771754051	-119.925439696933	14.4029881797749	137.164171651906			-52.9546132146903	-178.50476985029	-15.875056131279	20.9645954393276
168062500	-27.6856129969068	-121.87510819264	14.4151680922841	134.651749667361			-51.4860983304933	150.75251051054	-15.697889167071	17.8932799145067
168750000	-27.661869548752	-121.71017819939	14.4004828657574	132.42750370617			-50.4040363863832	154.879119792016	-15.7841894690561	14.2015847311965
169437500	-27.4744544849639	-125.689861004326	14.3591150077501	130.175632681574			-49.8754074358864	134.579724494502	-15.5255547124798	11.2271871502072
170125000	-27.4304063091701	-122.190648104475	14.3835296411236	127.899096141819			-49.1522756418649	-177.291665190793	-15.6479176574074	8.78068280387025
170812500	-27.4121496807511	-123.544896792441	14.3649527863314	125.855344641197			-52.1097235911319	141.503005449284	-15.4922593317399	5.983042836224
171500000	-27.4387736127528	-125.418740301611	14.357807855996	123.651765202518			-57.6365811541413	-178.903102618911	-15.5609849700138	2.70647963757776
172187500	-26.9959858784269	-125.353685983717	14.336825753683	121.664144049446			-50.9319912454249	150.307769139141	-15.3718696888306	0.238693787887823
172875000	-27.2778456723452	-124.669701438639	14.3529924258475	119.583721343384			-54.661427754	151.091796691079	-15.4029247381909	-3.27261282901623
173562500	-26.8356784213719	-123.971367715244	14.3231207644824	117.533098154963			-49.3716754496245	136.592849833977	-15.321063894568	-5.5387151164136
174250000	-26.8152145048341	-123.337990700236	14.3287108300365	115.335295740186			-53.3895699149739	153.676498791948	-15.178025716736	-9.78225834167224
174937500	-26.7833721811251	-122.911061404754	14.3488775657863	113.362115737646			-48.8885864346536	126.243031815313	-15.1538587360126	-12.4324290763999
175625000	-26.4762781550454	-124.148604478328	14.3242546817456	111.428287216876			-54.7657719401413	117.141065252285	-15.1305609559219	-16.1633792080805
176312500	-26.5118793764002	-124.924979066467	14.3420435991621	109.532688651614			-47.3803502070996	126.204091927208	-14.9792000226157	-18.2236792412109
177000000	-26.6191537339388	-125.289576799169	14.3625189709447	107.620313807259			-52.9289444018717	107.848088563499	-14.9767924329638	-22.4309376506574
177687500	-26.6180901023348	-122.30007948836	14.3506563487839	105.446957975352			-50.3845870877891	125.854092920873	-14.882393937538	-24.4443974399748
178375000	-26.3081944408111	-125.248053267887	14.3862526854382	103.559163612786			-56.5032873903365	111.441558282471	-14.8175922018862	-27.7949923067547
179062500	-26.081676356786	-124.814328330527	14.4028557998571	101.471403400993			-49.1587739148204	157.861874609654	-14.8419859754549	-30.7977457878561
179750000	-26.1176550637447	-127.489002536777	14.40442565671	99.6117517951279			-52.5368371804045	102.932167183854	-14.6530071383184	-33.9320030759771
180437500	-26.1604550273577	-125.927328941164	14.4558822467424	97.5837962467027			-50.3600715673871	148.100932598778	-14.6847861631926	-37.1422432814264
181125000	-26.0870748826668	-126.03774135091	14.4704117295163	95.4481846942398			-50.9696452733034	83.7595723215941	-14.524820849469	-39.7357629536193
181812500	-26.1876196489357	-125.101242591109	14.4911800647582	93.4932941064125			-50.9160086338903	137.144553769423	-14.4931162358033	-43.1648201304497
182500000	-26.1228317218963	-126.021981220602	14.5329660376638	91.4083793397991			-48.3746407314573	129.17415238812	-14.3891505908872	-45.3494569219275
183187500	-26.0257632237258	-124.888516371226	14.6002332202328	89.2894794070193			-50.6749475812898	84.8966643722734	-14.278143368731	-48.4405760894792
183875000	-26.0691214449508	-128.445534402444	14.5826962132523	87.2269396624275			-49.3255369349076	80.0887927307619	-14.1978641296249	-50.1906725832416
184562500	-25.6816305412116	-127.62781266726	14.6033796707567	85.4254087876891			-49.5086934788401	105.726526991477	-14.1473032660873	-53.777609984844
185250000	-26.032892011593	-129.362624380081	14.6193276547572	83.1116473434199			-47.492010183611	111.253452878052	-14.1110135660695	-56.3321711224762
185937500	-25.9974332822636	-128.036220176812	14.6166681094242	80.9735796125269			-52.2170128057365	104.730077987355	-14.0185586567369	-59.5596624733702
186625000	-26.0211658309778	-131.663654070003	14.6449004498603	78.7322695578321			-47.5075380577319	100.619410306431	-14.0085829478804	-61.1184922489214
187312500	-26.0205604805983	-132.406853688197	14.6379976535976	76.5731997937938			-54.747763150505	73.5846209444415	-13.87205231972	-64.135429478976
188000000	-26.0982656653866	-131.654272813941	14.6331768145193	74.5076464844218			-49.2711990323882	102.135959565566	-13.9100700789843	-66.258971961915
