# Hz S DB R 50
100000000	-29.7561993369208	6.19249265578403	-26.900297795671	3.47835391616496			-59.3857068413216	-102.184759470591	-3.52680740342151	81.8921776403053
100687500	-29.7777876486709	6.26704512663433	-26.4394427603347	1.98165074597568			-53.8347295428776	62.3780923823841	-3.5002127768739	79.2977034198576
101375000	-29.9266982288012	2.14509895750792	-26.2202263269129	-0.498080135765006			-60.4295285001496	-126.109926065535	-3.53591690718118	76.3061262822639
102062500	-29.7076901869849	8.24742417833155	-25.5889429897872	-2.51160252765626			-67.4204839514928	-29.9977934478005	-3.50928343800524	73.5254138327494
102750000	-29.7448749364571	-0.895714872055817	-25.2243558133913	-5.8202418770253			-58.7842971391448	-98.0071593649434	-3.56169518446966	70.3428802817276
103437500	-30.2901810270482	2.17141765678866	-25.0979720414534	-8.11240317560862			-66.8338034193914	64.1795621359148	-3.52374456892775	67.7311126438581
104125000	-29.9852960279309	-1.57637802207027	-24.7897767411209	-9.83534025304549			-54.730931494258	-145.635044073063	-3.59937407710423	64.4747073268747
104812500	-30.2083806077633	-1.18808956946952	-24.4206412614773	-12.52248573743			-62.7531590400406	-166.512114089398	-3.62072939552495	61.7215891759895
105500000	-30.0399017266786	-5.96059407857457	-24.022841959036	-17.1921920543898			-67.6051939534291	-127.199399594955	-3.62752057714358	58.344981504739
106187500	-30.7979682502961	-4.53484953111641	-24.0058013100695	-17.8912623601965			-60.5739703497705	141.837082745047	-3.65689669440017	55.680280909637
106875000	-30.1385073842289	-9.78167719081241	-23.4926839783987	-22.729562639499			-57.2532953051615	-168.23624393621	-3.71237079863996	52.4883010027413
107562500	-30.4156445686426	-9.51155760165687	-23.5731577723712	-24.2428532619509			-66.7470826403368	57.5893475394781	-3.68405202481468	49.5213439834733
108250000	-29.7444597533713	-11.9483371981307	-23.0274179895246	-27.3599120294823			-65.0587902058463	-38.2408716947918	-3.75817564461046	46.3185223197992
108937500	-30.7743401994526	-14.5842288371789	-23.038169269233	-29.844468254176			-57.5677682156889	145.941961277669	-3.75904778826418	43.280384897368
109625000	-30.5781092413099	-16.7225054940258	-22.750805719205	-33.2436435109918			-59.5815542633875	-60.0651554647734	-3.84611074547713	39.901920630778
110312500	-30.8874861235136	-17.5263755850387	-22.8422328707883	-36.1726799643304			-55.396211411423	-173.226608699121	-3.8597814542728	36.8552413458284
111000000	-30.1763190275251	-19.7807465698262	-22.6448035978307	-39.2753864078418			-63.6300479672888	2.03596798363012	-3.91364060699494	33.0734636550609
111687500	-31.0579261279444	-24.3459051643688	-22.8288362206642	-41.9818015045827			-76.6516819765823	65.1897218642396	-3.92401538866101	29.9617511780905
112375000	-30.4384815727991	-22.029511308977	-22.6974902947712	-43.7391875865146			-65.6622878505082	-48.8603634718982	-4.01489005797512	26.5040563265149
113062500	-30.7356823531394	-30.1014881869032	-22.8860739397258	-47.0341216589089			-65.9106269986512	143.549075999555	-4.03718874188739	23.3648604493664
113750000	-30.6532613396337	-24.8347224860962	-22.9087343198754	-48.8331912630119			-62.0683932554966	-12.0734312531194	-4.0575838659699	19.5151301942029
114437500	-30.8095530166041	-37.2687915734664	-23.1745575793437	-52.9024401833414			-60.9786542464197	-164.876632884445	-4.13074411894296	16.3541970812225
115125000	-30.2801400189933	-31.7894996888757	-23.311537102492	-53.6120147369136			-61.7378348097473	77.6168243092598	-4.17036164695772	12.2059491895377
115812500	-30.0643252311837	-34.6459384272089	-23.615108447619	-54.580662639378			-57.5636193401078	108.333534368529	-4.23482294129591	8.57316065607923
116500000	-30.4339710580628	-36.5261266801629	-24.1472936829169	-56.3540841414827			-66.1959473885435	-171.146777247225	-4.25705815520543	4.479052431695
117187500	-30.009404501473	-39.5866022261773	-24.1818059925666	-58.3552142447004			-67.2134234464892	-146.451504870259	-4.29742098129535	0.633274079165019
117875000	-30.1987949080064	-37.4646646513415	-25.0414966182425	-54.4645377183697			-64.0603614810325	40.6662243434189	-4.34038855098127	-3.42011660016765
118562500	-29.4759820581967	-42.3958709890938	-25.3594768400956	-54.6915221041509			-56.9649247898455	-107.18274598983	-4.39239158251042	-7.40832536317922
119250000	-29.8344676039597	-43.6661503348137	-26.3604205621427	-48.931136475146			-62.4101238877757	109.2210151238	-4.46984384009601	-11.9646436923402
119937500	-29.3552793248692	-46.423804174086	-26.4385685295667	-43.8120387878039			-60.8995987212758	1.33907336053071	-4.50018186208069	-16.5546538559633
120625000	-30.1357254144268	-46.4689732313603	-26.6790643934991	-34.3465745101522			-60.8202162121885	162.750615388086	-4.55137943201865	-21.1506530798414
121312500	-28.8845068809648	-50.6663580940632	-26.1594131542042	-27.3366133240454			-61.2262029025095	-121.464332297834	-4.6680782877828	-25.9737371801323
122000000	-29.5769829834407	-54.642809326751	-25.4758655010447	-19.0880142730185			-65.0740354030135	169.47399061728	-4.74621300448765	-30.8842340414971
122687500	-29.2570986730755	-52.5928191846707	-23.9810747284318	-12.3679989542624			-57.7564216740762	-69.6252351199393	-4.85444857333234	-36.1449749500273
123375000	-29.2439928915966	-54.9025326533772	-22.7538025979885	-8.40349163216166			-57.6426579186563	114.337128225639	-4.97630346601041	-41.4654234294307
124062500	-28.6976372855742	-52.6751627869899	-21.1325631494479	-8.19915458361048			-61.6127133258371	-63.7543181917019	-5.1116820659147	-46.5558801198537
124750000	-28.814198478085	-55.6032770417507	-19.5981593598911	-8.51261552406243			-58.6889424512633	141.730269239838	-5.29970047006542	-52.3692092326233
125437500	-28.1866376494512	-55.4479298845405	-18.2834454682728	-9.74681689964879			-57.6399768759763	26.8505156547258	-5.49831149901855	-58.0119734637459
126125000	-29.0560780235973	-58.9011308580558	-17.1053563900922	-13.0455858539833			-60.2376157108102	42.1667922645794	-5.77794295475922	-63.5954027985899
126812500	-28.3445401051086	-58.603406114632	-15.9509670702072	-16.1505019216489			-56.0550548539581	12.1761360615787	-5.99637449587237	-69.0819378119142
127500000	-28.2871183496996	-61.5232815678071	-14.9836815839758	-21.1292144410762			-63.3957467717223	-122.685449926062	-6.32074501186029	-74.9074071579708
128187500	-28.5238980778467	-59.6921174789906	-14.0932365415513	-24.9281956843289			-61.3652301294945	10.3950874536349	-6.62582245115512	-80.3038742130258
128875000	-28.1400654267643	-62.1990881606724	-13.3109807137533	-30.4783860412435			-57.7197202292814	-151.982587615996	-7.03005855548888	-86.4065903339082
129562500	-28.2188903970367	-60.7179148708978	-12.5984653206965	-35.161940168599			-60.6184293211349	60.8633014898087	-7.35263832339137	-91.9220293718539
130250000	-27.6105009337979	-62.5445009166482	-11.9636020082746	-40.2530659190184			-54.5837950699452	-104.449532462758	-7.80583796164918	-97.5827817252618
130937500	-28.039144596305	-61.266071157266	-11.434404771855	-45.2819940549832			-65.7455313246827	71.3380564481269	-8.19277898215327	-102.79446623515
131625000	-27.7707517395748	-63.9165779496516	-10.9808629324281	-50.7226033366843			-60.3674421971652	-152.325294619291	-8.75041020100511	-108.374478767188
132312500	-27.9948172426117	-65.4245270923616	-10.598326072258	-54.9345100363254			-69.49069067411	-158.766386395074	-9.12940266243341	-113.608420207799
133000000	-27.4994076407646	-67.7078976986443	-10.2422762141266	-60.3910133882225			-62.320812113644	150.97316847164	-9.65319129043841	-118.601092321003
133687500	-27.6838519781269	-69.1903510973731	-10.0018551449297	-64.5969242347507			-63.7496086815782	155.748095137996	-10.0824429814891	-124.030487691408
134375000	-27.4476386031354	-67.8583274854764	-9.61570327279281	-69.5983900403316			-69.8482502340366	-90.0381578256557	-10.5820298432709	-129.417465501791
135062500	-27.7982873617773	-70.6489406031224	-9.44645661534593	-73.619230242989			-57.6757129001824	123.23388518156	-11.0216247241682	-134.569811281503
135750000	-27.2184374476297	-67.7765074524211	-9.18516416609974	-78.3700284875698			-58.0201330340423	-31.3316661342329	-11.5526980227757	-139.723937190661
136437500	-27.7039400520437	-73.2482142183725	-9.00619752818063	-82.3375074561615			-56.2738474424283	-175.184802734186	-12.0139787125734	-145.155810178475
137125000	-27.1213744780102	-72.1541801050663	-8.77753082136151	-86.4489749607235			-55.9042218169672	-69.4769665261662	-12.5105692998463	-149.842465870109
137812500	-27.389023748236	-73.9063364843121	-8.67256743144539	-90.4289220590528			-58.1090411922392	-140.530349831266	-12.8968759570356	-155.127785469415
138500000	-27.2316346535389	-76.095396107848	-8.43247136776846	-94.0137760085394			-57.0110762706264	-29.1430511783186	-13.293824543152	-161.389850809018
139187500	-27.2201730440587	-77.7282264077482	-8.33344003751344	-98.0579479389496			-59.809884368529	178.228072301305	-13.7656319162297	-166.798557598267
139875000	-27.3365122523203	-74.7915628721093	-8.1735461180445	-101.413551742132			-57.1054285410614	-4.22053792018286	-14.1264224644676	-172.198274138759
140562500	-27.6152661744633	-78.7959728363023	-8.051743842505	-105.445498746067			-64.1267652192871	84.6010911773156	-14.5586029762267	-178.811068332598
141250000	-27.5808857503243	-77.6852541202804	-7.94279104583862	-109.110084373826			-59.8148432633645	-36.1859235852979	-14.85441369545	175.77876011296
141937500	-27.2961402618903	-83.0078539840021	-7.86480491614279	-112.739611651546			-56.6459771267148	-116.13379712261	-15.1744701612458	169.804971416639
142625000	-27.7702090257086	-78.9280044507392	-7.72545673381788	-115.901570775522			-56.538558852475	-31.30810722513	-15.5389280028312	163.980910210184
143312500	-27.5243078447443	-85.7453926925695	-7.67601792204864	-119.737573683366			-53.6141965497363	-154.832692075845	-15.7564341538295	158.331063294124
144000000	-27.8779268673939	-82.0490280544525	-7.6062486258206	-122.832025880083			-56.0649864161199	11.9137538219129	-15.9618068639969	151.434040176613
144687500	-27.4260125925986	-86.3613026525645	-7.51980609152706	-126.18391702101			-56.4974159107282	-116.193762360565	-16.1711863625997	145.956713628149
145375000	-27.7619243618487	-87.5231540797471	-7.48723538259298	-129.757947191805			-60.9165222964504	141.422722298287	-16.2076870124242	139.06983853861
146062500	-27.4146311125514	-87.5898058827756	-7.40391513360147	-132.73595814052			-59.8512417936368	-85.9912384135748	-16.520679991936	132.740331065689
146750000	-28.0161031223044	-86.2787516456237	-7.41441435573724	-136.04195964941			-73.0542519841921	158.417147611399	-16.6005212584042	128.157959448757
147437500	-27.5219956341842	-87.3664177055675	-7.32886016326314	-138.884480790114			-52.8431677939791	-93.2564176244953	-16.5359628583065	121.513984629158
148125000	-27.7137379425893	-92.027645547432	-7.34667224092946	-142.324391135226			-67.489745848396	-74.1112276296884	-16.5228872715331	116.489050480846
148812500	-27.7383654738379	-93.4983103455298	-7.24747961661496	-144.95323409186			-65.6636892837961	-51.2059782512788	-16.5697021882437	110.581503811431
149500000	-28.132495653323	-96.0103616639213	-7.28267800061505	-148.199549271819			-59.2633578791638	162.380951325074	-16.5078000246401	105.191667689754
150187500	-27.6801590308638	-94.932919285086	-7.23563274140082	-151.117398818402			-58.9524303316583	-78.8937974955771	-16.4675525956447	100.28363255354
150875000	-28.0457713463408	-98.6487526758267	-7.25693106406597	-154.163418549425			-65.7693877528561	76.4460359867499	-16.4752103617007	95.2467675300889
151562500	-27.7804479159174	-97.5851308654112	-7.22641403712472	-156.31085740628			-51.6375739983799	-86.7805112412951	-16.4120769576263	90.6343053226622
152250000	-27.924692617217	-104.662548775238	-7.20738903464707	-159.504785440019			-60.0484293675958	178.311571830589	-16.3420537307724	86.2456820304284
152937500	-28.0234007644749	-101.773202727059	-7.1884145875027	-161.584609168207			-62.803232517576	18.6105906434412	-16.2373149386955	81.7370712008425
153625000	-27.9337055154628	-107.506114545294	-7.1949751763835	-164.767135108457			-60.6539609352564	163.611695688926	-16.1785437880341	77.1366067360903
154312500	-27.6875888193534	-107.559958504678	-7.16699610658277	-166.846609443927			-61.2353857000836	-42.1157470416989	-16.026009756376	73.3544676451547
155000000	-27.5650358239185	-111.267279848237	-7.17153862085657	-169.847470071837			-53.2008443013633	165.428841100634	-15.9723866750469	70.2826734088527
155687500	-27.9560630961736	-109.757594209548	-7.20773051152053	-171.900333752582			-57.3851790288714	-71.9539241038777	-15.8743739614382	65.3667833917499
156375000	-27.5490665689238	-113.371905970691	-7.15604645033821	-174.946226153653			-58.1835416602875	-171.343509131272	-15.9624333355075	62.0294211867248
157062500	-28.128205661632	-113.557774782339	-7.17521428949368	-176.912826605085			-56.488406732861	-41.4513751967641	-15.8305666200436	58.126213164643
157750000	-27.2162282257506	-116.043051699296	-7.06156244519537	-179.261767372712			-55.5227737502382	-145.205009216091	-15.8167590421541	55.0426636165024
158437500	-27.8447340468214	-118.775401275458	-7.11232446482908	178.435712864946			-55.4084001533901	34.8459840444183	-15.618209780088	51.7550652192325
159125000	-26.8964720782975	-117.475596370947	-7.04500020929531	175.867149201393			-54.3225715666094	-152.740180645642	-15.7162614792521	48.0074397288655
159812500	-27.8021315136331	-120.675453597647	-7.0606655518951	173.564597919252			-58.7992720263301	39.6291070668634	-15.6080269830481	45.1675921711592
160500000	-27.0627048615104	-120.950673128627	-6.99512592390496	171.147735027525			-60.746763460392	176.450917537008	-15.5776394413341	42.1933700463358
161187500	-27.0844348047298	-122.417077967533	-7.06900980956982	169.177785971936			-60.0002345510243	2.13552366996691	-15.436165072531	39.3773745444252
161875000	-26.7375796754451	-120.012431168825	-6.95753887003215	166.713836362778			-59.4789715430011	-145.13929174817	-15.4004465048045	35.3894775779208
162562500	-27.110596621404	-124.56755448027	-7.00294284284474	164.076734166287			-61.3528816680046	62.251237897594	-15.2628387462605	32.2936437499067
163250000	-26.5948581567961	-124.017734458706	-6.98517261947269	161.790975957038			-62.3773728800566	-24.0594920658205	-15.2295294850616	29.0564304075803
163937500	-26.6584807669921	-127.846364553106	-6.95362277023824	159.484007407248			-57.0904344019909	163.012440786017	-15.1893495974189	26.9277256865368
164625000	-26.2887307608682	-124.467433162715	-6.94641757113	157.243560077013			-57.6978072872978	-122.110679313962	-15.1766002857782	22.7221368380969
165312500	-26.3846730052228	-130.656170965639	-6.95380711858261	154.835117826393			-55.7793144536583	97.5983707163108	-15.0222881059829	20.5602288122864
166000000	-26.4340190615986	-126.673884377137	-6.9344643220976	152.475953526697			-61.504938778257	-65.8943383258634	-14.9378715461315	15.7789351130934
166687500	-26.0840496375596	-130.599941384521	-6.95040794421233	150.332863586701			-75.6672563443293	92.116072466693	-15.0004097604268	13.4001335407964
167375000	-25.9837851853219	-127.842431088473	-6.93356616588093	148.274622962326			-58.3861805982782	-107.459314173509	-14.9128912698644	9.95698916196794
168062500	-25.6822343136444	-131.314291556616	-6.91260414845295	146.013154809451			-56.437378573827	129.785366178359	-14.8492135196195	7.76902551255933
168750000	-25.7543253029579	-129.780657527731	-6.96134482835852	143.817004381367			-63.2189082840544	-92.0980935085443	-14.9134864591341	3.51835068395761
169437500	-25.628909919963	-132.276488951704	-6.95974020341533	141.877228396667			-59.4442782141581	176.501415096467	-14.8069381428552	0.902485942749555
170125000	-25.4910157033455	-130.436578881711	-6.97704158227033	139.607387569634			-64.6279685919231	74.5594126865885	-14.8785305379469	-1.82150524844712
170812500	-25.3250094936246	-132.624115308827	-6.97287053274457	137.786799254579			-63.5549671419267	173.210429674025	-14.7782774646506	-4.80598561833191
171500000	-25.6052455656829	-133.338205524902	-6.98340174764441	135.478938392371			-57.4371812918539	13.617050116174	-14.7519469561851	-7.89138504649095
172187500	-25.0522007222687	-132.931585336208	-6.97888352116028	133.603318041333			-56.9437823398919	134.668532593154	-14.7347383287476	-11.4254367305659
172875000	-25.5179121609315	-133.242860663724	-6.99596395317954	131.837405800031			-60.0378497244818	11.3176980571872	-14.643373007013	-14.6169076649107
173562500	-25.0689777923492	-131.665319215544	-7.01237995861522	129.956862649499			-59.1819176883185	-121.639749233475	-14.6488572820507	-17.0705491541718
174250000	-25.2612543642017	-133.558365553347	-6.9854977666017	127.63086886845			-69.7242348029521	-33.4839688269707	-14.5800234029469	-21.4471105986728
174937500	-25.1105243695481	-132.39693915134	-6.98033339383571	125.852412882267			-59.0305983856617	-119.482886040696	-14.5327001397979	-23.8764921660219
175625000	-25.0290329865536	-133.189324934341	-6.98453747232688	123.870329329269			-58.9496358468011	86.6465159887396	-14.6310881093728	-27.4277158199599
176312500	-24.6424637721183	-133.868799408755	-6.95873878378477	122.140065365828			-64.5587410524208	-125.907500675715	-14.4634571850002	-30.3275886579882
177000000	-24.9874952579136	-134.650907358659	-6.93674382361717	120.255306243057			-58.1770615773837	33.3064530737947	-14.4783751928136	-33.654783114953
177687500	-24.8974627772379	-132.755292331278	-6.92732291947126	118.531785159772			-58.0854711311728	-106.347764835944	-14.426372194687	-36.598142139452
178375000	-24.9562313315532	-135.977614147232	-6.83818349726718	116.286004025995			-59.2183628461518	31.0105087678992	-14.4244885155687	-39.6408513868938
179062500	-24.8751588472652	-132.549443634358	-6.86125595441207	114.516394010378			-65.6869387189713	-0.730743628991886	-14.3642952066061	-42.7623542711701
179750000	-24.8957090555516	-136.591613983237	-6.84572493166582	112.373773154261			-63.7714454727222	152.141736837379	-14.1689745627933	-46.0257117756681
180437500	-24.7244660906576	-134.425127391043	-6.82948228911631	110.881525253108			-58.8511186205774	-71.9485550290081	-14.1939680563099	-48.9721917602993
181125000	-24.7360759035425	-138.026716182934	-6.77937200239256	108.626505978796			-57.6527753832345	129.478809930299	-14.0965412924214	-51.2631186152573
181812500	-24.8145950229717	-135.481534758921	-6.80607231075884	106.779162674317			-67.8750969531415	-100.755435938638	-14.09814405711	-55.0816268020754
182500000	-24.7480981383367	-139.989635984856	-6.69876259041453	104.592912028323			-58.4111832787943	129.136378398393	-14.1339900931597	-57.5356277909441
183187500	-24.7676269626816	-136.721118138775	-6.72023299353372	102.745379740983			-55.1640793309816	-100.537110688292	-13.8989209344502	-60.3594488385751
183875000	-24.7894978759377	-140.033404491887	-6.63950228905348	100.50916119525			-60.9348993618022	169.18688563419	-13.9479584304604	-62.3990207062435
184562500	-24.710201285918	-137.912225188697	-6.68011546597815	98.8573429723778			-63.0901829339652	40.7874259233955	-13.8837707614195	-65.8392591897253
185250000	-24.7258129754801	-142.89133648608	-6.62194465648062	96.5712431585138			-61.6955872907394	-170.090590829153	-13.8290567882109	-69.0886608330966
185937500	-25.0098656357852	-141.598994142891	-6.6274438825498	94.3925094252142			-58.3986658286798	-42.2710826022594	-13.76722834804	-71.3926129513083
186625000	-24.7184117610153	-145.811348086379	-6.60053982615857	92.386520004342			-56.1501003809095	-175.070695952826	-13.742853680585	-73.8759523203041
187312500	-25.0117209695378	-147.128941556351	-6.60840534802919	90.3799671470658			-57.606557665988	13.467154764	-13.6802666548256	-76.4715544711239
188000000	-24.7188789871494	-146.124777533254	-6.6130416525182	88.370866270546			-58.2325109940264	-156.061054147991	-13.6466460784166	-78.8602266605373
