# Hz S DB R 50
100000000	-16.2526356188848	136.03024411736	1.98130885479195	-5.74164886040865			-66.0401877726856	-61.9992283448834	-3.56877294539996	81.5249658731149
100687500	-16.0988337752121	133.615795329977	2.41505519676749	-7.7921498025488			-57.7186823843448	83.6299850211503	-3.50628665115127	79.2064945392523
101375000	-16.1944266614153	130.698394996357	2.84072513174866	-10.3197610721954			-61.4786364149044	-79.0925940911601	-3.52797147347568	76.0369470703795
102062500	-16.0571331777651	127.818364847507	3.23365804409801	-12.6130933862874			-58.5316979834616	16.5181858011663	-3.50015379457374	73.4582186737053
102750000	-16.1469268366938	124.845578225087	3.62024639126751	-15.2995412491142			-73.5212753388244	-139.861625577514	-3.58861306074633	70.3934287075172
103437500	-16.0420676077113	122.067593352287	3.9470414592043	-17.480652440827			-55.607152002531	52.8332848265988	-3.53960480850523	67.6849173089149
104125000	-16.142736326222	118.635970257731	4.30545162037481	-20.3988501162791			-52.7309977931873	-17.4668395871148	-3.60276720091029	64.5638670369121
104812500	-16.0399705832282	116.499404897917	4.56581429532293	-22.7447141631119			-59.1162101459153	-35.3816819549313	-3.65104373309788	61.6414680563787
105500000	-16.119518493688	112.982817564826	4.92212264258613	-25.6830217685507			-57.3830514568704	9.82684983965532	-3.61711396261448	58.6579246708185
106187500	-16.0129842083838	110.79263154847	5.1892139424978	-28.144239508597			-57.4484699939681	77.7209067033618	-3.6319331010851	55.7198318101182
106875000	-16.1066627168863	107.135553161769	5.46306025090225	-31.1940757049886			-53.708309786627	-22.4565960405203	-3.70208621003791	52.4936112679228
107562500	-16.0352784332803	103.974650067173	5.66715893413346	-33.6577089826213			-67.0156771919707	90.7494260706182	-3.68294036324611	49.484174372394
108250000	-16.0410085092928	99.8951439261383	5.89807395570701	-36.7857552564544			-53.0827230333667	-5.82640033050883	-3.74537720888944	46.0147796915749
108937500	-16.064761324833	97.4228702276365	6.00594630102016	-39.4101294870913			-66.8662784873201	-117.707236674174	-3.78375533527641	43.5337038413785
109625000	-16.0776466559795	93.3342215353012	6.23077404699718	-42.3190980029235			-56.8186458794915	-48.140229713122	-3.85231200058348	39.9861495352267
110312500	-16.023027770601	90.1323542848785	6.26814899390061	-45.1815743597542			-68.7206799590522	-63.0480603113976	-3.82708692397706	37.231480062983
111000000	-16.1583777822761	85.6988503190903	6.39253269047215	-47.852201893338			-49.4540083324662	-6.63471860427505	-3.92119182149214	33.500478537438
111687500	-16.2430180770689	82.5557726367907	6.38665708841799	-50.6458030190816			-65.866364374448	-11.2963609910571	-3.93702891708815	30.3847906363823
112375000	-16.1223063107883	77.931521452338	6.39403070467679	-53.3548111100945			-59.2791030325098	-17.4816479257362	-4.01184683868405	27.1290971534129
113062500	-16.2887600020525	74.5595560156258	6.30195435746763	-55.9123509852548			-61.4848526581125	-32.282744327697	-4.01385045666669	23.774455387467
113750000	-16.249117254716	70.2228086237787	6.22137212168172	-58.2037823246479			-63.9921908671859	24.6614695775913	-4.08712137204405	20.0509391399642
114437500	-16.4562354912552	66.7676003480075	6.04448732475909	-60.445072084408			-65.9364752638998	-166.532309961668	-4.13824359792391	16.7217618024926
115125000	-16.4497492572663	61.9965143959289	5.84583251039385	-62.2555838187556			-60.6338337364697	26.7221819273742	-4.18857658894683	12.7932152548991
115812500	-16.5237665961233	57.1943450101672	5.584992354233	-63.7279424902214			-60.5846730309989	-125.429812148673	-4.21191560959025	9.12894599867074
116500000	-16.5829007174214	52.8610308267945	5.22215357658542	-64.7268269414158			-55.1526508079593	12.8205260848883	-4.26518127463739	5.04976244708538
117187500	-16.7486197978003	47.4372964112628	4.80426966861377	-65.067115130591			-54.4954251007693	-32.2231751047021	-4.32236481633437	1.54453035137414
117875000	-16.6889219571888	43.0796351896984	4.35221693823999	-64.4619983388363			-56.3746069131286	-23.3531235652316	-4.37110896730886	-2.55044475002952
118562500	-16.7642123566753	37.4694464629102	3.88369742316645	-62.4587079062101			-53.4688327891816	-48.6076570208556	-4.4331068487712	-6.57217207718879
119250000	-16.9645378552947	32.5566468115331	3.4055190591935	-59.000416869856			-67.5046584688674	43.3752244805403	-4.50683397511369	-11.0994961352712
119937500	-17.023243644446	26.8882187902065	3.06944823301271	-53.5199152690593			-57.3535933978912	-66.0283427285901	-4.55420032418752	-15.5832173759817
120625000	-17.3007557589051	21.5199013020622	3.00286563832019	-46.5038883368546			-62.408196534711	113.717014457369	-4.62359073915159	-20.1510331678348
121312500	-17.247909292852	14.8682803913701	3.36373650077654	-38.1196123675397			-59.6057321787486	-34.023694403916	-4.67996444724977	-24.6433116450353
122000000	-17.5744684056295	10.0099857816943	4.15933701384749	-30.3114034659069			-57.2312559974752	24.8104768559216	-4.8040601528183	-29.6632239581039
122687500	-17.6178174452926	4.16193395674184	5.36606122800007	-24.3023527924269			-58.2929460641481	-80.5887596571273	-4.93428012379417	-34.6791151124709
123375000	-17.9925330107359	-2.9273396671583	6.79596158483586	-20.9061503498372			-58.7096114208208	87.6105157002589	-5.06582295949022	-39.957550918322
124062500	-18.0536942147999	-8.91294850951797	8.23856945180296	-18.9342240072592			-56.7973307317069	16.6850845752107	-5.23000635894943	-44.9423475252458
124750000	-18.4544482411468	-15.7842611375185	9.72693419492366	-19.6157235135992			-61.3912163665358	51.8269894467901	-5.4010128564698	-50.5986894494034
125437500	-18.5821197408095	-21.5678511177163	11.0202080461699	-21.2049059758824			-52.8965145723904	11.2640004606629	-5.6080214791092	-56.086474699354
126125000	-19.2290680604313	-28.656550936523	12.2640045257729	-24.4573089308942			-57.7472674668215	20.291366268672	-5.91767898831788	-61.6066375761187
126812500	-19.3961929928523	-33.9860942728133	13.4101202941198	-27.9847470151544			-50.8204523586374	12.1424285498316	-6.18760952644422	-66.9996719746724
127500000	-20.0104967228518	-42.0463442049575	14.4120594073723	-32.482807854852			-55.7337213425322	49.7144112602602	-6.52440077684598	-72.4687205476289
128187500	-20.3347059365274	-46.8255861523535	15.3344457713389	-36.9626248872715			-52.0806638721365	-8.87483063811626	-6.85025746003702	-77.8801595800318
128875000	-20.8676477427342	-55.154642675092	16.1251358389333	-42.3568069449781			-55.352145024396	-18.8036698494959	-7.24939063995194	-83.8302742759625
129562500	-21.4295653025798	-59.5832631135061	16.7903076012125	-47.2859402960893			-46.0504566796407	-10.2785670468746	-7.61815584104295	-88.9846091182945
130250000	-21.7544696208766	-67.2620891793306	17.447601946481	-52.8250957089605			-50.6486430020975	-22.7282971451121	-8.11060124139145	-94.3028741313974
130937500	-22.5553937794435	-72.447964627007	17.9826894008214	-57.9905505945151			-48.539104560122	-5.11712484032295	-8.52275440177609	-99.391675566711
131625000	-22.975855928494	-79.2391053932806	18.4270015323918	-63.2216897243714			-49.7600868892827	-29.8223863242079	-9.01297520728078	-104.551293182775
132312500	-24.0411113350489	-85.3142952306492	18.8325899080681	-68.1324938980043			-48.1168102732173	-24.0062665878004	-9.40312015168834	-109.653048256301
133000000	-24.4162676099421	-91.0030991473472	19.1749561092822	-73.4199698608513			-45.7031733592213	-44.0803735609598	-9.95716276016824	-114.910544361735
133687500	-25.1716489982903	-96.4456696102459	19.439399775654	-77.7974021465433			-46.6888793077721	-45.3151081867587	-10.3596642142655	-119.530768646972
134375000	-25.8879044361381	-101.156495737374	19.7623283559297	-82.6465900219322			-45.209590218357	-60.0909157362463	-10.8717699467918	-125.011103203784
135062500	-26.6319838795878	-108.451798468143	19.9881816147921	-86.9797634683256			-48.6727548853698	-49.6591926583856	-11.3322395876138	-129.786174357129
135750000	-27.7599403928031	-108.621311264875	20.2244402874477	-91.6796712453205			-45.3172009789823	-47.6540595643587	-11.8443511094224	-134.77410466158
136437500	-28.115615187127	-117.773444913583	20.3976262093679	-95.8782646476366			-46.8396458654786	-55.997716478483	-12.2855202491044	-139.921116898429
137125000	-28.7143107723162	-121.639796206181	20.6055321250501	-99.8746892149097			-42.9295965291269	-63.2299127427607	-12.8004980337003	-144.939471843604
137812500	-29.8433565751151	-129.450268845895	20.741235653293	-104.102285443086			-45.2365575945007	-66.7219226957151	-13.1841806346829	-150.725998552339
138500000	-30.8388048832476	-133.260157601815	20.913398102415	-108.042514516008			-44.0791974374697	-67.8508754587423	-13.6784141984628	-157.182346476701
139187500	-31.4758909882337	-139.978095518257	21.0332124603587	-111.749729200868			-44.7186365181334	-83.9242047862926	-14.1122555651965	-161.967014251312
139875000	-32.9390567077567	-144.336330297917	21.1967929690306	-115.707185485059			-44.9684514874931	-58.0438214609735	-14.539993567882	-167.865025216175
140562500	-33.2425460126659	-149.716048765135	21.2950557108818	-119.346857944526			-45.2515924448946	-92.8810108301675	-14.9174406888601	-174.043979396995
141250000	-35.467909044392	-155.410086657628	21.4350889780363	-122.970520916387			-43.9253756315802	-93.0274121774106	-15.2638217939589	-179.511384101278
141937500	-34.9500767975348	-162.026129588759	21.4771589151124	-126.635668546435			-44.4675630516279	-97.8007837277762	-15.5206692784934	174.165849517457
142625000	-37.6932920169986	-165.673890229968	21.5981166060998	-130.239295417337			-44.6097155036314	-86.0524762816366	-15.9227693069083	167.694122240447
143312500	-35.5188799316443	-168.194403140253	21.6843979092641	-133.615034778189			-45.2484288103584	-96.9289023035095	-16.2170074433842	160.759122211458
144000000	-39.9007351760807	170.765420868678	21.774631165117	-136.940496400883			-45.4603797761697	-96.1045186903671	-16.3293237018577	155.380955019051
144687500	-40.023253333895	177.085404567221	21.8186706718985	-140.344483165046			-43.1228695327128	-102.569480160857	-16.5838980284419	148.072146870687
145375000	-39.5912292047918	167.651865142043	21.9153623998362	-143.902648440511			-45.7641602373089	-98.089655080418	-16.7079758979254	141.226410073235
146062500	-39.7736278295759	172.167063391108	21.9291829056202	-147.093330238958			-43.0816567353034	-119.525099884715	-16.8543635582128	134.910437425658
146750000	-41.6698235230527	150.037229234005	22.0120725460029	-150.490973020448			-44.8626434098704	-111.233007135442	-17.0301339622401	129.132150709029
147437500	-41.7124260972379	171.978896806184	22.0407493227186	-153.713087144483			-41.6375895209488	-124.103705510902	-17.053212960837	123.415408052532
148125000	-39.8059751127449	143.324451922379	22.0611856277821	-157.126696703317			-43.5787554273143	-130.844896951136	-17.0202301007854	117.559429420434
148812500	-41.9083134589728	147.231001650264	22.1092656243552	-159.923874924407			-42.8880323016269	-118.92240159335	-17.069140455676	112.21751137296
149500000	-39.8264008157964	133.55949278963	22.104711652185	-163.040572348171			-44.4757065422935	-130.726329107038	-17.0590002281728	106.757968485689
150187500	-41.3661343869708	141.685914565277	22.1138255474733	-165.935915322483			-42.323969452325	-114.86765949445	-16.978769899625	101.527585334247
150875000	-38.7745326879957	137.703097105261	22.1372148745389	-169.153579576264			-43.3606517816859	-132.765203323738	-16.9700749816577	96.9305719293907
151562500	-39.7073823332071	143.968775312935	22.1394029350072	-171.55518409527			-44.1142313341259	-133.60650857764	-16.7290925509603	92.6580955440271
152250000	-37.0937798827989	140.040885024971	22.1567167547241	-174.620591356317			-42.4910200775992	-138.712486204778	-16.7555953730539	88.1170502387964
152937500	-37.2462621566339	129.866883082949	22.1787949326761	-177.012054011014			-44.0917142120385	-130.787085796937	-16.4723230237502	84.3840332428238
153625000	-35.8690512008268	132.925781281618	22.1642774014585	-179.886217140505			-41.3006932336805	-146.436814136234	-16.3767110553897	80.1215111146954
154312500	-36.7194086989854	136.257566164597	22.1901845127833	177.818864790285			-44.9975529418157	-145.90985992821	-16.2138561762439	76.1858723713575
155000000	-35.6095785065266	136.175957098342	22.193422548722	174.733044532405			-43.1642174570435	-159.404994922249	-16.0842718597243	72.1818731013399
155687500	-35.7097095777161	129.132795267096	22.1544943000258	172.706199912069			-45.2380256391627	-151.368526980587	-16.049021644843	68.5045168436386
156375000	-34.9659830550959	129.018166659513	22.2251897436598	169.815645927191			-43.1005854249159	-159.26717525708	-15.9348035688998	64.4252464078072
157062500	-35.0377320236354	125.193049796894	22.1784419836208	167.883030140782			-45.1406122419178	-158.046917961474	-15.7844427744954	60.9793485750285
157750000	-35.811482353052	137.099204070689	22.2364166663537	165.265324401641			-42.6000104583883	-171.944244424341	-15.6559517383678	57.8376693999077
158437500	-35.0045783014733	129.89386980101	22.2327107348876	162.981934137749			-47.6635491238465	-165.848480839706	-15.462223796017	54.2090305771231
159125000	-35.6760225275254	136.428922138761	22.2937995682608	160.410890728918			-44.4164923414662	-156.860472646403	-15.4297440647506	50.3695642620079
159812500	-34.615556780217	120.895574310819	22.2833714663713	157.967087531644			-44.1111378711925	-170.028528165728	-15.3541649809258	47.1480857731711
160500000	-35.8396826044507	127.847840546369	22.3371886036198	155.368085417808			-42.7926780485637	-168.245212719067	-15.2291322063958	43.9265873983311
161187500	-35.3957076433039	124.119640614598	22.2584150190193	153.415186480371			-42.7082230201019	-177.360455322992	-15.1839982888003	40.7782948616956
161875000	-36.992892036395	129.831186875555	22.3577252201597	150.457655939572			-43.4428670447137	-161.78436144832	-15.1270067118219	37.3436886356961
162562500	-35.7412104347651	124.483579295493	22.3211447405782	148.195239429534			-43.3909258642806	-176.860143166469	-15.1302289235831	34.0463290627228
163250000	-37.6837449991476	130.55807728575	22.3335616520705	145.56703618279			-44.852446261216	-161.963449564128	-15.0854659434502	31.1408732992896
163937500	-36.0771160811611	127.711211630264	22.3202510575671	143.444296441966			-43.9232250372428	163.335053332363	-14.9501323139669	29.0971612544081
164625000	-38.479736583486	120.618295291491	22.3634592628566	140.875035822863			-44.2430752958538	179.715221720642	-14.9991042180503	25.1256480526982
165312500	-35.852616686059	124.338707625187	22.3494193134946	138.716615757625			-43.4006552139258	157.978447342298	-14.9001502680419	23.0441529181326
166000000	-39.1068847095692	125.148028454074	22.3516907608627	136.163588875813			-43.9850969853485	-177.300341461807	-14.8507102495467	19.6628767057133
166687500	-37.0629388860744	126.834837732288	22.3486104473385	134.107819817137			-43.4204779809467	174.485654985953	-14.7057135201316	17.247670785242
167375000	-39.0545246380837	125.455951708208	22.3972477315291	131.778005961173			-46.1396771614545	179.339847488325	-14.7024294594361	13.362368700761
168062500	-38.1020071627813	133.108726880502	22.3483341961322	129.554152963539			-42.3600563493623	155.880101371582	-14.5754387281761	11.021086238053
168750000	-40.6056875946979	121.910564907319	22.3588326871322	127.244763641376			-43.9287049242804	156.524806052559	-14.5687137672192	7.0178547877672
169437500	-39.324668632919	132.239580108075	22.3058817475959	125.018108214957			-42.660836497465	161.768661749725	-14.4847084540581	4.54444357925213
170125000	-41.0099446337995	114.927445117967	22.3414976906671	122.795105348031			-44.0809142008935	151.960105659066	-14.5802584695763	1.26128515427983
170812500	-40.9743129705287	116.808286697535	22.2862113223188	120.695729804313			-41.861410216433	152.726906796697	-14.4116730836912	-1.02164319824428
171500000	-39.2418419368942	103.031212730611	22.2983354582127	118.317609995698			-45.7534469499819	154.572192314127	-14.4472578118249	-4.05076637156306
172187500	-41.5262567645586	104.153392081798	22.2527109016215	116.356975619478			-43.4082583858737	152.384311832794	-14.3808772736065	-7.55024068132337
172875000	-39.1866213637842	75.6388884351742	22.3282684033607	114.160309629545			-43.434357937048	148.960930598637	-14.378485376917	-10.5568196399393
173562500	-41.9854714989457	63.1180573655893	22.2669959902996	112.195967492835			-42.7573580178988	149.724416051763	-14.2425544015205	-13.4217120230952
174250000	-39.7561621716159	54.1721974279963	22.2935359003702	109.932251291407			-43.0638970765467	139.657294604092	-14.2137960458118	-16.6830067202404
174937500	-40.9794557819193	46.3394021410578	22.2933780277041	108.162294734272			-42.9783867282708	152.564152396466	-14.2435181288393	-19.39091870643
175625000	-40.3931661291657	36.5134620530213	22.3265312327984	106.037051348045			-44.0361915582176	130.178856574577	-14.1298587507869	-22.353911903277
176312500	-39.2416557309445	22.2298417731487	22.3213993531247	104.319914117021			-42.4788494376765	151.916775283279	-13.9862910800397	-25.619262859795
177000000	-38.0361810520932	24.2635327117737	22.343457918705	102.421345983802			-42.4225828423761	126.443279775898	-13.9680734823068	-29.0825234341493
177687500	-35.9995899502468	10.7969153417893	22.3250371740655	100.378982408974			-45.2515109864	133.009748237006	-13.8812917283614	-31.6513632523196
178375000	-36.5423682844873	9.36570381787513	22.3679214860414	98.2764758501243			-42.5915587111244	127.42468198769	-13.8789017424942	-35.046800404427
179062500	-35.072799197924	-3.80858268562611	22.3771190507917	96.410982126985			-43.4913275527454	138.428426148219	-13.7024693407628	-38.3550416506317
179750000	-34.9059046259252	-3.81329561432575	22.3946821723789	94.4274977113813			-42.2186532388165	125.461065384168	-13.6076539287184	-41.4593411674738
180437500	-34.0643023046572	-18.5698171698672	22.4360107348231	92.6703512079634			-45.0440265905879	128.701814831764	-13.607892520452	-44.4814182604651
181125000	-34.2278903864965	-18.3605711844593	22.4339976925699	90.3071969159093			-41.9504325676732	127.207725155637	-13.5565708273124	-47.629348247615
181812500	-33.3047885187724	-20.030724160581	22.4513034382663	88.6426092130553			-45.6848038574717	129.145591748104	-13.5459228476976	-50.1059460600006
182500000	-33.7450518728939	-24.4418889974152	22.5211736892852	86.350747774182			-41.7052651747945	127.811977532441	-13.4272725529817	-53.3799889118627
183187500	-32.3650830245746	-25.0306587607324	22.5489059805653	84.4503706799158			-44.0444058639662	108.41279863423	-13.4104863312492	-56.2547143921598
183875000	-33.2158001691354	-27.8948377613692	22.5813104011451	82.1302094952232			-44.1889239889864	122.806491565339	-13.37943165132	-59.0386053240924
184562500	-32.3965254600507	-31.7297880199079	22.5829625991403	80.4030382624003			-43.6061809633978	100.03738120991	-13.3223246200863	-62.3293781594366
185250000	-33.2723647606606	-35.3130931084908	22.6175483758215	77.9913329449105			-43.9114345590849	114.368587890355	-13.2634177357448	-65.3738399710244
185937500	-32.4732052407958	-31.0929416748081	22.6185226621628	75.9797613430552			-42.8876231518106	106.121201151087	-13.2271608988242	-67.7567521638737
186625000	-34.276577839076	-38.0283221690014	22.6475623410096	73.7160996520901			-43.7330122101618	110.624894528822	-13.1779464381825	-70.5204159232851
187312500	-33.6896286689019	-38.238793931772	22.6431162113063	71.8397029722413			-42.5403470861634	98.9680442396812	-13.1181039839679	-73.2452673690249
188000000	-33.6790843788385	-45.8260553840176	22.6369415130114	69.4044450767894			-42.7778690555758	114.955572877638	-13.0860890480081	-76.3016958957727
188687500	-33.1682852915661	-45.0866155156366	22.6299935433651	67.3926931115776			-42.6787158091338	94.8798473279926	-13.0252271038534	-78.4218625454874
