# Hz S DB R 50
100000000	-33.3969400998852	70.8470689833612	-5.35744694559438	-6.31516792832166			-60.0116931206237	26.0077473526892	-3.5494492871831	81.5904535815666
100687500	-32.4384263902118	77.3688387422433	-4.999839099833	-8.43973796995709			-57.5737309905196	90.5752260217593	-3.491047562252	79.0420991686997
101375000	-32.6369541173347	68.4405825185976	-4.50795937665772	-10.74621672643			-62.1829849372331	-16.4915293311367	-3.55414490686856	75.9244796805551
102062500	-32.0816495771402	71.8321358652283	-4.18073339224939	-13.0894229179424			-58.8322069903969	-171.281065881433	-3.56101891470697	73.2325424677887
102750000	-32.0118960861612	67.1583427892997	-3.76754982632073	-15.6908889904871			-61.3696622394476	28.7220313430554	-3.53978182579813	70.3062173363527
103437500	-32.4924205496751	68.9356044622002	-3.48168493775099	-18.2087418592504			-59.8469093874329	58.3928806569959	-3.54074986763572	67.731036142871
104125000	-31.6739947721057	61.2999712261615	-3.08368055070299	-20.8029749564965			-66.8550175701878	71.6966472676819	-3.58204883407826	64.5319478009127
104812500	-32.0218497094478	63.0558304826223	-2.83311920821406	-23.5860501619614			-64.2433862346265	89.6334349233285	-3.63508414439562	61.5675731069084
105500000	-31.8181900243511	58.8606994219088	-2.45315584842633	-26.2712876786193			-62.4546238797376	-7.92196167811326	-3.63201531163698	58.5489904739
106187500	-32.309725510811	64.1264168801584	-2.22291404167663	-29.0528477685177			-60.4001890444976	-121.272518949697	-3.66754738012017	55.632601052853
106875000	-31.2283284254479	59.9872388076069	-1.91759341255628	-31.7692125383478			-56.5644890862639	15.0459544097783	-3.6588556412255	52.5307826936703
107562500	-31.5582857683639	54.9615028456185	-1.75377479942316	-34.8671436297973			-54.0215391709982	-68.8985726014584	-3.69134241466719	49.42953729261
108250000	-30.5180697128691	49.5407672753613	-1.50795234297982	-37.4181904708834			-55.2743797296314	25.2038475502611	-3.7464720611529	46.2875023771565
108937500	-31.2976698270454	48.5335825054796	-1.42037814096597	-40.2806978681026			-56.3064203208004	-71.9714058273555	-3.77968875623099	43.0390756098591
109625000	-30.5480482063117	46.3524013539955	-1.22007720687662	-42.9516955778823			-61.5869081378051	61.2678095563946	-3.78912582382323	40.086657596896
110312500	-30.9264923956727	42.3308463336065	-1.16995988117528	-46.002634592394			-52.3229376169289	-64.4444960433654	-3.85143842422595	36.9747902355121
111000000	-30.342475553643	39.7449191675436	-1.05884185569312	-48.5990355554643			-58.8859702060884	78.7703381129233	-3.92470249923911	33.6238237806358
111687500	-30.7841120962675	33.5989282386694	-1.08046151427434	-51.3915663790018			-58.3102819036916	-25.667538138311	-3.93433634584147	30.082747234012
112375000	-29.8827615385366	35.5598591595077	-1.08185619437345	-53.9529839232967			-62.546843833308	175.468775018639	-3.98641275155133	27.1841133897363
113062500	-30.0145359227903	27.2436174420759	-1.15765976176509	-56.5562045264689			-65.9476747362855	1.5159730981855	-4.01598069218014	23.4670088136353
113750000	-29.4247904810026	26.9178921644666	-1.25247428401326	-58.8876558453218			-65.7594914487295	-178.28392978426	-4.1003479045646	20.1331166542129
114437500	-30.1381489229729	19.5214179230827	-1.45047383877287	-61.0916887359098			-61.6595770444173	-61.7320550483071	-4.09985881376052	16.5465929210212
115125000	-29.8587953711164	20.6500854276958	-1.62662249635601	-62.9456945332213			-63.04287036801	-76.3191214638703	-4.16786274104625	13.0480852561608
115812500	-29.1818499273355	12.8620988460183	-1.9193764233894	-64.4165965657747			-56.8839230014909	-51.8571643151694	-4.20940375561685	9.01333848224491
116500000	-29.4661016527192	10.6695513841971	-2.27435900625305	-65.3784108182208			-63.0593199135918	94.033694429995	-4.26700062520061	5.35083532991973
117187500	-28.6864207634879	2.88667977492524	-2.70517813818377	-65.7778270939007			-62.5755343312009	-17.3047759805466	-4.30987790916351	1.52589663777993
117875000	-28.8130077776878	4.55382370376976	-3.16728259346177	-65.0477242045401			-60.2880301426639	44.0611760364389	-4.37205415135881	-2.45922148072643
118562500	-28.2107321189802	-1.5786316177307	-3.66613979255151	-62.9544062487008			-67.0485536388225	-84.5042388312859	-4.40333987677784	-6.44601872676691
119250000	-28.2155825392387	-8.34765598380288	-4.11356588828987	-59.6102868668076			-60.3753070750281	-80.3664899728557	-4.51230170880718	-11.0931984006177
119937500	-27.5866983070018	-11.8327329440805	-4.45996829751743	-54.0148052656692			-69.040843261521	-18.0876176519776	-4.5384007669157	-15.4477461365599
120625000	-28.0983088619216	-14.5793444345108	-4.56134810449524	-46.9784047395552			-59.9543365976528	-57.5333004730345	-4.63551215560821	-19.9811464211037
121312500	-27.2656956887073	-20.492066068767	-4.21291735702783	-38.3582274627096			-72.7445701273394	1.90305316154305	-4.69862092934558	-24.6232231087528
122000000	-27.4811924758279	-23.8956029914703	-3.38474254030165	-30.7704791686289			-72.7585666129431	72.7161701882328	-4.83755706247909	-29.5651334292444
122687500	-27.0781267362403	-24.4860529851228	-2.21203183775167	-24.4494495153657			-61.1940244348823	6.06748926038083	-4.94577113884232	-34.6242316401054
123375000	-27.1846599471925	-32.8248273308343	-0.773373233315682	-20.76979738281			-59.3266136485314	-64.564215784425	-5.05112002547336	-39.9513440328763
124062500	-26.7832938305513	-33.4588223232864	0.624960458925271	-18.8572872310848			-58.2514674334961	44.3983233826671	-5.27469015521302	-45.283586900114
124750000	-26.8909835281195	-40.645053069625	2.13158370587311	-19.3810578936057			-55.3612308286139	-35.2979170803243	-5.38838831344874	-50.6504998923267
125437500	-26.6005897884819	-39.9472368369999	3.41236621350604	-20.8068628317684			-67.0545371160399	92.350132664881	-5.65359080664607	-56.4476550749127
126125000	-26.6401332786224	-47.6856105146242	4.68379978870028	-23.9661203068831			-69.8570743153369	-164.166226851016	-5.89518327104602	-61.7038678679027
126812500	-26.7492846288004	-48.8209234113743	5.78156957102845	-27.4686136783352			-63.3735629949132	37.1635091013572	-6.19055179323149	-67.441464146981
127500000	-26.4671619452878	-54.5718380832352	6.84996212298961	-31.8209342170747			-56.2855183244723	-60.5149885783983	-6.5234161317707	-72.579934847994
128187500	-26.8403792512102	-56.4790906983908	7.72126402971471	-36.5180931487745			-64.689267620368	45.6009856767474	-6.87336472529024	-78.2931729285769
128875000	-26.6095771567447	-59.4962080253168	8.55666222754325	-41.466641612731			-57.0907586009803	-30.7968953284309	-7.26280691085252	-84.0282433092998
129562500	-26.8610415921252	-62.1184727306374	9.20717269795459	-46.4968432908105			-59.5634649676192	22.8223933824359	-7.70735272910928	-89.6900986193342
130250000	-26.3253801297543	-63.8791777938398	9.90124467103126	-51.7814941599747			-52.9757211103161	-23.7576928327241	-8.15172325110244	-94.8885657093473
130937500	-27.4101256895854	-67.5358960494946	10.3870132196202	-56.9402009952105			-60.5709870710587	-61.7835920404887	-8.54369056078536	-100.306042155288
131625000	-26.5628919523708	-67.950924995333	10.8972237023092	-62.1724783562027			-50.7670522748851	-33.9660857792745	-9.09855124854333	-105.301291472518
132312500	-27.6174844516039	-72.2730539976518	11.2845492115598	-67.0984708738174			-61.3208395254489	-3.61758992441453	-9.55140752880752	-110.503318592553
133000000	-27.5198796117556	-73.0873513508954	11.6844844278051	-72.2130115089062			-55.9790313491316	-10.1142015086826	-10.0847377153157	-115.7105970149
133687500	-27.4390570315722	-77.957699014078	11.9141267022985	-76.9440931103101			-52.6337469006758	-78.4662962102806	-10.562329101433	-120.827945239575
134375000	-27.8328763335265	-75.8357424503972	12.2572484040262	-81.5575062153413			-51.5508683418165	-43.9767645083353	-11.0773787748261	-125.793023827524
135062500	-27.9735390074998	-78.5077448381964	12.4435467847805	-86.0442410707692			-54.7620244092397	-60.5111969790868	-11.5830934725949	-131.10135865734
135750000	-28.3832787982236	-73.2898026584573	12.7225072666961	-90.6130232012853			-52.1669883494194	-66.23189069382	-12.1251458284005	-135.798734580233
136437500	-28.2002438509498	-81.8732288255742	12.8533293942102	-94.8842939523068			-52.3004641357184	-71.8642183845998	-12.6393552928564	-141.172823434987
137125000	-28.54966557406	-76.4017815571095	13.120844272045	-99.0097825939882			-55.1985385154802	-45.0594196026811	-13.1461932040753	-146.236408860252
137812500	-28.5720641335426	-82.6104705756158	13.2405433843778	-103.130891681112			-50.6092240049089	-76.8719499650605	-13.5990942900458	-151.066444830211
138500000	-28.9058448810688	-80.9772990766877	13.4274207250523	-107.061247880597			-49.2798876432927	-41.3891860452846	-13.9919516694424	-157.282086798961
139187500	-28.7567308812272	-82.9140939774428	13.533832190952	-110.969710742379			-50.3463323312625	-97.8410075378458	-14.6334078954403	-162.656147683316
139875000	-29.6593939165826	-82.0465283811433	13.7134116563104	-114.840885824762			-58.7005366291691	-113.655626759773	-14.9769020518599	-168.376081182804
140562500	-29.6157865886277	-80.3473740135007	13.7662402117826	-118.442139780694			-52.6730439105124	-86.1293333168652	-15.5126298774425	-174.042126493709
141250000	-29.5933685594863	-80.8226033365124	13.9513282543615	-122.135572622723			-54.2433116041289	-71.7558614278666	-15.7618966973525	179.753145227168
141937500	-29.2652579890975	-86.0047957627732	13.9801480489317	-125.905434106351			-48.3512641524002	-104.607593339509	-16.1594597926791	173.297360268189
142625000	-29.7545316162369	-83.3441590908072	14.133245584962	-129.428464285705			-51.7251908100037	-95.7328255433786	-16.4536713441684	167.771103522903
143312500	-29.5098542125208	-88.1064432653421	14.1741015331814	-133.004145681337			-51.5170274928932	-68.9984578433253	-16.9833018656944	160.738355693787
144000000	-30.3122383801236	-84.3452509345328	14.2898659448952	-136.313339043953			-50.4267226088043	-108.563359625127	-17.0457032331595	154.682643204383
144687500	-29.6869313120906	-87.0266063914367	14.3040235922337	-140.043996580463			-49.9131967967994	-106.051299386118	-17.3366858041692	148.022455863185
145375000	-30.7413808280084	-88.9183618178065	14.406475893413	-143.350009518185			-48.628631113595	-131.736004648062	-17.2705566628528	142.074452610317
146062500	-29.6843284063897	-88.0687448570068	14.4184590582445	-146.49359417729			-49.150619165637	-104.508196593783	-17.499507418067	134.94941273466
146750000	-30.6896853852408	-87.9777275001972	14.5111077564458	-149.87150381307			-51.1105512224947	-125.995621373114	-17.6307487881356	130.339522094681
147437500	-29.9728287659055	-90.9121574702683	14.5080553082855	-153.140842916232			-52.4186873750512	-126.130023552582	-17.6345758645962	122.619566443375
148125000	-30.5258624254465	-95.5973197287374	14.5581669639127	-156.159940183588			-52.2671416591429	-108.725219106881	-17.5324939637023	118.544340116016
148812500	-30.4286650828943	-92.1740822185693	14.5620707947528	-159.212844414646			-51.7293798661252	-98.386828643683	-17.5309766260427	111.381054943312
149500000	-30.6112509041789	-96.2897127769614	14.6189156246343	-162.118217903212			-53.4966830256777	-115.459435442539	-17.5523732625293	106.124098690411
150187500	-30.5262755055528	-96.1687268069226	14.5844643328956	-165.233224488262			-54.8467177681666	-137.721938796998	-17.3160071608193	100.426351886021
150875000	-30.4331811904428	-98.9470856416589	14.6673847642294	-167.980510613746			-49.6215228685838	-156.773542908273	-17.3699771232068	96.3639369425119
151562500	-30.4478989155727	-99.7369208822035	14.5973112945408	-170.857983236163			-50.9279453599291	-155.234484842512	-17.1450553198348	91.2688787681464
152250000	-30.1488503228249	-107.901524129353	14.6527794154529	-173.791504727184			-49.7742384109462	-146.977724145271	-17.111691598133	86.9605107077259
152937500	-30.9531745079118	-106.707851871888	14.6393001316118	-176.26795450577			-53.4365354154099	-148.780901363551	-16.8658826320272	82.738736463788
153625000	-30.2536887885587	-112.534298030628	14.6773637848578	-179.018298985855			-51.2794260370828	-132.437879315328	-17.0465744950122	78.2009211925834
154312500	-30.9474001114264	-110.193842787714	14.6563403950328	178.533486550294			-50.3234668110477	-168.300221679668	-16.6140986428833	75.0058869942064
155000000	-29.8188336820399	-113.47282175804	14.6793383810169	175.646731288366			-48.2562188335535	-142.341002724732	-16.5995215018745	70.2147843433648
155687500	-30.8648668641453	-115.89361845773	14.6517224055061	173.410384307011			-47.283101197716	179.155922222033	-16.4189471977702	66.4918497457861
156375000	-30.0827016256847	-116.806213612899	14.7387637487631	170.521885839456			-51.7229829348861	-145.121519482098	-16.5009949413004	62.7500616939088
157062500	-31.1530050733968	-119.44268381645	14.6879461034352	168.308606348143			-52.1460111740328	157.275219263395	-16.2907533730912	59.2079653484061
157750000	-29.8151007368104	-121.930113949128	14.7628437946047	165.745070401585			-50.3708864054091	-151.795799503861	-16.2007855442585	55.9144052521197
158437500	-30.7323657912346	-123.616838578734	14.7277436328585	163.343447481842			-51.9426585107935	175.119413830718	-16.0773695211933	53.0485917034853
159125000	-29.5041298458231	-122.631384002134	14.8136445559884	160.802517936035			-48.7423291270754	-163.697915794355	-16.0445763332756	48.932694797049
159812500	-30.6075681123391	-129.687288151182	14.770747039346	158.381382923456			-50.5988179060827	174.417226749389	-15.973453339293	45.9186259063725
160500000	-29.4337465736255	-125.935581153649	14.8355035938315	155.818311603138			-56.4353518183961	-178.215494145462	-15.7533690375407	42.484109524337
161187500	-29.8143290818007	-128.263070295799	14.7709297142365	153.764435560602			-47.4927253752839	-173.732919698753	-15.7539124150259	39.6013852002647
161875000	-29.1630188806168	-125.641955484168	14.8823356773239	151.040199814641			-52.4157206055772	-166.421428875554	-15.6031244024809	36.8439084319641
162562500	-29.5347277595306	-131.51680443555	14.8151224373781	148.472686773697			-48.665972951269	161.751775763959	-15.5812823428671	33.267195049355
163250000	-29.3212633513472	-126.666363821273	14.852027903834	146.14906757663			-48.5357313397573	177.8643455353	-15.4579069028675	30.4163973464777
163937500	-28.8934057034382	-133.023296292653	14.8337470684082	143.904686457564			-48.0918730556719	162.086074148082	-15.5301854635926	27.9766239917223
164625000	-29.4681098038772	-127.322755727205	14.8680034650923	141.474328965313			-54.5904778833078	-171.946066789613	-15.4687628676244	24.3496025834232
165312500	-28.763085254635	-134.986162666519	14.8323231826434	139.04449066094			-48.636335532592	178.60342432399	-15.4748085192452	21.7786016077946
166000000	-29.0463168121199	-129.943815173415	14.8949714618453	136.722952414806			-53.1622582085641	169.086583244676	-15.3093187933482	18.5203525942402
166687500	-27.9474188122095	-133.667451862383	14.8381426595888	134.488725740672			-49.5875149996686	177.2696435324	-15.3184579477173	15.6404979213416
167375000	-28.6473270531935	-132.866632028023	14.8869961099444	132.257817773087			-52.8296408157714	137.030803039069	-15.1772647254893	13.4754668215068
168062500	-27.8687399214152	-132.814138305165	14.8470529793418	129.93916154404			-49.012198867097	161.678271962419	-15.0066693499111	9.97722958446251
168750000	-28.6204147940653	-131.122463617415	14.8830625523718	127.836754359021			-58.9352517010981	159.367864956129	-15.0301034909915	7.01687504154505
169437500	-27.8918158153928	-134.507205163025	14.8039608611064	125.517859138691			-49.9052581543952	177.76762264872	-14.9814481603468	3.3524822913282
170125000	-28.2951509546883	-131.129623472945	14.8847658192571	123.37088364908			-50.7592881024494	141.419405620732	-14.9494066812556	1.54882076705592
170812500	-27.8916338364113	-130.855116094061	14.7930177735768	121.016078631746			-53.1630565729646	155.916996256781	-14.8492350749309	-2.37986320169288
171500000	-28.538490762434	-135.433054647936	14.8440567637753	119.035362610175			-56.2367593812329	133.348505621328	-14.9261177281743	-4.26714846625702
172187500	-27.6386283832574	-131.522778044521	14.7669205298495	116.859951814927			-47.8626416425271	163.79658694416	-14.7928495571774	-8.61530814783328
172875000	-28.6838405346675	-133.906651733243	14.85411337147	115.011419701784			-48.2798842402204	133.998512068917	-14.8563629293134	-10.7753397005661
173562500	-27.6743627915219	-129.254507628898	14.7532269776193	112.866391082357			-51.7453034549435	132.610026185514	-14.6640073591659	-14.4054085332677
174250000	-28.0014107720954	-131.492221777505	14.8433108892058	110.886336190008			-47.52912741011	135.769276619666	-14.7306578372699	-18.2612043126135
174937500	-27.8132606678719	-128.662876502908	14.7878926859501	108.922053749861			-49.0593817388039	136.094475010608	-14.6587038990299	-20.1399208407615
175625000	-27.5952316609704	-131.255525165608	14.8377245266452	106.938066748342			-48.1177250698815	140.801939690323	-14.6333132373051	-23.743739684393
176312500	-27.7308044642358	-128.246660966801	14.7893575398967	105.00892864222			-50.4551161365642	136.790055589633	-14.5274666615361	-27.0545153772216
177000000	-28.0426237866115	-132.662738366739	14.8757646555126	103.063505883231			-46.9718902600972	130.353248936533	-14.5747972823834	-30.3053991239786
177687500	-27.7800913945521	-126.738465120455	14.8159658260826	101.002930344702			-55.5982092012953	156.192916028064	-14.4386113855458	-32.7946635102807
178375000	-27.5198796439145	-132.082526482581	14.8755066223495	99.0788090901841			-50.7048816787128	144.888764522709	-14.4739123101606	-36.0970378745773
179062500	-27.5602880720413	-128.131602900301	14.8643918778019	97.0236255064169			-48.3506710289227	118.890597472544	-14.3499517220356	-38.8054508831993
179750000	-27.4582344437182	-131.404593470199	14.8937439441506	95.1089928062628			-51.7770931569774	129.360435975399	-14.2756821623461	-42.8069116609633
180437500	-27.6862087629081	-128.044051634304	14.9188579596147	93.1729952177769			-49.136457790383	116.343459261283	-14.2547692648956	-45.5091932027293
181125000	-27.2716428687002	-130.111258057695	14.9790992297571	90.9590070375973			-49.6017415511779	143.196417201731	-14.1214540227373	-48.5623510502866
181812500	-27.6746925899593	-130.14012436957	14.9518280927558	89.1109152702744			-50.7238716449777	99.883002604013	-14.1773534276906	-50.8747830242531
182500000	-27.0526033926855	-133.22439967175	15.0620521150303	86.977465126871			-49.0307777931412	131.349051277115	-14.0283792369386	-54.0114833765482
183187500	-27.8360507092135	-131.622817746304	15.0538931565528	84.8986311562275			-51.4129549245482	86.5997662626616	-14.0690484054989	-56.817508930941
183875000	-27.3880848379094	-134.840336849171	15.0935306550024	82.7967401089907			-53.8093344908607	142.008350920212	-13.9215506051877	-59.590116583046
184562500	-27.7121201670349	-133.721847623808	15.0664068663451	80.9731495974468			-49.9132639266015	124.757743306194	-13.95919829283	-62.5108453705451
185250000	-27.4283383608506	-135.867494666029	15.1301157284908	78.6665562197457			-52.5204812230107	165.313704973898	-13.8087081646539	-65.1184905731943
185937500	-28.0666864874463	-136.08451191668	15.0824250208667	76.5572282829027			-51.3606582486744	106.403679599884	-13.8297607485891	-67.9924235207111
186625000	-27.1386352544549	-137.164688748016	15.1299429606361	74.3984009216699			-52.5799226212858	84.8325540309729	-13.7710549000285	-69.7022277681352
187312500	-27.6212519263236	-140.962213400583	15.1139572537142	72.4030968018152			-47.7557220579288	98.0062845106584	-13.6799977268772	-72.9808226374014
188000000	-27.1967775863598	-139.264994295826	15.1320501128842	70.1917141874444			-62.1717326378912	126.326346337704	-13.66756857712	-74.6823245400674
