# Hz S DB R 50
100000000	-28.4450937556802	7.99195363727373	-27.5330114791047	3.90363580451279			-63.1262303291444	10.9317623231813	-3.54299504625092	81.507553450965
100687500	-28.9356563128904	6.11549483985048	-27.292851675801	0.657813188256826			-59.38576109518	-136.047009486308	-3.51182291013829	79.029420983111
101375000	-28.6737637318891	3.76917236259331	-26.7078660769945	-1.34029127054508			-53.967117850798	58.0019598930088	-3.52591643596187	76.1247472298931
102062500	-29.016649154737	3.31641204890827	-26.3622845183	-4.85682383316507			-58.838979170625	-137.585536212204	-3.56916111119265	73.0785212780484
102750000	-28.5669015025381	2.88325353230785	-25.8578005203204	-5.76261967987152			-54.6721721990494	101.563442300127	-3.5901729818726	70.3930992738294
103437500	-29.2415778559473	-1.13845809068049	-25.6645554695355	-8.89316599223789			-58.5076298980401	-84.9317876588618	-3.54678933135075	67.4409087503277
104125000	-29.025849941422	-0.861655888521714	-25.2201103686036	-9.60131457136053			-53.922500183746	70.2890021776402	-3.56998645473502	64.6004967300509
104812500	-29.3031403039862	-3.95239481679865	-24.9304836068571	-13.0208066509595			-62.0229208035934	-98.5093791873243	-3.61903025881572	61.4636951957
105500000	-29.1995730263873	-3.82404529608264	-24.6849211679544	-14.6274333864519			-62.5716031871984	112.945781635651	-3.63860224191791	58.5466102174368
106187500	-29.9829712260674	-6.75760790293295	-24.3365905466471	-19.5468126480638			-58.0666036836243	9.06504513977644	-3.65140731117037	55.4483297041299
106875000	-29.6768306078472	-7.33816769678137	-24.2295174339989	-21.1967540709555			-60.3544042404713	64.3446033826219	-3.70614813812823	52.7288825238284
107562500	-29.2962741524768	-10.5041224770313	-23.8484776099616	-25.001979131645			-53.1308198867166	-76.9013841478372	-3.69371914040364	49.2681516557075
108250000	-28.9078867488257	-9.63164948653834	-23.8930636493426	-26.5590246056762			-55.1253707542882	-149.389229327137	-3.75909208822767	46.6921385919557
108937500	-29.0278502681766	-13.6655122322943	-23.4422443729874	-28.6334642167352			-68.6797123164668	6.50421769432084	-3.75065511308061	43.323581181761
109625000	-29.2988186654971	-12.4949701785882	-23.5220346201548	-32.5468630337053			-57.9175984231617	-174.327772598597	-3.82565617676272	40.3036333171826
110312500	-29.132894251875	-15.9721148974679	-23.4324552736489	-35.1948186649968			-62.0557099887454	-115.383311971093	-3.83870414839536	36.807326677984
111000000	-29.4958529765701	-19.4850894122141	-23.3568101802157	-37.7314503890752			-58.6531683191018	177.112831632627	-3.95007520130251	33.7783650632415
111687500	-29.2557791440418	-22.100468633083	-23.1920084120262	-40.6486167384053			-66.253183484437	-39.8191365431571	-3.92386906455957	30.2029848715003
112375000	-29.5051157529039	-19.4307352278633	-23.378995325816	-42.746092748167			-58.0592989760531	170.186455487016	-4.05995156305601	26.9708819984115
113062500	-29.3435365430788	-23.2396150875539	-23.3431861151845	-44.9813250815831			-59.022397675351	19.6123197330286	-3.99924613075152	23.680509127475
113750000	-29.4523334223044	-22.6409468947058	-23.5453368936205	-48.1495325402461			-59.2965310714153	-87.6299870092183	-4.10685282454911	20.2975671201146
114437500	-29.2487344522921	-27.0166912881487	-23.6889913647444	-50.1560387522118			-66.5482809774244	-14.8607725387225	-4.09330408219502	16.6264426088913
115125000	-29.6179629535558	-29.6392398449098	-23.9620655442581	-52.1619975891165			-63.3535461405657	54.2951307698863	-4.19039293617028	12.7939319003279
115812500	-28.8496349096857	-28.2291988985872	-24.1078667487407	-52.9351039851669			-61.3823050150175	57.6859304257862	-4.21957383413486	9.01616418506591
116500000	-29.3194701204379	-34.0736047203259	-24.4128205673054	-54.5289612947101			-55.7758951220003	-95.1934616936061	-4.28580655857978	5.15830925237454
117187500	-28.8309768773105	-31.3644090688159	-24.9330854200746	-53.8123480043535			-59.957523287269	-22.5337031090105	-4.28350329613941	1.48781096257761
117875000	-29.0840594162727	-34.9944233578832	-25.4062135753933	-52.9128220020384			-66.019057352312	-73.852726213827	-4.36430763000512	-2.56058230840144
118562500	-28.789207799941	-34.2499043002061	-25.8818740709279	-50.1160682320439			-60.8562155294756	126.628133688051	-4.3912851991798	-6.59744185163424
119250000	-28.9394621355505	-40.3246296288782	-26.2426849583982	-48.9533977290329			-58.6759324931137	-95.6778576457823	-4.51798328619112	-11.0604227713518
119937500	-28.7836502693031	-39.1289801763592	-26.577387688943	-41.9098674149612			-57.2455478475598	79.6689172116135	-4.56101374861647	-15.5459180496475
120625000	-28.9113616401386	-41.7124976289403	-26.6707079477101	-36.1653594287272			-63.9862447638405	-48.639010010539	-4.62792001040348	-20.0732621380652
121312500	-28.6577899357726	-44.2111405789921	-26.5883949140472	-26.4608749401866			-68.2476357092103	152.708745087028	-4.70791147456209	-24.7648685669205
122000000	-28.6613968875116	-45.3845695723747	-25.6289983951668	-20.1347301422326			-64.3364351717444	-34.2079604694398	-4.77547277484304	-29.6751086803789
122687500	-28.8174566487545	-44.5843019941889	-24.474090650484	-12.0596697561989			-69.5176981391066	-126.114900785704	-4.95178278116105	-34.4587239180686
123375000	-28.2082773878552	-46.5303079484668	-23.0179251003382	-8.24978964729891			-60.1196109283954	-8.69605337470425	-5.05558318487732	-39.8096578997624
124062500	-28.4443746856765	-46.4138187750148	-21.563998562274	-6.09195433765689			-57.0514902003144	-164.751288234512	-5.25201167447119	-45.1163144419977
124750000	-28.2879969391808	-50.7015353649973	-20.0549211234525	-7.59607602905374			-54.8688063876459	-23.3860406818346	-5.42166186646589	-50.5516158877785
125437500	-27.9946643879768	-49.8331051361077	-18.8262558991753	-8.19281210217993			-58.7515283373574	160.237724734113	-5.66253638822764	-56.4832862223712
126125000	-28.032217775363	-54.1514982545339	-17.4847944715103	-10.2941731156736			-62.271636191108	-147.827747322833	-5.93077461734149	-61.7891314491445
126812500	-28.1959993672511	-53.9474488127974	-16.4980927873757	-14.3050620063364			-58.8922204476616	-112.351772800521	-6.19241323153312	-67.5964657243364
127500000	-27.6527973181205	-54.8848008162325	-15.3753732309922	-18.6881914789686			-52.4515434389743	-56.8448897478146	-6.52838041279479	-72.7158234778782
128187500	-28.2366858232635	-55.9294974022398	-14.5996906321394	-23.3068070870194			-60.8894012916413	-149.292130928592	-6.87285379876742	-78.8630298752285
128875000	-27.2030095146881	-56.6894424949627	-13.6522833881924	-28.2572593320388			-63.9342020658581	-41.5068539694678	-7.30716106235	-84.164393222391
129562500	-27.6279220848723	-59.616399505857	-13.0691902947478	-33.3904414100967			-59.0946350395271	-95.7705098124038	-7.64506417080457	-90.0187297402848
130250000	-27.4466249051143	-58.7464519647186	-12.3050036819333	-38.0348068030743			-67.9436457701795	-132.43591125908	-8.23569925255971	-95.2095749356321
130937500	-27.5976666194169	-61.6188161290123	-11.8497804815066	-43.5478741552139			-74.1753028974266	17.8180969189246	-8.55972261261102	-100.432033250287
131625000	-27.0833603068113	-59.580163214178	-11.3255391603555	-48.1928267140314			-62.6048696695089	81.1157733576863	-9.16110594332139	-105.697593037373
132312500	-27.3724990991046	-63.4093223921495	-10.895751714062	-53.5576257566612			-52.2468924627935	-91.8990082120962	-9.55677007461809	-111.215644333587
133000000	-27.4067998913043	-63.4767819797014	-10.5548088950183	-58.4172640384754			-72.4955253631208	-55.6082709299931	-10.205759563589	-116.25081461506
133687500	-26.7800713132435	-67.1739535585017	-10.2221057783887	-63.2011712956149			-58.2716359296935	-122.53361201799	-10.6271199117781	-121.304816419686
134375000	-27.194390976252	-63.4714792804214	-9.94876990415341	-67.176094625786			-54.9060183633048	61.6651364047908	-11.1991321394671	-126.681040230004
135062500	-26.6735194878139	-67.1318111135315	-9.69622582259113	-72.1677237869974			-67.1933429602678	139.888287882942	-11.7130229762215	-131.356980611794
135750000	-26.8965616838232	-63.2647484980653	-9.47945000670582	-76.2329020663668			-55.8627478510457	156.701469494574	-12.2716801139037	-136.520356614806
136437500	-26.4404366894433	-68.1170502763774	-9.21009796002049	-80.6938585763824			-59.9471038202143	-48.5576459326873	-12.7915686828629	-141.429342602611
137125000	-26.9390522512068	-67.0020645785537	-9.07474900231518	-84.7437417806938			-62.2677597876614	132.57253823331	-13.3433778419987	-146.479943961359
137812500	-26.9383023035769	-69.6236557970942	-8.89604872791885	-88.9260446420341			-64.1462003873884	-23.5913090043213	-13.8019181529504	-151.653580689167
138500000	-26.6391417046523	-71.8070528337261	-8.71466320457829	-92.7823174819515			-58.638683088329	159.190132687483	-14.2324466047987	-158.083903158927
139187500	-26.4495463308785	-71.9920746390926	-8.56183686846748	-96.5592465800927			-63.2001678879793	-91.1400080128603	-14.8612875868702	-163.209599070477
139875000	-26.8354016871957	-71.1444095894536	-8.4590586946405	-100.299679468924			-57.0301450379912	151.839932389559	-15.2069761775159	-167.884504161826
140562500	-26.6019301175911	-75.2447095171873	-8.32335180934742	-104.041111235385			-59.6346805233812	-21.557196864556	-15.7840714408722	-174.76314883409
141250000	-26.9547512772254	-73.755321059047	-8.18424858466901	-107.690193529033			-58.0387906266166	-174.165665672001	-16.0446670021887	-179.991236060739
141937500	-26.7632292119111	-73.8636734872687	-8.17355317878842	-111.002614569421			-57.6628155827889	-41.0430740724777	-16.5512078055889	172.640141367949
142625000	-26.9416562169373	-74.3632110252433	-8.00487959954128	-114.748818413047			-54.4387131976839	-108.099901469953	-16.8705582150284	167.693267795169
143312500	-26.7314965751416	-77.3761355452096	-7.94578490729361	-118.102180132428			-61.3977424797448	-54.9736663492664	-17.1928251259433	160.360184267311
144000000	-26.6223138488407	-77.4021020458419	-7.84076464543304	-121.184391405908			-53.7806936578918	-153.674995148413	-17.3900096773398	155.009777430314
144687500	-26.4965919519265	-78.7986292490705	-7.80744589855528	-125.02501059561			-56.2740051993588	17.0705092002471	-17.5727248202355	147.249169970182
145375000	-27.1281265005474	-82.5608897005726	-7.7104288033678	-128.04834492138			-64.5153781183647	-122.520934906288	-17.6918006520904	141.231356334883
146062500	-26.6310233872857	-81.0657135558094	-7.70110182976657	-131.520411847124			-60.205656446924	94.1932671225614	-17.8242308268491	134.24169599506
146750000	-26.9793007519211	-82.9452696583673	-7.64828976574149	-134.740461482459			-58.3268635850684	-132.917571009226	-18.0858641229127	129.161972585706
147437500	-26.7648483926183	-81.0256286970262	-7.66385472681133	-137.741261771658			-57.5808165685421	89.6495069355152	-17.8593801086787	121.590838870688
148125000	-27.0892148650782	-87.0307137357598	-7.56137010100422	-140.802062752835			-58.2779694130256	-96.0599373519031	-17.9529918351751	117.482566696361
148812500	-27.2628866705522	-87.5578732830499	-7.54601797698145	-143.92805789442			-60.5343786529962	103.191942438419	-17.7447152516236	110.97428491358
149500000	-27.043271154498	-90.4209922808169	-7.47747667910882	-146.66889764973			-62.1296052462875	-79.822670443087	-18.0080302723329	104.872957632092
150187500	-27.2199173278521	-90.4739243306531	-7.52734379478521	-150.005481251024			-63.66589078443	145.543500690842	-17.6317144054253	99.6917406252614
150875000	-27.3362584007785	-91.1775335126783	-7.44687823248243	-152.383270025425			-54.2283585859136	-52.394621125552	-17.778555574745	94.3431836365049
151562500	-27.3040749572158	-91.4714852244027	-7.48107670465058	-155.498161876515			-66.0326173228735	-124.781233042281	-17.4500977498918	90.4923626340032
152250000	-27.4475985465619	-95.9712148220144	-7.43310337018829	-157.682483232924			-66.3086213183904	5.02711230015003	-17.4654488736778	85.6721723899156
152937500	-27.9913612007071	-96.3651805272956	-7.44090978251938	-160.743497298835			-54.793829073843	-166.564290846525	-17.2198323041949	81.9239353198847
153625000	-27.2605445105045	-99.271710531395	-7.43400435967285	-163.190273244464			-58.0225602822191	-52.3734777021605	-17.2150611584234	76.8817891441659
154312500	-27.6140439431367	-101.19206921383	-7.43567447058961	-165.768099692314			-54.0309834857914	168.687066345365	-16.9153136553105	73.6688538400172
155000000	-27.3472625370441	-101.509200823991	-7.43426925375274	-168.362918690597			-65.2684651125777	-24.2671433885919	-16.9385464686958	68.8064282854769
155687500	-27.4402559881452	-104.795344763932	-7.38629388939049	-170.785973658208			-60.5101147718482	-157.520799729705	-16.8744016469197	65.4256023089908
156375000	-27.4202351316657	-105.736579489435	-7.35114883905575	-173.417357633036			-61.0122887387381	-6.13770043111614	-16.6516280611967	61.2735248676983
157062500	-28.0043779799394	-108.22905354769	-7.35023129301993	-175.672208358465			-62.6107834828184	170.320205870949	-16.6317543020442	58.2932681583986
157750000	-27.0147985827011	-108.492450443412	-7.31537478036548	-177.967394610553			-71.0423745184428	-3.43272040702386	-16.4804189061578	54.6003734645097
158437500	-27.3556205244116	-113.551877085615	-7.30282379421994	179.470272189008			-66.8613962766436	-106.574536090326	-16.4594661780372	50.7305981948542
159125000	-26.8829898353137	-112.157263477709	-7.29694317703791	177.395566895625			-59.5759709132077	48.8495879165445	-16.1525098732998	48.4371648238295
159812500	-27.2425414323127	-116.465944055293	-7.27046887756065	174.708153424626			-57.9056657360069	-112.169465999726	-16.3138109386976	44.4536361579979
160500000	-27.2135309285492	-116.271588300121	-7.26248369057799	172.360892842357			-59.524993183275	44.8696258894159	-15.989217985659	42.1359486743809
161187500	-26.6673683345934	-117.919992630164	-7.28021530432547	170.183226924986			-68.7361251514183	81.5412531068162	-16.0892999534019	38.0895294371338
161875000	-26.7192596638758	-117.028455446443	-7.19683728149223	167.775071254778			-67.1052923908033	-105.02869275196	-15.9630228536003	35.8844183942642
162562500	-26.333462676894	-120.364067222523	-7.21182665638937	165.334761498624			-62.9178823164869	-60.3160848745825	-15.9895013519182	31.4734765894849
163250000	-26.3937563229826	-120.697799334969	-7.18297602120877	162.8605565689			-57.5404130035365	40.6527782382607	-15.7941634092587	29.9466972942812
163937500	-26.2927928515718	-122.562809662279	-7.20004455877033	160.651530187008			-66.8651035375238	-102.802628284327	-15.8184660007262	26.2601606361491
164625000	-26.3261145107151	-119.250534641834	-7.20989674798483	158.197957557058			-58.2279528762242	144.344131614638	-15.7281574238554	24.0001947507692
165312500	-26.1370717945342	-124.787219256767	-7.19454111488243	156.244396499215			-58.2586374834447	-47.105565077066	-15.7056050761598	20.5861336388778
166000000	-25.9367138623692	-122.938415105983	-7.15037117754359	153.76264397581			-61.2993378167161	80.6964813856463	-15.6339096442514	18.1370992474726
166687500	-25.730849365377	-125.100668416226	-7.20379487720101	151.542721400057			-52.6278901250993	-58.5687790948341	-15.4777841809829	14.6107831932558
167375000	-25.6630133584959	-125.287108394615	-7.16007949469325	149.642660485198			-59.761516264251	92.9250149173775	-15.4987804835641	13.1131864244601
168062500	-25.190464099078	-125.016560687742	-7.16709120446922	147.303088640217			-61.5934810655396	-99.7093754469135	-15.2867639952782	9.17565399811099
168750000	-25.6262635157479	-125.21762499054	-7.13249820033176	145.197242804804			-62.574030591363	122.514466173601	-15.4241245161755	5.79389333370311
169437500	-25.1078876139496	-126.001268853995	-7.24399414901397	142.978258632176			-62.4870365685849	-20.1191893493236	-15.1867328187027	2.15930919652332
170125000	-25.2274758840932	-126.699172932789	-7.14993466418775	140.889910632012			-70.8211067343815	-39.7299949993815	-15.3551408308174	-0.122460474515331
170812500	-25.1080261638708	-124.912854281347	-7.23452365316441	138.62836763991			-55.6346030223746	-82.5889452650684	-15.1320238040958	-2.79648905228117
171500000	-25.2858632650033	-129.876937254115	-7.13842941234621	136.836928064353			-56.1620054076016	151.666843554391	-15.2334571563436	-5.13899587901545
172187500	-24.9267122366651	-126.350214849122	-7.25398629083575	134.51345343023			-53.1584060249608	94.3424871630246	-15.06648578277	-8.90059564631646
172875000	-25.0438032107586	-129.831434235676	-7.16206437539597	132.899451519294			-60.17246837559	-157.286574263207	-15.1129908127957	-12.2221163012122
173562500	-24.8072142528469	-126.078716196005	-7.2367179417396	130.360817762663			-76.5691674663907	25.9694163685765	-14.9866239003721	-15.1911962145531
174250000	-24.7071815334739	-128.714447573447	-7.16641393227797	128.658144883603			-66.9997622486386	-129.925071569477	-14.991899279832	-19.0713449577413
174937500	-24.8123549859413	-126.983824056041	-7.17618807191693	126.709409500977			-55.3366376090499	34.6735259537357	-14.9828925070061	-21.2044913032905
175625000	-24.5067572396816	-129.608915978671	-7.19739635865957	125.24594127181			-57.839106120321	174.484501450549	-14.9677639365557	-24.948267721919
176312500	-24.683783461437	-127.046619237313	-7.16272391947447	122.913703702394			-54.5278792102618	62.5456446860067	-14.845541979682	-26.8565678599071
177000000	-24.6589829758147	-129.348255185574	-7.13556194944119	121.467218771606			-64.2517756445376	-127.982643478582	-14.9104341655792	-31.1730545774807
177687500	-24.734976580505	-129.161987342704	-7.13774777577291	119.128140410108			-75.2749413013441	121.239187158146	-14.8965369227081	-33.4093126078302
178375000	-24.5208393548741	-130.326699606881	-7.12508692354694	117.557799627106			-60.326512037709	-154.484813448753	-14.7827330976659	-37.3516186894301
179062500	-24.5910276931977	-129.922701765554	-7.07359742278261	115.193295079515			-55.2389446944123	116.810643827566	-14.7626252379133	-39.6517390523108
179750000	-24.3580771878124	-130.866639477404	-7.10068310039083	113.793966814761			-55.4762097143413	-105.122958985859	-14.566334096827	-43.2401149070258
180437500	-24.6940583434812	-131.185804813909	-6.98699528147036	111.517979686293			-59.6407981645694	122.324728498794	-14.6257288936669	-45.8195825202058
181125000	-24.4411355127618	-132.918798528964	-6.98474357042926	109.81398568068			-63.4917035015013	126.894757558803	-14.475191289136	-48.6726289291065
181812500	-24.8095853479528	-132.703295614426	-6.99124756979469	107.574686608832			-55.7443934451646	148.398975148222	-14.4823271457845	-52.1706055308228
182500000	-24.4459671750587	-134.428896970275	-6.92436236042079	106.0787841901			-64.845038181291	-40.7927446100461	-14.3957461599774	-54.0481150432812
183187500	-24.7752103253527	-134.530330608938	-6.90137372365686	103.660856067074			-57.1824211676833	143.38166096457	-14.4619168953736	-57.4813862228216
183875000	-24.7430938891758	-135.988138058899	-6.89346345292074	101.76816797517			-57.150311294244	20.1010284479848	-14.3485888431999	-59.3186652907614
184562500	-24.7880971065252	-137.29886119541	-6.87016463026334	99.8010776384082			-61.2915779484253	-78.8399571032829	-14.3213279824784	-62.8738979245975
185250000	-24.7209879573347	-138.132584264295	-6.84088301495923	97.453111080479			-60.0203615280297	75.8127319512266	-14.1635463965285	-65.2529344830206
185937500	-24.917852285641	-139.906877775629	-6.82359853828446	95.5867608074716			-56.3973714035968	-170.009010911752	-14.1607500549746	-68.7523189112244
186625000	-24.8426500399858	-139.956402185859	-6.84279110064746	93.3802421948433			-64.183905314615	-20.9546794925356	-14.1512259092027	-70.2369511586965
187312500	-24.584105676961	-143.345812265366	-6.81472880249383	91.4966549795368			-61.5693241921081	-161.691955674352	-14.0062253226798	-73.1212290706959
188000000	-24.9172304210179	-141.185890329779	-6.81049018797154	89.3732803072561			-65.0019672934477	16.680304629779	-14.0169026150169	-75.0433362307686
