# Hz S RI R 50
100000000	3.52813898763862E-02	3.86844835141315E-03	8.20281887823968E-02	3.37852892808001E-03			-4.54281420177601E-04	5.28426154504916E-04	9.87547338485761E-02	0.655931969302735
100687500	3.30822733899748E-02	3.01413784827598E-03	8.76032370687167E-02	-2.59116760092378E-04			9.80167782765737E-04	-4.89721522788322E-04	0.129091604189496	0.653798425751172
101375000	0.034051202525672	1.88075841819009E-03	9.14075983698412E-02	-2.78149603361889E-03			1.07879178866826E-03	2.77568615412188E-04	0.161713024881982	0.643495081175841
102062500	3.33545899047711E-02	3.3256722601622E-03	9.59759734192805E-02	-7.41600213577809E-03			9.21829723687388E-04	-1.12500734190998E-03	0.193353671483054	0.63576978495823
102750000	3.34796904376096E-02	1.74399571729802E-03	9.99549924959012E-02	-1.17857378971957E-02			-1.15721616124795E-03	9.28869953126647E-05	0.222125281540297	0.622657234735779
103437500	3.31270291069016E-02	-7.6752380047309E-05	0.103513145760466	-1.66823026854771E-02			5.76167500718455E-04	-3.04969565984486E-06	0.251547374529958	0.613487454863152
104125000	3.33313246815859E-02	4.80433392903714E-04	0.10468271546841	-2.12081178662929E-02			-3.26943743371961E-04	-4.47751275540655E-04	0.279221814097176	0.593927846311527
104812500	0.033908329579178	-1.08042217551378E-03	0.109820904571095	-2.76299996889411E-02			-1.26543380730214E-05	2.56182178170419E-04	0.311646125620772	0.582068955998677
105500000	3.11632347532648E-02	-1.77389028247184E-03	0.111969587793896	-3.22128520474679E-02			-5.8302715623688E-04	8.38580918528935E-06	0.3391857674839	0.562757982201056
106187500	3.07176920223285E-02	-3.72479763808696E-03	0.114344416419617	-3.99628083337507E-02			5.21365644929683E-04	7.01673964845771E-04	0.366753969354947	0.54690131313321
106875000	2.92561426843189E-02	-4.02869085533268E-03	0.115205604965689	-4.52852217470311E-02			-6.21647519119364E-04	5.99473334603073E-04	0.392344666306032	0.52204454698795
107562500	3.08499685313362E-02	-4.55859253271253E-03	0.116767967778557	-0.050818847752522			1.82112152853388E-03	4.165602949203E-05	0.421854652865898	0.502747552956568
108250000	3.05242084240324E-02	-6.6219457343945E-03	0.11577917342558	-0.058134156588557			-3.21336007545944E-04	1.14993258044337E-04	0.441999233177519	0.475790460354556
108937500	3.06088107586209E-02	-6.54321790862992E-03	0.116746428927508	-6.30089829211027E-02			4.52478048221769E-04	4.13627169695007E-04	0.469446799231074	0.454079229054025
109625000	2.89788525598667E-02	-7.41060331009761E-03	0.115119097501129	-0.071145061757796			-6.31295799163975E-04	-8.4143991567322E-04	0.487548305451033	0.420860542403896
110312500	2.95881696383856E-02	-8.03888206761475E-03	0.112889022094959	-7.61043279483449E-02			1.34931335127062E-04	8.98872049447264E-04	0.511105580682439	0.395102646033401
111000000	2.78853936183828E-02	-9.14743255591667E-03	0.110353420762417	-8.43250895840988E-02			-5.19688401790717E-04	-6.99912908751471E-04	0.523931186810692	0.358903593937124
111687500	2.90134015949377E-02	-1.05877655056804E-02	0.107393758807916	-8.67208100784428E-02			-1.06162677153613E-04	1.46257490904749E-03	0.544999547178462	0.329951900632775
112375000	2.83806829647207E-02	-8.88064367293527E-03	0.103441736665375	-9.28541556569257E-02			1.6734006135717E-04	-9.8674448624783E-04	0.556497528391376	0.295667731828107
113062500	2.77662999605294E-02	-1.16871559044013E-02	9.96405536925687E-02	-9.46933838756275E-02			-2.46885187285253E-04	1.59739165253081E-03	0.57371581952402	0.264573057635759
113750000	2.84469356726774E-02	-1.23396167821217E-02	0.094453618628968	-9.87554839067038E-02			4.34977966046499E-04	-1.15090716600393E-03	0.580095831109827	0.226147989050478
114437500	2.61287931930072E-02	-1.44334112532566E-02	8.96642464444305E-02	-0.100027197602401			6.45221662556474E-04	-3.05277636484197E-04	0.593171459015172	0.191735618147561
115125000	0.026127045712747	-1.48551544370569E-02	8.57852741487958E-02	-0.101691663505584			7.7033856324011E-04	-5.64829650856525E-04	0.597564478414392	0.15033948491187
115812500	2.69946815572981E-02	-1.50432883642142E-02	7.95163613562609E-02	-9.94915842531829E-02			-6.45719432796953E-04	-3.91441536873378E-04	0.604467828219994	0.111972879269798
116500000	2.73805607330534E-02	-1.71930612019641E-02	7.77962668571323E-02	-9.73500224838209E-02			2.02639184512918E-04	-1.74652687222778E-04	0.605839370635941	6.94499958681357E-02
117187500	2.58425531955505E-02	-1.72533176616759E-02	7.35156470266344E-02	-9.36101327629189E-02			-7.103124197337E-04	3.13618429922902E-04	0.605310073126199	3.15266571733792E-02
117875000	2.51886768693135E-02	-1.80472186517158E-02	0.070767646872196	-8.83676011338062E-02			6.87983617024439E-04	5.93121574585181E-05	0.601625626456042	-1.00159803864616E-02
118562500	2.61773572882548E-02	-1.90820760061782E-02	7.14216855996261E-02	-8.03733266149736E-02			9.349307285242E-05	-9.49225229375112E-04	0.595562739923633	-4.99277865067477E-02
119250000	2.59874610750255E-02	-2.05067334203475E-02	7.27065884773326E-02	-0.074987707409102			-2.20762726470806E-04	3.67082207157713E-04	0.580611734839324	-9.26693241267522E-02
119937500	2.47730831686172E-02	-2.19826230513324E-02	7.59748841528826E-02	-6.61030329821496E-02			-7.24996962272506E-04	-9.70121136228242E-04	0.567839289027056	-0.139256128854345
120625000	0.024798752175421	-2.12017737318008E-02	8.38031161004868E-02	-5.61296030669112E-02			9.45927162215704E-04	6.0457797937271E-04	0.551656633051251	-0.179402588334915
121312500	2.40823084554115E-02	-2.38908365540898E-02	9.42019764410188E-02	-4.61632902546789E-02			-1.98676921522595E-04	-1.31689626268258E-03	0.528489134983053	-0.220759371725209
122000000	2.33706320840704E-02	-2.23021002189624E-02	0.108713894442853	-3.60496156885532E-02			5.76227742998625E-04	-6.28631398241586E-04	0.500517139521018	-0.260636881900617
122687500	2.22962589488886E-02	-2.37250783303979E-02	0.126186136768962	-2.83775046365918E-02			-3.47270606619557E-04	-1.60163786996993E-04	0.468269574683195	-0.29867946753239
123375000	2.35489732855973E-02	-2.57322062822431E-02	0.151006080855615	-2.15190687497814E-02			1.60955245407757E-04	1.35562719017628E-03	0.432337399208473	-0.330899757225929
124062500	2.40985153664964E-02	-2.63962589196964E-02	0.17852894233157	-2.21887105322072E-02			-4.9856287983654E-04	-9.01358923175922E-04	0.392199826974049	-0.360473243463484
124750000	2.29387696477282E-02	-2.55152658233114E-02	0.210969633037178	-2.48141008921649E-02			7.42752396103381E-04	-1.77382850449178E-04	0.347498944869027	-0.384368329099499
125437500	2.28474337980739E-02	-2.80886039407342E-02	0.245762932056499	-3.66469693118851E-02			-1.44695407653215E-03	-1.49825635818798E-05	0.300550687564194	-0.405572116396899
126125000	2.14504220008579E-02	-2.73547993858081E-02	0.282991759819811	-5.40405399014271E-02			-8.83491965402014E-05	2.26387150291385E-04	0.253300933683073	-0.412902058922863
126812500	2.26355786450946E-02	-2.92136274491497E-02	0.316811239831135	-8.49703525689272E-02			2.32311826001729E-04	-5.8332439019822E-04	0.204623247570582	-0.42221608804964
127500000	2.14408521750921E-02	-3.00498878134897E-02	0.351201304282104	-0.121520253356849			5.64615536632326E-05	-1.55844781401731E-04	0.157080863467552	-0.417897951287469
128187500	2.15205084454033E-02	-3.02565468839927E-02	0.379010937749275	-0.166251500878755			7.21545932733295E-04	-2.13475654125533E-04	0.113053331248701	-0.416185521112341
128875000	2.13174784711052E-02	-2.94980176974012E-02	0.399029640524255	-0.217158340520201			-8.0878360783488E-04	1.88630161307524E-03	6.86479752370972E-02	-0.39677553453688
129562500	2.09311471943777E-02	-3.09189208301612E-02	0.410685640937094	-0.273953869469536			1.46443171269922E-03	-1.44938858816333E-03	3.05230965842043E-02	-0.385949029652026
130250000	2.11401171258265E-02	-3.19546550174904E-02	0.414305512380934	-0.336702822714225			2.89803231218861E-05	2.89927505973498E-04	-3.9312909323762E-03	-0.357598496169439
130937500	1.99982476610199E-02	-3.25211175127796E-02	0.405766777625173	-0.398570382392702			5.85212254565482E-04	-1.82220530380713E-04	-3.12652603403553E-02	-0.340677280761714
131625000	1.88435604403936E-02	-0.032873766380383	0.388101128810651	-0.45720247500594			-5.05562061805802E-04	4.07497296929104E-04	-5.54469040776694E-02	-0.312196639831985
132312500	1.88424058657665E-02	-3.26755832644033E-02	0.364956119450186	-0.519071837707297			5.16442457222924E-04	-3.77280413515808E-04	-7.33946891649055E-02	-0.291202082406792
133000000	1.74689103982881E-02	-3.19133002951892E-02	0.326917480233817	-0.569150416538473			-1.83173721026695E-04	3.39971151898566E-04	-9.20461274238798E-02	-0.261118322291765
133687500	1.86532894219622E-02	-3.41973282369916E-02	0.290366404358359	-0.616218582047564			1.12180664901224E-03	-3.4649912369978E-04	-0.103305659768615	-0.240482596044103
134375000	1.62955491546953E-02	-3.33554811124942E-02	0.243333238477456	-0.663070708444093			1.11601929853752E-04	-4.31080829684787E-05	-0.115946861441593	-0.211882527472788
135062500	1.75125246782545E-02	-3.39211514724514E-02	0.1987600731533	-0.697465354672048			5.61729215724626E-04	-3.60020540227161E-04	-0.12124458422847	-0.1913418919097
135750000	1.81438947359236E-02	-3.42877966625073E-02	0.14266364889496	-0.730972120503396			-1.20778453064686E-03	2.60055023954016E-04	-0.126205910448928	-0.169085416287904
136437500	1.58694156941303E-02	-3.60116190495498E-02	0.088932726699277	-0.757439520712901			2.37678299807898E-05	7.14102819258456E-04	-0.129413223525457	-0.148091750163459
137125000	1.55891748015534E-02	-3.58974310606446E-02	3.31026576985064E-02	-0.781354175234301			-1.90306755424283E-03	-1.73328703646565E-03	-0.130765349648094	-0.128822452365518
137812500	1.44678632098988E-02	-3.54844697419973E-02	-2.29489061337718E-02	-0.793426828115917			5.61038500093353E-04	7.86703606863163E-04	-0.1302912080617	-0.112539736633731
138500000	1.30132308054959E-02	-3.67089818794044E-02	-8.06370522953841E-02	-0.805018866376485			-6.10582095469272E-04	-1.08860585684419E-03	-0.133020858128404	-9.28343092333071E-02
139187500	1.39882808196768E-02	-3.75638683061745E-02	-0.138398087709949	-0.808044793140331			-1.76282621449201E-04	5.12917977480095E-04	-0.129675241511528	-0.076109965807294
139875000	1.21391106469499E-02	-3.48465239321505E-02	-0.192154644240667	-0.809637824555455			-3.37874316197164E-04	-1.2668405870076E-03	-0.129785219058931	-0.062338713017753
140562500	1.28074303900854E-02	-3.52455905524624E-02	-0.249755712275703	-0.805033187963239			3.98033084973769E-04	-1.10754390550853E-03	-0.124637987697165	-4.54925066588404E-02
141250000	0.011632863373417	-3.47884638591115E-02	-0.306114600378581	-0.798861823468963			1.07837277026937E-03	-1.27159110468185E-03	-0.122371297732557	-3.30178494365423E-02
141937500	0.010259459817476	-3.63895397652043E-02	-0.358826833168808	-0.782286278455477			-2.81592031482338E-04	2.10775689814017E-04	-0.117088297167981	-1.74884590533016E-02
142625000	1.10252059679658E-02	-3.54850477259675E-02	-0.409507541022293	-0.768646473984938			-3.15457057110975E-04	-8.91608621758659E-04	-0.112563742760515	-7.38256660077297E-03
143312500	7.62333209510181E-03	-3.66670061098236E-02	-0.464962446622356	-0.748768486577502			-1.65736228254114E-03	6.36115655383603E-04	-0.107840150813483	7.37350420334605E-03
144000000	9.19859642224896E-03	-3.54223445877613E-02	-0.504815600604201	-0.726525773814248			1.74614639311258E-03	-1.17564568835548E-03	-0.102023782412019	1.66819867633145E-02
144687500	6.70398593476308E-03	-3.52707928576994E-02	-0.557750355168608	-0.697442788931469			9.05757822405474E-07	4.95044169611596E-04	-9.76944725614315E-02	3.07999212731041E-02
145375000	6.41386994256183E-03	-3.45814493013061E-02	-0.601397747817784	-0.670575256827911			2.80764287167124E-04	-1.37195336234789E-03	-8.88261006443003E-02	3.90194964807351E-02
146062500	5.12866894944275E-03	-3.53858240114174E-02	-0.643498142750378	-0.636254708042502			8.0004258036906E-05	1.40628524162985E-03	-8.22477610631035E-02	4.85048739840694E-02
146750000	4.87279501542554E-03	-3.53726278133652E-02	-0.681099116268617	-0.604496121283769			2.09471368922504E-04	-1.86484860251128E-03	-7.38978756932555E-02	0.055833448906712
147437500	2.26827102587433E-03	-3.58848474694768E-02	-0.716635159993249	-0.565758574238216			1.43203108458886E-04	-1.65177444901973E-03	-6.79299987026326E-02	6.61819431394587E-02
148125000	1.33417907669254E-03	-3.58927474091611E-02	-0.745517725715742	-0.530125246773866			2.1298249054899E-03	-8.43116145769343E-04	-6.01059931121059E-02	7.14173385058387E-02
148812500	2.01216891907357E-03	-3.47682390873148E-02	-0.780155010375981	-0.491455209540501			-1.1715674109088E-03	-1.0033772507527E-03	-5.28146765803763E-02	8.12530878011571E-02
149500000	1.62570421427049E-03	-3.52659675487876E-02	-0.805311006695357	-0.453000080116394			-5.7540839138225E-04	-2.08535717312182E-04	-4.27006977041953E-02	8.56495307382765E-02
150187500	-1.91896188950187E-03	-3.62112734904306E-02	-0.833250384254982	-0.408706947284628			-9.14093313725199E-04	-1.61004900172063E-03	-3.55022081729961E-02	9.11441734917651E-02
150875000	-1.08584391889491E-04	-3.40962430790964E-02	-0.85076932834076	-0.366123877181251			5.45297367658716E-04	3.73889165206039E-04	-2.50664098921035E-02	9.56803294674552E-02
151562500	-2.20245677505186E-03	-3.51893421991118E-02	-0.872020147603461	-0.32608560859196			-1.15291170070414E-03	-1.38484141701125E-05	-1.91636519240465E-02	0.101190927728134
152250000	-4.02101220333342E-03	-3.42582451882196E-02	-0.882432890075015	-0.282665394530234			8.42113967894487E-04	-4.22413791122324E-04	-7.9831626490182E-03	0.103979871356583
152937500	-4.87939388207732E-03	-3.38657204210321E-02	-0.902785867045168	-0.244547579132952			-8.33389381041033E-04	-4.884717710666E-04	-2.15632047023323E-03	0.107421865131828
153625000	-7.3088085009534E-03	-3.28755080851851E-02	-0.910943147820216	-0.197855894022507			3.5231036085507E-04	1.19692744599961E-03	8.67893744486955E-03	0.108728368231889
154312500	-7.27969583512173E-03	-3.37906340299986E-02	-0.923075512259611	-0.159489068155035			7.57891828549383E-04	-1.4210835669462E-03	1.70992223173594E-02	0.111175282797221
155000000	-8.66375083197425E-03	-3.38464049534847E-02	-0.925487979237915	-0.110308830121971			3.41613574828909E-05	6.74725550245751E-04	2.64009328301367E-02	0.112552789396749
155687500	-9.15543455027086E-03	-3.42401566509465E-02	-0.931115742265055	-7.84822716518696E-02			-1.22607246501647E-03	-1.0201976699222E-03	3.38382203725851E-02	0.113444655940325
156375000	-0.010998902204091	-3.33857488473576E-02	-0.937887710457824	-2.95865268044519E-02			-3.90059305311196E-04	5.00160301876499E-04	4.30733037376569E-02	0.112294750873432
157062500	-1.17671917579475E-02	-3.19605274035329E-02	-0.936992801233389	7.78134960601762E-03			-2.77251192893666E-04	-1.08709176736487E-03	4.95381418986813E-02	0.110495128506883
157750000	-1.17762230890937E-02	-3.47778921521335E-02	-0.942733425092575	4.71153308063186E-02			-1.48332676973793E-03	3.61564072929994E-04	5.66145172485317E-02	0.11083791429247
158437500	-1.47840160735137E-02	-3.23496016235022E-02	-0.936699575203611	8.71806648333212E-02			-5.79069496807723E-04	-1.36390498585352E-03	6.60861699491713E-02	0.110349409035203
159125000	-1.49618542992425E-02	-0.03484720222861	-0.934585089361351	0.130601285509492			-4.81939318719835E-04	-1.74613861967644E-04	7.43813002782781E-02	0.109003383516051
159812500	-1.49960795247113E-02	-3.16777858185301E-02	-0.932286715656696	0.169184452740567			-3.69779232599721E-05	-1.05500242346276E-03	8.05828118993835E-02	0.103789188509142
160500000	-1.59154235932916E-02	-3.18000536772888E-02	-0.92511444568992	0.21003866338038			-2.21227206672603E-03	1.09308629060133E-03	8.72876843641996E-02	0.104395873130106
161187500	-1.82660362959691E-02	-3.38436734740687E-02	-0.91542214109605	0.243780670277253			1.29518757189663E-03	-1.65457227543437E-03	9.57204023994577E-02	9.98659739251139E-02
161875000	-1.74813452102912E-02	-3.45551584504491E-02	-0.909764795476625	0.286042199092004			-1.33337516453411E-03	-1.17903827843515E-03	0.10000728169405	9.75738888087764E-02
162562500	-1.79191322421041E-02	-3.32079286468318E-02	-0.895123397506631	0.321971562553846			-1.89098548375751E-04	-4.14198371583551E-05	0.109296539104486	9.05395206434713E-02
163250000	-2.07019053342319E-02	-3.55273601459902E-02	-0.881908670207961	0.363621770617326			-1.56806489174963E-03	0.000249843549737	0.113802082104332	8.96085198645318E-02
163937500	-2.06262790914732E-02	-3.27618839228044E-02	-0.867818308136774	0.398411066391482			4.05581402549148E-04	-8.04006031847009E-04	0.122383754439173	8.48500110070093E-02
164625000	-1.94780469979956E-02	-3.37460806439017E-02	-0.851949421311848	0.434614773967104			1.71709586249609E-04	-1.20648089615947E-04	0.124626850270126	7.78134244776291E-02
165312500	-2.36541579806353E-02	-3.30420639451206E-02	-0.832599268578444	0.470121612437999			-2.01127650347669E-05	2.23206944299368E-04	0.133957478757063	7.32011869160657E-02
166000000	-0.021970316182168	-3.25353582841412E-02	-0.815264377308412	0.505347003456414			-1.49797913553364E-04	-8.92936993888347E-04	0.137495662761181	6.55629657848549E-02
166687500	-2.32128919569777E-02	-3.46035702232848E-02	-0.792836671078679	0.538749266014287			5.90892604041951E-05	7.6179243723208E-04	0.143327689349239	6.03096462564867E-02
167375000	-2.52819989767053E-02	-3.52095523237992E-02	-0.7735100970815	0.566533169701262			-5.41889561240129E-04	-3.78759161461614E-04	0.145920019262772	5.23567952658696E-02
168062500	-2.59664687095692E-02	-3.55079222615935E-02	-0.749358185656549	0.597737157768888			3.58115870181047E-04	1.22844371964796E-03	0.15137294008951	4.79250491604046E-02
168750000	-0.025968915935279	-0.034753157758295	-0.727689159246878	0.625514502058011			-3.74315407765945E-04	2.87296803551903E-04	0.152305937315469	3.66112905822215E-02
169437500	-2.73514026608057E-02	-3.50999038217429E-02	-0.697868621882149	0.652108446850696			5.6320141059395E-04	1.58577981912613E-03	0.158835955910969	3.20817718801874E-02
170125000	-2.69260154009194E-02	-3.62852062574538E-02	-0.674208495527231	0.679120347190026			-3.88135129438127E-04	4.65646879437806E-04	0.157234825499985	2.02909354194641E-02
170812500	-2.76060980777124E-02	-0.036501488917374	-0.64533297383959	0.704902561660568			3.16737566362103E-04	5.2849496596609E-04	0.16353547207423	1.40955501513104E-02
171500000	-2.89267343749524E-02	-3.54547286114147E-02	-0.62169005749399	0.72653585316197			6.60864317558599E-05	-1.24767956833721E-03	0.160989384977864	5.13318038120647E-03
172187500	-2.93740501198622E-02	-3.74901707549991E-02	-0.591734157743073	0.747588683233097			9.99146945655682E-04	1.52493811558279E-03	0.166134348509706	-3.16201960305983E-03
172875000	-0.030034907312709	-3.56453815652085E-02	-0.567704279417108	0.76543610626137			-3.96548434707828E-04	-4.37807189658869E-04	0.163019700840081	-1.25364514968892E-02
173562500	-2.99733601988072E-02	-3.71326402010961E-02	-0.536567323984069	0.784223933271648			-5.43476971210897E-04	6.80792269775949E-04	0.165823149480084	-0.019705009786594
174250000	-2.97283690352261E-02	-3.77463593840773E-02	-0.51198119950158	0.804345733715928			-4.16660372492822E-04	1.02979403214777E-05	0.164010107007939	-3.13576728633621E-02
174937500	-2.98991874401966E-02	-3.80242550760939E-02	-0.481130366478439	0.82369645946581			-1.66441277614569E-03	5.30975631058367E-04	0.166610085487014	-3.76885550304659E-02
175625000	-3.04918095350095E-02	-4.07538278800011E-02	-0.45305864371262	0.837892449730163			-1.46926463469415E-03	3.22155956349105E-04	0.162750199613514	-4.84941908037287E-02
176312500	-3.13980577676215E-02	-4.02809356037388E-02	-0.426540330080505	0.85689005019862			-1.64472413913589E-03	8.47251362221919E-04	0.162597696747781	-5.49357494435591E-02
177000000	-0.031952044841909	-3.84658707184468E-02	-0.396969815676754	0.867177834828814			1.14095781242761E-03	-1.53520286490273E-04	0.159752956915834	-6.85648693000322E-02
