# Hz S DB R 50
100000000	-47.385455684475	14.3639387772654	-20.6935676295253	3.93962597746419			-59.1702829830579	-43.1296005316419	-3.42747241750285	80.609441486799
100687500	-49.9726149266313	-24.422238944768	-20.3606772387639	0.722117868012669			-53.1477553677336	-136.522929476587	-3.41961490424049	78.0154765416074
101375000	-46.9509034113071	-21.8526299919095	-19.7428249464021	-1.16409184258767			-59.0865313498635	59.876466817201	-3.41938354025837	75.2752687629671
102062500	-48.1319216433401	-23.5440139056451	-19.4129795350772	-3.30487880707861			-56.7732961948129	-4.05325483739651	-3.43739126042297	72.3163260989341
102750000	-45.1073721036779	-25.995715706021	-18.9701436890484	-5.38688255785159			-66.5831707155062	32.8510247410723	-3.44315009441705	69.7002441893453
103437500	-45.8917800109711	-53.9364239192396	-18.6023800844251	-8.1698062480606			-53.1087247527106	-123.909082916491	-3.4251567882964	66.7414318967912
104125000	-43.9859528025047	-36.7355999018141	-18.1470661690691	-9.90568673863034			-57.979647676129	111.55905214914	-3.42034188877953	64.0839219059899
104812500	-42.5687260516698	-59.534458958814	-17.9031430563116	-13.6640388083562			-64.8794279071242	-55.8945757793395	-3.45495905946219	61.1253927331059
105500000	-45.0871665286322	-44.0530082481241	-17.5422850755017	-15.141308143203			-61.5376428071098	45.0145414251578	-3.40322546678639	58.4050857262278
106187500	-41.3269959295862	-68.7662807129548	-17.158646396412	-18.7687854798103			-58.1462206840933	-87.254185474154	-3.45249443908777	55.2463972782712
106875000	-42.7418104877128	-59.1795942877364	-16.8838568158577	-20.8084241466864			-67.120774908044	35.2196040179221	-3.48177250537838	52.8217210352704
107562500	-41.2907088363522	-67.3884707064555	-16.6145943224787	-24.0958793044727			-89.791227033277	149.735258098554	-3.45062742231766	49.4257827862118
108250000	-39.5282607425237	-57.6656559483065	-16.38236501669	-26.9553989368645			-58.0935122321139	85.7238677364589	-3.5192292500885	47.0232785977475
108937500	-38.4791578984127	-64.5965715041189	-16.1492324244134	-29.4544994233437			-59.6076964202329	-111.645899361848	-3.49785271912984	43.9080823723238
109625000	-40.5676869203592	-66.3148009459543	-15.9481652245208	-32.5607577884279			-57.2183809206549	-175.765784084949	-3.56644401694738	41.1869145516722
110312500	-38.1878139050005	-68.8283276267841	-15.7258190974364	-35.2567894508736			-59.8315745066324	-8.81415184620243E-03	-3.57585167760645	38.1232781073432
111000000	-38.3141127947783	-73.4910253348826	-15.6062405565397	-37.5439770343394			-63.9985432089133	59.2666652200888	-3.67680396227976	35.1262747708397
111687500	-37.6000697246598	-65.4633275133694	-15.482731445269	-40.7776595137193			-61.8495912853694	-55.7047506384171	-3.65620115709812	31.8176954426674
112375000	-38.4616702366909	-68.5577290592992	-15.4102662959215	-43.4167798682431			-62.7125735229434	-175.109988733291	-3.72369568268992	29.2680567457432
113062500	-37.109219583115	-65.4524088376884	-15.3775088788536	-46.1907504573761			-73.1061082338418	-79.0715582449216	-3.75095571691831	26.0932025914062
113750000	-37.0429847102892	-71.1873890019891	-15.3694327654454	-49.0849726308364			-54.8751535984633	-139.151077812558	-3.83775084526009	23.2055587254321
114437500	-35.808000258354	-71.2787076347683	-15.3289203879935	-51.1452561592584			-59.9551011171798	80.2134974328258	-3.81608156126966	19.9318852432878
115125000	-35.8736512489301	-69.7945345378472	-15.457713501947	-54.1955039195116			-60.6533804018487	-117.919232234273	-3.92683943984551	16.737756254375
115812500	-36.2878468657793	-69.5725507518916	-15.6335530949393	-56.3984367624876			-55.9288883093137	-14.9558073436815	-3.94600338176844	13.0486005595275
116500000	-35.8057542234327	-70.708332535289	-15.7300406339885	-58.5641878469552			-66.5334380305365	-174.27442326944	-4.00464858281772	9.71893495961195
117187500	-35.2288806380083	-69.7074787140064	-15.9315315102858	-60.0478098471424			-74.4407258023627	-69.7850052229915	-4.05760261402431	6.53452092133156
117875000	-35.7068196311261	-70.4003123969018	-16.1971939231598	-61.59436001535			-58.4031293084684	-94.4716289495512	-4.11807154257676	2.92416760877152
118562500	-35.3299080722985	-67.4958328964994	-16.5665022778185	-63.002188303594			-70.0389173622794	156.260145929303	-4.15941721974252	-0.686413339658231
119250000	-33.6182629732144	-73.0878336906174	-16.8444880487032	-63.2480190292665			-62.1351247575932	-90.2674226858333	-4.22350196260394	-4.72208240957886
119937500	-34.2670376246093	-72.1375861145558	-17.4184496990869	-62.411357047036			-62.848887453855	145.693139339956	-4.28905101499144	-8.81184409881966
120625000	-34.1039601069777	-71.7998014814493	-17.9260193964272	-61.3642603632789			-59.3847284624554	-82.2739575416823	-4.3273122657539	-12.9593857523905
121312500	-33.454816930064	-70.8441806654136	-18.5779498156746	-58.0077927715132			-72.1835325164282	-118.52692892293	-4.42853994044814	-17.2457199265264
122000000	-33.9457455648094	-73.8262609078829	-18.8556818218685	-53.6572125926868			-59.7729950548538	-32.349648186232	-4.5046192481907	-21.6848811131182
122687500	-34.2756096274301	-71.6478430923214	-19.2150541040613	-46.7115689458143			-64.7127490386258	133.623268722682	-4.62892037559957	-26.5873027716402
123375000	-33.0200791478243	-72.7499742570429	-18.8713722893602	-37.7036189540089			-54.0783496252868	-22.9827594005762	-4.69590050629303	-31.2755554164334
124062500	-32.7998242436396	-72.6767666280606	-18.3471852870168	-29.195531406506			-56.8553864839165	-141.007242371079	-4.82929879506206	-36.4331246447508
124750000	-32.6645067597559	-73.1432348403921	-16.9846050277185	-22.0317540355319			-66.1803386257635	27.3747330685833	-4.91359675705279	-41.6608957410966
125437500	-33.1523605078566	-73.5574286214847	-15.789918541929	-17.3836574022175			-59.9648359417376	-150.945693319319	-5.10252394896943	-47.5181036289253
126125000	-33.043890632051	-76.1424984826293	-14.2657808872475	-15.5485289946023			-60.814462387461	-121.931809764887	-5.29043271722027	-52.766087799818
126812500	-32.4089074918322	-73.1315618413668	-12.8757542235584	-15.8459795061207			-57.181443656013	-146.633193080849	-5.52988387527306	-58.517491715394
127500000	-32.4082958501257	-75.8761849095243	-11.3961080300239	-16.8767390549413			-62.3124959332459	-109.659923494442	-5.71436700034404	-64.0894738852311
128187500	-32.8383202098317	-76.7167204740155	-10.2267883290702	-19.6809067872518			-55.1522493477741	158.31395409126	-5.95372569663576	-70.4867248842477
128875000	-32.4178425891476	-75.1468924792032	-9.01348816065967	-22.8539753052117			-70.3095656792244	-153.656594188436	-6.28979680774964	-76.2319946671925
129562500	-32.562069456377	-79.6651564938413	-8.10545686814867	-26.9642984395864			-60.3108006619223	-91.4688988786534	-6.54055555233373	-82.6240130474167
130250000	-32.2605012406313	-73.5708594408281	-7.09043246514655	-31.298175876365			-58.1526577914366	77.6829054402452	-6.9420170159197	-88.3243322758618
130937500	-32.9972116562892	-78.7652620327716	-6.36520060676048	-36.5106137770709			-71.2350973353456	100.42067798558	-7.161432126749	-94.6167898051241
131625000	-32.395882376853	-79.2868540729728	-5.66165955770008	-41.1949889113935			-59.6852018867074	38.546949970392	-7.65549963561797	-100.250461566076
132312500	-32.7326185784609	-80.3137345002513	-5.02352489738051	-46.2856255842826			-56.2452019153515	-82.9001289008988	-7.95063204138791	-106.671423262853
133000000	-32.5497604664601	-80.269566938403	-4.47522118181251	-51.0084847290235			-83.145179036665	161.664210018247	-8.4335204984435	-112.346333994589
133687500	-32.2088673912729	-83.0498643326786	-4.02170476174851	-56.0721310731361			-57.2469522121786	-93.021119791621	-8.75715346134898	-118.015392639877
134375000	-33.2191595518618	-80.7614781269094	-3.53965186805495	-60.5120994836738			-76.4627069020036	-34.4876740378001	-9.21255822791378	-124.204672782428
135062500	-32.0135857651069	-86.7595220223636	-3.21984300676424	-65.4206616194009			-66.657134014521	-121.015985435549	-9.60320918945648	-129.415613670135
135750000	-33.0819695043002	-80.9047443200837	-2.85726583974097	-69.9453422233613			-59.6356362339447	-41.2744046224348	-10.0026287724419	-134.998482580366
136437500	-32.1318637271427	-88.0085847691538	-2.57777368141287	-74.7054406975931			-53.1033711598668	-62.8438838697647	-10.3674824521079	-140.598810101901
137125000	-32.8608771933034	-84.7987185069511	-2.28484920825424	-78.7886718365271			-58.4366546609553	116.055487903967	-10.7566361940974	-145.396464756005
137812500	-32.5014954295851	-89.3751060606138	-2.04583127041284	-83.1870141586563			-59.648754885381	-52.7621575793107	-11.1278335726337	-150.760391113512
138500000	-32.3318398549486	-93.4641548161802	-1.76566143426738	-87.3084447613467			-56.6775926827415	162.756288672319	-11.4057478713487	-156.83739941075
139187500	-32.3318392453565	-91.2070693424192	-1.6092934751539	-91.59647287035			-65.8117278584714	-23.9943896369832	-11.8218848297558	-161.780568676911
139875000	-32.7495523897149	-94.0886279867511	-1.37341892406167	-95.420736347473			-57.8538136684065	-119.272024984911	-12.1688067964119	-166.362992523017
140562500	-32.8462423392771	-93.9781341460447	-1.25205874142572	-99.4342602705569			-54.6461349621872	-47.1852789971895	-12.6579204006696	-172.125047032737
141250000	-32.7713256601264	-101.145721847111	-1.06521176545076	-103.306009690332			-54.1358066680257	-154.875651726181	-12.8473986644355	-177.026164812566
141937500	-32.258072772749	-100.045379959421	-0.949981386046439	-107.362574523199			-57.9022831094249	-13.7775419815773	-13.2528733834522	177.156662993588
142625000	-33.0288636581355	-106.154325847985	-0.786341275728145	-111.05307031542			-51.982157340294	-169.42888022802	-13.4805883442976	172.453821087467
143312500	-31.743977856096	-108.333955803406	-0.679028988480818	-114.888847731824			-67.8599968970737	95.7977426800221	-13.9032354424027	166.740222705707
144000000	-32.5787062463747	-108.127016638513	-0.556917282300262	-118.11398155031			-55.3720429553268	-135.883761077395	-14.1912828969456	162.696146935443
144687500	-32.2602715203679	-107.925260775223	-0.47924571325141	-121.99370811116			-56.2559835601895	-77.2653877403192	-14.54268233168	156.66427307873
145375000	-31.6075919000998	-116.211614567208	-0.395759830144012	-125.528722821994			-56.4989672733575	-158.787610472572	-14.7020299217377	151.923560492647
146062500	-31.8533213722468	-110.015945009239	-0.333333337505703	-129.102800004604			-70.0886515905721	-167.692843379036	-15.0095698504679	145.647882414979
146750000	-31.7003628908574	-117.392004905078	-0.236248823541099	-132.475909311794			-56.2367975467372	-122.386960936699	-15.3721642269335	141.737331131009
147437500	-31.5660796975562	-113.474854165992	-0.208857940959689	-135.894457167329			-54.5891071672414	86.3166287007498	-15.532879105891	135.092383250656
148125000	-30.7243753093378	-120.827884736664	-0.148959319094825	-139.14845133379			-56.1278606524292	-80.6413753361397	-15.7577300247274	130.592868674648
148812500	-31.3771100298053	-118.988230604382	-0.119991128736404	-142.496516781416			-64.5054296302242	-123.447646448929	-16.018195818626	124.788044821985
149500000	-30.5532711774791	-122.760463926163	-5.39504742897863E-02	-145.323079663359			-56.8244861258281	-110.652808402845	-16.2951814257099	119.578540065024
150187500	-30.6002740895539	-124.688108454564	-5.90970353479765E-02	-148.810209848287			-57.4817578533254	77.8944060368562	-16.4123358848441	113.520807004297
150875000	-30.3091048707445	-124.614767259742	-1.40731160528563E-02	-151.4195587704			-67.2030641243159	-156.457632702962	-16.6932093318394	108.535791166751
151562500	-30.0096168233492	-126.857184657038	-2.93790854528133E-03	-154.609048193726			-61.3924209703959	162.697108823714	-16.5355899143053	103.699070564533
152250000	-29.3848617267746	-127.68888448918	8.15359957352816E-03	-157.330339453852			-55.8113931679539	-87.6427996860391	-16.9732219812453	97.6405015144312
152937500	-29.7690055667382	-130.218079677545	3.53287283230234E-02	-160.339494088393			-59.3323299000718	136.622711551008	-16.7872960226043	92.5682929927863
153625000	-28.8681397951297	-128.205575021756	5.21201758553905E-02	-162.926962838479			-62.5019078224379	-74.2932363354083	-16.9966053949929	87.1717322231874
154312500	-29.317628936789	-130.999252307613	4.82953108914119E-02	-165.621556684345			-58.4878515657329	178.592062936039	-16.9259438044837	82.7452663263664
155000000	-28.5139954988378	-127.601607025892	6.35926524857593E-02	-168.44536555783			-55.3380045287969	-67.230032425945	-17.0431050321913	76.6459651652357
155687500	-28.4103753922138	-131.291032031321	6.44334568607211E-02	-170.813768085091			-56.4961111702676	135.285259933348	-16.9092994672307	71.7193173370886
156375000	-28.4465925795497	-129.970370446795	0.102772373798491	-173.567122486015			-58.5427814589892	-81.2176020463389	-16.9462760452621	66.4637307801695
157062500	-28.1747924402665	-133.041357151708	0.101282639840994	-176.109121154245			-60.5532088649875	-169.535179266516	-17.0313196053599	62.6448931657059
157750000	-27.8064383293086	-128.481155000431	0.146605541253312	-178.454384823409			-63.9197832420302	-80.5802531163928	-16.753633723117	57.8416481284253
158437500	-27.4836127770563	-133.700515003781	0.117369868143441	178.810207190041			-54.2880895322611	-171.875643220448	-16.6878448326311	53.3920461938663
159125000	-27.4088869708888	-128.449922257556	0.208382401885686	176.423186386602			-58.7457232281371	144.361808976388	-16.4926454685279	48.9828443483122
159812500	-27.4233882221467	-133.248258038768	0.206103295201838	173.947675740832			-50.2755655480799	-151.738376843391	-16.616435298366	44.3184196976256
160500000	-27.1041825616435	-127.664128165575	0.213582992076977	171.518502044059			-66.716140743143	114.175650344985	-16.2546923130876	41.1313613535139
161187500	-26.5189842231692	-130.952821371744	0.160157115117015	169.207333025709			-53.6059102917274	-128.910734596637	-16.2402627654709	36.8977148759265
161875000	-26.8230279672611	-128.917830451948	0.261954085255325	166.711953783463			-65.6704556912161	98.0552128846699	-15.9998377572841	34.1272421663818
162562500	-26.3568286816118	-128.949086276948	0.201843628241245	164.131322714065			-58.7701944244074	-175.832894173738	-15.9122348601743	29.5475998970323
163250000	-26.6044046392283	-127.649605013525	0.246445774149346	161.617558208147			-70.0764863502007	169.473866391638	-15.6615112925524	26.5443448045223
163937500	-25.941544630945	-128.903081233985	0.230850226918083	159.171582651779			-53.224881646506	-116.303878721689	-15.6535159582974	22.5859600939064
164625000	-26.2503777178473	-124.834824845486	0.242462532590825	156.784026635835			-59.7005830788439	111.992248373871	-15.4788451892836	19.3687734705365
165312500	-25.7622157839526	-128.300468050599	0.25352784008573	154.556794287924			-60.8463830356916	-110.05645544041	-15.3760079391933	16.2499680924456
166000000	-26.1722488699247	-124.620608775785	0.267123695052901	152.177421475389			-57.4102424030975	149.66973227697	-15.1983998144335	13.9549379760626
166687500	-25.4934254652799	-126.203875943175	0.212758709653968	149.900443056928			-58.0037027659769	-107.723621380914	-15.0764306182919	10.4711624015472
167375000	-25.5540563822334	-125.492290896312	0.249669299001143	147.800716759589			-58.4823629739556	125.3131103678	-15.0918145055255	8.30610977687329
168062500	-25.0147237413904	-124.338379628906	0.208240893377726	145.299954949815			-61.1936416416525	-61.0248648496206	-14.7964485991742	4.56790872462232
168750000	-25.5075321068875	-124.370917211384	0.244915930363468	143.275663589922			-54.3228601273273	135.617502496973	-14.9588879957506	1.88847347097225
169437500	-25.1095203854914	-122.955589489546	0.160329986800428	140.95099177873			-59.6059274430554	48.1955932605826	-14.5936281357013	-1.10431260997263
170125000	-25.183594418807	-122.202615168683	0.217182896771884	139.011376018042			-57.4164892763729	161.281122038332	-14.7799021512704	-3.37691119780034
170812500	-25.0086639935505	-120.496908013323	0.136228122448905	136.622177612406			-51.3042379287795	75.6347713955627	-14.437919557918	-5.72383305335127
171500000	-25.4508895266835	-122.653168076625	0.207339130834643	134.838083900344			-61.3013525577754	60.748128909631	-14.6498639145349	-8.34685466104623
172187500	-24.8377866202904	-119.273547651249	0.141438329474697	132.649845477741			-60.7960705183041	-22.3349303664094	-14.4108270972589	-11.4377083141068
172875000	-25.0475842782687	-119.705806377642	0.201164922821639	130.824648490659			-56.6711307341223	-142.786234635873	-14.5511997761695	-14.4599375193046
173562500	-24.7217046300352	-116.731220398772	0.146914211736419	128.628426564043			-63.4769194205682	-10.5479818740649	-14.3411703445417	-16.92594001247
174250000	-24.8411188668026	-118.130705323591	0.198196920064766	126.772810424667			-58.4248424535996	-119.222371561691	-14.3608965282364	-20.2223753312666
174937500	-24.9770141499875	-115.109902696785	0.147968358418264	124.712423560193			-65.2223323182464	49.6977411809787	-14.3352309132171	-21.7875115365916
175625000	-24.5553576889979	-117.027398311737	0.184293334807329	123.022644806717			-61.1150628239359	-167.135616673746	-14.4332150048843	-25.3754118703503
176312500	-24.9222157688913	-114.514870011798	0.181372174814465	120.823078018232			-85.2674032391572	-66.4026159471389	-14.3080047554724	-27.1135363160797
177000000	-24.7713330404704	-114.261796294893	0.22466453549394	119.158946955503			-56.6289263000812	-117.270106169686	-14.348491577457	-31.1465255525816
177687500	-24.9635336962823	-111.215617300893	0.219166292364899	116.898041562572			-64.2127059090846	179.487555252282	-14.4431636707934	-32.7278791002893
178375000	-24.621359414874	-113.775512033488	0.254477231096353	115.256102377322			-64.6407048475243	-59.7131690514732	-14.4338315823365	-36.2978622853362
179062500	-24.9373565507134	-109.668068871638	0.26032422882232	112.824365686574			-64.2913442986722	141.360133155939	-14.4987306590136	-38.819762115376
179750000	-24.7193016223233	-110.284122351828	0.296235961367039	111.28224643886			-61.8655494068532	-99.591254990602	-14.4353826399315	-41.9708337337156
180437500	-24.7210031866946	-107.549291423138	0.328611819906402	109.204991064642			-59.3336594977894	133.481485219997	-14.5345068711633	-45.0108042305726
181125000	-24.7587361495447	-108.523369141656	0.340157884887001	107.189463061809			-61.4523138099461	-40.8510185727438	-14.36208900677	-47.8373615643932
181812500	-25.177079268797	-107.017291358453	0.359841353409992	105.17619853672			-53.9093083808685	102.748253671632	-14.5493267894526	-50.9195782896531
182500000	-24.7501999739123	-108.567897464351	0.432717523271959	103.356547568561			-55.5065772431947	49.5474022695819	-14.5010432969305	-53.2909544043042
183187500	-25.1526317297922	-106.622429558108	0.457412294010893	101.002165561784			-55.5232162067652	144.893615423946	-14.5899304747486	-56.9877458129185
183875000	-24.9256518794114	-105.188074620273	0.463288050356204	99.0332413940702			-61.0937980111999	109.81881957327	-14.5932128470379	-59.3174506892144
184562500	-25.2893441356342	-105.786499839242	0.456361312386203	97.0682763484978			-63.1031746831831	146.436904206442	-14.6100436946103	-63.32809465505
185250000	-25.2346147205647	-104.313152428286	0.513233000826168	95.0059990919079			-59.239570958935	-47.7870222160301	-14.6322809466882	-65.5113221169692
185937500	-25.7186295347371	-103.849081268627	0.47826014987454	92.8877825555051			-55.0407147795461	166.974183809158	-14.6336267282896	-69.3734321506378
186625000	-25.5608211931857	-103.968342302107	0.5046737749226	90.74398148443			-60.2897277202332	19.782557752962	-14.6792740132222	-71.1632823175613
187312500	-26.0144992705298	-105.145777179206	0.488955981482221	88.6451897112756			-63.6272682850667	102.187883750147	-14.5450533978454	-75.5549189501269
