# Hz S RI R 50
100000000	1.71798611157287E-02	8.7086311456867E-03	7.16444472805968E-02	1.00588263190678E-02			-8.64920609506601E-05	9.77527310828351E-04	0.111787699837317	0.657956827681432
100687500	1.70773097661798E-02	7.56164464409368E-03	7.71929994962046E-02	7.20539978705323E-03			1.61157942220367E-03	-6.40837775090754E-04	0.142145514354527	0.655299818268974
101375000	1.79397899043587E-02	6.98672500009193E-03	8.09842107489663E-02	4.99720602505232E-03			8.94427139128171E-05	5.19298530788004E-04	0.174868624218829	0.645699569001892
102062500	1.72321002312289E-02	5.75820874290841E-03	8.59350416271051E-02	1.5397974842872E-03			4.7838715268038E-04	1.24566392797817E-04	0.204821279809028	0.637224488567517
102750000	1.80765116165489E-02	5.19478289947486E-03	8.89497088704777E-02	-1.02599002982427E-03			-1.30458700540162E-03	1.25286754453252E-04	0.23198618150045	0.627852805703867
103437500	1.64902577625748E-02	3.52252871523093E-03	9.55091070140833E-02	-4.16108995688279E-03			1.11840404876743E-03	-8.2402906966303E-05	0.263280027862325	0.61984643666432
104125000	1.70094688940401E-02	3.18882018407316E-03	9.67802733564456E-02	-7.76365054117511E-03			-6.25605737167923E-04	5.55578240766654E-04	0.290571385287858	0.602223730467079
104812500	1.74533559286142E-02	2.49897889070748E-03	0.101377798177388	-1.35309970364394E-02			8.28460763094583E-04	1.18482133587783E-03	0.321978279664379	0.589556536994738
105500000	1.68337162034555E-02	2.27372798882273E-03	0.1037968454648	-1.86792849091931E-02			-7.03534377825652E-04	-3.70028489174005E-04	0.349041643854235	0.570755115071231
106187500	1.63825175376446E-02	8.13898328164532E-04	0.108773256630024	-2.45883165090915E-02			6.86633847815506E-04	9.60203510862396E-04	0.378920409623465	0.558153163759529
106875000	1.74896727041206E-02	-1.33751941099658E-03	0.109842028018226	-3.03707543663616E-02			-5.43614117930326E-04	-1.18586476931886E-03	0.39848603060597	0.536387836920485
107562500	1.91762903179271E-02	-5.23298174345745E-04	0.113490797820066	-3.49969345888579E-02			-6.1876192818112E-04	-1.62556350322405E-05	0.43005366400044	0.517655746252457
108250000	1.88436269146928E-02	-3.59512625069525E-03	0.112655005714585	-4.14086152715863E-02			-3.36281672139114E-04	6.75862706030318E-06	0.448132421940397	0.490498330351284
108937500	1.87279760173223E-02	-3.28181164607548E-03	0.115231527740785	-4.59519543160025E-02			-5.83484106661975E-04	7.05672882828322E-04	0.473182461851627	0.472013032928136
109625000	1.78994341081083E-02	-3.21820222648689E-03	0.115663881171739	-5.31477532034873E-02			1.37714005453799E-04	1.33480164131722E-04	0.491141770619759	0.440611049033828
110312500	1.89648206776755E-02	-3.36609742811259E-03	0.116366865737946	-5.95227239240399E-02			4.57841231533577E-04	1.07956794158044E-04	0.510434050913037	0.418379336239435
111000000	1.78441976817971E-02	-5.77953997684796E-03	0.114524266796423	-6.75147434687702E-02			2.99388185970126E-04	-1.39383558752449E-03	0.528853959078829	0.385990753882483
111687500	1.94752320539536E-02	-6.14460784042942E-03	0.113282251444288	-7.15323515210947E-02			7.50931893165052E-04	9.59303958512944E-04	0.547052099395371	0.36104418977657
112375000	1.90934624178147E-02	-5.66789618606818E-03	0.111351207028599	-7.78670759725971E-02			9.31631009777359E-04	-5.25283289708566E-05	0.558292947828079	0.328590791271499
113062500	1.88934409980821E-02	-7.96465610125423E-03	0.110006508893147	-0.082568149042701			-5.11133345254621E-04	6.71329082273512E-04	0.57365543724615	0.300531489169695
113750000	2.01413377046254E-02	-8.29207124646152E-03	0.106914171306866	-8.73425191956042E-02			1.30386862146859E-04	-8.71225810297452E-04	0.579457833537185	0.264489221293789
114437500	1.84743456957242E-02	-9.87541615792828E-03	0.102694192569152	-9.05643422696942E-02			-8.29487690483063E-04	7.15104472438972E-04	0.598050083295995	0.23877422169977
115125000	1.89554005134134E-02	-8.92876233312997E-03	9.98771882713523E-02	-9.69263316275043E-02			6.07973352720435E-04	-1.16110923918929E-04	0.603178675963174	0.196985320031485
115812500	1.98571870232897E-02	-9.1695614781406E-03	9.43197990207468E-02	-9.70433917508171E-02			-6.36833204007037E-04	2.1559027162897E-04	0.610384367133561	0.164055091249243
116500000	2.06862445001076E-02	-9.97518396842742E-03	9.18317270279051E-02	-0.100029162753558			6.29131433829992E-04	-4.29094385184315E-04	0.61372257047182	0.12561039740511
117187500	1.98191470770216E-02	-1.16305244242811E-02	8.73186924959687E-02	-9.97721404591736E-02			-6.85794862448523E-04	-1.07234893383104E-04	0.614347711737572	9.24855893646605E-02
117875000	2.17583229914279E-02	-1.07291130720449E-02	8.37029055485385E-02	-0.100035239438363			1.4747595896309E-03	-5.26243278046593E-04	0.61502825570857	5.22024750892932E-02
118562500	2.07854017820574E-02	-0.013321433183514	7.88731238432415E-02	-9.94568742869253E-02			-8.94892078528482E-04	-5.87886885097461E-04	0.613913645957875	1.51263129537981E-02
119250000	2.05462706007012E-02	-0.012901594359562	7.55789364539914E-02	-9.55861774610689E-02			2.13615424025024E-04	-2.68601044669829E-05	0.606870762748418	-2.44773897738382E-02
119937500	2.00471346928087E-02	-0.014214767668991	7.41039273254645E-02	-9.07862935432439E-02			3.83715169342022E-04	3.89016072877327E-04	0.596778989289224	-0.067426775397759
120625000	2.00972457791088E-02	-1.35324525692481E-02	7.31280668087303E-02	-8.51263698483876E-02			1.80548758835937E-04	1.71014220696896E-03	0.586873346856178	-0.107443098941378
121312500	2.13175800082685E-02	-1.56825734124626E-02	0.073849453742926	-7.84699212453837E-02			-3.84161654822122E-04	-5.74917710306128E-04	0.572607022982316	-0.149259800633418
122000000	2.07720165956616E-02	-1.46997731202679E-02	7.67912181432511E-02	-6.89071983130853E-02			3.54052005040187E-05	9.72084780511696E-04	0.551506412486345	-0.188484264881521
122687500	1.98989801579185E-02	-1.52093605568406E-02	8.06302696938963E-02	-6.13489527071193E-02			-1.26149121684205E-03	-3.16409987813864E-04	0.528537678947027	-0.227494251909927
123375000	0.020224198117167	-1.68163567982867E-02	9.11127781829295E-02	-4.96025964068615E-02			6.10658070363584E-04	-9.89151907874233E-05	0.500766589059885	-0.265097510587411
124062500	2.21014080395193E-02	-1.63245260597517E-02	0.103818248960555	-4.08037080611841E-02			-9.41522115952474E-04	-1.33428547792857E-04	0.468721793597154	-0.304337021880572
124750000	2.12459101186073E-02	-1.61266254323864E-02	0.121925191224347	-3.15785158838569E-02			-7.2131695300501E-06	6.93429849148855E-04	0.429654510507627	-0.334744562663975
125437500	2.25839439295505E-02	-0.016432241526482	0.143122161113416	-2.59495471658476E-02			-6.66778010388942E-04	-7.48630585870059E-04	0.387889370996626	-0.368698704892403
126125000	1.91480295048578E-02	-1.58211312848833E-02	0.169986805163666	-0.02240381247814			3.54819807894992E-04	6.96567644909704E-04	0.344130754022708	-0.388591252658652
126812500	1.98405633281382E-02	-1.83262004901595E-02	0.20037839087751	-2.54223730255866E-02			-6.10749928252034E-04	-2.71892240132987E-04	0.296907266102624	-0.412353206758049
127500000	1.96633975469437E-02	-1.79237204637886E-02	0.234772226896007	-3.19618022126825E-02			-6.21855403446039E-04	5.62285064115086E-05	0.246515826318737	-0.423582302722522
128187500	2.10346957648844E-02	-1.73236722504255E-02	0.27096427760159	-4.95926917714338E-02			6.96227814963802E-04	-7.51945720056789E-04	0.197159605689848	-0.434606902479943
128875000	2.04060785619251E-02	-1.82871790275639E-02	0.305616156776084	-7.32937856775635E-02			4.26750579441912E-04	7.70920572025388E-04	0.144554904168126	-0.429680507889048
129562500	0.021575675811091	-1.78140470134545E-02	0.337273365275656	-0.107722671854588			1.00992447153277E-03	-8.11155598523039E-04	9.53925050288788E-02	-0.428717715727828
130250000	2.11971821411752E-02	-1.94476993098878E-02	0.367670994264125	-0.147615574115756			-5.87133122994005E-04	6.25818573647486E-04	4.75947072047278E-02	-0.409409994199014
130937500	2.16565591296406E-02	-1.87035159859698E-02	0.390811978025149	-0.19840544605941			1.7317047188402E-03	-1.77626169144884E-03	7.66155104525708E-03	-0.399557360051525
131625000	1.95522855977197E-02	-2.01931828153571E-02	0.404051604882101	-0.250132500093971			-7.95438079370031E-04	1.23995404012824E-04	-3.15587767766184E-02	-0.373165620053255
132312500	1.98640200038326E-02	-2.03492768369288E-02	0.412946694596826	-0.309365125910159			1.27734078374403E-03	1.01114117224163E-03	-6.30544987149536E-02	-0.351428861494732
133000000	1.85991419402172E-02	-1.96886939099929E-02	0.405044788252053	-0.369504635318637			1.77599476712009E-05	-3.51735110127989E-05	-0.092170667942182	-0.322514916931066
133687500	1.77136192789555E-02	-2.14770224150854E-02	0.39734747964534	-0.427157901336988			1.28633531215006E-03	-1.2401339233378E-04	-0.11661369512685	-0.296205561547031
134375000	1.71728647654439E-02	-1.95137924270287E-02	0.376850455743193	-0.483499075213835			1.83284655986706E-04	3.47233201018182E-04	-0.136085808963341	-0.266524168708941
135062500	1.68910282617246E-02	-0.020138440342988	0.350677179877744	-0.537641888520438			2.92536010935613E-04	-1.88069444387631E-04	-0.149503749515196	-0.240490911536365
135750000	1.78591383417611E-02	-1.98634730633777E-02	0.314279906245842	-0.588302425167584			-6.59707209884283E-04	-1.75655113734845E-03	-0.160302400029045	-0.211462402806656
136437500	1.51348645361179E-02	-2.08418038896476E-02	0.274826117940215	-0.635969028106223			7.25127213294202E-04	1.01156423338358E-03	-0.167866869810688	-0.186673349603758
137125000	1.56691447186921E-02	-2.06710271513149E-02	0.232050147543413	-0.679059333437929			-1.31438193022621E-03	-4.23604343648208E-04	-0.17182875590775	-0.164250349695997
137812500	1.56984447437353E-02	-2.11507177398572E-02	0.184100921550896	-0.713853241816627			-3.09105073402798E-04	1.00009202312735E-03	-0.176971625590864	-0.141361644589909
138500000	1.22734455340786E-02	-2.27602077603536E-02	0.131956468410329	-0.747413098153656			-9.48587363942965E-05	-1.34468275634332E-03	-0.179480801226708	-0.117989044514354
139187500	1.35527493754252E-02	-2.22976994563818E-02	7.69599971514983E-02	-0.769285812952123			9.09169855796839E-04	-8.227364508053E-05	-0.176725331476933	-9.66016596350642E-02
139875000	1.19078679556361E-02	-2.09805947001037E-02	2.49948987219605E-02	-0.792552299871585			-4.22472689916846E-04	-6.81299833984877E-04	-0.175731618434756	-8.14807122925168E-02
140562500	1.12664795733303E-02	-2.15317192099413E-02	-3.21597406496738E-02	-0.806481016028966			3.24313572664348E-04	-3.10599755453191E-04	-0.169793167609642	-6.23234816416865E-02
141250000	1.05698095165534E-02	-2.07092029288967E-02	-0.092053102199191	-0.818141446129318			4.87065264269488E-04	-1.13194368486365E-03	-0.169128665493341	-4.60503564692787E-02
141937500	9.10609198447396E-03	-2.12048496549561E-02	-0.15133258952844	-0.818067141105254			-8.61796581112131E-04	3.28480921525843E-06	-0.164503337727446	-0.029685548397687
142625000	8.75912246860649E-03	-2.12835931524859E-02	-0.209041411208342	-0.821477361536752			-1.13518386228619E-04	-1.43652814354849E-03	-0.158254603916036	-1.70826900218724E-02
143312500	6.55036585017644E-03	-2.37084431931612E-02	-0.265557873629781	-0.815740214304386			2.4419367761686E-05	2.21867945702111E-04	-0.150952680428546	-3.34786019530513E-03
144000000	6.82570413552874E-03	-2.20663024712962E-02	-0.316637411215024	-0.808147781124039			3.91677104965055E-04	-0.001797519293458	-0.146247028364695	7.70946853761037E-03
144687500	4.37492203166304E-03	-2.34894995979864E-02	-0.376685898541698	-0.791228370900638			-1.18903858336214E-03	1.31476584901294E-04	-0.138860815570919	2.14955120161063E-02
145375000	4.14974050285798E-03	-2.35026302299339E-02	-0.42656039181621	-0.77558589902695			7.96432480802564E-04	-2.37067284470892E-04	-0.131018994933922	0.030615888443124
146062500	3.67021993744156E-03	-2.33671424371779E-02	-0.479185838659713	-0.756473990102551			-5.1014997579538E-04	-5.26150687141243E-04	-0.123280530522263	0.040729868917454
146750000	2.84236602543785E-03	-2.37501695638106E-02	-0.527531742385736	-0.730851316242974			1.78981107149304E-04	4.03005404600885E-04	-0.115743347847112	4.65773941572128E-02
147437500	2.0698216103581E-03	-2.56988440477572E-02	-0.575123660051897	-0.703946704324363			-8.88749805664754E-04	-2.50353218080537E-04	-0.106187151133885	0.05855775744879
148125000	-3.52422688707082E-05	-0.024463903018966	-0.614542295744381	-0.671768470826629			-7.12059935552405E-04	-3.4861788952095E-04	-9.73915008523888E-02	6.36903038163563E-02
148812500	-2.63104731433055E-03	-2.55268091725092E-02	-0.658134604315882	-0.64008557055325			-1.1635443005218E-03	-8.71060366870693E-04	-9.04635962246039E-02	7.21042138172323E-02
149500000	-1.94167036940892E-03	-2.55897646156028E-02	-0.691789684042138	-0.607446268328495			7.96408267214375E-04	-8.93338678959644E-04	-7.66782310143167E-02	7.66912407860563E-02
150187500	-3.9507012797488E-03	-2.62014560301715E-02	-0.731705210262812	-0.568050174520097			1.35361301526867E-04	-3.88422574679291E-04	-6.99404099619792E-02	8.28794029852695E-02
150875000	-3.38146564090519E-03	-2.69940107757559E-02	-0.758902874854554	-0.532637571961287			-1.8145142193021E-04	-8.40734292942465E-04	-5.69232607848384E-02	8.55877345106898E-02
151562500	-5.21210664421601E-03	-2.81774689969472E-02	-0.792858227719363	-0.493372335076807			-1.02599887989502E-03	-6.63601710466439E-05	-5.00714646141644E-02	9.22146575786389E-02
152250000	-6.35745355147305E-03	-2.68816596731848E-02	-0.81488328844668	-0.453241654750713			-3.9264137835113E-04	-7.2684222763182E-04	-3.79547132175922E-02	9.30525501090767E-02
152937500	-6.38694092453057E-03	-2.67222821955863E-02	-0.842028621937534	-0.414834982656687			-4.6040602108949E-04	-1.41539025781146E-03	-3.07256998193752E-02	9.69321368785447E-02
153625000	-8.79694044618151E-03	-2.82262216335104E-02	-0.858112128062163	-0.371958983665807			-5.85561073877722E-04	2.49535978499182E-05	-1.91360433282959E-02	9.68934880175903E-02
154312500	-9.28266118591923E-03	-2.91650937504342E-02	-0.880661773873624	-0.334366996978632			-2.4691330474015E-04	-1.77519342567684E-03	-9.34643620368891E-03	0.101505633931687
155000000	-1.04658512727975E-02	-3.05562546390648E-02	-0.896660493325222	-0.285979338446591			-6.69515606332299E-04	-6.14352859748551E-06	1.66095188484172E-03	0.102141372519376
155687500	-1.16428915195812E-02	-2.98024891075123E-02	-0.90622533656137	-0.251287140652139			-1.91006037555956E-03	-1.74512238689575E-03	1.16768273498192E-02	0.101689013904279
156375000	-1.25850025962653E-02	-3.08839743118737E-02	-0.922566305040705	-0.206074691402987			-3.23841248205624E-04	-2.14724224182846E-04	2.07035302688569E-02	9.96000109111513E-02
157062500	-1.33841192946938E-02	-3.15185895552869E-02	-0.931671860255837	-0.164693433868252			-8.82785083938078E-04	-1.88691207057553E-03	2.90760980548522E-02	9.87093609811539E-02
157750000	-1.47684646214515E-02	-3.25040765403555E-02	-0.944065092348961	-0.124402678799377			-1.17909027370447E-03	8.2317562151174E-05	3.99829159208401E-02	9.93981513656341E-02
158437500	-1.58554804606594E-02	-3.22908013272799E-02	-0.945571826393351	-8.29467648487902E-02			1.836925010236E-04	-1.29388325643295E-03	4.81253144332181E-02	0.097579554699877
159125000	-1.53399267939709E-02	-3.52339413349442E-02	-0.955498726292379	-3.97604077929273E-02			-1.91814750285291E-03	9.99039506407779E-05	0.058466912149005	9.71325795274793E-02
159812500	-1.67911837738189E-02	-3.25872358107164E-02	-0.957062426839699	2.45354903829384E-03			-7.0992475645706E-04	-1.27729027935135E-03	6.70272677283934E-02	9.29404452813586E-02
160500000	-1.68762717050483E-02	-3.48445964030619E-02	-0.958351262627505	4.58605255120813E-02			-1.26181635033038E-03	5.2842453914294E-04	7.54464164791376E-02	9.11779980102472E-02
161187500	-1.63554103420062E-02	-3.67678760817487E-02	-0.953897433551819	8.13669006467777E-02			2.31859362951134E-04	-3.38471797935799E-04	8.45752286845319E-02	8.54687187550179E-02
161875000	-1.69646810803791E-02	-3.80068277996982E-02	-0.955692764834936	0.125771402009789			-6.39940381743485E-04	3.36548082804327E-05	9.04683377938381E-02	0.085070818804861
162562500	-1.76447247030812E-02	-3.87035568033363E-02	-0.946022223991324	0.167079460277642			5.54909443318856E-04	1.77205298479809E-04	0.100727401774214	7.76203251688668E-02
163250000	-1.90279706365266E-02	-4.00405906441353E-02	-0.940122325353409	0.207186474111015			-1.09636926355297E-03	6.17923786164636E-04	0.107432210993051	7.47336988828648E-02
163937500	-1.94979975344029E-02	-4.06391434559867E-02	-0.933322873510535	0.24729344885088			1.67794501121291E-04	-1.73679940727858E-04	0.114662696010867	7.03564402133933E-02
164625000	-1.97075366212718E-02	-4.31401066335272E-02	-0.923101294966493	0.288465163729472			-2.62965956903354E-03	-8.54625760796405E-04	0.120660348906524	6.42720862090069E-02
165312500	-2.15003249698561E-02	-0.041872103357519	-0.90676486003265	0.32393266735633			1.13179837211255E-03	1.25071340676125E-03	0.129143070845243	0.059064571669574
166000000	-2.02428168500184E-02	-4.45189911813417E-02	-0.894024008171479	0.363563989010963			-2.12192902524554E-03	2.22574891996491E-05	0.132623655086182	5.43467371087336E-02
166687500	-2.10905855538782E-02	-4.35255914532903E-02	-0.877894680901343	0.4001834916618			1.72235287108675E-03	3.70300627757041E-04	0.140864768348126	4.80727734497971E-02
167375000	-2.12494178610555E-02	-4.65376350308235E-02	-0.86121496995131	0.432772938508689			-9.1267749624712E-04	-5.28792295774502E-04	0.14413611186284	4.12474557634833E-02
168062500	-2.16811656547304E-02	-4.61961776275342E-02	-0.843602581779769	0.470491257316586			4.11095589645131E-04	-2.51646801660449E-04	0.151765113478791	3.56823849868339E-02
168750000	-2.10996583805543E-02	-4.85186212323622E-02	-0.827163700859463	0.501439328186304			-4.4835609626991E-04	-1.60449373809867E-03	0.152112835635963	2.69364578671954E-02
169437500	-2.12224103986575E-02	-4.76155744812664E-02	-0.802334950570806	0.530783421692348			-9.01958596059373E-05	9.33775527734659E-04	0.160195206461318	2.18393284716424E-02
170125000	-1.89948963724903E-02	-5.10389483764759E-02	-0.783776946177169	0.562316467717193			-1.00613403586858E-03	-4.23107729160422E-04	0.158406118592897	1.29257403511784E-02
170812500	-1.88467313087676E-02	-0.051457946808195	-0.758885366213508	0.590548571892854			-3.26239774442193E-04	1.72289190548383E-03	0.164661948492119	6.13179302719837E-03
171500000	-1.98159638917822E-02	-5.02479769788571E-02	-0.739004172488474	0.61624712404317			-1.19947511768537E-03	-1.66326876803893E-03	0.164696119159433	2.78362128465229E-04
172187500	-2.00181206341558E-02	-5.21709849890502E-02	-0.711505121300876	0.642677275744824			1.18277210048557E-04	1.29738360069277E-03	0.166842664497081	-7.9601131277189E-03
172875000	-1.97796982739374E-02	-5.25858283090417E-02	-0.689348327572892	0.664894573123445			-5.06007728983889E-04	-9.58609124179665E-04	0.165699450722684	-1.76731287151184E-02
173562500	-1.72496198889047E-02	-5.41186659169789E-02	-0.661354122516017	0.692916022313565			-7.92103535172379E-04	1.51545827218884E-03	0.168902991651761	-2.36193878781542E-02
174250000	-1.78082743656737E-02	-5.53686957395878E-02	-0.64203552305342	0.714000587766734			-4.24481058172313E-04	-4.10712622543245E-04	0.168006173750246	-0.034908566619498
174937500	-1.66861328417311E-02	-5.56395089162533E-02	-0.615895076823312	0.738570252947186			-4.2218628841692E-04	1.12161879396298E-03	0.168291635221272	-3.70054503979386E-02
175625000	-1.72533827429147E-02	-5.67955399291264E-02	-0.588284038364121	0.755377173111586			-2.57541508376501E-04	5.24980554145003E-04	0.166855013036882	-4.90196444794066E-02
176312500	-1.61130031115187E-02	-5.74641374940802E-02	-0.563446101721092	0.779194995980185			-1.30160013014876E-03	1.01288280373282E-03	0.166560539537363	-5.61009743398927E-02
177000000	-1.53563922941533E-02	-5.80136536354074E-02	-0.53968842927014	0.796602217053512			-1.11252834316871E-03	-6.26404827289947E-04	0.162734186146481	-6.43768176686191E-02
