# Hz S DB R 50
100000000	-36.206964842409	24.2533119451059	-22.1877374913115	4.72301918214911			-59.5562497885491	33.3758391343746	-3.45781580659537	80.4555929128306
100687500	-38.333856619906	24.9936325318522	-21.9468060523165	2.46061154278732			-70.400116955712	-160.075214598989	-3.43728525051428	77.8425044816329
101375000	-36.9855577724458	10.6773060657128	-21.3854653676631	1.07974122226749			-56.3418939199288	10.8298178852164	-3.44437996907022	74.9897161391746
102062500	-38.1839432513173	13.1724458896961	-21.0801248904331	-1.61458418887865			-76.5773389296366	92.7613052440857	-3.45642137404052	72.2747156655014
102750000	-36.6703338443942	7.55341358544314	-20.4347155136538	-2.32809646713979			-60.7710317836621	70.8416487209437	-3.46845829697017	69.5467717646461
103437500	-38.2183763662445	2.97639407518009	-20.1344430799868	-6.69685337920116			-56.0132240427877	-87.4573425189722	-3.4497203011677	66.6811893567065
104125000	-36.2321890952607	2.45431506356521	-19.7505216070436	-7.57798844921681			-57.82928122618	6.30591607833307	-3.45869993356927	64.1124694322096
104812500	-37.7221031461373	-10.698329244733	-19.5189152275778	-10.6807866116429			-55.8565450302604	-34.3137591382855	-3.46779851607451	61.2184799188358
105500000	-37.4879250837294	-3.68772665350379	-19.1239346128383	-12.5763018118722			-64.3965442612299	32.4541802792399	-3.46960248984924	58.6605161368179
106187500	-37.1648281249564	-11.7517791726608	-18.7493202327766	-15.8703868860437			-61.3122123185718	-23.5737753135046	-3.47289423822116	55.6655837489058
106875000	-36.71848339275	-13.7233833409099	-18.5167668565642	-18.0098904438762			-68.0621291674047	87.3156109579722	-3.47884669037628	53.3665401965779
107562500	-35.5875401857936	-18.3539512856908	-18.1864765071305	-20.3053287617067			-55.7556057084441	-64.5887692899204	-3.4746005772552	49.9370831566557
108250000	-35.056682983104	-15.1776962148131	-18.0173710113053	-22.6993978810549			-58.5763740129989	160.249763548533	-3.54613532586907	47.4180420605094
108937500	-35.7709293543677	-23.085832918129	-17.696435910329	-25.4891514160957			-58.8674976117219	-12.0325022434856	-3.53689465078293	44.3897889521359
109625000	-35.4569679799814	-18.7553002736805	-17.559564590218	-27.6823536487246			-55.0031044335007	152.487473142527	-3.57138277495221	41.9806339048607
110312500	-34.9349924326481	-24.9564955588238	-17.3371238735091	-30.2691163825039			-67.1846436472538	18.0777922073665	-3.60438651451538	38.954432970516
111000000	-35.405898047157	-21.6085241870603	-17.2224854336139	-33.1400541685596			-58.9700753328763	160.078499877879	-3.67838078816688	36.0806846335047
111687500	-34.5495803878241	-26.5858351826281	-17.0756574211209	-35.6302173377501			-59.3200379777554	47.4763012413232	-3.65748918654974	32.7590225629963
112375000	-35.4300916801335	-22.6624930115924	-17.0175502243467	-38.1372099272843			-75.2540275659356	164.792296282476	-3.72837639306087	30.4054581206622
113062500	-33.8751242754134	-29.1809856761119	-16.9161925520588	-40.8623087266008			-56.988255290366	25.0631214053731	-3.74553537233358	27.4132108068673
113750000	-34.4352125802512	-28.878049055506	-16.9279700524543	-43.176824959558			-56.1783147312837	-128.697330857767	-3.85828108167282	24.376908580357
114437500	-34.412419838012	-32.7121685071013	-16.9213858514543	-44.9487992025104			-59.351986680472	58.5754933569617	-3.83210106350969	21.3432048940341
115125000	-34.4159604032803	-33.5194688097048	-16.8846928909979	-47.6742589839547			-64.8522667538623	-15.6080585300374	-3.93424971421606	17.9757312307964
115812500	-33.6892964173585	-29.7184967110264	-17.0067962924129	-49.0942551159862			-65.9989844585131	-94.5515147699433	-3.9920323070175	14.5866921784773
116500000	-33.6986975000515	-38.0708771828148	-17.0602092994331	-51.8333292546342			-59.3508568130404	-87.4869180430298	-4.02771463420797	11.2576414786859
117187500	-33.5160383566118	-36.4011033650722	-17.3184053420643	-52.5988019737385			-59.6690335730637	34.7098446705422	-4.09065461654309	7.91076962218533
117875000	-33.5242120062282	-35.6280221754881	-17.4709883204402	-54.5782159051232			-61.5456853018707	-110.36184018315	-4.16671356050448	4.60600041721273
118562500	-33.1881521982394	-34.3837690799709	-17.7405367949875	-54.5758802698555			-60.3023146303755	30.2570555092095	-4.21627052206351	1.13460382141445
119250000	-33.1962173977976	-38.7324415289017	-18.0196241773655	-55.3955384262875			-64.375909897818	-77.5398085222269	-4.3089170612411	-2.78729402133614
119937500	-32.8957354487671	-40.402305476313	-18.5465936836983	-54.9157041123788			-76.4195655188575	-96.2278443886541	-4.35798655372939	-7.03515084906512
120625000	-32.8027332698322	-42.5061706368943	-18.7397609306305	-53.437604063236			-66.7819742259166	-85.998281162739	-4.45748138825449	-10.7203097175199
121312500	-32.7795599595933	-42.6066427714903	-19.4470976910272	-50.8197130784689			-59.9673473049205	173.74105419427	-4.51671630634344	-15.0262133368205
122000000	-32.8823813455726	-41.8901438315965	-19.5537897266845	-45.2723151940404			-58.4827484293215	-117.844932015786	-4.60522168208991	-19.203117468735
122687500	-33.3185717967776	-42.3877286735708	-19.8531261425116	-38.8812175556415			-60.2182261868216	125.896862712553	-4.7652773266286	-23.799330900709
123375000	-32.2101586315086	-46.6328649672277	-19.536403173555	-32.0529555908021			-59.1178152352444	-76.2474681299915	-4.86468266487349	-28.7225200910709
124062500	-32.3980955581656	-46.1050735493833	-19.0379305726342	-24.5184093428036			-66.0951520305393	2.10788881349887	-5.00310772816649	-33.6481124547878
124750000	-32.2379686182082	-50.1113734263776	-17.9231695441963	-17.9776300353047			-57.8760632724874	-83.4607917119454	-5.14057706020642	-38.5231613787068
125437500	-32.2008834468043	-45.4841775785989	-16.7473179167728	-12.7725532269378			-64.8272798543024	5.15899458944189	-5.35035561678658	-44.5092375804388
126125000	-32.6991320850789	-50.976322536511	-15.235646502344	-10.3174753070924			-57.0183761736511	-11.1419479895073	-5.59318729241955	-49.1193433550815
126812500	-31.9695506076106	-49.2291548792732	-13.8083131899535	-9.78082125971342			-71.0128464013069	-132.302577456648	-5.80184731448445	-55.0841460229567
127500000	-31.8062693315888	-50.9922480449868	-12.4419665000838	-10.4399863594821			-55.9730008963725	25.5769141682222	-6.06855066528453	-60.3679771615439
128187500	-32.5108270234447	-51.0727210170276	-11.2242466023784	-12.8397233518622			-61.582114129297	-151.295601972649	-6.29980379330496	-66.687996948447
128875000	-31.4510369276793	-51.0714020893049	-9.92626143239999	-16.0644996673186			-59.7663168591681	-30.007394938641	-6.71278326484143	-72.3841476692445
129562500	-31.9085215379613	-54.1692893426861	-8.92466622532128	-20.2522364324051			-76.5970995777727	179.417434176767	-6.9836411103463	-78.8318012849813
130250000	-31.4204832412186	-54.0634529624321	-7.91592009228736	-24.3098149063259			-63.8369805614934	35.4787447963609	-7.48003348474954	-84.0401221349089
130937500	-31.5640257079884	-57.3324432249315	-7.07886329849269	-29.6960228668625			-60.5034115682099	-143.384915703158	-7.7714702424705	-90.2553122126269
131625000	-31.6779789723196	-56.9141317471399	-6.35984693082746	-34.0562154248144			-60.7232995658227	68.371625531691	-8.29299806665479	-96.0018115977862
132312500	-31.6160372353291	-58.5252962990342	-5.7090137991956	-39.2546348078472			-53.4272496632209	-64.8566258214147	-8.63027499053155	-101.870706600566
133000000	-31.7051243682873	-58.5145469603591	-5.12049401014748	-44.2915751933479			-64.7934579864345	64.9017597597995	-9.23824417613749	-107.411646277672
133687500	-31.239790526131	-63.0250639768959	-4.63457322888543	-49.5406986763171			-61.1691425734104	-92.9322134286182	-9.59484002658001	-112.882889216828
134375000	-31.6712041514722	-58.8635394841244	-4.15660564696062	-54.1158148487016			-58.167255121663	39.5798246403068	-10.1975130937251	-118.780152490309
135062500	-31.2100270056678	-61.8787182440306	-3.79942517400673	-59.1154797457139			-58.1995795105884	-61.7700860562586	-10.6244151118527	-123.842121908389
135750000	-31.0237261999058	-56.7265092414437	-3.41308890083025	-63.9887746061634			-68.2964818726683	-131.351819758399	-11.1721868415824	-128.845147171913
136437500	-30.7928524971516	-63.0870162665235	-3.11250735404509	-68.788229164216			-70.0966626310868	-136.856782951909	-11.6051981020819	-134.253162584087
137125000	-31.629137191318	-63.1297822438282	-2.80837537075261	-72.925450598151			-54.4314827842867	138.989556543886	-12.1487717022212	-138.970541007577
137812500	-31.1179680439123	-66.1053822443592	-2.57875631748789	-77.6524446484214			-62.1226214073791	-138.165256908366	-12.5515466109136	-143.768249077201
138500000	-31.3419217063717	-68.5289690785492	-2.31991352482737	-81.899031220548			-66.0732991544352	-142.519938914137	-12.9616992043396	-149.758655428155
139187500	-30.9689362595883	-66.2040249186192	-2.1259474681715	-86.3216922982279			-57.172188811052	-74.340789020037	-13.5348723209949	-154.04689930186
139875000	-31.7154430740442	-67.0698967792739	-1.92584800312676	-90.2825518555137			-55.8052252281303	163.86191557024	-13.8919856195412	-158.987373899986
140562500	-31.4981923558837	-69.3160217332107	-1.75463424207026	-94.41678105467			-68.1489999913932	-74.9243948417721	-14.4098998600052	-163.920032892783
141250000	-31.7411697313407	-70.1727003026966	-1.57024573399273	-98.4291641721124			-59.5072371993831	-168.89712773159	-14.7225306657895	-168.812417438609
141937500	-31.6667711216523	-71.6469911206117	-1.48081477494606	-102.323064675227			-63.6165970014109	-67.6042874924456	-15.1897943199683	-174.032975473799
142625000	-31.8574102623971	-73.3168070349568	-1.31454751111362	-106.222837847391			-62.6911336166081	-88.4395927095064	-15.5211436908714	-177.960967981977
143312500	-31.0926242106664	-80.3069853939342	-1.22039455880083	-109.972611961401			-61.6787173040464	-60.8351948060521	-15.9313343112831	175.939549412363
144000000	-31.7954003090041	-76.3375348910264	-1.09199904411293	-113.245244816126			-58.7385108992776	-115.256483242856	-16.1939516291509	172.276882476258
144687500	-31.2656696861763	-78.5439797611686	-1.02551936807051	-117.26311644035			-63.2143639244365	-35.2373615579594	-16.6084303776286	166.821955252885
145375000	-32.2249437229814	-88.7666900600035	-0.92104331654863	-120.785559249744			-60.9443468606757	-101.192652887727	-16.9141611539724	162.452141440961
146062500	-31.4076884340236	-80.794047922399	-0.860775621871646	-124.259948412479			-61.8279919947975	-92.3516577039968	-17.388974758232	155.613224707135
146750000	-32.2621521497626	-87.4004090520375	-0.768662918802641	-127.614237479634			-57.4267689254937	-137.044807294248	-17.7297759152144	152.423767327211
147437500	-31.7531998203968	-84.5013567878179	-0.743907787233829	-131.156733460146			-66.2797277729698	44.7831705091863	-17.9499758656478	144.754110554839
148125000	-31.9415597257159	-93.2649706087172	-0.662516020643114	-134.297516271246			-59.0337380716771	-138.052708416474	-18.1821428914951	141.115014143898
148812500	-31.6306746963022	-94.0058147129057	-0.619503338062183	-137.712515197347			-57.756034254825	163.890681149834	-18.3015313429391	134.274512994982
149500000	-31.1193268388342	-97.7323928138591	-0.560828046364843	-140.621817121577			-58.4088966033156	-80.5625833320803	-18.8070756856503	129.32791712037
150187500	-31.775141387399	-95.3814756440337	-0.568249085639631	-143.95249809846			-70.7878614409741	-129.935203297307	-18.9068116670718	123.612041795661
150875000	-31.0708587572205	-98.303402793825	-0.546065909366319	-146.920989568148			-56.0370982087793	-138.069358916133	-19.2330465354629	117.001017656563
151562500	-31.0023518353529	-99.63897840309	-0.513585839456815	-149.993187092368			-68.7663854158312	-125.718776745697	-18.9312494562668	112.510359868461
152250000	-30.534018053581	-106.267255237746	-0.475380805647348	-152.690465113402			-52.6585774884588	-42.358138659187	-19.4205967197697	106.08029297876
152937500	-31.0221217421435	-109.259283175736	-0.462767961339029	-155.748909874554			-55.0354484585755	128.115593683552	-19.2620302442883	101.402494947596
153625000	-29.9540849687724	-111.145661373562	-0.449752241216911	-158.497985134623			-56.2825243521604	-72.495282907484	-19.4226527487077	94.8373389568289
154312500	-30.4287561803169	-110.586124299976	-0.434068727687816	-161.069253687764			-70.9982312541915	171.257208044321	-19.2479974002153	89.7489805683574
155000000	-29.6765537600705	-111.265018531545	-0.431837557365806	-163.972478092382			-59.3301152041631	-24.6399080043248	-19.3467189936448	83.853541881968
155687500	-29.9672870073362	-115.427723825528	-0.419666222750868	-166.447704810629			-62.6595671508672	153.054420354942	-19.181412608987	79.0334529960782
156375000	-29.2179834976349	-113.606600237888	-0.350290838985627	-169.100381989837			-60.9771252105016	-75.4030424596691	-19.1098650009664	72.1932128850106
157062500	-29.4333731705978	-119.21093580703	-0.367440824141753	-171.994777094164			-55.3147152976752	-135.48360919891	-18.9771717920265	69.2090643082556
157750000	-28.6020739050526	-114.186049432248	-0.333076144537833	-174.091752534449			-62.6438291575647	27.8342754283369	-18.767668957641	63.4837592048507
158437500	-28.9109986061782	-119.486020867694	-0.307333469746457	-176.766048744463			-60.1049023372911	-112.182175360484	-18.643389668657	59.6061979754877
159125000	-27.7687205891531	-116.073912013265	-0.277386173442494	-179.34878471878			-61.8380378834294	-15.0090054141242	-18.2610312756499	54.8009607710297
159812500	-28.416164410114	-120.099059193804	-0.291156607216705	178.080619990864			-59.4277867523448	178.067224150768	-18.373175468254	50.3571434878265
160500000	-27.6414621392237	-115.826197793125	-0.270671045039156	175.648551017316			-63.6721036101923	38.5512313936761	-17.8728625433573	47.1810158331616
161187500	-27.1874686765744	-118.427665286002	-0.280578642373061	173.265669387314			-54.1329026974816	-129.222705510756	-17.9154504394618	41.5015435676758
161875000	-27.0159362571242	-115.112951371864	-0.211827646185686	170.629343229352			-57.8415987779618	87.1884034670602	-17.5250816777709	39.9498881901568
162562500	-26.5695392556156	-117.535162128413	-0.239281628448778	168.108901615037			-54.5392889219599	-111.005190227739	-17.5090457678335	33.9641858241369
163250000	-26.7243353804898	-116.26076709824	-0.217068173020977	165.54893955271			-60.4438916744374	86.9238536719877	-17.1297352953921	31.7339886008267
163937500	-26.3812668449284	-116.454765316087	-0.212780076965128	163.341614957093			-54.9525909780378	-154.735729155324	-17.0129719093124	28.2250833089145
164625000	-26.304809478664	-112.502885784634	-0.193191860370729	160.819940986259			-62.1260107188889	129.562452110075	-16.7830553332401	25.0080286178679
165312500	-25.9542270162916	-117.587357161053	-0.201163406488656	158.469368291078			-55.9747526785622	-100.130263128067	-16.5108181127204	21.2453512905256
166000000	-26.0613116910718	-114.945146821123	-0.178710266045323	156.094707696503			-55.0185821562752	139.338149846973	-16.4168871577657	19.1744132768041
166687500	-25.6690860837275	-113.586674265158	-0.221573885559437	153.872091078303			-75.2834432968788	8.42187903581947	-16.2305403034524	15.8353626033179
167375000	-25.6152150571504	-113.528281695153	-0.178080817491548	151.524799128703			-68.3238852461372	131.340371879106	-16.0405437048613	13.7571213739086
168062500	-25.0171567847007	-113.400451354613	-0.212096822687888	149.318359913357			-60.2424858700052	-69.9070834859534	-15.8274753987111	10.5449172695066
168750000	-25.3797611552726	-112.788995577482	-0.177839718781629	147.153208521306			-56.0706724520653	162.661371177574	-15.8252248512218	7.528653816191
169437500	-25.0376979811973	-111.620925737658	-0.260434476441279	144.697247837394			-62.4302084789128	159.466558414902	-15.5450109497942	4.94524115263664
170125000	-24.9448464750073	-110.476630136085	-0.198192960966595	142.71174966291			-54.1462646050633	170.568768243693	-15.6517700664097	2.68650466466294
170812500	-24.9554992864333	-108.544497608984	-0.275192786058558	140.380780810476			-59.6798309411753	133.858178039548	-15.3644372691311	-0.183304717624898
171500000	-25.2094332900743	-109.995734283388	-0.233979750126035	138.538422368054			-51.4275077996567	171.591844868824	-15.4853403207057	-1.87296045902817
172187500	-24.6331388950919	-107.525845208106	-0.301347783955391	136.10955157624			-67.879431448148	33.7149090333517	-15.2083340882639	-4.87996433585873
172875000	-25.0629098251164	-107.769224677529	-0.236721796889472	134.582317731507			-61.3736862913125	160.255703076712	-15.3514265279888	-7.76751452837947
173562500	-24.4577758768281	-104.942589789773	-0.297670453152737	132.267402981644			-66.4492623560314	74.1882971708679	-15.0517933247493	-10.0824120660109
174250000	-24.676517072774	-104.994080574942	-0.246524083359863	130.275519557341			-57.3471013753384	150.351991340513	-15.0593071895928	-12.9991720967062
174937500	-24.6046087851317	-102.766444815532	-0.251636172780035	128.285994522435			-58.2158095346793	64.3955835086593	-14.991629972436	-14.7332477463908
175625000	-24.4573029837625	-105.274529906825	-0.2348010900593	126.470996831219			-63.2225382678447	-148.068239116668	-15.0163157058839	-18.0704593255366
176312500	-24.5756789788025	-102.619868370299	-0.250146404366205	124.318307761547			-61.3376639685303	122.506061867265	-14.8596672867287	-19.8435844505246
177000000	-24.56910952013	-102.783478442192	-0.193342192595167	122.773026022107			-61.0558739453133	-108.225612386768	-14.8713374403259	-23.916942557929
177687500	-24.626734780201	-97.8259971179987	-0.219515931703988	120.404566141586			-51.5825362250118	91.6392121184393	-14.8572275720063	-25.4344890231238
178375000	-24.3616345672296	-100.980456279589	-0.157879072599938	118.618321495401			-59.4296990235088	126.790464526634	-14.8699162716219	-28.9912627088758
179062500	-24.6866243706937	-97.9568109748864	-0.166608159528371	116.435834866564			-57.2452508427878	148.944528597015	-14.9374670453829	-31.191236168152
179750000	-24.4211830572652	-99.6235721209609	-0.137847855435547	114.828312468061			-61.0126189594413	119.603311983629	-14.7780416188881	-34.1728203242015
180437500	-24.5626298884792	-97.603784614057	-0.101881849263581	112.646966169686			-56.629671246797	47.7686248597684	-14.9768170044553	-37.0905959557482
181125000	-24.5641087084985	-97.2579159119992	-9.83225947046555E-02	110.779603299201			-60.3719053815199	133.130912288573	-14.8798374279284	-40.2623955086964
181812500	-24.9647086533339	-95.1799025105397	-6.31603310901176E-02	108.698582951169			-54.1460802743811	111.555036890231	-14.9625115331618	-42.8367801499495
182500000	-24.5902584798991	-97.4831632976516	-1.68308910451533E-02	106.648752130587			-64.3006234311946	48.7337296739262	-14.8739228418853	-44.7263971478472
183187500	-25.01729568474	-95.529166847926	0.029273348023134	104.444998304313			-54.2815144802862	118.15104034868	-14.9270638564539	-48.8492915124911
183875000	-24.9406868716208	-95.3916743069164	3.87260364771707E-02	102.427292547578			-55.3240135710235	-18.2178632197832	-14.9088015071612	-50.4382858668326
184562500	-25.0683069140922	-95.455550123271	0.036481100248121	100.499420028355			-61.5525372179629	-169.725680074004	-15.0402195678373	-54.7332472094712
185250000	-25.4542959011442	-96.1309150480417	7.80678367713858E-02	98.3336831468819			-58.5020174622486	-31.4919661971609	-14.9837429171743	-56.9475169744976
185937500	-25.5211495956197	-93.5694773305739	5.98619313702135E-02	96.104249540453			-55.4446731572626	151.848493397947	-15.0174444906994	-60.9287337990551
186625000	-25.6361961859245	-94.028310028147	9.00561112308794E-02	94.0711833822029			-58.0963388390864	-16.5563314171566	-15.0062374964857	-62.8698685603833
187312500	-25.9176346517111	-97.8723823973675	0.10435463048676	91.9662007759288			-63.3797960583337	-167.46754303421	-14.9627287126363	-66.5816146826226
