# Hz S DB R 50
100000000	-28.9109000251169	12.963616784039	-14.2000660637036	-0.372500192800228			-65.5889272927859	-85.6085635822481	-3.57733389495428	81.3057517743891
100687500	-29.427111786614	14.3171050629969	-13.8198273945853	-2.32449595737164			-58.7914316354755	60.0462326186366	-3.52533909831722	78.846281840446
101375000	-29.0451183823756	11.1361228817271	-13.4684872971012	-4.65293461081031			-61.8838336786903	154.955071530227	-3.58113147339085	75.8635539575851
102062500	-29.1539205462374	14.8405787167093	-12.9994444424404	-6.61997570155905			-65.0348555751654	60.5805977573034	-3.56485164342278	73.3406308362747
102750000	-29.2267133910937	9.21800806556137	-12.6117174974686	-9.24649437451464			-58.7375706402172	-71.3396117710045	-3.62137464108587	70.3921472067472
103437500	-29.4379648975011	13.1290325633205	-12.3066714748206	-11.2717715897293			-72.8164809883734	30.8247328532538	-3.5390345026586	67.7754258455242
104125000	-29.2310522482833	7.39295754332681	-11.929552599371	-14.257515414093			-54.3459428739629	-84.8588065321984	-3.60606273944958	64.5755278892613
104812500	-29.5574174370879	6.88395899427759	-11.6628570056651	-16.212507611202			-64.266872543167	-175.802964571914	-3.59209217353405	61.8556689826081
105500000	-29.3224477284102	6.94369822612014	-11.2934142414941	-19.2507873204462			-56.9467018688468	-48.37312985943	-3.61938197388566	58.7427688815157
106187500	-30.0739848338238	7.01688149977544	-11.0630929983405	-21.3503719373707			-70.6076467207875	99.2284497108632	-3.61679301178092	56.2152923280384
106875000	-29.8554081482191	0.332558029565823	-10.7669201119418	-24.3767370298786			-60.5609645985349	-51.5455776421243	-3.69686615337759	52.9221881634366
107562500	-29.5232995072534	0.335151494521991	-10.5797299228657	-26.6609365069304			-61.4904646980225	58.5610812138668	-3.70015830169253	50.127365307086
108250000	-29.3505752289899	-3.4593773167479	-10.3081446807914	-29.1524556930097			-58.6363963899587	-36.6421476198605	-3.74721036417709	46.8294864475442
108937500	-29.8297193254493	-4.57371220826578	-10.2182671643208	-31.4533233021118			-57.7499811352289	179.611235685637	-3.7537607616175	44.0098418943862
109625000	-29.7466026422057	-4.07851098659105	-9.98661060585059	-34.5907292584907			-61.6883444845276	16.4201055648516	-3.79366198370227	40.8956648291559
110312500	-29.7965709791149	-5.539974769958	-9.92830664537354	-37.3792975826232			-59.6410402084972	-119.972211141591	-3.83905029978374	37.930108579973
111000000	-29.6982112853479	-8.44241310549245	-9.80085719741099	-39.8059214307968			-58.3887390512315	-39.4817082791175	-3.89242400013779	34.2463962475366
111687500	-30.382641471723	-11.8747754495902	-9.8781241452027	-42.3800213947945			-58.3423333064305	146.367402655132	-3.9359801507958	31.4118804105317
112375000	-29.3518499642289	-9.55474962338961	-9.78057592760225	-44.8986681830124			-65.9938516888159	-1.14538855010758	-3.99409189591897	27.9247414994815
113062500	-30.0102654576435	-13.4077635358727	-9.88439455945322	-47.3288548710734			-64.8373163549541	155.86520334054	-4.0478880446795	24.8238788253518
113750000	-29.836572684179	-11.5204911631972	-9.90595098114345	-49.2988158519727			-56.347311269111	41.6693106569491	-4.10171185533205	20.9943054269724
114437500	-30.0424429824069	-21.1599552164056	-10.0793219234918	-51.2304787015385			-59.7527485608658	-81.192936671792	-4.11906189919073	17.8612299412304
115125000	-29.5335466368587	-18.2562309340981	-10.2079600569308	-52.7964867245503			-68.4396056025976	-171.712513554039	-4.21564103848394	14.1787491686334
115812500	-29.4932774523366	-20.8151149342364	-10.4201808692112	-54.164613513656			-76.4922410567026	-71.8263952115182	-4.22871460710131	10.4108936263947
116500000	-29.4193517313098	-22.323548259444	-10.7530554343577	-54.8650468287435			-57.5451004744498	64.9935097024957	-4.28814382991457	6.72537540094238
117187500	-29.200650578249	-26.0924218181978	-11.1450446158337	-54.8876578600086			-63.0196794480903	-177.605866023353	-4.35235782988152	2.99342395830492
117875000	-29.487815314701	-22.0927075073475	-11.4950014174122	-53.9827430573942			-66.9876991036945	53.9935670627152	-4.41854766469018	-0.991854266356335
118562500	-28.8414192531836	-28.7882205923609	-11.8985117493558	-51.9276418825413			-55.0171924736997	-96.7496158455366	-4.48317881634087	-5.04682651471617
119250000	-29.0804312638476	-29.4976928473815	-12.2993296655853	-48.5629662651079			-63.9571052613886	85.9748795229427	-4.60292995970275	-9.32812910529493
119937500	-28.3769728279608	-32.9651068023169	-12.5589566801105	-43.3377040655279			-57.9189187373438	-115.124677677233	-4.64731007045243	-13.7297271543636
120625000	-28.8214082506122	-33.3270237525423	-12.5571266557676	-36.8647924414297			-68.6592271107595	-141.949243797088	-4.75362595969828	-18.2357969353001
121312500	-28.0380806521136	-36.6583446259272	-12.2279983773719	-29.6162768886262			-56.2171595488752	-48.0541445734577	-4.85516788286142	-22.6858846317159
122000000	-28.6304291783899	-38.2231215600103	-11.500924931971	-21.5440920384026			-66.9525784884966	-5.36810815309	-4.98326107832666	-27.5741758195225
122687500	-28.3385916993199	-38.0121520695455	-10.2746869624504	-15.8955884253169			-56.1322205916734	-36.6986282446339	-5.12138677579832	-32.3206492094071
123375000	-28.4299606667091	-40.3275577173872	-8.94301139252303	-12.2170851066819			-60.784867397354	174.532228830889	-5.28385468870326	-37.5853546555874
124062500	-27.8501145616271	-40.6886015021138	-7.49537605073618	-10.116882603588			-66.7459313901192	-4.14911197605157	-5.44377916582169	-42.428290066793
124750000	-28.0524498918438	-43.4202371487889	-6.05411206639507	-10.3594885069313			-68.7787311228526	64.5794791263225	-5.68307287363847	-48.0411407570222
125437500	-27.7548395100412	-41.6482512646302	-4.71344665591286	-11.4720027738788			-56.4112261281804	37.2650303964751	-5.92950180845473	-53.2510593974629
126125000	-28.5005917758888	-45.7465711900906	-3.421184661158	-14.6163950164742			-65.8573096126927	144.171899606255	-6.29069378285003	-58.8506664160158
126812500	-27.7658720599864	-44.6507394731966	-2.25222882463265	-18.0241316976159			-57.597306534602	-26.1131666616006	-6.57962440735764	-64.0368688411044
127500000	-27.5727537431844	-50.104888192234	-1.24959781319715	-22.3073053010237			-57.866292602913	-114.931461331179	-6.93673755790542	-69.4819569301606
128187500	-27.6810449999126	-48.0375251683778	-0.319610179218719	-26.9853631436012			-55.4249416889083	4.28207402333881	-7.35998713626437	-74.4977524248413
128875000	-27.5058135131746	-51.3651515757229	0.531570073724165	-32.4189121188722			-64.4919338131883	15.232791014474	-7.85751292222316	-80.2638409302136
129562500	-27.5190412886507	-50.4324711762945	1.25016183853019	-37.3079721886928			-59.6086383142953	34.1548636962995	-8.27279808442931	-85.0468316133407
130250000	-27.4050330138903	-53.8742890523774	1.90642275285563	-42.8244129170032			-61.8416558778155	-60.995770346763	-8.84464593615877	-90.4308254017855
130937500	-27.6354531145016	-53.2908007835811	2.47452395683811	-47.9840353885962			-63.6347160429327	-10.5126150942906	-9.34495159826581	-95.0524243057902
131625000	-27.3769141695532	-57.1978738523437	2.9545589085327	-53.5775700869154			-56.8102201600212	-65.2403396554936	-9.93330931093125	-100.120211902315
132312500	-27.7171144368415	-55.6429163119024	3.36270826913382	-58.4914928298156			-59.912208404529	-29.5308354347132	-10.4770274113691	-104.39582106129
133000000	-27.7359010640636	-57.7947814138206	3.76954186744061	-63.9706839602566			-54.6426083137474	-85.0265785731167	-11.085988955336	-109.184879577828
133687500	-27.5581280985824	-59.62984634368	4.05375978319441	-68.3879726877524			-61.7795342478264	69.8657192045402	-11.6766193196792	-113.653517365825
134375000	-27.5814271643569	-60.1181248020502	4.36146600370976	-73.5374089927557			-51.4960789552153	-64.7683931283651	-12.291949697171	-118.488482131821
135062500	-27.7508679860258	-60.1505263352266	4.57004288327134	-77.9135140190769			-69.4557780826099	82.3635590238372	-12.8960235683855	-122.243022562634
135750000	-27.5231390103705	-60.9276199019124	4.81776791847078	-82.7627762426053			-56.239603635379	-33.7857532304371	-13.4720870698496	-126.658015088767
136437500	-27.8416635919876	-63.1953837031294	4.98203456500267	-86.8871138744623			-73.8669009147224	13.7121035716707	-14.0763661520829	-130.989295671764
137125000	-27.4818708952473	-61.8454145147005	5.22924400464527	-91.300502807381			-57.2643600149814	-83.3056968069941	-14.6040931072116	-134.650409966719
137812500	-27.9441250981981	-65.344943123193	5.3384942837828	-95.4201890183398			-57.5174051547097	-100.444788577817	-15.2384133118629	-139.541576538623
138500000	-27.5105136150692	-67.3161511736239	5.5263569297102	-99.4153629699733			-58.1555852151647	-122.738549801993	-15.7735250639825	-144.850289223498
139187500	-27.9255011920355	-68.5408588053887	5.62984807022527	-103.546497030148			-58.5320944953371	-114.37906633204	-16.3645438092764	-149.023889394183
139875000	-27.8770597365315	-66.9064749822649	5.76898771503315	-107.359453302187			-56.8290037598799	-71.802990167551	-16.8981396811729	-154.590011005252
140562500	-27.9384198125352	-69.603414400256	5.87243563649099	-111.17180048563			-64.4785451703046	-164.94659407695	-17.5158402214155	-160.316122016741
141250000	-28.0747001558718	-68.6854081008218	6.00064696766949	-114.956519008122			-54.6893125585268	-62.9645714032939	-17.9773997240265	-165.340271401471
141937500	-28.1600960453372	-71.653857981788	6.06563048382868	-118.477551590737			-62.5474371313726	-137.990787493995	-18.417848066305	-171.71854760379
142625000	-28.0615258261159	-69.6793620302053	6.1920540475874	-122.201787945852			-57.4787298062901	-83.7194876916379	-18.8906053073748	-176.705996586718
143312500	-28.0543641556486	-76.4129828874363	6.26222965099528	-125.621904384121			-56.5279909231762	-129.831556241629	-19.3297192650125	177.291270003907
144000000	-28.2885338691382	-74.4998798510692	6.32876287922619	-129.004756367508			-57.8876667670457	-78.5222693994292	-19.6391454528109	170.246178405748
144687500	-28.1621042190612	-77.4699410942487	6.37357771336355	-132.645564004961			-54.3139563009979	-134.943448380495	-19.9088508540631	163.571432438352
145375000	-28.6460496806646	-79.5972131998425	6.44297796244396	-135.944398751554			-64.2687507647966	-132.739328351987	-20.1129099012152	156.344681807026
146062500	-28.1756780454019	-78.2697162727024	6.49994874455449	-139.237988614164			-53.7873201686607	-102.531943186968	-20.3576256197036	149.692617821931
146750000	-28.8541810409068	-76.3987696217918	6.54934386682581	-142.514695038318			-60.9790577221015	178.595815225346	-20.4508577735644	143.276266803248
147437500	-28.376132245208	-81.2516924200416	6.56490301350914	-145.58868735953			-53.973714829254	-118.876184535932	-20.4578962711725	135.828887336386
148125000	-28.9525597513238	-83.6766539216379	6.59317559598905	-148.848216073032			-64.6749220145263	-18.2931567702207	-20.2624047616876	129.259267783073
148812500	-28.4498548203613	-83.7224372129261	6.66758036856464	-151.813023091648			-55.5634493376084	-99.7776032479713	-20.2484907685812	123.012267280513
149500000	-28.7808380532417	-86.146582232514	6.66039667087172	-155.067271489478			-57.5655090271015	-129.705346408942	-20.2158074735485	117.073481093232
150187500	-28.4887522531973	-87.2222475293938	6.66692327371907	-157.814200815606			-56.1144841959192	-110.850696211611	-20.1078407469699	111.096388161619
150875000	-29.0922158093391	-87.4835825998529	6.7099141588195	-160.829323642039			-69.9500606817965	-134.888440396718	-19.9181832883685	105.214233790003
151562500	-28.4786748271668	-89.3369843324752	6.70954192395169	-163.515757338298			-54.2484507710616	-93.6064312644735	-19.7254210807348	100.222139858076
152250000	-29.0559953245518	-94.7210048797114	6.72228284026146	-166.604231327636			-56.0066901316196	-172.635856837105	-19.5804883278811	95.3974867585664
152937500	-29.2129162886283	-92.6828645924034	6.73109708573889	-169.178721050254			-64.286823967322	-85.7478124349067	-19.3854310661294	90.47361696319
153625000	-29.0395210995603	-98.2549323523231	6.76260549657869	-172.121171395208			-52.2450937283957	-170.722266092376	-19.129648557977	85.6522603000419
154312500	-29.0624489848057	-95.0210905413552	6.78010906542628	-174.24868032147			-59.2860653452047	-86.9941382962082	-18.7951790404756	81.6128655370903
155000000	-28.7846038431804	-102.545484258583	6.78009786070458	-177.469960519498			-55.7036607061101	-177.816952846984	-18.636197692124	77.9215985525545
155687500	-28.9245028168786	-101.607523102191	6.76682669846717	-179.592740822853			-59.3949832020958	-67.9857801047048	-18.5043550889516	73.3468292667392
156375000	-28.5705857468238	-106.553153405582	6.81379462930715	177.627577936988			-51.0536210543147	-139.897526872634	-18.4531841375964	69.9633635424309
157062500	-28.9368907994743	-105.036699018062	6.78814614641367	175.166888755947			-66.1596954912458	-125.529143699383	-18.1517871495937	66.184767224058
157750000	-28.3311125620566	-109.202674464223	6.84996790316319	172.766384526347			-52.5208990197855	-174.019309042464	-17.9850552819685	62.4891735391661
158437500	-28.6440946245587	-108.351356907524	6.82997541055764	170.364853585632			-68.9092728018149	46.8507798439034	-17.7174862173038	59.9126592961257
159125000	-28.1720618673405	-110.870349463452	6.87806157157105	167.716480105576			-52.1604174314879	-168.276055858474	-17.6211754837481	56.0160307813355
159812500	-29.0795100388741	-114.476787631386	6.87539470059318	165.334389424632			-64.7230944429171	124.110220024369	-17.4546422537022	52.6794696334503
160500000	-28.2023977528615	-113.46131627932	6.91747372883583	162.784736410963			-55.1054884020391	-165.848302291526	-17.2746372061783	50.0233960883389
161187500	-28.5142458953482	-116.034828443474	6.86712170533769	160.713700820552			-58.1500688246545	83.6303725384059	-17.1522215826836	46.7653186880742
161875000	-27.8855343560952	-114.668777285922	6.94597100233747	157.995803020991			-53.5035248866684	-139.044815927003	-17.0749167074569	44.4148780558132
162562500	-28.3917191615131	-117.856586018892	6.92765693925012	155.576493424214			-55.2528635694791	166.131946049805	-16.8844248811465	40.6396344400378
163250000	-27.6826577891282	-117.066702717502	6.9526549482417	153.164340752432			-55.0048165496206	-91.1155629743986	-16.6858863595467	37.937571071539
163937500	-27.7914919157338	-120.081907113371	6.95104038287827	151.000420938499			-64.4530092544611	170.259215632566	-16.5141440532983	34.8667537955134
164625000	-27.5946794187839	-115.910857464138	6.97569048430549	148.386941464521			-59.9037853525686	-149.083528947506	-16.4669725907627	31.7355807724882
165312500	-27.9072930790026	-123.872418400589	6.95560336790309	146.074750650527			-55.3679234630908	-177.475205181256	-16.3753215330422	29.4916798830223
166000000	-27.5313163674717	-119.18883173253	6.99130366910332	143.541180776825			-65.4894074716888	155.23786801769	-16.2676212270894	25.7069502015551
166687500	-27.2689479837701	-123.036377168722	6.95738672855115	141.285545081331			-52.2585304270084	-161.20099295064	-16.169493484325	22.9333675389765
167375000	-26.9195635961871	-122.310367190963	6.99643776414154	139.08391330262			-57.9463410066804	-152.985468326737	-16.0993371375843	19.4589953522952
168062500	-26.8007127589997	-125.762134511944	6.97785365583639	136.84545155574			-51.324557969713	166.674185179302	-15.9694338023495	17.5248503501579
168750000	-26.8033457414862	-122.978752593891	6.98531418924987	134.537467600125			-61.8427991411825	136.236949575535	-16.0020940476599	13.7279441023139
169437500	-26.7229297779288	-126.369593705449	6.9456714947277	132.572853094968			-50.0408402139735	152.912583854424	-15.8948410295185	10.8633273009053
170125000	-26.774946158005	-123.424763185213	6.96556607639039	130.153555544735			-72.2481047941437	131.138059926744	-15.8003468414914	8.46566500696228
170812500	-26.4245198915095	-125.930817699214	6.93908546617355	128.024265347911			-51.0680992502811	-155.6639545301	-15.7796929276158	4.88121631089665
171500000	-26.7724547354051	-126.422405345692	6.96966295449664	125.823847995795			-55.4127980554394	162.820389262168	-15.7803131331896	2.33660343259616
172187500	-26.3499830728723	-126.18028159328	6.93113139298054	123.594570078002			-59.5615377445272	178.352195397299	-15.6138038232518	-0.405204348157097
172875000	-26.7984271832851	-126.997205237052	6.93914923825903	121.602546773868			-60.5459412942039	89.0151906314114	-15.6345179612902	-3.79524066514686
173562500	-26.0759022149177	-127.013898566764	6.90350140741863	119.697727208943			-53.444704341608	-177.497324516634	-15.5393259418805	-6.54683846264711
174250000	-26.1935718436707	-125.34233723266	6.9344302819274	117.501662336205			-58.4348674409763	68.4552528935607	-15.4252346419981	-10.4423191788494
174937500	-25.9081952359415	-125.755444931097	6.9041951754257	115.68238575006			-57.7859964859202	153.349569080574	-15.3552567629845	-12.7706865990839
175625000	-26.0012454189212	-127.963998601184	6.93118178743759	113.525344459972			-60.1439678468586	128.803613917534	-15.3692288534028	-16.0386334975058
176312500	-25.6305782982618	-127.080701003652	6.9340296512777	111.551608321008			-53.7167686612555	-162.69882685293	-15.2930572950636	-19.0142322660586
177000000	-26.0278997757972	-126.045712842715	6.94669283063978	109.610764030907			-54.809555971256	84.8162729234975	-15.2267203878916	-22.2586198249423
177687500	-25.8870385497699	-126.945080735796	6.96037202738253	107.736863859067			-61.7305980379908	175.748869300992	-15.0599509328306	-24.9522881025753
178375000	-25.6654158789237	-127.259032806394	6.97495291201265	105.566708929552			-60.9413989469753	101.941007806234	-15.0842717642413	-28.1332356541449
179062500	-25.4717918817204	-126.211178656561	6.98688693331452	103.647087172382			-53.1004817216093	-157.816851249515	-14.9848378322115	-31.082565773918
179750000	-25.4563153958048	-130.066087999312	7.01049441633491	101.590121715376			-52.4631973522434	107.216827749703	-14.8580043497991	-33.8004421991075
180437500	-25.4379935842838	-125.041116095772	7.02433414317377	99.8187095612008			-71.654381531178	158.466873789115	-14.871020319628	-37.0425107440075
181125000	-25.6843151636624	-130.478903294065	7.04759168471245	97.6333158308615			-58.3163863943107	124.506229565042	-14.7783103344463	-40.0878120533689
181812500	-25.6410994192626	-126.970938902958	7.06357752898858	95.9112898471013			-67.5271842841234	101.413190436163	-14.7517356274856	-42.7094770325452
182500000	-25.3231483249791	-130.996731425281	7.12007828256656	93.4458003200472			-50.5942946631421	133.415425311122	-14.648576609083	-45.859905549872
183187500	-25.6362922180883	-128.339323362633	7.14488329860626	91.5098741954861			-63.8251302669258	-104.517036359283	-14.5496239017952	-48.5328716377209
183875000	-25.7212800500677	-132.415798329236	7.1820043513072	89.379729088306			-54.2084560754657	151.223670940411	-14.5129406413872	-50.8780296001876
184562500	-25.4868381450237	-128.971395117372	7.15265340983763	87.6386898745601			-60.1241718522305	55.5030782508976	-14.4168744265471	-53.984941699071
185250000	-25.5861474378216	-133.137947537968	7.21185805440592	85.2374445921951			-52.3294615388975	147.400408472398	-14.4180829192808	-56.5569804934622
185937500	-25.916225332457	-130.722027103452	7.20345917268555	83.3227868947122			-53.2005464883499	105.231029960567	-14.2914637665061	-59.2485654420594
186625000	-25.5547943174214	-135.668549275381	7.22523975736303	80.9567846439124			-56.8760701109916	163.245839504292	-14.2614272881052	-61.6007628363729
187312500	-25.6384709256561	-134.922920417252	7.21409714249254	79.0033709651597			-59.7073782310892	139.551878163189	-14.1289979111497	-64.0884939605883
188000000	-25.5896261567447	-135.105198099705	7.22315884367115	76.7262107069242			-54.9681038006886	131.298891489085	-14.1441443998977	-66.6186436812085
