# Hz S DB R 50
100000000	-33.3555943581082	37.750843893147	-15.3421408180034	4.54474112290179			-65.0383231950426	126.154627569273	-3.50950400507779	80.1596141038989
100687500	-33.9072132960622	35.0284891403418	-14.8301102081251	2.30972885569291			-57.4287340550044	2.85417030407709	-3.45810741212621	77.7309911902871
101375000	-33.9456369548846	34.652961781187	-14.3997283062122	1.01698673967824			-62.8674883906506	86.7811928435408	-3.47860243298587	74.8844040324732
102062500	-34.0231677643434	33.3913780042606	-13.9374829738128	-0.948501085075972			-61.8170624790929	43.5774606533222	-3.45297529324956	72.2231874749969
102750000	-34.1124032113434	27.294348762866	-13.6045695729125	-3.26396866302901			-60.3051643809369	134.221316067992	-3.45399177617856	69.4943379469451
103437500	-34.3111751129012	28.391414947184	-13.1318225696109	-5.45432764198956			-63.7671102017618	-35.2914335927604	-3.4211507792328	66.8684548688044
104125000	-34.1569287557203	23.2953815213519	-12.7821883314908	-7.81895487441334			-56.4290561027683	138.413457137026	-3.4736026602367	64.2414759113812
104812500	-34.6564851096451	22.4654626892895	-12.3728167881596	-10.3269497352309			-61.435021747521	-26.8098954031134	-3.45679441979961	61.4421747759112
105500000	-34.8111618569074	20.7855440831514	-12.1179646133253	-12.6019854302091			-63.5849765808912	138.054963385451	-3.46271208756835	58.6602440660811
106187500	-34.9944822755374	16.2373874750626	-11.7262957166749	-15.1675726771129			-70.8468202927296	66.534615449972	-3.43264653409791	55.9732389957352
106875000	-34.9269242913843	13.8477778536683	-11.4784581930935	-17.6107846339715			-65.8112640151067	-108.804499901225	-3.48603052899059	53.1017779507987
107562500	-34.5174475943974	10.8051084037118	-11.13999317059	-20.026222543896			-59.5649615903438	88.2118185744181	-3.41615918983368	50.083819350336
108250000	-34.0866440249761	4.75956864426595	-10.9227535977899	-22.718744230091			-59.0723179327038	-61.5922744811922	-3.53352598675046	47.267837406599
108937500	-34.5700669355463	5.4311763733302	-10.6997876665721	-24.748795782508			-54.6162590511863	59.1266532823582	-3.48924898991135	44.7110100316877
109625000	-34.4753287002478	2.2122912416454	-10.4662264794744	-27.5778807366082			-57.8942067644877	-81.5130831779948	-3.58869581989058	41.8484743625507
110312500	-33.5220131305954	4.65617001049154	-10.2858735070331	-29.9541389807363			-62.7203356605609	-94.9618349537105	-3.59132830368205	39.1629137923917
111000000	-33.9087973120176	-1.04353119882736	-10.0812250198575	-32.9514250601248			-66.9465679077132	92.2404261843718	-3.67903105630545	36.1209378233751
111687500	-34.0199705881284	-4.61157807850123	-10.0152169518261	-35.3082702024042			-61.7191205037105	65.4794667880794	-3.67695002555755	33.2137535782252
112375000	-33.0391045905209	-4.14802595223562	-9.86404850004335	-37.6691680761865			-60.6816071678639	-33.7251894823988	-3.76816350171479	30.2295250414144
113062500	-33.5654755104215	-7.52099092033633	-9.83011686020689	-40.0384748036897			-60.0944643508181	66.1644995621912	-3.75204294896395	27.7041174778482
113750000	-32.6932182127562	-6.96526067697228	-9.75760644489566	-42.4091374975788			-67.809532367945	-113.050994603275	-3.8712755960042	24.4794094033796
114437500	-33.5016935205507	-11.3185959795031	-9.79992477863061	-44.7272297905563			-61.5124888278622	0.113950272974953	-3.84496231694378	21.4638617783835
115125000	-33.1109235722609	-11.3079717623431	-9.76369922810438	-46.7118975304544			-56.3807653976286	5.39724761563411	-3.9380294118085	17.9731269589721
115812500	-32.4653811142445	-10.5471365856464	-9.82973763509772	-48.8165016249862			-60.7431418020362	170.014991848553	-3.97118266981859	15.0018615921965
116500000	-32.3962558053078	-16.3136144109915	-9.94295129099803	-50.5983519130482			-64.7558349120979	17.6660556049287	-4.017266226469	11.6379250652915
117187500	-31.9621895248574	-14.8586686878335	-10.1545113577107	-52.3378996958686			-57.683886342707	-159.313542447402	-4.07871185129763	8.40680924048637
117875000	-31.8002228915599	-14.1899666461725	-10.3184443484672	-53.0909959815373			-60.7517256444244	-23.555280949776	-4.16847502201919	4.87956567439897
118562500	-31.6902061583244	-17.7171688198563	-10.569549993494	-54.3122364757561			-58.494832957992	-91.7263608871361	-4.23026613656404	1.32637988906734
119250000	-31.105159446018	-19.6977590745903	-10.845357535408	-54.3264103921932			-59.2789474872028	-53.549751137334	-4.35182807623391	-2.50784745642312
119937500	-31.1883517214977	-21.1847594778609	-11.2217788562591	-54.1939862251766			-61.4365783190229	-100.60792159515	-4.3873127607365	-6.46702038792829
120625000	-31.4257911158745	-22.4539517639138	-11.6058545053288	-52.5085865485454			-60.0289981225882	-6.96707900923492	-4.45819416773316	-10.3588286126319
121312500	-30.7377810418467	-26.6855480652978	-12.0104978016998	-49.9162583156601			-55.1047321703019	-164.203392680383	-4.55623423786114	-14.6335330436775
122000000	-31.0211240126612	-24.7735453447707	-12.2736752419205	-45.1792339322921			-54.5684792758105	-3.39227542479634	-4.68391887388663	-18.8679353845459
122687500	-30.9981170295126	-26.7058160324562	-12.4262973317009	-39.6191378074082			-65.8818532592125	-171.113549603134	-4.75828432004286	-23.3244118369295
123375000	-30.4394321120232	-26.273728744523	-12.2516569345478	-31.9219181693895			-58.7544899271138	10.3386644256851	-4.93515719764175	-28.1091743811058
124062500	-30.1074646199767	-30.8413994583723	-11.6479691765601	-24.4762785287055			-59.4939342811969	-87.339082639338	-5.04646445190318	-32.9740180172943
124750000	-30.5363993160104	-29.7481835856434	-10.5579799594872	-17.7216920380379			-58.4350777096637	129.297900434005	-5.21145294492708	-38.0648113211996
125437500	-29.9999837009157	-30.2992800148636	-9.30115198512806	-13.1370759913784			-62.9134273251823	-119.39517900896	-5.35906757388863	-43.5079409210456
126125000	-30.3298805506723	-31.0678238423243	-7.90656183595645	-10.564785627365			-61.3052323593502	-69.06102465182	-5.6369075031319	-48.7259186272597
126812500	-30.2043995950244	-33.9872844957677	-6.47528919303346	-10.2865277794327			-56.4890515641266	-89.5553069548836	-5.86030189959988	-54.2518653964125
127500000	-30.006011000617	-35.1884449836559	-5.08514738692196	-11.0904189891499			-62.5568093546696	6.45223886053189	-6.16872019695086	-59.8316406183764
128187500	-30.2032024057382	-36.1366596079034	-3.80352705242482	-13.6502176551975			-58.3847497679128	-44.1545172465759	-6.4008698135165	-65.6033490145352
128875000	-29.7435807683222	-38.0521646273932	-2.60355354297169	-16.9055147774836			-58.3652712378554	64.1406526782606	-6.82168369939081	-71.5336111538858
129562500	-29.6721359068071	-39.3523355916788	-1.54464314409	-20.8182398591196			-65.6579241317611	-64.0413508524445	-7.08252114629703	-77.4645927716521
130250000	-29.5755574445026	-41.4670862957675	-0.569378112818863	-25.3301021985022			-66.2546221484691	128.130484209812	-7.59709858998575	-83.3568627859044
130937500	-29.5860163846575	-41.6409184584143	0.286332038443038	-30.2816690735558			-59.3014789746778	-30.4927789288632	-7.95132293636955	-88.9704988914808
131625000	-29.6703005449402	-44.7137158848541	1.01542577213732	-35.1733403493361			-71.6977094386791	-112.908898118383	-8.50000127320021	-94.8723501078004
132312500	-29.7566896587059	-43.2493470534117	1.69038675594789	-40.1609954894332			-53.801324444469	-80.2023697169077	-8.8816620617353	-100.386482744438
133000000	-29.7201905891791	-43.9697296215283	2.24497482127134	-45.7576044731953			-63.246752659265	-126.45422350705	-9.44367624703259	-106.040852960461
133687500	-29.3795856905472	-48.8674564076696	2.74435172819333	-50.5833675660958			-53.6189300898507	-41.4396623245136	-9.88079552428646	-111.009285446938
134375000	-30.0577669593662	-47.1528134920523	3.20851998697117	-55.591748503651			-75.4266348242202	98.1515675863792	-10.4646642370707	-116.899343163027
135062500	-30.2764344053398	-50.4435155995739	3.60668900684983	-60.4663910724194			-54.8944477954858	-9.31871461427102	-10.9272356163007	-121.513062499517
135750000	-29.9182397278827	-47.0650938151211	3.94164245226637	-65.5793405175335			-67.250106747014	-164.949699042607	-11.4899633582193	-127.088040010054
136437500	-29.9684310349276	-50.0066908698487	4.2687796286203	-70.2643859528216			-62.9589703689112	-6.47641083226827	-11.962507204689	-131.730621095831
137125000	-29.8291612909654	-53.1594952869791	4.53986225004527	-74.844422218496			-62.5771318226015	-138.598071849674	-12.4781784030054	-136.035000577607
137812500	-30.0370683742946	-52.4753245479526	4.79728820452674	-79.2607668944131			-60.2443345759037	19.1663383109829	-12.9291296933243	-141.067579165872
138500000	-30.4028332786864	-59.5252426847092	5.03899352216176	-83.6913989927444			-53.6247257466206	-106.800485740902	-13.3354630461018	-146.450567155544
139187500	-30.6470374167103	-56.9072743807974	5.23968495460872	-88.0656862090464			-65.6131906227773	26.4786340536124	-13.9080924962441	-150.991441143806
139875000	-30.9840209637816	-59.1884417220239	5.39364982665093	-92.1214609270708			-53.5097259960949	-118.976071826627	-14.277438610441	-154.908019207303
140562500	-30.7936439969056	-59.5902557780436	5.56640282601142	-96.317440678376			-54.2509645308965	-26.2337753805714	-14.7675299087783	-160.036061892536
141250000	-31.0182482329735	-61.9409710628475	5.7424568768965	-100.238379588537			-53.369861998423	-46.6044216930684	-15.0551562844427	-164.258936825083
141937500	-31.2210439697493	-64.5392433514414	5.85636212956631	-104.330967451783			-68.3369896323572	18.3261006065588	-15.540654952919	-169.198573473631
142625000	-31.0089966954644	-64.2097817650794	5.98534773314841	-108.158135972051			-57.5803958003583	-81.9422592135955	-15.9239097364625	-173.295213491461
143312500	-31.0408230905759	-72.8967596356621	6.10291161202201	-111.930269952629			-62.6216987595802	67.6783779408281	-16.281032847016	-179.301168215527
144000000	-30.9896864051134	-66.580193239125	6.20530370578445	-115.283784293721			-58.1010110152754	-93.8443736691911	-16.6645814241035	176.689500445318
144687500	-31.198142619294	-72.6080535491062	6.28691038625637	-119.414245497449			-60.6197404976056	-132.145431395796	-16.9078113164815	171.243115707521
145375000	-31.4208615105587	-72.9128838462985	6.38430988296583	-122.804631323454			-56.8865276013524	-46.6001783320584	-17.3638928182352	166.637620983581
146062500	-30.8591212068834	-74.3084276893521	6.47805602287222	-126.469305969672			-53.1823459784065	-150.147924464342	-17.66053992628	161.329012420627
146750000	-31.1725327265553	-75.3531570258667	6.5221561121634	-129.774389804938			-55.0260215577372	-47.9623918083936	-18.0236048113214	157.05872087914
147437500	-31.2237138351865	-78.6670082450686	6.59030337673024	-133.267203553006			-63.4493692243539	-176.120228184618	-18.1194291928361	150.855745676226
148125000	-30.977742877422	-80.3825002806965	6.60891318153771	-136.55542913712			-54.8566944850838	-43.9342485489542	-18.5231256961689	145.660334615352
148812500	-31.0898263950727	-83.675265120006	6.6989828982294	-139.909561448269			-64.6526403898647	-171.399672330225	-18.5933503172538	139.58169618071
149500000	-30.887598224345	-86.4202796987354	6.70566378347344	-142.926801372021			-55.8945729755835	-63.4034591182595	-19.093487519902	134.485573975377
150187500	-30.8973875052914	-87.5598988089164	6.74571902691271	-146.101550761012			-55.3641502883705	-120.72326558781	-19.2873194831631	128.511306438955
150875000	-30.5842341592218	-87.7464038443159	6.77558310706098	-149.24584887926			-58.8024793226208	-68.4583475725538	-19.6340094799974	123.319625132486
151562500	-30.2714567876236	-89.6873543357589	6.80263436316727	-152.098754762365			-52.2408497811924	-116.266508984023	-19.4642730979899	117.897088889866
152250000	-30.5163205389678	-95.5037577181162	6.80853705777338	-155.204613952197			-65.559604404146	176.417020129774	-19.6896722549289	111.576290873152
152937500	-30.5653848949644	-94.6773713322203	6.86980124116347	-157.887586109521			-51.9802296152395	-113.714716142176	-19.6230946785037	107.049157441459
153625000	-29.828656282821	-98.4490752329926	6.83072062834109	-160.898691320781			-58.2184779246317	42.4088300647604	-19.7685802744795	99.5043332406432
154312500	-29.5192212594813	-100.576401492729	6.89694271012394	-163.430145073502			-56.4634294516788	-143.096677958423	-19.6227160190774	94.7622166493902
155000000	-29.3305229654472	-100.909669947893	6.85198483361227	-166.569056468868			-62.4478818138717	-119.04888145798	-19.5525551039675	88.5413083367137
155687500	-29.33728571011	-102.508476028893	6.90023241767389	-168.965136056726			-55.9279915500601	-123.102873913541	-19.6544542042588	83.4455778446905
156375000	-28.8874193329551	-101.84032029146	6.90995214574616	-171.736290682648			-72.4113087566108	38.7903705908084	-19.4584644335534	78.1215870192291
157062500	-29.3226551062406	-103.121766459692	6.93918732879671	-174.179777795612			-54.049517618975	-117.496028351376	-19.3647566763595	72.9001741264108
157750000	-28.3975169806998	-106.42460547227	6.97185244278273	-176.850230244138			-56.8286260431084	143.788345436821	-19.1105904273132	67.9845002466332
158437500	-28.3022940420598	-106.885705104456	6.95923424753289	-179.372101410774			-59.4210188451558	-117.413448396989	-19.0329397994501	62.5860585076352
159125000	-27.6588925340939	-108.193959787451	6.99601771640107	177.953104938134			-57.9996578884493	-160.08762335047	-18.6124462453968	58.255432117473
159812500	-27.9462135829404	-107.93662442437	7.01749935360186	175.552561080076			-52.6399852585221	-102.965709319626	-18.5546235119958	53.7505468442115
160500000	-27.6564910661286	-109.412120189349	7.03792237727577	172.999913277991			-56.5666369284886	-138.600154600496	-18.2714063838491	50.4282947775194
161187500	-27.3198233912704	-107.838821135326	7.00610175272905	170.671638413421			-61.2174087081599	1.88427069152301	-18.0223330428572	45.258805349393
161875000	-27.0469475901404	-109.273129553869	7.08587734967915	167.976389511385			-51.594299520898	-176.741728897199	-17.9186940088987	42.2850984519437
162562500	-26.9818320418394	-109.082311452452	7.06060646317518	165.445156589053			-64.376284444308	-82.3918382742468	-17.5543343867076	37.7441742019141
163250000	-26.5653653922995	-109.774566024088	7.07550440490495	163.026183653282			-57.3415159704143	-173.965644154609	-17.3637536524618	35.638315252309
163937500	-26.6974674991327	-109.389396746447	7.10119752066674	160.698420688412			-70.017630697117	41.7207744916259	-17.0887034803111	31.6792097002515
164625000	-26.3409655571725	-108.197768751209	7.05991984890358	158.077173867117			-49.4446628841603	-174.398924866257	-16.9426012490681	28.6212691670387
165312500	-26.3495197669582	-111.81951402339	7.08416905128457	155.76554366983			-65.1808342286219	-23.8963820367375	-16.6354993419784	25.1829094018047
166000000	-26.0010393691559	-108.431591219557	7.08593417717798	153.386554937345			-56.1640216403496	167.019472747772	-16.6056322157848	22.0326185562725
166687500	-25.6728077302571	-108.89963882445	7.0700895005185	150.983132225296			-61.8702391695096	46.8669636677791	-16.1907180592693	19.1604894464362
167375000	-25.5344380374485	-109.071217255596	7.08958956142496	148.746749681251			-54.2999789009967	-168.563348881036	-16.2758152698386	16.8987033160601
168062500	-25.4425196154318	-109.026889249155	7.06817238639271	146.424389667403			-58.8718419341421	141.342502571155	-15.8873304964135	13.7072532063699
168750000	-25.1873352359782	-107.881608700874	7.11473824929639	144.237246144244			-57.765513583613	-165.974307710472	-15.9165576742826	10.6934694819061
169437500	-25.3203581197012	-108.312106686292	7.04003818239722	141.826287218661			-58.1490300732213	171.010769815984	-15.6326889357851	8.68034904884265
170125000	-25.1610146320353	-105.984401473588	7.07992223513109	139.577044689468			-58.1755355365558	-156.740046982378	-15.6719594150834	5.41072387404387
170812500	-25.1104464476591	-104.45728532506	7.04720714931403	137.363471060873			-54.0388509036013	125.187680728838	-15.4143071609897	3.18655307841167
171500000	-25.0453814930488	-104.29487606851	7.05244651892693	135.293629338833			-58.1461502194604	-144.023243701635	-15.4112942399024	0.582572362126893
172187500	-24.7298253353141	-104.640282631216	7.02027643492192	133.158714570224			-54.0461740573169	114.426262765125	-15.2035752641788	-1.71519121569674
172875000	-24.8332559570104	-104.068850900248	7.04976685298216	131.209773697036			-58.6553875598294	-167.146417465715	-15.2370163965805	-5.38050702338018
173562500	-24.5112186681228	-101.811833506787	7.02404498382437	129.184277863435			-53.2159590512509	156.366495298283	-14.9933314710947	-6.81321929527815
174250000	-24.4332551256716	-101.436450411407	7.045919118474	127.147343200926			-62.8635421839472	84.1086632622525	-14.9133603662289	-10.6910354079711
174937500	-24.3657470108489	-98.2174613611911	7.03603226880614	124.96691468754			-51.6988816571876	156.215961049857	-14.9517863163352	-12.332337210214
175625000	-24.4097986984151	-99.5698681063801	7.02098585916283	123.164775901278			-70.354784659758	-74.4403545543631	-14.9455495504984	-15.1347160824893
176312500	-24.5107382921387	-100.538761335514	7.05262434299686	121.067117097715			-54.3888897240515	-171.382446627012	-14.8151478570769	-17.7467003489116
177000000	-24.4092772310687	-98.6898384855199	7.03777616546442	119.38614689799			-59.9264382859054	106.717184401317	-14.9240445768021	-20.2855698335588
177687500	-24.2543151810058	-97.0623888367324	7.04679577737048	117.157509185551			-51.0039311343936	160.517283678605	-14.8249189585018	-22.8315707180681
178375000	-24.3756726669796	-96.5523809955425	7.08667837867657	115.25490441969			-61.5729398791322	42.8973889151258	-14.8186629193226	-25.8340535720212
179062500	-24.3370937269602	-97.2361116523947	7.1089242576612	113.159668955345			-51.9419140540198	-172.092216783785	-14.87770066244	-28.0978412978331
179750000	-24.3839927651859	-95.2241040316679	7.1234159053481	111.300597830819			-63.6686775517554	131.231711615667	-14.7161555220891	-31.3495649716359
180437500	-24.3239746939553	-94.5540415403545	7.17011565412593	109.398085574383			-54.7524997716072	179.779370524628	-14.7793319945038	-33.8883706687487
181125000	-24.136721695783	-94.2115778803987	7.16831679499789	107.20913426785			-54.2943207965411	81.649069413807	-14.6708838115484	-37.1364149188042
181812500	-24.1646235387028	-92.8067676801195	7.21518710654633	105.330165180242			-57.9748639112802	-171.888964635576	-14.8455929155628	-39.616808884665
182500000	-24.2797357920145	-92.9184613578555	7.22694295444351	103.097168338498			-54.8827273464141	84.8995522256328	-14.7611157390287	-42.18286155136
183187500	-24.2380723358417	-92.7441770026239	7.30137283367864	100.987839435878			-59.0288721400984	-163.349448953389	-14.8017401915525	-45.806490192276
183875000	-24.4540408300519	-91.4512257440689	7.30916456444907	99.0138312237385			-55.3426099453695	113.256023191439	-14.9066079539916	-47.895721431265
184562500	-24.2684409666386	-91.6205544005045	7.30689976052504	97.0665097915126			-55.1062280167646	170.08853810138	-14.8629702309759	-51.7296231052381
185250000	-24.6250779855388	-91.104883040949	7.33995032273175	94.8372715121917			-51.9952574269307	90.9793299223482	-14.8735390713365	-53.929571300966
185937500	-24.695536713003	-88.7881352448719	7.34957112509276	92.7214516068656			-62.695303464116	-155.038694063531	-14.8596937517709	-57.4465421336539
186625000	-24.7248733008916	-90.2595680095899	7.36031030624833	90.5838640025557			-48.5927957656795	137.54615987821	-14.9069058816019	-59.6108444904038
187312500	-24.8034622734617	-91.5003664987528	7.36464670841337	88.4517796641051			-63.1826282220126	51.1469555688307	-14.7819100645297	-63.1700213574304
188000000	-24.8322836151491	-90.5984787444786	7.34542738975056	86.4305697794922			-56.9707153873731	114.669746683376	-14.8277871339457	-65.5487702045628
