# Hz S DB R 50
100000000	-42.8744702075856	14.093435915847	-21.2997216449845	2.66336064432984			-57.926565155873	-141.732240927638	-3.47391885469994	80.3366381692507
100687500	-43.3899227481993	26.2136684228886	-20.8656595479259	0.936795402688143			-70.1600887683981	140.511533186071	-3.43493483372642	77.8852092473321
101375000	-42.2361226378165	-7.96793405436066	-20.4181679902004	-2.37183393125488			-62.0651626357797	-150.042187065723	-3.45349852862428	75.0135925462479
102062500	-42.3776729610445	16.3025980205255	-19.9946752921408	-3.2788284642823			-61.0482890544777	158.063994907536	-3.41619485579847	72.4191041747258
102750000	-43.0919964518601	-6.35649853370928	-19.5537253012656	-6.34604199194118			-53.7200781474184	-120.239765261646	-3.44089126272973	69.4716701310792
103437500	-44.3306854239335	-22.7413332770509	-19.2248412089301	-7.97426311594187			-70.7986713708949	105.700190236147	-3.40363453609671	67.0487567519192
104125000	-40.72440505589	-15.6697390069954	-18.7786441136459	-12.2865070939322			-68.1133050680245	-146.698339261586	-3.46902244629287	63.9660988892613
104812500	-43.4165468852357	-20.0245558298707	-18.4641260930364	-12.7153792492593			-64.8773099255065	89.8335475205286	-3.47584373114774	61.398804168682
105500000	-40.4148034093985	-31.2040223507302	-18.0050602612682	-16.3157712291738			-55.3674954089472	-66.513936065699	-3.47378959614815	58.3468036234172
106187500	-42.8704085780344	-31.2413023122031	-17.863587625507	-18.1363442365735			-60.2792013564202	104.826871586995	-3.47195600824647	56.0223504610876
106875000	-40.044956915921	-34.8785686063551	-17.4906812867652	-21.0430305669551			-61.3508562908447	-1.64379151691385	-3.47720756593282	52.8358978397608
107562500	-40.6634038673911	-43.0530055017447	-17.2285875303584	-23.4040821872937			-64.5723986608921	134.791956369412	-3.45848558085227	49.8676933061111
108250000	-37.7031910812996	-37.4799125360779	-16.8457011048252	-26.9294812459501			-58.0591441546272	-81.4678331489682	-3.52468870934528	46.832045956596
108937500	-38.479937222944	-51.4058934420625	-16.7942627490954	-28.8760698184771			-57.6175721334662	108.897055723623	-3.52039686119413	44.4790268891721
109625000	-38.8826061048295	-39.8124408380823	-16.5071823688228	-31.9280201417798			-67.5659929414349	17.237426263293	-3.58231006690473	41.3065519988413
110312500	-37.6631759685326	-48.3634032769664	-16.4009728460098	-34.5562490666624			-61.3744648593822	-155.495164516106	-3.64440853178893	38.9111386843727
111000000	-36.8836942413921	-47.9120428051701	-16.2015879632261	-37.2602764906864			-69.7860270343607	126.207777100884	-3.65143848457163	35.6717495020475
111687500	-36.6755886569479	-54.7529313375544	-16.1696480479647	-40.0738866144817			-62.394893770689	-176.819913965273	-3.6959617925859	32.7418081163843
112375000	-36.2640988760301	-39.6121437499945	-15.9687723645082	-42.0272390176317			-53.8917647093754	9.74026900676659	-3.73611810756214	29.7308589103982
113062500	-36.4114114313513	-58.9040290357032	-16.0469087653112	-45.7437971339904			-64.5926785936477	159.339162127851	-3.75139144594778	26.9411091230479
113750000	-35.8356125953952	-41.3506509297609	-15.8986383814872	-47.5437133641994			-61.9625836091496	48.2560080309189	-3.8276836995216	23.6387364377158
114437500	-35.7455487112763	-57.4321764149636	-15.9717541714721	-50.4771268517483			-57.3295212942281	179.028422688581	-3.86593814176269	20.8206501729884
115125000	-35.9487097420308	-51.7921048346064	-15.9814360265619	-52.3356053468062			-61.827126511007	13.1231710538689	-3.90936708228639	17.254920657884
115812500	-35.2201908805598	-53.1147489504909	-16.1088578038585	-54.7620560766632			-57.3740454898606	-127.193661820865	-4.00892774938213	14.1385950274357
116500000	-35.1699570542405	-55.15687939229	-16.3345616227376	-56.2059550773272			-63.8974122669461	157.918250227513	-4.00901495882476	10.5148399173731
117187500	-34.1194879215465	-57.5257086251876	-16.4187347948633	-59.1168483602223			-56.1643225747855	-92.5705991506517	-4.0958574828777	7.20886821930472
117875000	-34.7597629741307	-51.9053209938637	-16.7379107332306	-60.1976307935407			-60.6729449682382	77.7833557324879	-4.15105307570291	3.55422950131684
118562500	-33.7604897078425	-55.2872471813688	-17.0397625027729	-61.1320388198299			-65.0511398109746	-145.204024302264	-4.19859627546562	5.27185487571022E-02
119250000	-34.4942072919286	-54.4600092609033	-17.3883165156952	-61.4408221508938			-63.9384082164645	3.10910844028585	-4.27199966198627	-3.74782348025232
119937500	-34.1065171206396	-57.6659379668344	-17.807470663248	-60.6241273288994			-64.9732647664056	-99.4936065790232	-4.36596405923071	-7.84808571221221
120625000	-34.3979536202028	-58.4996850517158	-18.2734370552337	-59.3282906739444			-66.8217379895089	-122.812409641212	-4.39593215003386	-11.9949815680313
121312500	-32.9375105071547	-56.1061261783002	-18.7632172019599	-56.4011749524795			-55.279524611844	-105.907782227686	-4.48130896458464	-16.1789344775075
122000000	-34.4021233059331	-62.7905304989253	-19.222636597861	-51.5819534870033			-58.0790341384227	142.853354085308	-4.58926652689807	-20.7987245057803
122687500	-33.3046585093876	-57.1914818284487	-19.3485116637397	-45.0122389509391			-59.8303362404439	11.5204440161123	-4.67360646396597	-25.2420214825851
123375000	-33.5181520891521	-61.5903895982067	-19.2724176032194	-37.1925357816924			-65.4343947963883	58.2363861614327	-4.80753710478599	-30.2718868528961
124062500	-32.9842681769107	-58.6100731417984	-18.4484741618101	-28.8356998231933			-60.4425147860115	-10.2048156566387	-4.9240834172225	-34.9976532331375
124750000	-33.1569776628256	-63.4806003329671	-17.5460506588107	-22.377524608098			-67.6131140555532	-168.338728121197	-5.07362359729027	-40.6245394063146
125437500	-32.7892325244459	-60.2164198057581	-16.0815472611611	-17.0783998853604			-56.6084861260402	12.2705132630201	-5.22057435217145	-45.8927702612306
126125000	-34.1898453393945	-69.6658544644967	-14.8401799613193	-15.2074683911136			-60.7143303801692	-160.759857163371	-5.43919798318033	-51.4098265729921
126812500	-33.0418366891516	-60.632148872507	-13.2788747204905	-14.6971319032002			-61.8604805061176	-53.6524919319515	-5.62005675891093	-56.9478299843844
127500000	-32.5681088947687	-68.7671438174581	-11.9354991451253	-16.1160486036222			-57.3825590570075	129.437755072407	-5.87811542392584	-62.8652040401402
128187500	-32.6494332802697	-61.7879336071531	-10.6077249353877	-17.9096279505807			-56.6733491609318	-5.31011265156456	-6.11829978270306	-68.5406300026551
128875000	-32.4954909466175	-68.153823283084	-9.51694362412749	-21.4892016635594			-59.4335710727694	-167.060494042559	-6.47108534665887	-74.920472202231
129562500	-32.6695534427748	-64.901720289324	-8.46098469410115	-25.1723175925678			-57.4016699847337	-3.17501381812629	-6.74669513871213	-80.8874907550703
130250000	-32.3274504675019	-68.3381624851963	-7.55574384818551	-29.8050126665362			-54.223165863599	-49.4780715346623	-7.14309355306743	-87.0022807832583
130937500	-32.7130903044001	-65.9088259495908	-6.73994576430037	-34.3195455481672			-51.4629065373159	133.027833784418	-7.48236032042241	-92.9010769663385
131625000	-32.0249199158691	-70.7709949037833	-6.03632664749286	-39.4355352755917			-72.8105348960796	-77.0197424045277	-7.90695237284341	-98.9680307911461
132312500	-32.7553502789598	-70.2140854550677	-5.36799409758378	-43.9957985662856			-53.0191052260842	41.6563799708969	-8.30478190191071	-104.653289215642
133000000	-32.5027985440557	-72.1942306692713	-4.80896054215555	-49.3686141975725			-60.4477428599311	-53.2528803994667	-8.72455127401968	-110.681950822106
133687500	-32.5555656173869	-75.4750438709432	-4.35921111013607	-53.9849191947212			-59.9847822789683	12.885139964098	-9.11937631183166	-116.265137696934
134375000	-32.6904051925466	-73.6439931283861	-3.8694466536059	-59.0786557859264			-52.4313654948564	-63.1291504721218	-9.57955204473452	-122.425801308474
135062500	-32.3283018437841	-76.9875114509035	-3.53651161410808	-63.5379672687122			-57.5767327710019	16.8132945320763	-10.0077945802815	-127.810303808198
135750000	-32.0016061799957	-69.7573817704634	-3.14311764804481	-68.4712788543174			-56.380277301664	-51.9486832822845	-10.4395268467565	-133.271963818217
136437500	-32.3221705800275	-80.0320804294895	-2.88269011791379	-72.9735979421621			-65.5603321375234	-8.47512172304454	-10.8799836105788	-138.825480654993
137125000	-31.9639681630639	-76.6093925662797	-2.543420378701	-77.3919529672545			-54.107410939847	-38.6857041117271	-11.3647989604233	-143.87826879668
137812500	-32.6487331413405	-82.3960684746167	-2.32969752230067	-81.6813196812507			-64.1672462705069	164.265258853398	-11.7231854940869	-149.27893973909
138500000	-31.9687536841024	-84.2044176257885	-2.04530799016928	-85.7368695935632			-58.9045163420432	-9.99079523629153	-12.0879070819881	-154.946294048529
139187500	-31.8712123067305	-85.6350119355434	-1.88204708657163	-89.9678655044089			-63.9405466171397	-14.2039009829453	-12.5455149697764	-159.844745704621
139875000	-31.9737123634127	-84.4733987819697	-1.6425719784312	-94.0197114439896			-56.1885050235133	-35.1340885502301	-12.8814938066402	-165.045801059202
140562500	-32.2073282298749	-86.4000675518059	-1.50770715885915	-98.0732657366848			-70.6062857904895	67.2374857587185	-13.307345291588	-170.017175111291
141250000	-32.1723148579166	-85.6237379629866	-1.30966633051481	-101.959808524274			-58.175226956471	5.51335050409532	-13.5841377817716	-175.504754231499
141937500	-32.0863430057076	-89.9231104318804	-1.21099486784532	-105.927781239488			-56.1937392060785	-136.858157493328	-14.028501188617	179.848823317282
142625000	-32.0678242189675	-87.4790735133389	-1.04937909871677	-109.726600500452			-61.1005663968291	-72.9900863775924	-14.3835750746129	174.527980551466
143312500	-31.2473785044251	-97.0447442221776	-0.92600472373066	-113.43759152127			-61.2550172270508	-136.410432267341	-14.7125523623959	169.534537858108
144000000	-32.0686312500734	-89.7126945806765	-0.811567836597312	-116.816926249196			-57.3599339673911	-19.6675337673983	-15.0104913289192	164.305869162558
144687500	-31.3715322297815	-98.0647919307583	-0.722739055395496	-120.742235228469			-57.36494561844	-156.43191691175	-15.3569663883701	158.940834461026
145375000	-32.4884442684968	-99.9915037167248	-0.664394229579781	-124.321186951545			-64.3515166353736	70.3132408279394	-15.5997154299249	153.487774488108
146062500	-30.9150831065447	-99.1447847665489	-0.553979634458734	-127.530697560908			-57.6162170003101	-147.402247205437	-15.9758559891739	148.373934814904
146750000	-31.7423029929058	-103.286457091416	-0.503334557823043	-131.118145253472			-60.9904833318176	62.981521525953	-16.2930655244728	143.544822147799
147437500	-30.9447552593801	-103.720143106903	-0.438254654899735	-134.325311399943			-52.2229733394615	-108.787110168488	-16.534669643729	137.828094269864
148125000	-31.2549739861412	-108.864512370735	-0.408203619564992	-137.885897624873			-64.7253305303042	-105.044739249948	-16.6444151090318	132.272356458761
148812500	-30.9843645997209	-107.748597870046	-0.345603537016942	-140.769528168905			-58.6848664254682	-110.998009003095	-16.9262327464909	126.596872517282
149500000	-31.5294432169769	-110.271472925199	-0.310148967854592	-144.215937663005			-66.9191229841646	148.369332668709	-17.1955429496243	121.592190211851
150187500	-31.0769618870498	-108.365658382397	-0.298098240061412	-147.224243937413			-56.8132259503374	-112.939854826089	-17.3805510370243	115.962180546818
150875000	-30.7554077102648	-114.388857045737	-0.244518837003531	-150.361606512061			-70.1239821373555	177.159716679193	-17.6123392719591	110.548847110045
151562500	-30.2538710412745	-111.777836660247	-0.239010659247905	-153.071826862441			-55.5348015463772	-119.295175890875	-17.6602468852136	104.532150562594
152250000	-30.2019028682111	-115.820794768658	-0.235273317143285	-156.223052500941			-51.8107676847379	131.028565231972	-17.7994266858381	99.0687898069364
152937500	-30.5193814447049	-117.879858419091	-0.189413280736586	-158.741106323099			-74.9923365348937	-99.6375361416938	-17.7835725369758	94.0210755017138
153625000	-29.8055038836463	-120.900896535566	-0.177543175355641	-161.746175659023			-56.322887187955	174.908702455658	-17.8947889796935	87.9835325724983
154312500	-29.6735705389344	-118.190312861531	-0.161203590389158	-164.156879213329			-62.9286248252439	-51.5804461875208	-17.7996892768729	83.3863073349484
155000000	-28.7530610321592	-122.578472699581	-0.133512245226096	-167.417947689832			-60.192862632741	-152.122493547727	-17.846425238298	78.9994231190947
155687500	-29.4146765630645	-120.032528907704	-0.167263051622863	-169.523467031595			-67.0039035350559	-151.013747500696	-17.8006156533512	73.1319656712764
156375000	-28.8140834057962	-123.091429210592	-8.12492479107917E-02	-172.564367016502			-61.2019296463782	174.570135985601	-17.8144387634574	67.6412871851221
157062500	-29.0888513869659	-123.944908908423	-0.119888620879184	-174.729988102836			-75.0320585920774	-85.209358333188	-17.7563339611394	63.2654656544574
157750000	-28.2514307414726	-123.442874960395	-4.53516198822986E-02	-177.496496696129			-52.5606914398094	177.899368558027	-17.5698295666218	58.2514917934023
158437500	-28.6000954361198	-125.82059000656	-8.55257859663916E-02	-179.880493196047			-71.3572688833096	-149.931386721275	-17.374601096969	54.288734286175
159125000	-27.7626166501984	-125.090633535004	7.51549718450123E-04	177.568718854584			-50.7097885492862	171.341368984516	-17.3583296807295	49.4601440327918
159812500	-28.241161593478	-125.55480512205	-5.93005339395481E-03	175.20257500346			-59.346381649735	76.8106774714734	-17.2370613836981	45.5333473762296
160500000	-27.4468287696287	-124.633210877123	1.70098666360457E-02	172.433793591357			-59.6645079411087	-153.233586661468	-17.0759306394034	41.8041436044141
161187500	-27.3872436198669	-123.344145304412	-4.05350356297831E-02	170.553866502477			-56.8207051262076	20.6506833216152	-16.8553168971216	38.2872000583893
161875000	-26.8698584033324	-124.005977296333	5.05608583040674E-02	167.693560984521			-58.9074710433631	-132.659601294076	-16.794700134074	34.6355589924187
162562500	-26.9710524236276	-124.924563048498	1.31285583858042E-02	165.146496991159			-56.7329030014519	74.0700491832722	-16.457046406303	30.0188712180145
163250000	-26.4424322564234	-123.112412706322	5.00881491397621E-02	162.651009495279			-51.4663586161162	-103.085039813876	-16.3407917133335	27.0627319894998
163937500	-26.5929781996606	-124.336304513933	4.27099402175594E-02	160.474228339445			-52.9532777434184	113.889990375106	-16.2402804731439	24.2425254043441
164625000	-26.3510535685494	-120.157591016214	6.83247249578448E-02	158.058288805748			-52.478762868042	177.328402179941	-16.0097769049701	20.0285119542156
165312500	-26.1601050554655	-124.248587241368	4.23339606072065E-02	155.68789608913			-55.1546103789714	146.065470889413	-15.9454623846716	17.7551223730806
166000000	-25.9736434382147	-121.567394978191	5.76081062736286E-02	153.045747656234			-62.8435849404876	-160.516465750579	-15.7897410615421	13.9812058516224
166687500	-25.8224582578975	-124.0752633845	4.29659723425952E-02	150.943293945974			-58.4252235707136	161.616921561081	-15.5695663686592	11.4888230879978
167375000	-25.6886701339226	-120.036135281111	6.71762697210996E-02	148.80582086071			-86.6444057640461	19.8284421242263	-15.4439957192635	8.28200409387015
168062500	-25.297649029134	-120.93415138357	5.23754740470238E-02	146.518097422505			-59.811840167765	101.011444317319	-15.3147578741704	5.73780239958531
168750000	-25.3433005236236	-119.019675766305	0.029782626724971	144.297629128116			-63.3900298443717	-76.027478670542	-15.3015865008427	2.4557076939778
169437500	-25.2033664440452	-120.355617470952	1.93797215318418E-02	142.182300187841			-62.5673505216686	-138.221010639234	-15.1677958969948	0.149979343343883
170125000	-25.2384686841303	-115.998128072904	2.05304154685766E-02	139.697550250092			-56.0696154911848	-12.8723269569394	-15.1851676116455	-2.55203536966863
170812500	-25.1958607565739	-116.82388565194	-1.46686783361388E-02	137.853783155345			-56.2747044369048	162.750715142441	-15.0432966187782	-5.39718010579945
171500000	-25.3320341323499	-115.700510646221	1.80198737787826E-02	135.691010461629			-59.3141556495935	-69.356611818727	-15.1457280550287	-7.19463523681459
172187500	-24.7778440922281	-115.374733565945	-3.23714085930017E-02	133.774725456915			-58.9239907623128	-135.710416654109	-14.9854757658537	-10.3359052230088
172875000	-25.1008631348198	-114.256755057942	-5.4798677838125E-04	131.626905908241			-62.3524649863447	77.7271280186154	-14.9277278125241	-12.7658667735052
173562500	-24.751572578309	-111.955508707112	-3.66865478597157E-02	129.770525597795			-55.7050556906937	145.14385104633	-14.8011599878595	-14.7033470673412
174250000	-24.878807343444	-110.652119407681	5.02277394840189E-03	127.618592609195			-63.4311640010256	158.532059663072	-14.7199572524448	-17.8598695103598
174937500	-24.5910930781693	-109.055805429866	-1.52563475657353E-02	125.831965927593			-57.5451670670735	-90.0428897579075	-14.7435903278852	-20.5613730228183
175625000	-24.6821143946755	-109.680633086876	-5.49732969639998E-03	123.782645833708			-52.4556776199505	99.6379493371973	-14.7816016233727	-23.2104663350801
176312500	-24.5202157957407	-108.945724958064	-1.95163098914982E-03	121.95531352898			-56.7178958055532	-127.487955323907	-14.685493024114	-25.7204452312898
177000000	-24.9534296210806	-106.888357455303	4.68014223195773E-02	119.939993227615			-62.7542333350414	70.4732528231626	-14.7699074624044	-29.0642097331548
177687500	-24.6287623158867	-105.228199002282	2.99037418054856E-02	118.189236935081			-63.864249300548	178.361329781523	-14.7051564066899	-31.3429574870641
178375000	-24.8116152203124	-107.308338114138	0.100011155440775	115.795348637077			-58.8903059374431	164.081100047389	-14.770306840596	-34.5117716585431
179062500	-24.5092925066114	-104.257132325376	5.60409028905028E-02	114.020454038454			-59.9300088698503	-60.3514853129464	-14.7636378474641	-36.7313679200804
179750000	-24.8562996386484	-105.448639167169	8.76044946079742E-02	112.080996524492			-60.8748131852439	147.175362097542	-14.6608051882667	-40.3693028327784
180437500	-24.7366317651227	-101.396573640417	0.136943217869293	110.303681851273			-64.1064965272185	-146.9449656223	-14.6739010278081	-42.8400048130377
181125000	-24.9139506527417	-102.313190380741	0.159241993122084	107.847387005594			-61.0272975742694	123.789095952461	-14.7438200992028	-45.5554525105592
181812500	-24.9097526529569	-102.073557048115	0.18669611515505	106.411112399189			-60.2314372208369	-27.9626048390736	-14.8309728541309	-48.6414519159269
182500000	-25.2264275916184	-103.687159311607	0.242699054155304	104.024993531717			-57.7116624244732	115.021134219036	-14.7792390885685	-51.7206212841886
183187500	-25.0390484119636	-98.4916934184075	0.258390474869545	101.864721247527			-62.7067865466764	83.3237677017708	-14.8293807157595	-54.9461166033401
183875000	-25.38852045845	-99.8571095327596	0.281654232809978	99.8295622593992			-59.4644795610448	149.002263669774	-14.9010217529715	-56.7644754573511
184562500	-25.2275759563953	-99.0943800579764	0.254609258076865	98.1219939652609			-57.5196991007891	36.6244208361186	-14.9155096173054	-60.2482273108399
185250000	-25.6525728513647	-101.539543880797	0.331575902777288	95.7356558269609			-56.0494853697962	-166.067176721327	-14.8920992374801	-63.9630686174424
185937500	-25.6844188371495	-97.6165826804355	0.300388956612114	93.8148156869964			-56.063289873598	64.160334624674	-14.9016658299799	-66.590934221577
186625000	-25.8685667168412	-101.472857250223	0.329522273858501	91.485544935488			-55.4456842413071	136.71278377001	-14.8897883448345	-69.2894161302501
187312500	-26.2334650922315	-98.8521303546958	0.32487918024989	89.7240053762205			-63.2371973209313	5.41753660590517	-14.8014063386973	-72.4110309449998
