# Hz S DB R 50
100000000	-32.986312633063	30.2783530311189	-28.7888467197511	7.86366232633424			-56.5084079070262	-92.36460839121	-3.47129475136271	80.3517368481795
100687500	-33.3494123676412	33.0786850546312	-28.1117214034171	7.10499166881953			-53.8592254716276	58.5813024707232	-3.4167269968595	78.1572039454539
101375000	-33.7146093032384	23.493464961528	-27.8459838172854	4.3978906427876			-57.5189544575646	176.056389176905	-3.47382022672226	74.9263996956881
102062500	-33.5676278997379	24.9713251297729	-27.2336697702573	2.89164965009534			-64.811959255531	12.754149058704	-3.41216380859	72.6316627612709
102750000	-33.543779892642	17.3970449009546	-27.0472233243733	-0.201483348461397			-63.909876992222	-109.459358535333	-3.44540020893506	69.4291758144374
103437500	-34.0531182494653	19.4336085053563	-26.4407119559707	-3.01554219930883			-65.473179915238	-13.4167198446973	-3.39291934505889	67.1056774808009
104125000	-34.0435109252505	10.8096284418591	-26.1375147974574	-4.81431970202043			-60.710290565669	0.556562703188412	-3.46445849806171	63.990357542457
104812500	-34.310477247841	13.8485513179395	-25.8411202652042	-5.59680284555706			-71.6411577876621	154.846722509474	-3.43083853493782	61.4915113963411
105500000	-33.8321255024974	4.51734586806646	-25.2875793727869	-10.6124388443347			-58.9988556119338	-54.7365447026753	-3.46926117989103	58.3590059821125
106187500	-35.0918839781264	7.92596846781182	-25.1678336057096	-11.3846757242634			-65.5249731662826	127.429792871818	-3.4543183258701	55.7870943776416
106875000	-33.752922350282	-0.391761988590132	-24.8989123892384	-15.8356912799651			-59.8100105879556	-83.3120705760143	-3.47142720025369	52.700972407858
107562500	-33.8134007548426	0.565055576747167	-24.6194091443862	-16.7146681586199			-60.3082190748973	173.180143826259	-3.45337927958042	49.9273115689187
108250000	-33.681110225323	-5.32749532262573	-24.2483579617627	-20.031024148666			-67.522195677712	-62.6079709077924	-3.52940118609195	46.9247964988127
108937500	-34.0658371654414	-8.22825464709371	-24.1198422332743	-21.835847297944			-60.6940640259511	132.646303933051	-3.50054355888554	44.3275579047397
109625000	-33.1464838009996	-9.35764100982904	-23.7494541444436	-25.3502228600513			-59.3491888961793	-12.2979970161435	-3.58268449382389	41.2089885699574
110312500	-33.4463895287096	-10.2137112534661	-23.7979816912271	-27.74510391903			-56.6948615993117	63.8242500135042	-3.61156289645286	38.8879145581611
111000000	-32.8638145918582	-13.1880819687748	-23.3970610077156	-30.3290354238144			-65.9455247868509	-65.6396354458576	-3.6938112453905	35.4824387696609
111687500	-33.0599250566098	-17.2245802815117	-23.6251129485769	-33.2617091345306			-71.3414096197348	164.625074852052	-3.68718593649412	32.8252220271401
112375000	-32.2505180827848	-10.8178470292043	-23.2405822453832	-35.1396645173298			-53.2139745638633	23.3164806132469	-3.7216348693453	29.5948699013639
113062500	-32.7863731157701	-24.8472413961324	-23.3892540282636	-38.4642641978824			-61.5461096619122	-87.833965088885	-3.76695973502014	26.8247994728647
113750000	-32.2151324470696	-17.4856485136298	-23.2872931098831	-40.3867000831275			-56.927851269951	40.9134996354515	-3.83702213055846	23.6725056567727
114437500	-32.1572826828731	-26.1630564009897	-23.4408966016237	-43.5268825178871			-59.4145717640168	167.329872843657	-3.87812548449234	20.7413507100116
115125000	-32.0195416445349	-22.8662965511529	-23.2452283265047	-45.3186313254206			-59.5226187128862	30.498420832181	-3.91510413684223	17.2432284907033
115812500	-31.5857227666823	-25.1606433842797	-23.5143778898524	-48.2639205813059			-61.0555461401267	-130.996739625035	-4.00465232962525	13.9104497899687
116500000	-31.688743729718	-26.9331998532432	-23.534292290917	-49.3203515943042			-62.4708418449475	171.440291280203	-4.01609783061769	10.3812599482712
117187500	-31.8370344648503	-27.8280236808078	-23.9183426363373	-51.1971489600723			-56.5027752421719	-133.41971356373	-4.05480756405561	7.21071555386146
117875000	-31.9549902806111	-22.4017236733112	-24.1007184466972	-52.2639130774953			-54.9841968592455	85.71564723843	-4.16690869364806	3.50594869828875
118562500	-30.7649265806928	-28.1840254032533	-24.2755685739116	-53.7342863741248			-62.5620095851002	-90.6763373271528	-4.22588243350755	1.75740935689878E-02
119250000	-31.446555436714	-29.521921445166	-24.7051192151397	-54.5354149303276			-66.44047646284	-140.458880196551	-4.29651417318799	-3.76041630137037
119937500	-30.4498760193664	-33.1383519709826	-25.0105709082589	-53.8261491006984			-57.4809220921904	-107.861862958609	-4.33335701214971	-7.98265731449231
120625000	-31.2459312743299	-30.1693530869846	-25.7936947323662	-51.255559276446			-60.5530972467789	-116.358905526537	-4.38842453042033	-11.9984711072517
121312500	-30.165764172904	-33.4402443984123	-26.0308037421506	-48.3344969064216			-59.221115882631	-77.8832077864681	-4.49399885163347	-16.2557984031251
122000000	-30.880452324307	-33.1336583744504	-26.6795186218597	-42.7550522651129			-56.8020435678906	167.720398181453	-4.60881225021088	-20.7976357568119
122687500	-30.5615554296615	-34.1524903631739	-26.513336213837	-38.1248980707229			-66.9162895747387	-137.712831484494	-4.71760629940298	-25.1626025573582
123375000	-30.7048213295558	-38.3000265480238	-26.5255160024635	-31.1663561451077			-58.9582855270328	161.125714910604	-4.80642101570414	-30.3309250922212
124062500	-29.7885738022359	-36.736028448854	-25.743505205349	-21.4020866674765			-61.1629139686205	-101.54622897955	-4.93376884455553	-34.9084923983483
124750000	-30.5224372132513	-38.4498378618747	-24.9106295763998	-13.7412701355869			-65.3680664726571	-100.039395505215	-5.07169110779155	-40.6147471940079
125437500	-29.827289700698	-37.1732513509018	-23.3697525943372	-10.1130440445858			-60.8866412442812	-30.3865864258977	-5.20847937749729	-45.850757098929
126125000	-30.5672242700585	-43.6447367878959	-22.1476861329554	-7.96048420880289			-58.1930508619199	162.67034553917	-5.42027213155004	-51.5026249861339
126812500	-29.6640281974927	-40.0432373096465	-20.520333160217	-7.20279770496464			-62.2919836762758	45.0293521196939	-5.64835753239511	-56.8598611758661
127500000	-30.0270147999084	-44.0433334353053	-19.3800254577045	-8.37236812027902			-63.9560831962308	-147.146464092489	-5.8879801112075	-62.8054412176761
128187500	-30.203710487052	-40.9205143563536	-17.9031090452469	-10.5164052083372			-61.1711273244613	-0.716257012199286	-6.14914914344757	-68.7739483299724
128875000	-30.1959253335572	-46.2305023194639	-16.8864800743465	-14.5072713719301			-60.2458348938307	-111.167729287771	-6.48201887647725	-74.8511155386119
129562500	-30.0644178164607	-41.5261836758608	-15.8082993264117	-16.8638962720118			-55.814996449895	-7.27671394702787	-6.75472389261204	-80.7101975790825
130250000	-29.2857264865849	-48.3244707389127	-14.8829451704247	-22.0637050233603			-61.2692976459063	-72.7328621048491	-7.17468137579857	-86.7980975549445
130937500	-29.9933083429127	-43.154213436164	-14.0875208405597	-26.2772286217546			-58.5032590357968	32.5359722873152	-7.45667138577967	-92.7953710200957
131625000	-29.614718002255	-49.8124318949511	-13.3492298905078	-31.5249761925798			-57.5698977094887	-120.166857003526	-7.93505280498347	-98.8979470501418
132312500	-30.0414528090701	-48.7977444646867	-12.705587765306	-35.9881151441567			-60.678880445677	7.7165452528503	-8.30982725546426	-104.506489399721
133000000	-29.7814688097253	-49.7029894443451	-12.1525256396135	-41.6012016495137			-57.6549365188175	-109.625062170083	-8.7536401017413	-110.517661178311
133687500	-29.8019125686435	-53.000535371851	-11.6797936247534	-45.4577402654216			-57.6992799639227	52.91227317088	-9.14891155326506	-116.175161222744
134375000	-29.5845002427503	-51.7263716206102	-11.1682638196609	-50.6211757270743			-58.6953584776893	-47.0529945679971	-9.60485662863548	-122.211201391435
135062500	-29.5906773466231	-54.8798865624132	-10.8473582784148	-55.056808771906			-63.4701616269094	105.209029768302	-10.0176633577089	-127.601477832555
135750000	-29.3037169258545	-53.1185693574709	-10.4559243810758	-60.0753638960037			-58.3875189705284	-83.4936442761135	-10.4578326958566	-133.07003180581
136437500	-29.9335868840755	-57.6122779046689	-10.2133659564098	-64.3587039345343			-70.7941145444689	70.5336481433651	-10.8751055777998	-138.766098110728
137125000	-29.2637333497094	-54.3855223576005	-9.81928827718337	-68.700507276283			-56.3969106471619	-82.1404713155187	-11.3623542272145	-143.677939413725
137812500	-29.8524608954183	-58.8127290951233	-9.63590524691517	-73.1234933028105			-69.0862335159738	64.4517266462047	-11.74669077202	-149.014312378536
138500000	-29.0353650696194	-61.8531918016677	-9.33280968559069	-77.2976121870249			-60.4970794444943	-81.4073270248933	-12.0952555368807	-154.871594753458
139187500	-29.505213249433	-61.6230279743042	-9.16321255967485	-81.3493409888112			-65.2196664197479	-145.795564918278	-12.5544506405552	-160.018718892903
139875000	-29.296141824813	-61.3446626273592	-8.93805584866703	-85.3248725125041			-64.8517024516859	-41.9530846218331	-12.9735689478547	-164.851629800756
140562500	-29.7047724399927	-65.6878147081579	-8.7941860186193	-89.4147894545678			-55.4827201103909	131.851482124738	-13.3490244633405	-170.275197207877
141250000	-29.4017576946176	-63.9715646849725	-8.6304150137133	-93.3223188994327			-65.2097751230525	53.1724262476297	-13.6530625354131	-175.214955897283
141937500	-29.3334395168268	-68.8783058833865	-8.50769644050109	-97.1848118459095			-59.9189418040313	-137.738913261082	-13.9715564081234	179.568216122592
142625000	-29.4914168194464	-65.8355089362711	-8.33852967010812	-100.913162645556			-63.9239864480265	42.4162535284649	-14.365428849499	174.729438161021
143312500	-29.2535789140718	-73.4188629653666	-8.22702890302601	-104.621792519309			-59.0410653100449	-53.7957058729293	-14.7579777539437	169.152635472559
144000000	-29.1078104541249	-71.0801037525652	-8.10535587088006	-107.69061688204			-58.6239784605897	14.9681202117186	-15.0933630731873	163.874989889758
144687500	-29.0652186101294	-76.4830694448484	-7.99777958590842	-112.025445540418			-68.1862321782984	-164.732854320522	-15.3356925868542	159.003785686331
145375000	-29.6747963403771	-76.8774024969384	-7.9250713824847	-115.301375741244			-61.0568623294004	16.3774398974935	-15.7009378253417	153.248870566221
146062500	-28.792565218666	-77.1107028350218	-7.81771338579861	-118.56252861316			-61.5441078947086	-155.147978758556	-15.9774655030588	147.97219724162
146750000	-29.66335923708	-80.0300758314739	-7.77836241037214	-122.02804431382			-64.650388214247	94.9629129143944	-16.327171091223	143.165869064592
147437500	-28.7262620699096	-79.9904922236704	-7.67337411711681	-125.369721503955			-58.8975134127145	-154.203589471998	-16.5622272055446	137.651776024346
148125000	-29.3259570993686	-83.1321346546422	-7.70855838670164	-128.864973030397			-55.4590024659396	57.0282995277246	-16.6894520012175	132.196127657247
148812500	-29.0068617914254	-85.9044231514524	-7.61279705204084	-131.733529809695			-54.7847424449038	-95.9739284497619	-16.9595720294388	126.508265281905
149500000	-29.2734477892743	-87.1332771164505	-7.56151008750221	-135.043755785743			-54.7843667191648	81.3234209831361	-17.2299881020423	120.515404943725
150187500	-28.8122675738614	-87.4546238409954	-7.52297079186565	-137.837728171614			-55.0248274971771	-55.0409348904519	-17.3801814742959	115.721097361506
150875000	-29.1984506268163	-92.6412220148393	-7.52059588996272	-141.066822273644			-62.2325648982573	71.2435275999527	-17.6295712107337	110.030118243605
151562500	-28.2023660579727	-90.6798583199365	-7.54097620426589	-143.872604795147			-64.7847033006155	136.274096220114	-17.646548721447	104.995128805552
152250000	-28.81140479787	-97.3635473705522	-7.52729376574801	-146.934884940872			-56.4307041006951	128.387311626781	-17.7801167528801	99.265311547926
152937500	-28.5745902433218	-97.3245108589511	-7.44001600750086	-149.290857163561			-66.8829106625692	-134.053131861364	-17.7426402416987	93.8534381568033
153625000	-28.4475529389392	-102.389375508545	-7.40788968753697	-152.374761605509			-54.1295637921074	157.817314421644	-17.9723082298869	88.2596433733014
154312500	-28.1576038681469	-99.4100149372368	-7.41538171821488	-154.560237659664			-65.4291870082898	-105.714293853352	-17.8392348758173	83.775862187947
155000000	-27.5845189813803	-102.892628365745	-7.3809708253101	-157.854223295705			-56.2791365912794	-148.018883735572	-17.7837018055023	78.3879001047919
155687500	-28.0243617424346	-101.031087299347	-7.42111696403174	-159.966847165824			-69.7857579287332	164.938560713576	-17.7717064484	72.5054084231584
156375000	-27.467794854884	-105.636704535679	-7.31697724721223	-163.125766700996			-60.5462056429834	64.6373706159454	-17.8742708444097	67.6650048400393
157062500	-27.6672511101206	-104.121511731567	-7.35654825236784	-165.078820624638			-60.0087925311774	17.4976377616185	-17.8121257245102	63.1907448875696
157750000	-26.7885116449234	-107.066241094937	-7.30164241948886	-167.739019050656			-71.2861115464467	-116.135429880239	-17.6656930073573	59.4779427747397
158437500	-27.1031414853576	-106.911436332785	-7.34728961450823	-169.912500727546			-53.5785196883487	-2.8139121723469	-17.3893654749914	54.7939211308259
159125000	-26.2279085881017	-107.995976199026	-7.25004398911979	-172.548176370754			-60.1340551723052	-174.615761681282	-17.2225851615601	49.929083865661
159812500	-27.0236742535542	-110.030775651468	-7.26011835013699	-175.074469456435			-65.7875142376183	139.021634018967	-17.2097202092346	45.0933119322603
160500000	-26.0461929351332	-111.533059068312	-7.20130956287691	-177.633513028347			-59.0582340517925	174.464973228078	-17.0198041380933	41.4919239562557
161187500	-26.1292786550452	-110.262467125775	-7.27695193596926	-179.880880823062			-55.6240136978202	30.0201537059772	-16.8175324786998	38.0321812528891
161875000	-25.4874255914352	-110.001783757264	-7.15857942698555	177.517434985717			-70.642497752576	-50.9033491198663	-16.7189528688731	34.0107024583278
162562500	-25.6681755691811	-110.691892865657	-7.23971241067486	175.196756293295			-68.3757578981069	147.921072163508	-16.5222990316963	30.0704557477261
163250000	-25.3041228430953	-111.423242882636	-7.17830493924491	172.838098933305			-54.5667055294111	-88.9301448933606	-16.3814304099812	26.645821269061
163937500	-25.211334967934	-111.459973396504	-7.17631960057097	170.292172671404			-58.9315428638891	82.2429016482259	-16.2736997561422	24.4067344686279
164625000	-24.9702536430105	-108.277094897856	-7.17163972857294	168.130807489464			-61.8554469489552	-139.379638396523	-16.0987486773178	20.4476057888493
165312500	-25.0186995616773	-112.54476817927	-7.16949016798745	165.603127548719			-55.7145803005181	150.201414980831	-15.9245638365538	17.8653270066605
166000000	-24.6523733113258	-108.628735736046	-7.18100431828217	163.278532055291			-57.4663441910887	-96.8702654237275	-15.7469506145562	13.9264341607715
166687500	-24.3860992979773	-111.733950282132	-7.15496743653283	161.06446855452			-55.7899238082914	140.053754533337	-15.6271398568585	11.6680669817675
167375000	-24.1958837925301	-109.198699914674	-7.16733331532026	158.909575171569			-56.3579090008355	10.768100664685	-15.4771996719493	8.65379514577761
168062500	-23.9650425194593	-111.778287587469	-7.16839440186847	156.763606980328			-56.4796613324269	-166.658378116293	-15.3853158211742	5.51618503274175
168750000	-23.8430535203211	-109.364452356046	-7.16614450454437	154.71827031133			-64.7013922299935	34.9787832908256	-15.3188491020795	2.82148776804166
169437500	-23.9692845903475	-110.043399129552	-7.20235126663203	152.66587940222			-56.6120699738764	165.539199652685	-15.2227778786372	9.86844175993259E-02
170125000	-23.8176177051572	-107.151093508221	-7.19724227268898	150.328844050159			-68.5196533942969	-55.3211696944322	-15.1395919571326	-2.95208741529735
170812500	-23.6167415010977	-107.879200117354	-7.21144733999349	148.284326719487			-56.6282621664598	107.829773570009	-15.0483611571564	-5.63069940934616
171500000	-23.6810152116083	-106.4557073345	-7.2103809596833	146.146498378977			-70.3738065102355	50.9757432391946	-15.1242350137608	-7.73743158994816
172187500	-23.2655826254138	-107.444789511233	-7.22550411580121	144.28111104524			-61.1944362789662	99.9914508939219	-15.0052434870005	-10.2317003480988
172875000	-23.6334069777283	-105.392320637964	-7.20361084508081	142.066066218171			-57.7214525173559	138.939467438839	-14.9889178753523	-12.4470802070986
173562500	-22.9669597517133	-105.899391853247	-7.19894157424854	140.755805476955			-59.057798558652	-134.672183160256	-14.8058230814273	-14.9608578164416
174250000	-23.2265846261525	-104.32101915435	-7.18461404608865	138.159077984091			-59.6451033257699	54.0441223749502	-14.8121318465573	-18.1906187641415
174937500	-23.0537158742859	-103.271156123642	-7.18566849372232	136.845792621746			-62.7832972619874	-112.20445805553	-14.7708295626372	-20.1693130485532
175625000	-23.1948192555549	-104.941455709898	-7.2146954375844	134.280748619703			-59.9142022947697	23.1287990470858	-14.7481130930744	-23.0714942251662
176312500	-22.7925043105519	-103.655506124958	-7.13775833556095	132.778291455385			-52.9909728548875	-131.435914171429	-14.6874695078957	-26.5112678407705
177000000	-23.10644639689	-101.902394468821	-7.11981297057046	130.611647046804			-59.3545611377799	-176.703396416654	-14.7337089723662	-28.8839374492577
177687500	-22.8469975658887	-101.002893296013	-7.13172979393731	129.04764488418			-60.257168213276	-69.2284253682812	-14.6986109238872	-31.3010654953074
178375000	-23.2360240079569	-101.905580544426	-7.07775938494458	126.77957108464			-62.5253377059847	82.4707093916224	-14.7957654441936	-34.5468993919668
179062500	-22.6136271638033	-99.7809287855853	-7.09227247725816	125.206741234971			-62.098380166496	-74.4195000293911	-14.7635586091518	-37.5406717812844
179750000	-22.8681013044615	-100.717404051997	-7.03119843552785	123.04208135982			-57.0371589693147	156.609798195975	-14.6874467105129	-39.9889917069102
180437500	-22.7839568116653	-98.5863789413353	-7.03237800816828	121.245900767476			-66.6736590279069	-127.438995308875	-14.7353811613727	-43.0810375782482
181125000	-23.058794733184	-99.5970264355567	-6.98748357320338	119.074825723495			-52.7024572063316	142.881651175408	-14.7621368547099	-46.5310946236027
181812500	-22.9578244789193	-97.9474094053392	-6.9920315898662	117.11774292812			-62.1924244341176	-153.386624918576	-14.7844358511376	-48.6143222104596
182500000	-23.2621002039438	-100.147565788928	-6.92543103183012	115.044393238758			-54.8083149749726	157.361672177441	-14.8845822717227	-51.986226278406
183187500	-23.0642366496191	-96.4277693654472	-6.88366938063717	113.149140565301			-58.1176785743434	-16.5380988718571	-14.8022373062322	-54.8873645693934
183875000	-23.3759781418039	-97.6291249363663	-6.82502024247201	111.189533612316			-53.5889758422216	142.610519932742	-14.8718738387875	-57.8078188370815
184562500	-23.2319169988757	-96.5570227090696	-6.88774850006373	109.174866630844			-59.1195034190423	25.4203185009928	-14.89019734362	-60.8799048619694
185250000	-23.6987754383212	-98.4134180288124	-6.81762101644725	107.160335337868			-72.1237992043826	15.3292501077531	-14.929871372449	-64.1043563377507
185937500	-23.6791500018897	-96.3006181190957	-6.84703739040834	105.032437700903			-60.2154220863895	-49.4429181182317	-14.8682855860131	-66.8556433274421
186625000	-23.6699953869983	-100.304553072597	-6.78230797461168	102.958818563081			-54.1659561469779	-166.421049796972	-14.9506670265812	-69.7175349714966
187312500	-23.9531805832963	-97.8990964175423	-6.80327876900362	100.930573374434			-57.8528038080356	-39.0761679835656	-14.8276583448684	-72.5156036565603
188000000	-23.8131733687188	-98.3122406502407	-6.77018195242441	98.7965039285227			-58.8674331277339	-158.611272389749	-14.8636722685229	-75.467858371347
