# Hz S DB R 50
100000000	-34.2225050518887	25.3748457322147	-22.6285999034347	7.51563347761494			-74.4001126855685	146.088929635469	-3.50704006092812	80.1564554233359
100687500	-34.9725398525504	23.7472800694656	-22.129450041921	5.04475613534247			-65.226939245287	-25.0695767370204	-3.43221005101229	77.8734479725425
101375000	-35.193416179021	20.4290915921131	-21.8290087944697	4.30466606516861			-58.0534164338143	157.267635132895	-3.48138361632962	74.8427098159627
102062500	-34.7320007843382	20.7088275449135	-21.407298834666	1.61805169761281			-63.0283508716065	-25.4111134518062	-3.45484782250472	72.0584010869702
102750000	-35.6560908751024	10.107962134981	-21.0823213708639	-1.05295285586088			-69.8213230731543	-65.7383933600583	-3.46917233256166	69.5265306393227
103437500	-35.9604818480264	10.6553989533401	-20.5112108460996	-2.98815209745958			-57.8116436015799	-4.50066403169498	-3.41414329284463	66.7964698045971
104125000	-35.5602522410092	8.44843422906235	-20.309155215653	-4.94105887296716			-54.6292051261563	163.086937819859	-3.48094216597411	64.2801130877294
104812500	-35.2932054373585	7.90759494588261	-19.7859667761847	-6.90929715715415			-68.1221810327682	20.6869903949363	-3.44852236557685	61.3156257543396
105500000	-35.5990771994725	3.82579613535485	-19.5409303516443	-10.2261095716756			-60.2656504963979	160.580937888717	-3.44633248590422	58.6082434747296
106187500	-35.4921291500246	1.32444435208038	-19.1742398744575	-11.8162031798927			-83.760581497694	133.806603322408	-3.40417749607413	55.8810824633476
106875000	-35.3168917751724	-4.0609492745903	-18.9552478766572	-15.461106903881			-53.1461717935388	-138.645908145864	-3.51437275338152	53.0080805582538
107562500	-34.6910663672245	-4.82741314126683	-18.5279668582733	-16.6108346202074			-57.9597536905385	7.04195467079329	-3.43883283592839	50.2438681840586
108250000	-33.7599748686461	-11.4380479487138	-18.32127334178	-19.5844774219106			-53.7491686377075	-98.1508458853118	-3.56061266661721	47.3648000426487
108937500	-34.5213958316176	-13.9716249107187	-18.0661803575367	-21.660578647155			-60.7530089497256	161.54781465646	-3.50052608800279	44.7788487696489
109625000	-35.0120659140036	-11.5571090471396	-17.8352103428502	-24.9629084879718			-56.4218994707521	-131.6396792327	-3.60587090082963	41.8609772136434
110312500	-34.7860817782474	-15.6316069230379	-17.6461084526185	-27.2226703058837			-63.5415757929971	137.29266022351	-3.57684462225915	39.3221087364505
111000000	-34.5701058446935	-20.038554029496	-17.4418348454483	-30.0608047331632			-62.1044823532101	-58.162795264015	-3.71612167850585	36.197777342931
111687500	-34.1317772756697	-17.7350798207093	-17.4242093645706	-31.7008357086077			-57.1934011477448	89.373931883063	-3.65781133278949	33.3477569193914
112375000	-34.0906452936907	-16.5244995925197	-17.2300205416903	-34.7062143969366			-59.2921454913408	-42.7052093859714	-3.76894317430772	30.3046332173729
113062500	-33.66553095512	-21.437098370132	-17.2148151603282	-36.8472913822278			-57.5935692701461	63.1073836980696	-3.73058837791202	27.5237329151423
113750000	-33.5733931944246	-19.7335484851707	-17.1332908515252	-39.6571092713569			-57.5805905018018	-91.5224504689639	-3.82101454197084	24.4444636135898
114437500	-33.7302027833026	-25.854068755311	-17.2489240728369	-41.6417480421209			-58.979366460238	146.385892749148	-3.82846549852036	21.6509990216705
115125000	-33.1647079326567	-27.6009938795327	-17.1503737342355	-43.9070804051056			-56.6281076481105	-141.354845570889	-3.94247949975025	18.1220031840671
115812500	-32.9051000056509	-24.9145859131597	-17.2888028896271	-45.9234167108547			-66.2220457679631	-32.4756210738363	-3.96700910051321	14.9060045858432
116500000	-32.5494117133274	-30.4392577551076	-17.2896105460266	-47.4063956631181			-60.8965754012543	-62.6260415323637	-4.04367827273585	11.4745061266589
117187500	-32.9231790316493	-30.5162197751797	-17.6164508714129	-49.1755246727319			-63.344909331522	-154.805913969073	-4.07835249289887	8.42214882528341
117875000	-32.826069933656	-28.7131085377002	-17.6957494406044	-49.9690127284964			-60.8266786666254	12.8836166615983	-4.13113854762441	4.71923132441283
118562500	-32.082433359369	-29.9443474776425	-18.011083763742	-51.2086768090599			-66.0294048840781	159.475094479951	-4.22642929787978	1.27217846586394
119250000	-32.5347869813802	-33.7148658255138	-18.1123260583393	-51.8349105175			-74.9468185901985	8.15705505344667	-4.34028241074693	-2.38390041930983
119937500	-32.0012538460306	-33.315858307992	-18.6701031391856	-50.9962166620206			-65.0055329393805	147.809908234986	-4.37912036611512	-6.54061015686277
120625000	-32.0547770932808	-30.8656042403235	-18.9429177540312	-48.3141173896746			-58.826067904204	72.5529195848138	-4.46116887395756	-10.2978107848002
121312500	-31.7961679744368	-37.0814399006385	-19.3475930888487	-47.522718303877			-64.2512272697309	173.096685931204	-4.5538311816609	-14.6400138998601
122000000	-32.3884252383872	-36.2311766940574	-19.6585900562192	-41.8045663594207			-58.9410589885158	19.3419534259229	-4.65469497778541	-18.8743220380218
122687500	-31.8894968844314	-36.0759661715285	-19.883066952948	-36.5576671106332			-63.30505083766	-100.935321394405	-4.7812069731933	-23.3540336216226
123375000	-31.9719693308082	-37.7505507075874	-19.7113079182318	-28.0019746092811			-77.0274071739886	-18.4349325495961	-4.9017792359459	-28.0439684427003
124062500	-31.7803554317907	-37.656439668396	-19.0482785195211	-21.3195007776828			-55.843100012255	-86.7915604502493	-5.04543914374448	-32.901527811462
124750000	-31.68755112647	-40.2359679005672	-17.9862804778027	-13.9097076538456			-59.3691026395236	64.4145322547975	-5.21736086135128	-38.1431790966616
125437500	-31.1042515207702	-38.2129822723512	-16.6821028585679	-9.87763155980832			-57.3353356133064	-97.1920711700395	-5.37336514249929	-43.7392783589671
126125000	-31.5793409795294	-39.0251507936686	-15.2788940160061	-7.3007581821552			-60.0482753530044	105.760586880158	-5.65491254306864	-48.703820819813
126812500	-31.2897193543793	-40.2319066890665	-13.8388707708217	-6.91275870387288			-61.0292847413958	-70.5141326908348	-5.82715974929087	-54.2874328020377
127500000	-31.3791967771613	-43.5621205700559	-12.4567392733117	-7.36255071519159			-53.6688754292264	71.1304569127198	-6.15316907725152	-59.7988517827511
128187500	-31.632331368168	-44.2452407588192	-11.1747561199176	-10.3895376889729			-58.0695586198748	-91.9524959768508	-6.40297739820314	-65.7682694877329
128875000	-31.4872693077783	-43.5896396906704	-10.0229928813981	-13.2786458391548			-63.68597955336	-44.677642110905	-6.81025947821853	-71.6610786712568
129562500	-31.2084411526975	-45.3978453764119	-8.95279553769336	-17.7350272353519			-60.3931356629135	-66.2692750711104	-7.07611566035076	-77.509902345304
130250000	-30.8952439469977	-45.7226850998584	-7.93767033967252	-21.9510970883152			-57.0303006610158	93.9732795752814	-7.63184983222549	-83.4118342296089
130937500	-30.6669420171334	-47.2481118672562	-7.09872972919081	-26.852138531184			-64.7454793791884	-56.7262613127039	-7.9287168144711	-89.1199382193061
131625000	-31.3370591562879	-49.2758810360908	-6.41195131389199	-31.5965979328353			-60.744208419467	57.5293444094214	-8.50855259232884	-94.720841950634
132312500	-31.0866162028591	-48.8872845185507	-5.69901563441158	-36.7754730767412			-61.7005003194935	-3.74573319474765	-8.89605753116181	-100.362281436199
133000000	-31.3860730253997	-49.7808899487896	-5.17551443456029	-41.9745466367383			-60.8176958045204	-150.98452075762	-9.43604478329027	-105.883871035053
133687500	-30.9949827363573	-53.8841460353245	-4.63502423425683	-46.9301448689753			-60.4942127165819	-88.8396318636007	-9.88308281252753	-111.043137350437
134375000	-31.3109529603475	-51.9306986215875	-4.19233804513035	-51.9577824175601			-54.6265175794318	-153.308881449768	-10.4458472361988	-117.365688848939
135062500	-30.958089570966	-54.6449208278663	-3.79834647715421	-56.7791532207924			-67.1542898289772	29.5256223905784	-10.9522457985187	-121.944273385693
135750000	-31.11730413458	-51.946388887939	-3.45675177757949	-61.8540939097977			-60.7519455778227	-171.036098502136	-11.4760539710312	-126.527164090173
136437500	-31.1221623709882	-54.0256594982569	-3.14065936462474	-66.5468236647252			-66.1043685888094	111.623095746386	-11.9639576530058	-131.604393151203
137125000	-31.4126717638919	-58.1164488998626	-2.86815776925452	-71.0280795201931			-61.6254266605289	-172.384724023422	-12.4303314779546	-136.778333195796
137812500	-31.5964753230818	-59.8802188221827	-2.62055186658387	-75.5798575605978			-57.3575330721873	11.7025836650705	-12.9182651774391	-141.058224689353
138500000	-31.6151595160122	-62.2965580072016	-2.36743654996485	-79.9760268971751			-55.577359482166	-61.9458519156164	-13.3429445144147	-146.64037747022
139187500	-31.5642304199768	-63.477308148596	-2.17450736165631	-84.1777038111695			-60.9931936710812	85.5951844279632	-13.9230870287326	-150.572833518621
139875000	-31.6602474555306	-62.2991771381717	-1.96833164258267	-88.3467750946206			-55.5635605307588	-131.184391089282	-14.3045722311268	-155.172521389259
140562500	-31.838988384906	-63.2223659805118	-1.81476515144604	-92.3528771371824			-54.3290995350397	79.253862847469	-14.7603902326274	-160.696018658057
141250000	-31.5590419092526	-66.6695300535473	-1.63042727935007	-96.4940904403117			-58.153291931158	-76.5502894396015	-15.1041907319952	-164.383394916981
141937500	-32.1535579167083	-68.4977039997037	-1.5427412461806	-100.344867177951			-63.6075509803149	18.4085949250326	-15.5386837410153	-169.851855640023
142625000	-31.7274408178855	-67.115443098994	-1.40201854220186	-104.221867616835			-55.893263471248	-51.7407457943859	-15.8790594367288	-174.112503772488
143312500	-31.6253283825689	-75.2703649864571	-1.31490496249423	-107.991359055785			-64.3511926664725	-36.4391950720071	-16.3785975497411	-179.235614216721
144000000	-31.6416472915463	-72.685298748385	-1.16039930104037	-111.463054373951			-58.5475640399855	-49.6704886974448	-16.7912066274992	176.359111571555
144687500	-31.6563767949918	-78.0279547807691	-1.09003631139833	-115.462791954471			-66.4997980830712	153.130019269845	-16.9340671180488	171.377017193925
145375000	-31.8991781285104	-80.111258956366	-1.00317134742598	-118.879462216746			-56.5827549948943	-76.6710669858887	-17.3716346022408	166.564221581189
146062500	-31.741199055697	-78.9503334654963	-0.949214388628966	-122.43436773312			-69.4475935584042	-21.7167783789785	-17.7471316085307	161.1190631819
146750000	-31.348859085019	-80.9653124247558	-0.867228858009837	-125.648511175059			-56.9603852770043	-70.49399159966	-18.0823443394112	157.066132845716
147437500	-31.3982527332896	-86.8177220874941	-0.794150705129908	-129.100291732468			-59.461729473437	45.7948683711012	-18.2825093643309	150.426899543432
148125000	-31.8195219624764	-86.8476819038953	-0.785053319362971	-132.58439120126			-65.369283488035	-102.173626814792	-18.6210800766003	145.734492323745
148812500	-31.3381239928465	-91.8777207682879	-0.681473602940131	-135.815386982879			-60.4343962328055	-124.995952510524	-18.7112776714926	139.911529848771
149500000	-31.35383832774	-90.1384214492582	-0.66268290512424	-138.873863891766			-62.9519658919264	-115.520397841886	-19.2838331169873	133.761569878472
150187500	-31.4646422806057	-92.2647860117188	-0.648006814193016	-142.032329606546			-58.2859940869492	147.522438096948	-19.1957802945257	128.902895931569
150875000	-31.3469546692412	-92.8107152788475	-0.615344909512557	-145.1556068974			-70.1744183391575	27.8834961033064	-19.6420207297943	122.522330979087
151562500	-30.6360503882872	-95.9448533794856	-0.60473880222136	-148.039108919124			-52.4653632194068	-150.418906366855	-19.4644823907245	116.967289065764
152250000	-30.7907849641627	-99.6276090759609	-0.562670455688755	-150.942673068643			-60.8040664085639	117.502985944631	-19.8308626292689	111.626672320651
152937500	-30.2771683681426	-102.016156658861	-0.520137863231471	-153.821524666952			-58.4151705258536	173.388080303605	-19.778778939693	106.697407327166
153625000	-30.3293772863967	-104.734017003958	-0.50841635789695	-156.693440834804			-66.0026621919518	41.9806713360617	-19.8031757721567	99.604308984697
154312500	-29.7935339320631	-103.519723542473	-0.483640493054343	-158.985529977171			-56.3419275204617	-123.57587416978	-19.7311966394733	94.1357393818442
155000000	-29.6579973146879	-105.102777841178	-0.521093938216589	-162.187457240731			-59.6018508514057	172.362278127731	-19.7358705836956	88.9919442046057
155687500	-29.399285775235	-107.273126550164	-0.492155506799321	-164.554646595171			-67.1858597425317	-62.6686581878843	-19.6935922902214	83.3031838122454
156375000	-29.5144220833803	-106.150621975569	-0.466718407220251	-167.498107288022			-61.3283185797556	79.7914737158235	-19.4283913046639	77.0957008173547
157062500	-29.3598803099734	-109.529910909984	-0.452619414694913	-169.887820789919			-64.4582924909791	144.995622787691	-19.4894275837391	72.5569811951887
157750000	-28.6301988161591	-110.356892622749	-0.440490818165935	-172.588196107676			-74.3134531561347	-102.076409759236	-19.1779861534514	68.2127196613708
158437500	-28.6415994448104	-111.114059411609	-0.401755351844202	-175.044636232511			-64.2920807176722	-77.1003019017882	-19.0164113606495	62.7463391605641
159125000	-28.0517050299984	-111.095027608452	-0.352583342235213	-177.584155704256			-60.2695701960787	156.682451398593	-18.9044846189176	58.251652381976
159812500	-28.2823252108977	-113.017485944895	-0.368650484100463	179.720233338522			-60.8465516318901	-56.7540866630743	-18.6495937459004	53.0528326791311
160500000	-27.9676771566105	-111.802148873857	-0.333305892839269	177.175209711574			-55.1212525212065	164.918713260853	-18.3778686257985	49.6004830294353
161187500	-27.3379414214913	-113.032543562361	-0.380320160276572	175.12662891837			-62.8839841603386	157.721392398403	-18.0857240289131	45.3241773876553
161875000	-27.4072610772169	-112.38145790867	-0.312509349532913	172.410423526442			-57.512363229548	163.486700027802	-17.8704671050383	43.0884663933609
162562500	-27.3074964250819	-112.572722812331	-0.333649643539462	169.97621222453			-61.5143861665974	-104.505737680907	-17.6616635845368	37.4448598544868
163250000	-26.8056575796781	-112.474977655657	-0.281977196251933	167.388667926447			-53.6923936823201	150.305880740407	-17.3849051707341	35.3572810586603
163937500	-26.7859003706428	-112.351336541204	-0.308063652736511	165.137015737928			-59.5637839873426	-156.919509808928	-17.2032058827531	31.0738533097425
164625000	-26.4999570711992	-111.151148179759	-0.282573650498301	162.616626474022			-58.2111337404223	-179.622115515255	-16.9988339862524	27.8694901060053
165312500	-26.4840046903975	-112.396414506292	-0.2901161333435	160.173308450706			-59.5540265838765	14.2274086945121	-16.6508393195517	25.1413303055509
166000000	-26.1038115146317	-111.918802182062	-0.287092982306974	157.837882374241			-55.8177202955718	-137.22170163003	-16.6004114000247	21.8178145597525
166687500	-26.0815293173819	-110.997773950253	-0.289154141180379	155.444642094828			-66.5445931422397	-102.759013310648	-16.3515173835325	18.7555902207665
167375000	-25.6898643707403	-111.30608693213	-0.280839906580209	153.429666771108			-58.0152640181039	-133.559260414498	-16.1958845699897	16.4415811585933
168062500	-25.7849746041377	-110.272908563347	-0.291306081155418	150.856884111079			-58.3486244543888	100.279430728881	-15.9029305367229	13.3483789613631
168750000	-25.4494352570729	-108.830826566224	-0.28465761568526	148.822860279131			-55.6205949066326	-136.088955300761	-15.9753133146716	10.3140370018972
169437500	-25.2474835774072	-109.14949495017	-0.3268658953593	146.623155000728			-65.323871220718	106.492437752991	-15.6084599428506	7.72318965775062
170125000	-25.1431035646668	-106.427733944941	-0.304575663257304	144.406832673308			-58.0645345881242	-96.682336130837	-15.6698344293863	5.3678763477825
170812500	-25.3547780548964	-107.053233025731	-0.336691532176524	141.995077069127			-55.0793334915367	108.869567142847	-15.3256779475462	2.78250049247665
171500000	-25.3044851332464	-106.808176180497	-0.318655143098382	140.091027252597			-57.9178391881574	-112.865395886787	-15.4268551276241	-0.14205382943635
172187500	-24.977977402063	-106.246376488245	-0.328898883896039	137.609603165527			-61.0070369812573	106.96716002578	-15.2788776316893	-2.75700534860876
172875000	-25.1076567168926	-104.395499511959	-0.322186400627286	135.989428875521			-67.151378521495	146.812115040684	-15.3015581632107	-5.07415632140191
173562500	-24.750911686698	-102.28984852638	-0.338732085349647	133.776634009216			-63.729590962761	178.888052506604	-15.0778835773625	-7.26216050745456
174250000	-24.792017774575	-101.865297110757	-0.356302163321509	131.799837473205			-62.2943193067405	-68.6091265587426	-15.0824730700873	-11.2884872571492
174937500	-24.5863906040286	-101.680261756392	-0.34353559515958	129.654030489734			-54.3455997636836	117.772305051846	-15.0194724330516	-12.1333204251648
175625000	-24.5060914681919	-102.665157036714	-0.361061328986999	127.998351882059			-63.9920407002965	99.9149608915479	-15.0098702219162	-15.5699585289443
176312500	-24.4304288738168	-100.447778837734	-0.299871617019032	126.185976400974			-65.095456016607	-171.35862163813	-14.9189241700001	-17.6498787253977
177000000	-24.6151184398878	-98.8487044023835	-0.325309928022543	124.249041149245			-62.9525609750627	142.66765661989	-14.8952548471537	-21.0503462575005
177687500	-24.4506827735018	-98.4304713061462	-0.312190923841654	122.146925818927			-56.4322858721865	130.456343839809	-14.9356502550528	-22.5358722820247
178375000	-24.5851420319096	-98.3235069539017	-0.273459764049133	120.055270540073			-59.4689731015708	-172.356794907186	-14.9238804364748	-25.8701896743249
179062500	-24.5179986703948	-97.6171241255135	-0.243398964901545	117.992197040791			-58.2118481464578	163.469336855292	-14.893440163049	-28.2402294295004
179750000	-24.673752805625	-97.8913158845257	-0.257018825629699	116.188478153283			-53.5688290723365	97.0514958886314	-14.8699598394606	-31.3036471697941
180437500	-24.4795154099875	-96.6473723153073	-0.199335942448354	114.052366926699			-61.7793288137995	-163.194660782998	-14.8782148635338	-34.3990444199823
181125000	-24.5363271134243	-95.3163140269891	-0.193811294259432	112.173359012997			-66.1347537364568	112.112932785637	-14.8100910504396	-37.3464202504056
181812500	-24.4369837016121	-93.9779794832371	-0.157400335676703	110.174964694076			-57.8005288017463	-153.230844779187	-14.8718559144029	-39.8907143754961
182500000	-24.6278844152678	-95.742621897917	-0.132528485923867	108.213570091951			-58.44024096113	31.4407915264044	-14.9315310868134	-42.2440728055315
183187500	-24.6289500530736	-92.7037328317563	-5.88497785774864E-02	105.950349626557			-57.8189448281883	-160.527284098468	-14.894313219521	-46.2301951917537
183875000	-25.1562777650703	-92.7508678734012	-7.84420853968097E-02	103.951918837499			-55.6688055425409	127.176117156868	-14.9096340526244	-48.0781418197464
184562500	-24.7281777820557	-92.911904823152	-6.98059159763881E-02	102.154043556759			-56.129718212803	-109.723265624731	-14.9592171510345	-51.6008685397536
185250000	-25.1819242546624	-92.6970593247179	-0.043936208947474	99.9606053650336			-58.0781570865835	105.027101759739	-14.8992479277711	-54.1994671882619
185937500	-25.1069980221326	-90.9038899138369	-3.11322361173024E-02	97.8325481369056			-55.5467795479558	-13.0000774482414	-14.8848215711289	-57.1965156615139
186625000	-25.2452192145544	-93.3082088157482	-9.55748703615556E-03	95.6305953612691			-53.6525715803179	108.296154029358	-14.9671824608467	-59.718311108825
187312500	-25.3893683689946	-93.7781203416947	1.46045134470928E-02	93.6032448573881			-67.8712608144359	-147.214895510633	-14.8077475666752	-63.5657524411372
