# Hz S DB R 50
100000000	-32.3990875337162	96.0202467086555	-7.47111058341901	1.03817674639067			-60.405719273346	59.6185796609845	-3.49493105474832	80.1410471747308
100687500	-31.9207183544697	96.8560737167624	-7.05350985796611	-0.669631285128653			-60.5262153171019	178.530478296665	-3.43302041655693	77.8482338765957
101375000	-32.6288912270758	88.5278607342974	-6.54494228487405	-2.92532405035593			-57.0952870673271	-5.05095334722617	-3.46245594881805	74.8516179969323
102062500	-32.0305698270385	94.9516308700958	-6.18139103237261	-4.66959692550082			-55.6743405928012	94.9137420644931	-3.49074691614211	72.3616317655168
102750000	-32.7241168937348	87.5799907076162	-5.71166218030709	-7.18867382640298			-54.5884665691255	-5.72204108802507	-3.44980685851695	69.5761903316962
103437500	-32.673810417765	93.0121965397015	-5.40918591722495	-9.35272340198337			-59.673230240133	105.125293110388	-3.44194902184048	66.9068601381932
104125000	-32.4611057921719	82.6522057130414	-4.9616947620514	-11.5864625137549			-54.6834469618301	39.1559819787433	-3.43239363008143	64.0450883051159
104812500	-32.5123490842611	86.5228523325044	-4.64201749330633	-14.0482019301073			-65.643757115594	-132.224927405641	-3.4706412369452	61.4592802224963
105500000	-32.3450059341164	79.2551854029339	-4.24220921273138	-16.4618639434368			-54.515600210346	-5.74593317119187	-3.39199329328246	58.4761553832614
106187500	-32.569346315579	80.1930489600669	-3.98629318498727	-18.9839280120306			-62.2644251995759	115.358962807257	-3.4632119449255	55.8614992020981
106875000	-32.4270034573474	73.924408749004	-3.62399762172966	-21.2540411937489			-55.9387715846841	-9.01017786620613	-3.46063114114506	53.0530502882687
107562500	-32.4928257361917	73.5903829470983	-3.37895425504328	-24.0770252182247			-57.6922872421274	-123.313296148303	-3.48311572854125	50.0697033900895
108250000	-32.080145307742	61.1982895805547	-3.08050510963836	-26.5192099521467			-64.8494158059534	-1.13709330023187	-3.49561464117381	47.2510330998647
108937500	-32.7635160650303	63.10852164838	-2.89778848959795	-29.0462820616714			-57.0876362154689	-122.947392649205	-3.54296108820957	44.4979313865471
109625000	-31.5277186979354	61.9605198173865	-2.6395042766011	-31.6519409385723			-63.83532566729	-95.5519300755775	-3.57403725245977	41.6591616148109
110312500	-32.6134871477203	56.973138873805	-2.4979658668066	-34.3935798419706			-67.3750351780866	112.751208108482	-3.60603037180464	38.8416016641479
111000000	-31.4228104835189	54.8895337225294	-2.30476763584328	-36.8240492282211			-55.4132975188378	59.3946675517719	-3.64028094827569	36.0156326587886
111687500	-31.7155976695532	47.1613099520697	-2.22036290392088	-39.632911310737			-64.1646558714438	4.30485182965635	-3.69047421782405	32.8547073295429
112375000	-30.5905843907631	49.42129271622	-2.09827281353238	-42.0306888197135			-54.6702648615606	95.0978636503903	-3.72933823826358	30.3189056103624
113062500	-31.2736115719208	40.6669243161665	-2.0694194426857	-44.6681594522326			-57.5818219543233	-28.4679843754826	-3.76768631634664	27.0701637209988
113750000	-30.6786588363945	43.2963680048704	-2.01361181803355	-46.7235815363554			-63.8743840734267	84.5033423422742	-3.80244366840362	24.3142004552637
114437500	-30.9859652279037	34.6887008752174	-2.04419047967932	-49.3383040764419			-54.1234400523867	-55.5406706165855	-3.85489171901736	21.1593431107567
115125000	-30.3524881048644	36.1275010806662	-2.02682924137086	-51.4468341643767			-65.4442161477613	103.932497967033	-3.90184137932955	18.0979230737324
115812500	-29.658710731294	27.5368166764215	-2.10661768800023	-53.6435923069454			-58.7608310053839	-41.9917235088936	-3.97769832380312	14.4899175419444
116500000	-29.4948618138556	28.1635461123322	-2.23596912934298	-55.4104183278687			-56.9399240101068	58.089648253837	-4.03039853465751	11.266184681984
117187500	-29.454789446511	23.3626835865664	-2.42303934246297	-57.2100492692776			-56.0865575745825	-5.98718327750931	-4.06918189865587	8.06733717749909
117875000	-29.5405340602611	23.5570355242482	-2.61153524254671	-58.5274692663333			-58.6690765935494	-103.83565713315	-4.14878975033678	4.57617943412557
118562500	-28.7812073539229	17.9775442649481	-2.87578009209174	-59.3024626350854			-58.1322960092342	-22.0907850611295	-4.20179195626046	1.03746847163093
119250000	-28.9876803364809	13.6439724416747	-3.18220158588553	-59.6579865542513			-67.9822095613426	120.588386926751	-4.33542116852304	-2.60589458232815
119937500	-28.440336201073	11.3760472453207	-3.58656035140183	-58.9158053224056			-63.5077076766003	-25.8765667350052	-4.35578225081911	-6.81864601511688
120625000	-28.660098317695	7.46953957532762	-3.9788957893426	-57.8385510176351			-56.613368445926	-111.629198970373	-4.43396705582281	-10.8852164803828
121312500	-27.9246916808186	4.16878541572847	-4.40278386546482	-54.9626957389877			-55.2666024634658	60.6862928543894	-4.54324438309372	-14.8976132114321
122000000	-28.3538981094085	1.23766625845328	-4.74534088366615	-50.3574292584942			-58.4116128086284	-89.5951233600472	-4.59243363614295	-19.4002457946951
122687500	-27.8350327149582	-1.0713065846831	-4.88484902420827	-44.027383654506			-58.5065367525872	45.7655291923122	-4.77642625907286	-23.6286798363539
123375000	-27.7025168033716	-6.00430418758193	-4.66824394202422	-36.8634440406748			-59.5961336009885	-95.1693171489895	-4.89495585154279	-28.7374165300769
124062500	-26.9900118376403	-7.12806010351612	-4.09426811085247	-28.8284147266202			-53.3663123049319	35.4979541179511	-5.00961416474782	-33.3887519392257
124750000	-27.3862774393877	-13.3588390527712	-3.02593746591273	-22.351130763786			-64.0242927281273	-82.1566297665937	-5.14935953054279	-38.8569999551893
125437500	-26.7865463908813	-13.4639493075795	-1.79504529165294	-17.4354082658224			-58.297669158554	94.9361453075198	-5.33763652268995	-44.232191495551
126125000	-27.0473323599761	-18.9095551927821	-0.320336929361791	-15.4236205108932			-57.1104823069056	-96.1295755436607	-5.5538182975689	-49.4322317027815
126812500	-26.8763581684521	-21.1696888829634	1.08528343934948	-14.6704807459892			-51.062677079394	68.654719017029	-5.79954336701541	-54.9468980785827
127500000	-26.8207438832676	-28.0507101542664	2.50942810308718	-15.9256986326314			-68.1819093351399	-104.681399838904	-6.00584613729412	-60.4991634183172
128187500	-27.0063454685048	-27.408230881056	3.75414426256668	-17.962805456681			-64.566217705571	50.9101263566765	-6.31616776779074	-66.4095693643652
128875000	-26.4968853415176	-34.3855323975935	4.96502394778236	-21.5915093708818			-52.6368327777397	-41.5435464020218	-6.65330480778439	-72.4782177662622
129562500	-26.8242864056888	-34.7007013909571	5.95988305318599	-25.462121306925			-60.6497988006344	97.7350644678572	-7.0295749421265	-78.6592811215248
130250000	-26.3325131476113	-39.8862980969542	6.97477342443078	-29.9240264068894			-51.9770493721516	-27.1118760350949	-7.44390337245648	-84.0680094616144
130937500	-27.2813758405819	-40.2793934294531	7.76760860871727	-34.8496919418196			-56.8265174298127	-0.836606786279358	-7.78795091091846	-89.8985699141042
131625000	-26.6958310578577	-44.5116764856598	8.53995500517285	-39.6992890549965			-52.5162981500716	-25.8506932050179	-8.29475819182038	-95.8910635686781
132312500	-27.6329383843073	-48.1321653804898	9.15849022338926	-44.6698201161192			-65.8577627610144	-16.6977508461773	-8.6704434150632	-101.798673642476
133000000	-27.3293646283419	-48.6854813924615	9.75086799768346	-50.1154889793665			-54.4424522621219	-42.5027667744558	-9.16282885837274	-107.212631891648
133687500	-27.5320570458816	-55.109554508041	10.2113214607318	-54.9842591647202			-53.2322416197559	-14.5765200812659	-9.58878056558044	-112.824405592739
134375000	-27.7161863728522	-54.4078369597055	10.7406772495617	-59.9745023765511			-51.7404927286227	-26.1925286582317	-10.0956030949131	-118.342844302604
135062500	-27.7759716060802	-59.1157883879242	11.0471304800312	-64.6659871677786			-53.3181391337825	-102.749005817413	-10.5660902369646	-123.631140585741
135750000	-27.9218915116214	-54.6199072801114	11.4465351134767	-69.8298317872966			-51.5541497128801	-14.2452981470755	-11.0384528327455	-128.966577319155
136437500	-28.5698636784556	-64.660247521109	11.7280810556446	-74.3676164144863			-50.5959744123573	-92.4841039847683	-11.5223041566813	-133.849462070501
137125000	-28.4117373578791	-60.6657363291376	12.0735690684938	-78.8927124613629			-54.4228103957624	-38.6378329000473	-11.9620238655333	-138.950724767448
137812500	-28.776429266669	-66.2329849590088	12.2804555298753	-83.4406532807892			-56.8230976450849	-71.3239751874011	-12.4544761512727	-143.823275769371
138500000	-29.4478778560123	-64.7620477109105	12.5357970803481	-87.7090821732235			-56.5271528746317	-64.1354195863384	-12.7940125288515	-149.702143428193
139187500	-29.4004328637376	-68.2796011064799	12.6953921033807	-92.1122425832372			-52.2385602948296	-107.378321491637	-13.2794498261575	-153.612846395977
139875000	-30.0410103689952	-65.4883212433528	12.9207668140624	-96.0981582098468			-53.1939164419874	-76.8472661073119	-13.6901843829286	-159.062804691146
140562500	-29.9250116482944	-69.9608184964955	13.0513045369608	-100.127430541868			-53.5099753817635	-109.705198547375	-14.1890326283206	-163.432507823021
141250000	-30.3710946550144	-68.0959633932617	13.2536842860492	-104.113191805734			-50.3583763504399	-53.8036940691259	-14.4822263954075	-168.760678773581
141937500	-30.3370094629033	-72.9514835578659	13.3436850617443	-108.052372640004			-48.2243802885513	-83.3992172746881	-14.9841991239034	-173.61016604543
142625000	-31.1267252514332	-69.2326259526218	13.5156199946407	-111.740484016109			-52.1527986203129	-102.133261026371	-15.3130569663019	-177.970895493545
143312500	-30.69867952879	-77.5145295896423	13.6017087950304	-115.769121136694			-50.4081343483327	-75.3662365755228	-15.7596501421147	176.997243685135
144000000	-31.2609021051515	-71.4941353264755	13.7490584470026	-119.224441162956			-58.264574882218	-86.2642442058386	-15.9540703578684	172.070656950339
144687500	-30.8580422700041	-75.7864636286777	13.8032465079046	-123.162316134818			-50.0411552586374	-65.8114454545847	-16.4303537422588	166.855118318059
145375000	-31.77109415147	-77.5175478718806	13.9190239405077	-126.729167371205			-53.9062743284871	-118.776863514218	-16.6323433736429	161.213407547094
146062500	-30.8037096205547	-75.1428060280109	13.9668414709103	-130.097177455632			-51.9559508009891	-78.7275127566385	-17.0974777045842	155.232222330156
146750000	-31.9865860506504	-79.0796699623	14.0794729163514	-133.666795106902			-53.6354488407979	-116.711710670003	-17.2989444619381	152.078175481609
147437500	-31.2093903771694	-79.7195665164679	14.1141867104926	-137.086689693119			-49.4947326105237	-79.1283460273801	-17.6200691534016	145.093249135698
148125000	-31.5236296078854	-85.5745879927088	14.1905501346816	-140.312218943338			-56.8442369474781	-146.056569191884	-17.7741526309758	140.1376441537
148812500	-31.6003346584633	-84.0374469616984	14.1868923800282	-143.771559266827			-53.0908630681924	-103.27874144337	-18.0898542834969	134.071901309158
149500000	-31.3133546847137	-91.6066069298419	14.2843951184633	-146.80964343587			-48.9829219239553	-123.428915929416	-18.3050553660187	129.118634115132
150187500	-31.1791786424946	-86.3030486458086	14.2551319305948	-149.992172980559			-48.0391892430695	-86.4932173917415	-18.5701512813875	122.631380116592
150875000	-31.2891087376464	-95.1239861394605	14.3057945799777	-152.998072823283			-47.3243548997342	-136.956576013425	-18.8209994075228	117.867924429541
151562500	-30.7665258369241	-92.0529512886515	14.2996994545599	-155.934241617877			-52.6074748271902	-127.182665200697	-18.6954861303445	111.571382312742
152250000	-31.0238699620197	-102.365754834141	14.3579753474133	-158.995184296674			-48.0066842148476	-138.370717131227	-19.0140148487067	106.673299920519
152937500	-31.1924000186778	-100.717304669381	14.3619952752121	-161.736200221466			-51.1535549998756	-105.244249705365	-18.8453918632157	100.953866837484
153625000	-30.4567183758156	-106.361602649209	14.4013869245279	-164.608368567393			-49.3219598558626	-110.446008121414	-19.1029867926807	95.6403907761844
154312500	-30.3444824554787	-104.346144196988	14.3989921093254	-167.214901031653			-52.4602757706996	-170.483336265589	-18.6882019217096	90.1931910247354
155000000	-29.3594441699994	-109.080253708272	14.4452541818674	-170.311246171903			-47.9712606097114	-139.38823194419	-18.9112646635006	84.9917555068822
155687500	-30.0014765373305	-109.251030009431	14.3963311656778	-172.592570138329			-51.1284705048642	-161.047911176243	-18.7138899062492	79.1647887585786
156375000	-29.3670605223057	-110.16103585505	14.4829603612665	-175.609512347373			-52.6004289511841	-155.798321455816	-18.7865887913371	74.2277185270495
157062500	-30.2398436436394	-111.169702475784	14.4393216116773	-178.088236191555			-49.709241721668	-156.328334408117	-18.5834738588974	69.5511823304374
157750000	-28.3797937765505	-109.963468759755	14.518885176794	179.369824563303			-51.9545984393359	-143.300170254755	-18.3625993790956	64.1182764180547
158437500	-29.0376496808882	-113.91189135322	14.4839698515783	176.807761424773			-50.5276648308056	-168.837920074198	-18.2879165045685	60.1758518462357
159125000	-28.036651227734	-111.842312853189	14.5447854579567	174.282550477774			-51.9530192429643	-131.511705886632	-18.0198291619706	54.9190938917434
159812500	-28.6323740166302	-116.91134915613	14.5348398287652	171.741435889662			-48.160444334656	-175.638170307798	-18.0205653711538	51.8518809341
160500000	-27.6996432525365	-112.061916179044	14.5995225922441	169.117613978317			-50.325246760232	-160.85964234382	-17.6103838233703	46.3736376800685
161187500	-27.7493492695963	-114.649491924196	14.5375852959764	166.852943827998			-49.3790464142199	167.708680684359	-17.4269523800875	43.0800185905657
161875000	-27.0843837602516	-110.453230876971	14.6492037358069	164.12564547551			-50.7868906452948	-163.348820857388	-17.1751850942406	39.3216736010068
162562500	-27.2714768008399	-114.264579189114	14.5519189458075	161.639599261885			-48.5530404933224	-166.120602902942	-17.0732268641611	35.3596168411236
163250000	-26.7641753206109	-111.243971757574	14.6167017157362	159.149746592791			-55.1360139643229	153.535196547348	-16.7157093424247	32.3985322916917
163937500	-26.6437569836844	-113.518070947729	14.5965855803339	156.905513139163			-47.6146127741697	179.545354548606	-16.7551283501664	29.0497324107595
164625000	-26.4145629036971	-109.045387728864	14.6263953498116	154.39496987014			-51.9975106732126	-174.519781102833	-16.4114580973902	25.5830659044723
165312500	-26.3082993825196	-114.047903867664	14.6098824145382	151.885401333568			-48.2032915595488	-170.915009542357	-16.3069164332945	22.8980030783686
166000000	-26.0620632082657	-109.635056005538	14.6701274772099	149.466040864128			-50.8173470607607	151.011344605971	-15.9577132210894	19.3466987929505
166687500	-25.9674942473896	-114.109145451738	14.5783028720655	147.275905652926			-50.1346998467446	163.584112362031	-15.9991442580343	16.4496671221501
167375000	-25.7458337562053	-108.985787373039	14.6505994165659	144.972407048943			-52.913792526839	172.276863678165	-15.7560766180619	14.1359841372466
168062500	-25.4765121335476	-110.529342851077	14.5966786307989	142.656273848062			-48.2584245273237	169.458580476865	-15.6731433569829	10.7703485885758
168750000	-25.6597590886544	-108.334115633308	14.6490991609061	140.481627948806			-49.6622361451513	168.81899776252	-15.4494567789099	8.39198950960135
169437500	-25.5004997234427	-109.942791513224	14.576702331599	138.094062145021			-48.4018395909654	-152.103821646758	-15.2515200662447	4.95381509745669
170125000	-25.4429767523541	-104.796034918494	14.6278616263499	135.944486192372			-48.2513875293707	157.91826282091	-15.326376768258	3.15745180186145
170812500	-25.1732099560745	-105.590919037711	14.573527750116	133.635156167396			-52.0021588122897	-178.032655949088	-15.091746612769	-0.159465473330951
171500000	-25.4553243404588	-105.362275049328	14.5929416861066	131.502146980968			-50.4397188137492	136.684720666696	-15.1086003552349	-1.26682283203978
172187500	-24.7996011259579	-105.867110642359	14.5465971248939	129.351349140126			-53.1624219505337	149.568673120328	-14.8981977841839	-4.40078011016128
172875000	-25.370999069544	-103.368141420796	14.5950770778871	127.452610187103			-47.792046572876	152.023539892086	-14.8570155381458	-7.35508547753825
173562500	-24.6686027090677	-100.649588325235	14.5294832248067	125.260808561506			-54.6705068587595	134.956376942316	-14.755301601247	-10.2409952534841
174250000	-25.1319092136274	-100.505737647253	14.597652550638	123.376395873709			-47.6941022818385	155.930983119715	-14.8354040237556	-13.2046716587726
174937500	-24.769406781383	-98.6623443274104	14.5380876129497	121.371290410214			-53.6445115853956	142.251113546618	-14.6926641190324	-14.7882797618663
175625000	-24.8452406145252	-99.7832222308814	14.5840869214901	119.450670276862			-52.2356989038498	130.947425640206	-14.7689553468851	-17.7545639317896
176312500	-24.7489688606754	-95.5152309278379	14.5557512082494	117.390383826046			-53.7424784156643	-167.292823583813	-14.5875690377888	-20.4547959021395
177000000	-24.7768376519862	-98.0543944502687	14.6128758316346	115.506861726301			-51.111186726114	131.072463282699	-14.6610225708122	-23.6157005758753
177687500	-24.9061490158964	-93.5284640184313	14.5695460848334	113.538222903787			-56.2047291467364	105.962525121026	-14.6030633822976	-25.588325700085
178375000	-24.8201903122689	-96.4061272520515	14.6548852647689	111.395114861023			-52.69639075411	138.615284543981	-14.6481036813101	-28.5692531215325
179062500	-24.5504790276654	-91.6177987700539	14.6347272136477	109.500292224391			-54.2806155844742	113.931320469868	-14.6381953155284	-30.5701175814712
179750000	-24.8728767215332	-93.4696716340295	14.6830744915688	107.568258938476			-50.226567235916	123.277988804699	-14.6195049974837	-34.2542940028813
180437500	-24.5575029812185	-89.2947342804833	14.6786370847244	105.530156955027			-50.5554231073838	110.323854892748	-14.5944564729587	-36.058581380121
181125000	-24.5709044742147	-91.5218895326946	14.7507073842895	103.465526697948			-48.3468591294357	144.261123630008	-14.5592283751733	-39.9632804892846
181812500	-24.8506234710451	-87.0578887741605	14.7242598641268	101.519752343032			-48.0476601097289	101.68836586594	-14.6774907399658	-41.5277268312042
182500000	-24.6586168450609	-90.0479665396386	14.7952363224901	99.3680689306324			-50.7564152884691	136.573806151186	-14.6070515297976	-45.2176139340499
183187500	-24.7938254242793	-87.2323688293817	14.8248238762882	97.2067126389475			-50.6644143081456	123.129156946286	-14.5752809764036	-47.9763421904536
183875000	-24.7595853946885	-90.0869659398531	14.8632865750883	95.1637105257172			-54.218765387347	146.961156072449	-14.5640131773982	-50.6708808541529
184562500	-24.8564836461743	-86.7603120279671	14.826265955323	93.19792998917			-51.412112447439	111.544821615804	-14.6595433304039	-54.2802118562149
185250000	-25.0342508225443	-88.1838382726581	14.8970049586177	90.9459206459177			-54.5516332708022	120.533210382052	-14.5823337056104	-57.0351290621962
185937500	-25.2111569149707	-85.0977758389883	14.8675299347947	88.7541791707758			-48.0104042747722	86.8720987021997	-14.7098893357582	-60.1019215617514
186625000	-24.9389982533337	-89.2876356801649	14.9212598558213	86.545218546672			-58.5941620970028	111.968009845467	-14.6790469805287	-63.0807344813613
187312500	-25.5018758323008	-89.0591907520047	14.9004176947662	84.6182931561608			-47.3093667725483	113.659296818508	-14.7022851513859	-65.8183543107884
188000000	-25.0072461985122	-88.1796351352678	14.9086478276901	82.4854333097382			-55.9629625533195	102.368929195811	-14.6077800993645	-68.5250006622038
