# Hz S DB R 50
100000000	-17.6027214738159	142.302160907555	-0.153240838556781	2.41460241474655			-54.8321662811482	-23.0837265941761	-3.47784756186855	80.147662646009
100687500	-17.5023037120886	139.978829313006	0.253422357711077	0.478246215742501			-60.2522180051162	107.232245274911	-3.44968245460318	77.6646632002826
101375000	-17.6107301725793	137.712174761138	0.752301907564595	-1.51541536468542			-57.4677232193402	35.1355347543596	-3.46609274450541	74.7543325922449
102062500	-17.5151810052332	135.440426328706	1.15848097496474	-3.47793715751468			-63.8199124448921	-169.552690912567	-3.45863546510645	72.3490092058714
102750000	-17.6856670907575	132.008915872609	1.6016757010296	-5.8680253554128			-65.3495449193899	21.2918233374123	-3.48842285481145	69.7219940363121
103437500	-17.4632368374284	130.806505243861	1.93665115053939	-8.15400907340701			-59.4211613677368	-146.002818643891	-3.41589712178495	66.9692574264685
104125000	-17.6608332427548	126.719125867151	2.35473391336372	-10.4037836223561			-56.285202741868	20.0092457718146	-3.44210435316183	63.9415311272305
104812500	-17.5594826089346	124.902282957011	2.68369290606873	-12.7109542563762			-75.3671343110139	-173.471045607634	-3.47644028983838	61.2514090304953
105500000	-17.5213381510228	121.435236118573	3.1086772392955	-15.1188835571271			-57.3048176380183	-8.25480126711552	-3.42554830376609	58.4463353009334
106187500	-17.4780347371229	119.355238330341	3.38244363228622	-17.6717124140261			-67.9950697414157	-25.2119552946502	-3.45167857198959	55.9169775689846
106875000	-17.4891590770633	115.966053657297	3.7320589547848	-20.174789044627			-54.9871395660742	42.1060602188658	-3.47039063055282	53.0339075368921
107562500	-17.4849933415876	112.946849866092	3.98290354838991	-22.8485364425121			-60.0132388621375	131.38005156406	-3.4872266578586	50.031914921731
108250000	-17.4938128768819	109.296768386799	4.3035207118638	-25.1855577605208			-60.449382012929	71.2150568598696	-3.51451223122213	47.3354990092786
108937500	-17.5578455647947	107.361484290404	4.48340254620348	-27.6586569305871			-72.4928357334509	-89.6163451426928	-3.53184497942598	44.543750063085
109625000	-17.4188894267298	103.30420637259	4.74998593948741	-30.3783483847648			-54.4080688026179	18.5143712703647	-3.57567255232543	41.8270609806076
110312500	-17.5324652988829	100.109751071062	4.88784113419333	-33.221097233497			-64.3854747088909	-17.6823904050633	-3.61932559713324	38.8639949127255
111000000	-17.5134441157519	96.6117648187915	5.11941756045404	-35.6148108362958			-53.318776659537	39.5084079870559	-3.65793485345316	35.8759867225289
111687500	-17.6013182516848	93.6081923903745	5.18440430781417	-38.2806263598613			-55.8554657511115	12.4578778333594	-3.68340731050247	32.7501174794166
112375000	-17.2968378671134	89.3201536405697	5.3373345936075	-40.6923715554525			-64.3953890006332	37.1288800202363	-3.72577920878997	30.2734667556193
113062500	-17.4637659444356	85.751971431358	5.34285968137729	-43.3122480820496			-54.7501756982678	-43.9877126858858	-3.76431425425078	27.2681366357629
113750000	-17.3248737598423	82.9553276808988	5.43376318839267	-45.5195400410808			-63.7998534729162	26.047382007276	-3.85295125211409	24.3032640550603
114437500	-17.554008791198	78.5186612562369	5.41134127352251	-48.0056619865308			-53.803795930584	-39.4163696100062	-3.83089714595174	21.0527701559092
115125000	-17.3588167897836	75.3584857890477	5.42578987518143	-50.0326770608882			-60.9244800411006	-3.17255451067377	-3.9253528549332	17.7148988697403
115812500	-17.3966492297048	70.6043498512294	5.33363457939216	-52.2870350746164			-55.5645215240966	-48.6933262120782	-3.96082002963038	14.5075514056169
116500000	-17.3425995880098	66.7938037002366	5.23545686219424	-54.0906158134627			-62.5215100944381	38.9611909025592	-4.01867837427719	11.3518799642387
117187500	-17.3347131005497	62.4167784058861	5.04356669488231	-55.7193260398566			-66.8865789029426	20.7718547695674	-4.08206290459377	7.96532840256721
117875000	-17.2886623109856	58.891667474795	4.82740902973209	-57.0660701022594			-66.0127157680721	-34.2297766256817	-4.16634988752425	4.5086449158722
118562500	-17.1957911705998	53.5452739226761	4.5756000264006	-57.8330371245757			-52.4787140369279	7.84642755651293	-4.21607122396995	0.868349816616481
119250000	-17.2944355804333	49.6489124792615	4.31235838549707	-58.3197066065959			-60.3916244697272	-13.0261881058779	-4.29642166407466	-2.88009987135142
119937500	-17.1423346689594	44.1678277271302	3.898556759422	-57.8757557231084			-54.6501621192651	-42.2879277876834	-4.3703760320791	-6.97968361677916
120625000	-17.2356510413211	40.5771402034301	3.53448498222091	-56.4859827441752			-61.1971377867222	-99.1311933165552	-4.4585198489839	-10.8528729876403
121312500	-17.11789894882	34.9957064428939	3.11664912013803	-53.7523764810759			-56.2273320861593	-1.56721421489504	-4.53314404713223	-15.0824410723279
122000000	-17.1995734270393	30.9016916912569	2.81356031116793	-49.3319707414982			-52.7338630068745	-72.6316763569487	-4.63200808083548	-19.3725408591507
122687500	-17.1173865828267	25.8498710536784	2.62695947601031	-43.1589832388679			-57.363712131956	-11.3240172868501	-4.7658042056145	-23.7828395463638
123375000	-17.2016544640694	19.6184679738425	2.87521922731393	-35.9709246948614			-57.2578822571116	-130.167388719686	-4.85483100978994	-28.7025475508228
124062500	-17.1371409343791	14.6940968989638	3.45217711927362	-28.0084604578419			-60.1525352381362	-0.9550702508988	-5.02009098002867	-33.2517067517147
124750000	-17.2196122793606	9.67505701897643	4.5664169385321	-21.5069780477503			-56.9675270960239	-0.594406989570682	-5.1548663367429	-38.7641329721278
125437500	-17.1700818285327	4.97886077609295	5.79505549142291	-16.6536851535551			-55.7559017802459	-16.0363412214854	-5.34823923242437	-44.0515185621067
126125000	-17.4209071757317	-1.98024142614358	7.26796907635738	-14.828439147142			-53.8561578367313	-11.052158623463	-5.5377074915081	-49.0495743537023
126812500	-17.4614136548825	-6.39234073490524	8.69251232951263	-14.220272904137			-56.0343026040419	33.8494234278134	-5.81608577508217	-54.8582131808857
127500000	-17.6639655125837	-12.8598786052828	10.0730539648522	-15.6650438509579			-51.3497251673714	28.3607398814875	-6.00815808415408	-60.3228967835879
128187500	-17.8013667718417	-17.5817819560993	11.3491118453695	-17.9822835309711			-51.6044960362633	21.2414385995513	-6.33478194905399	-66.3274567962591
128875000	-18.0034269688616	-24.9047884333845	12.5432531256398	-21.6713360757139			-51.6829400955041	-23.8345004083275	-6.64709898655579	-72.1749189060471
129562500	-18.3540211640436	-29.2480532808239	13.5570510003505	-25.6104942264167			-63.0282951694399	48.8930170388309	-6.98080414789215	-78.3927815484118
130250000	-18.4241756483391	-35.4388853470729	14.5826332072495	-30.3970258203913			-50.5479895810004	-13.5722224056961	-7.41761561309061	-83.9064319817637
130937500	-19.0540644870775	-40.893948657851	15.3506401078581	-35.2229246406541			-52.1223357618159	-35.6735839284208	-7.75230001897763	-89.7497165862677
131625000	-19.2062056702208	-46.0676703727411	16.1223201025813	-40.4036062701365			-50.271435867097	-15.358215013112	-8.25268496242377	-95.2179765287021
132312500	-20.0314747886017	-52.8521241693335	16.7319118707435	-45.5551361336102			-54.4158445398167	-24.2974018277219	-8.58781445917471	-101.326989301858
133000000	-20.2431584539101	-57.0969347657551	17.3316869777861	-50.9009285705027			-46.5486271859768	-25.7927393172252	-9.07534619469439	-106.402986897937
133687500	-20.8449599541497	-63.5338721257687	17.7492841159906	-55.8044612936526			-51.3163329289768	-31.7321061023301	-9.50959493665927	-111.986408654877
134375000	-21.3052266298463	-67.4751425655495	18.2748023748466	-60.8588865909537			-46.3467374928058	-31.4979238098034	-10.0275840439639	-117.559463648744
135062500	-21.8079885577186	-74.1744470304971	18.5858626888542	-65.6245198785024			-49.1608096195627	-55.2821683073235	-10.396536002501	-122.782389006688
135750000	-22.537627609447	-75.8938556643727	18.9713561674305	-70.6787509548651			-46.8728850465338	-31.1809617319191	-10.8982466781596	-127.620904286336
136437500	-23.0664674805649	-84.4809688527281	19.2325993953476	-75.4821360853291			-47.7750248399781	-46.9905937580944	-11.2956499185802	-132.730445065932
137125000	-24.0018110162819	-87.4232498539476	19.5380853475035	-79.8384728595381			-45.173546711536	-35.0326913194148	-11.7031478402893	-137.990843287097
137812500	-24.4760977383373	-94.2912132038915	19.7510610676822	-84.2728036351459			-46.2895584862423	-62.1942489673927	-12.0982662464896	-142.852913341463
138500000	-25.2856879229747	-98.0823957566814	20.0252679275343	-88.5734222360964			-48.508450482669	-47.0093948901807	-12.4633000936162	-149.138425807504
139187500	-25.7913956314455	-100.743793583026	20.1785067764503	-92.8748027121984			-44.1152261224615	-65.4207223361319	-12.9569726230852	-153.502333668398
139875000	-26.9424690806579	-106.634650275753	20.4205141644907	-96.915920523853			-48.2674108483345	-56.0434357598969	-13.223772952166	-158.778937586288
140562500	-27.5037508581803	-111.680444790912	20.5296198112745	-100.790616596238			-42.6768698455177	-74.0219598564949	-13.786601747187	-163.759197400707
141250000	-28.7540145137305	-113.523590215393	20.7258148127293	-104.861218421918			-48.0684780208911	-80.0020943522661	-13.9942280521511	-168.840136360732
141937500	-29.1195618222049	-117.75448498888	20.8065888829442	-108.821467796801			-44.6189841822027	-83.7115576329138	-14.38632839628	-174.279212243407
142625000	-30.3645133108097	-119.114893625457	20.9967181114103	-112.626742968719			-47.4445435376162	-97.4331573100133	-14.6584093421945	-178.784709411994
143312500	-30.0116715215727	-122.245214316585	21.0633786806601	-116.422788454116			-44.6834569227317	-86.5532271568637	-15.151333032162	175.467450979523
144000000	-32.103837066534	-125.240798563331	21.2463002815783	-119.710894452904			-45.7738373535382	-100.751371942466	-15.4482293483171	171.504484063498
144687500	-31.8532232999415	-124.490322302213	21.2839056598665	-123.765587737691			-43.9903439044251	-91.8092094467058	-15.7985985192017	165.715613608175
145375000	-32.8390712156618	-131.080180328373	21.4188250922832	-127.442638032638			-44.3695925695539	-111.607314531131	-16.0242740877472	160.415450701011
146062500	-32.5431433744695	-127.688634774741	21.463654464276	-131.016646045148			-44.3435009246381	-96.7230678967931	-16.4748239501383	154.725996339544
146750000	-33.11972466957	-133.877917118726	21.5469245259921	-134.321215605514			-44.5030913328463	-116.278894826853	-16.6533626839817	150.235350102087
147437500	-33.2348675536945	-129.381941409536	21.5931587322716	-137.811062142709			-44.5367968952982	-106.955239951913	-16.9993260580699	144.024533900486
148125000	-32.5887537056453	-136.057534556212	21.6471855316826	-141.124303637994			-44.1516329449501	-113.559785021265	-17.114895000066	139.81385729167
148812500	-33.1150884847539	-132.381324918877	21.6720683759983	-144.370248155693			-42.5399496525531	-98.1883910878166	-17.4209089869086	133.221932150176
149500000	-32.6098150482138	-141.287119968794	21.7788516802106	-147.591655689728			-43.6883589201318	-119.3621483706	-17.6971525691866	128.323054389402
150187500	-32.8815447634208	-140.845715279952	21.7383850308517	-150.626183681675			-43.2640012731171	-126.147570870706	-17.8189430661764	121.714805886431
150875000	-32.400523309358	-141.439390020349	21.8006272213242	-153.723202364739			-43.5165100756791	-127.452104400294	-18.073090292415	117.496448998409
151562500	-32.4044165929423	-140.871027652336	21.7997144467214	-156.684808737833			-44.0902651599804	-128.531286745844	-18.0089082113138	111.926621021151
152250000	-31.4855178596678	-149.338898168022	21.8357492312205	-159.740068802821			-42.1653132744075	-133.445475373065	-18.2967215435948	106.386343293251
152937500	-32.3037976622264	-153.732940528075	21.837303906591	-162.404780889412			-44.9819359548846	-127.91750763091	-18.1683943016803	100.568190244308
153625000	-31.9752957869008	-152.112384114591	21.882037912125	-165.290031137217			-42.438148326774	-132.210218766108	-18.3283805373763	94.713969814754
154312500	-32.1262912050546	-154.908148814729	21.8722826070028	-167.925259088477			-45.66151193123	-139.277184997593	-18.109001807253	89.5731074882277
155000000	-30.9052057482356	-155.82599513931	21.9128060039811	-171.02550990055			-42.6149547040208	-132.15959825584	-18.1513383461755	84.544207019023
155687500	-31.7233460519975	-159.162151839076	21.8888643685646	-173.315310605295			-44.4278306594139	-146.331202253407	-18.0171711933078	79.1350857526732
156375000	-31.1643396151796	-155.476091087834	21.962584949149	-176.249484396331			-42.6532981506123	-141.860929497855	-18.0575385633935	73.3848578588402
157062500	-31.8076677647081	-164.82623676174	21.9230217731179	-178.663646280198			-42.8386453089737	-165.473542236992	-17.988777382849	70.0707920540915
157750000	-31.2618452639518	-155.938901302616	22.0019280928271	178.60049491992			-44.0834777286788	-149.718586317584	-17.7951105236916	64.5286405203769
158437500	-31.8969383227643	-164.614734206443	21.9635872354463	176.195929115652			-44.6768788859268	-163.541646029583	-17.4989174456872	60.631036055791
159125000	-31.2052219769009	-153.657246581116	22.0394983076016	173.59438506866			-44.0226500505193	-159.154313791124	-17.3719788405178	55.4784738696417
159812500	-31.9045291046418	-164.975068786445	21.9983581941963	171.040965009906			-42.5737129747056	-162.879324380484	-17.2449563644056	51.2272378998707
160500000	-31.7469622058104	-151.455565559161	22.0812717852499	168.28417373446			-43.7423094072881	-156.236966183698	-16.9439960312548	46.7455821940593
161187500	-31.3329423291944	-156.111896455097	22.013996463169	166.174566913973			-43.0438263522	-163.894392900389	-16.832538530407	42.9255711609026
161875000	-31.7363203288786	-147.171360452693	22.1152565805931	163.4292952956			-43.7282435260865	-163.215720402678	-16.5313855239638	39.4591015264987
162562500	-31.4357855234225	-148.699160935267	22.0582817617489	160.943255651239			-45.2593237999949	-178.105405317565	-16.4512913068402	35.1906929909736
163250000	-31.6373337045105	-144.609312242586	22.1121610921415	158.543394303323			-43.676211033242	-175.520422202776	-16.1566106935502	32.1216338335969
163937500	-30.9045626631416	-148.640073745858	22.0907689357199	156.129679153958			-42.9378908661217	-178.999208493212	-16.1186143736338	29.0586973642023
164625000	-31.893920711956	-138.102519069727	22.1120702874046	153.657493980922			-45.6405694817296	-175.798080807404	-15.8361859013641	25.1636355211687
165312500	-31.0974955691779	-146.417034043798	22.0987538707648	151.241730027399			-42.3151818414486	179.478375075705	-15.7804197658379	22.3380984554405
166000000	-31.8298235202113	-136.267862170517	22.130192161258	148.868176985492			-42.5771231496158	179.349626154023	-15.5208664294261	19.1521894778229
166687500	-31.0042329570681	-140.461702898724	22.0720403205333	146.469002304119			-43.8109709008902	175.455419814863	-15.4691063596367	16.1960949254646
167375000	-31.2086672950792	-137.637842065153	22.1378840450928	144.265207535779			-44.7786971604035	166.715325251363	-15.3420629766882	14.064159111607
168062500	-30.7400002597096	-138.883266082257	22.0900361131838	141.879384259265			-41.1022249682259	175.366709993229	-15.2239193148476	10.5522583683221
168750000	-31.8236307129472	-134.299881549346	22.1281133102517	139.72218906586			-43.5975113395341	163.026502497712	-15.023832499209	8.07379120632989
169437500	-31.0484834474651	-134.586647242368	22.0703891835706	137.217941987104			-43.2956174392664	-179.622170212975	-14.9344970570666	5.03465301671295
170125000	-32.0669817741252	-129.26810344341	22.1067043015385	135.060992897567			-44.6963614007443	164.487059927492	-14.8966268109325	2.9792530660957
170812500	-31.6862253135054	-126.922054873495	22.0462108696761	132.941668020989			-43.2752424219084	165.533400288099	-14.7499482201606	-6.98911856981212E-02
171500000	-33.2556666656247	-130.632184858208	22.0884603643392	130.902046167932			-42.9813240528831	154.454923542446	-14.7499914651704	-1.86275039798507
172187500	-32.3137895136828	-125.479954315919	22.0012647889914	128.721215101627			-43.7408193509961	167.577505659791	-14.5711740895125	-5.55811108205842
172875000	-34.6522045227245	-125.961712347066	22.0705136631576	126.723822396233			-42.4586765578257	153.067020860958	-14.5375863593815	-7.43778080295544
173562500	-33.3712640047692	-111.711946215907	21.999357163508	124.686499357033			-44.5727593689682	147.94264960349	-14.3646151088616	-9.95778909624422
174250000	-34.1783917906636	-109.635482290965	22.0827555262796	122.669494764476			-42.661427267144	148.481502371235	-14.4250004283122	-12.9050641609146
174937500	-33.7494482790174	-96.9174805372322	22.0365885833224	120.617514217883			-44.4735555203242	149.289664496345	-14.2329529801774	-14.6479501867837
175625000	-33.9961252972234	-97.7186008167616	22.0576523242369	118.515786457641			-42.841483852223	147.908133412277	-14.3392996624541	-17.7188257437601
176312500	-33.6045612150266	-83.2670233674133	22.0193090924648	116.733228752792			-44.7556521297255	149.555152590315	-14.1265380824349	-19.7581874747627
177000000	-34.0293175691637	-77.4988692381524	22.0802950654716	114.883932517445			-41.7359758110943	148.9414157069	-14.2337680238111	-22.8405186357628
177687500	-33.0392635327135	-66.8732398182318	22.0609905903879	112.727179861661			-43.4352266830939	139.156297713343	-14.1200063043437	-24.5595674021099
178375000	-33.0338354194753	-66.372891953413	22.1233215119898	110.800053232287			-43.7877259517438	142.110398697497	-14.1431821877007	-27.6465334131549
179062500	-31.4753556304783	-59.2330537982986	22.1292579322995	108.718968785148			-42.6716612957628	133.626061676203	-14.0682312251644	-29.9511626452724
179750000	-31.2850288409388	-56.4661324984423	22.1451332157148	106.728185013559			-42.5790172976686	141.648773932895	-14.0756804265778	-33.2293735850623
180437500	-30.173804024064	-50.6673987804098	22.1878308541137	104.864389223784			-44.6491437955597	117.964661425909	-14.0466278693976	-36.026794570261
181125000	-29.5516356373085	-53.7389963332397	22.2136022587724	102.683391118066			-44.5658628469232	138.801743144322	-13.9497087780729	-38.8145701150172
181812500	-28.8735080863666	-48.0730979815979	22.1769556107956	100.685898615793			-42.7631547011611	118.290208348461	-14.0966582778864	-41.4060811302244
182500000	-28.9072563917139	-52.9322893665025	22.2863148943743	98.7517392367708			-43.2472645335957	132.053082675073	-13.9467823648825	-44.8562670878568
183187500	-27.8971002557244	-47.8814326128972	22.2901357496258	96.6900091436359			-41.7951434403187	124.188525562498	-13.9802300321937	-48.2430316741813
183875000	-27.8304490741639	-51.0772493364642	22.3442317626381	94.5032840785499			-43.7807710392322	131.481823152556	-13.9277809596914	-50.5488575007085
184562500	-27.4840935523493	-48.6330701227896	22.31437413944	92.5415406045883			-42.2439279173166	112.709425963304	-14.033166466987	-54.0825013530537
185250000	-27.4453979393939	-51.3871000480011	22.3881693581326	90.3125388942028			-44.3335556361858	128.760466858417	-14.0090851245891	-57.5664411489854
185937500	-27.090821682364	-47.4633674423556	22.3517568962514	88.1673345435486			-44.0441781995847	121.514341322153	-14.0122755874526	-60.4755516858403
186625000	-27.1835612222171	-52.9527074517535	22.4026515342178	85.9702597277411			-43.5347474900282	105.054382336499	-13.9883344831789	-63.3081713569128
187312500	-27.6271270752005	-49.5307172331746	22.3696336324395	83.9904078531122			-41.2152002334313	110.385057353312	-14.0006245597196	-67.3439775227977
188000000	-26.9683769450463	-52.2982412168182	22.3967202234783	81.777215086463			-43.8782556252845	110.683324118872	-13.9923622509714	-69.6218023464132
188687500	-27.4337892885154	-51.1684299143674	22.3754052606625	79.6459873520483			-42.8518077950969	105.253737693124	-13.9977386029733	-72.9511097298771
