# Hz S DB R 50
100000000	-29.847909019983	31.2710027583842	-30.5373157949818	12.9483407725928			-58.641008812113	169.135605990655	-3.51142195998763	80.0252765091399
100687500	-29.6354498702891	32.8772660954787	-29.4139065901738	12.9150994715984			-63.6076586249242	45.1580315154689	-3.44186706601071	77.7973257911146
101375000	-30.0587706730541	25.988445413926	-29.1058764391636	9.28126575132783			-57.0558352037303	-152.745828130247	-3.47599021324845	74.7764807599231
102062500	-29.955788530046	29.4449030584133	-28.6366303990649	8.54600633467684			-62.252403924247	82.4402847970099	-3.46248375945176	72.2091183775156
102750000	-30.2317907971217	22.0570638299923	-28.4858564522015	3.18252319682611			-61.9100027767534	-143.060342083969	-3.49536481257818	69.3572779817904
103437500	-30.3746570879819	23.544896869375	-27.8547601273827	3.74026795650389			-68.4970115886388	121.108317242708	-3.4291047399944	66.9945200486566
104125000	-30.1489342361644	18.0907919412902	-27.7622808081067	0.227326912952585			-56.2256322574107	-92.7548916591937	-3.46526475499423	63.9272459622968
104812500	-30.2256672283981	19.3213036281276	-27.0998989810218	5.52413073041215E-02			-57.7715761332248	32.4837993750321	-3.43528536395612	61.5817532409882
105500000	-30.4271972345866	14.3970424712128	-26.8778498487242	-6.09692026169441			-67.2060109498912	-123.440143473716	-3.45355402440304	58.2879529414454
106187500	-30.6143204547035	17.730498323484	-26.5311579797756	-5.351161636369			-69.6191003048504	-177.143936372116	-3.42473642986275	56.056785766166
106875000	-30.4668280315246	10.0879936830709	-25.914248442694	-9.1845653333782			-59.4014139525372	-47.5414567972925	-3.46428111028968	53.015035770282
107562500	-30.5648114502375	9.79728363919122	-25.9367676492117	-10.2839160465127			-62.089145483603	145.891815588451	-3.47285044308641	50.3951992894698
108250000	-29.8437609398202	4.67669220936886	-25.6755985452549	-14.1405328508161			-68.0290368695313	-59.3754828847949	-3.55144609489978	47.1775791161673
108937500	-30.4413311415726	4.28989891579735	-25.5070527250998	-13.5409044302657			-58.188357656083	-169.784343631888	-3.55509878806875	44.9107141277377
109625000	-30.2733133690598	3.67641125048613	-24.9379080991467	-17.6920107121427			-55.1381652325409	-13.6349054752794	-3.58536410249171	41.62652657127
110312500	-30.4334994791606	1.03498215061456	-25.0470398846265	-19.9852094572151			-56.0852613459513	177.466297985051	-3.62233161321556	39.2776484369259
111000000	-30.1666542035292	-2.02059907464279	-24.7802976155158	-22.190624895906			-59.2955599012035	35.5903838865008	-3.646258600713	35.9978360246175
111687500	-30.2555583384286	-3.3146571187469	-25.0319274094455	-25.0189359957305			-63.9033781672888	-165.435060433051	-3.69301503125135	33.2609595991516
112375000	-29.5509021740538	-1.63248700983439	-24.5508767834923	-26.9770901504672			-56.3160906006882	-5.57950382508173	-3.74664736423665	30.3323863719521
113062500	-30.0499258711181	-6.08182953634289	-24.605087043886	-30.2971170421354			-61.2753847543762	-135.916707945977	-3.76210529880337	27.5436183075157
113750000	-29.4263774209369	-4.8675639022807	-24.3131361870489	-32.3201069091952			-61.8717831851525	85.4609139162483	-3.83364525765202	24.3797539954577
114437500	-30.0260085251772	-8.69351275383944	-24.6123348378665	-34.8902509761829			-58.9397777542852	-172.926928825391	-3.85630055123309	21.4827125579844
115125000	-29.7578584195638	-8.72254967437431	-24.3158206486984	-36.7012120406581			-56.5142630958133	23.0834193905313	-3.92206812103459	18.1701033732406
115812500	-29.5284468115544	-11.7767153532756	-24.6645197800845	-39.0760578117932			-65.3284660377234	-94.7971085349135	-3.98206349698043	14.9606998577419
116500000	-29.6159146949186	-12.3268776236096	-24.7730282048102	-39.9894363039032			-54.4093424185837	103.544539439902	-3.99860349895435	11.4121207668406
117187500	-29.3825252201438	-14.566624574015	-24.9305384885809	-42.0927554405334			-56.8300547280396	-120.63567783262	-4.09723278180505	8.36656016029533
117875000	-29.2267862171804	-12.69436999743	-25.19730686413	-43.1332435694812			-55.4987592372368	45.5730989807018	-4.13186310765801	4.70872826041419
118562500	-28.6959535459245	-15.6396507303503	-25.2351938334064	-44.2701865514477			-57.4681048898101	167.982098370131	-4.24948946750275	1.38131997185352
119250000	-28.9073884670273	-17.8133617040984	-25.7146489368406	-44.4964714528321			-66.4859081240471	-9.32415013979015	-4.31589964401426	-2.29376070418048
119937500	-28.8689329342815	-19.3380881992953	-26.0322113727966	-44.197097481051			-61.3885323353953	-44.9619071711038	-4.39025606952834	-6.38272865581782
120625000	-28.9680337499035	-20.0889388694289	-26.383075937745	-40.7098970689734			-65.1228639721351	52.3323816255761	-4.46990317081201	-10.4345770002277
121312500	-28.5490163457963	-24.2306545093356	-26.57554684677	-39.3701976397743			-58.9409266862438	-73.3058905722118	-4.52102046234941	-14.6090939623585
122000000	-29.2762761071579	-21.3482350334305	-27.3166198343411	-33.9793344626838			-57.7743999551255	88.8726640501762	-4.67551571072247	-18.825601183354
122687500	-28.5860239727614	-22.0791833235476	-26.88941139123	-28.9702484427619			-57.7309327811118	-26.9078769859409	-4.76392980945794	-23.0527771890842
123375000	-28.9559996374533	-24.7289315645328	-27.0248410160358	-21.2416516941804			-69.2721551113238	-179.567545900185	-4.90482746692143	-28.2026098575615
124062500	-28.2652274366454	-23.0895811239951	-26.391257831601	-14.5155580400289			-51.0031544110512	-42.2476694428236	-5.06821957018649	-32.7429693614375
124750000	-28.5886524638861	-26.3839817793892	-25.4172307440925	-5.56580398100324			-56.9669700906765	-138.672078356408	-5.21928697054748	-38.07143304193
125437500	-28.0860870540185	-26.4463469766558	-24.1376743468442	-2.55178667075231			-64.6183085605929	-48.305476617265	-5.37532055380793	-43.5108900223475
126125000	-28.9165637975992	-27.1849315182449	-22.6593897657185	0.615151563367053			-65.842002739356	119.019762267961	-5.6364282782538	-48.8413421132446
126812500	-28.0130979853116	-26.4589889703241	-21.0343708412612	0.942156586477528			-58.1157223070948	36.477262956908	-5.82590338909621	-54.0119051314598
127500000	-28.2202920777155	-29.2581975102634	-19.9767598980792	0.394016909343735			-59.2879036201158	142.507417762998	-6.13027726855158	-59.8922370798436
128187500	-28.4581575952077	-29.0321651692898	-18.4998206492452	-2.23213132094579			-74.0629159187617	30.3713687236562	-6.42905904730273	-65.5823989690108
128875000	-28.2282845663032	-31.0629760258632	-17.4141827973019	-5.74150353090253			-59.4314450901874	-146.119215840878	-6.80115627823211	-71.7301095989193
129562500	-28.1910534910831	-29.0246900520394	-16.1991978511699	-9.38959852189801			-55.9188808295629	29.1982652106287	-7.10245012740648	-77.2477636219117
130250000	-27.923578732419	-33.4835936907175	-15.3016701388276	-14.3825362000078			-58.1192791666701	-157.078474652319	-7.59540104547618	-83.440031073231
130937500	-28.7077295410606	-33.6299937932093	-14.364720989697	-18.4284578144278			-59.4174260273664	95.2890060725945	-7.95975584689337	-88.9047399404449
131625000	-27.9880501418533	-35.4167410658597	-13.6475441852405	-23.9293971638878			-62.0348102575026	-126.798845949044	-8.48054821809736	-95.0100299779268
132312500	-28.3050422469261	-32.7986338097546	-13.0195449908122	-28.558722276293			-63.2867783073819	155.654944982672	-8.89810255946627	-100.259016931036
133000000	-28.2508964571701	-36.4922296355979	-12.4525975783303	-34.3702554577564			-60.2340872305144	-95.3445524571906	-9.44559784117901	-105.903457893386
133687500	-28.2029004369174	-37.9605226208431	-11.95333106433	-38.7509780832782			-53.8961338724658	96.2888640840188	-9.91252721462158	-111.316544526138
134375000	-28.0114168173367	-39.3248327570926	-11.4041744726223	-44.1505699027903			-61.0567694911718	171.446209590781	-10.4632994124643	-117.078710005402
135062500	-28.354343915629	-40.156830044099	-11.1203318468288	-48.3363486805075			-56.514838359058	154.559956978077	-10.9807875219054	-121.759777514359
135750000	-27.858742119747	-37.7767257808339	-10.6946344361796	-53.6842836640255			-57.060634195815	-76.5486698815454	-11.4942571081249	-126.817093254853
136437500	-28.5745710657579	-41.6231870699009	-10.4624040148518	-58.143397944577			-59.0309308674611	162.417058687941	-11.9612558054378	-131.610330153475
137125000	-27.8146790575521	-40.9797206085449	-10.0768136548597	-62.8546119368533			-56.4899207000526	-56.1244430511845	-12.4807563266128	-136.468612597508
137812500	-28.3452969114298	-43.8699052095687	-9.88490572681886	-66.9422857324004			-66.3200710333732	-162.786320818825	-12.9430502160999	-141.401648315249
138500000	-28.0896280227549	-46.0453203609437	-9.58373687151309	-71.4085834817248			-65.2573833331182	144.521653297544	-13.3565512287828	-146.437973968119
139187500	-28.1105099348271	-49.6099673021174	-9.47033525750195	-75.67988792349			-64.7333787818622	-165.533307518447	-13.8447418309157	-151.008520543203
139875000	-28.6140907793409	-47.8708586561993	-9.20346953737789	-79.6736136345697			-64.4938469460756	-56.1492077434852	-14.3189353670885	-154.881304551222
140562500	-28.4816638174708	-50.7826512463493	-9.04798517439217	-83.7628576478017			-54.4679049578349	-154.809871495396	-14.7874959308833	-159.933792490394
141250000	-28.4510356497902	-50.671856689906	-8.89619510867236	-87.8012736240182			-55.3295627910529	-9.65247680882874	-15.1555855723427	-164.970237621327
141937500	-28.6156414100839	-53.7697999982557	-8.81407101825964	-91.8444049072548			-59.109573782816	173.468865349953	-15.5466441873663	-169.503631859313
142625000	-28.2613799688991	-50.7818934110025	-8.62658549180862	-95.3043857245197			-63.3304520622793	25.3965973709482	-15.9703266098031	-173.72446356719
143312500	-28.4515529391804	-58.8926919009925	-8.5048146755442	-99.5256517597237			-58.3609188561429	-104.604532812976	-16.3462127344723	-178.720167086459
144000000	-28.4711816176898	-55.6449686769772	-8.41847111078017	-102.580049016515			-58.9197454299751	14.7916850045995	-16.7766908186327	176.290229923209
144687500	-28.2756554249655	-60.2706481137212	-8.32490570374093	-106.483963435762			-57.5593953398594	-49.28966236608	-17.0092440577344	171.6927335542
145375000	-28.9634631927627	-59.2110089873365	-8.24305594389192	-109.958021296203			-54.3023903673909	49.1684951020652	-17.4284730391517	166.433258832303
146062500	-28.3143993665265	-62.7379601937853	-8.16505265921789	-113.363788127862			-64.1929736268036	171.666834062072	-17.6623427189869	161.42699267336
146750000	-28.7761343556725	-63.9692925722707	-8.11966931125314	-117.063614191515			-60.0367680563488	18.308713583772	-18.0145511874307	156.599443441158
147437500	-28.2051190603424	-67.167938315234	-8.03887970150871	-120.31353912972			-57.9330680731432	-114.506766559241	-18.4022092539862	150.783624344702
148125000	-28.6616631498714	-69.6270524544793	-8.03914903850111	-123.634083311023			-54.8802625395716	53.5660077639986	-18.4698355462033	145.174493349809
148812500	-28.1895866530804	-73.2350046309666	-7.92875821038131	-126.705962827467			-75.7843937424725	-69.5906778811979	-18.8203965135017	139.63427363528
149500000	-28.7176979857369	-70.9834847074548	-7.90877792239448	-129.892041707609			-55.4811745830834	73.695694305461	-19.1773855269148	134.267885668218
150187500	-28.3165663929692	-73.4513496848436	-7.83597703810623	-132.697287758962			-66.6997780294927	-14.5655730531728	-19.3601461156785	128.759812993804
150875000	-28.8507527725625	-77.051960449862	-7.82479177210054	-136.235856066116			-62.5639321432182	146.74487542353	-19.5592324897754	122.527290944718
151562500	-27.777930129129	-77.6113921261576	-7.8116919683797	-138.603827430048			-57.3815109162977	-60.7263147726218	-19.5924959817938	117.350498170409
152250000	-28.2175998671167	-81.5672307631847	-7.78742458004397	-141.879144580314			-63.1090084624677	129.513036725357	-19.8146589544599	111.341194618867
152937500	-28.1731062640907	-79.5589455088042	-7.77240128790364	-144.196993902967			-60.4590322888284	-47.7078995023475	-19.761294422966	105.582553794355
153625000	-28.0942871680828	-88.5523501708013	-7.76240383815098	-147.480785782731			-58.9975334754073	-178.462812142576	-19.8435535426207	99.9860984451794
154312500	-27.834782777259	-84.7042809620817	-7.69784781779545	-149.854221010024			-58.3678954269461	-73.9838486957113	-19.5931530619977	94.2819599836334
155000000	-27.6588190168078	-90.1476359059577	-7.70389912718808	-153.233162019608			-68.0376198398162	-113.529354331218	-19.5810690080157	88.318236339823
155687500	-27.5331032521671	-88.0523496820757	-7.68531883295609	-154.862146479985			-59.2795168375595	-98.5136330897632	-19.6353158762982	82.7374184474613
156375000	-27.2241895449696	-92.1173406906119	-7.64675387605301	-158.033143953335			-57.1727264941581	167.19417891254	-19.5844767840255	77.9433704153656
157062500	-27.5770870162328	-88.4543831376144	-7.67017024606512	-160.421389994925			-59.7256322134596	-59.4344264316738	-19.4812279126273	72.6862335228971
157750000	-26.8466538485	-97.1885388786622	-7.58348042135391	-163.10809704449			-56.1498541090867	-159.263944300129	-19.1837913834917	67.6397711059728
158437500	-27.270176489385	-95.0531763652337	-7.65985026705433	-165.34810247775			-57.5082132087083	76.6445252347032	-18.9565138429207	62.4227065628218
159125000	-26.2635365900839	-97.4230443913608	-7.54631229809686	-168.031359689075			-67.5808323828466	-78.6185320066084	-18.7827813658451	57.8732854198401
159812500	-26.8291790667744	-96.7687497848782	-7.58145921457451	-170.2723658017			-59.3028016092869	38.7598399041992	-18.648551934939	53.9030372306822
160500000	-26.0735875214244	-97.6677470479137	-7.53126603426659	-173.019535446471			-55.9801777061157	-123.948220343734	-18.4010547721228	50.2870361227183
161187500	-26.1634582237998	-97.9602754356863	-7.6362425315433	-175.161182821009			-56.0118899797723	83.0630608077909	-18.1556861412986	46.0107943995793
161875000	-25.4739511294665	-99.4636678605591	-7.4558716558041	-177.817538128291			-70.0941948493126	-118.630646820535	-17.9316486666455	42.1895935323942
162562500	-25.7157986668149	-100.993710919215	-7.55115145987728	179.817811248003			-57.4462286563879	75.8904301554656	-17.6410608855367	38.1258878050266
163250000	-25.2667308045863	-101.392415215922	-7.47599576584114	177.291774068925			-57.3140411968379	-158.795699724423	-17.3849514303689	35.1017156828405
163937500	-25.3238788803053	-102.099511217154	-7.47911407635967	175.122321032528			-62.9955671653606	49.2220584418688	-17.2563154965537	31.626155619331
164625000	-24.9570960736965	-99.9392037188203	-7.48248929290548	172.489649509987			-56.572602850502	-115.286414376376	-17.0062487341829	27.8666439263381
165312500	-25.1865547715366	-102.998770584515	-7.45461336347205	170.377718576482			-59.4697442736305	131.426986158048	-16.7755909333014	25.4053762911866
166000000	-24.7441441649124	-99.7829057077675	-7.47149352763718	167.941916396306			-64.291889705407	-50.1163874695517	-16.5478615741251	21.1942647828541
166687500	-24.6832078402966	-102.467177342594	-7.51923327240725	165.556407747844			-61.0451740186619	154.971049215777	-16.395352813805	19.7495607266721
167375000	-24.2847893262497	-101.99222242605	-7.42608733370975	163.574703311244			-60.6747969624399	7.20321381518886	-16.1667212808154	16.0922234883556
168062500	-24.211402955781	-102.455846741914	-7.43955217720155	161.077064102687			-55.4814855863114	175.444315780346	-15.9877985704328	13.4715959729614
168750000	-24.0693818001551	-101.314284599024	-7.45910390098225	159.152770364676			-60.4500204897859	-114.039821554057	-15.8710321107001	10.7063188323315
169437500	-23.8561075651682	-103.243274615955	-7.47798884605046	157.075824340216			-63.241445768611	118.405103058222	-15.7396887326702	7.98220385461151
170125000	-23.7207026774581	-100.41655442794	-7.46621911380047	154.443771302838			-56.2678339499921	2.94954879762647	-15.6097821483231	5.22298018619624
170812500	-23.6039554640475	-101.147602002635	-7.50091022445592	152.394977739848			-57.0549686597217	170.20475640927	-15.5163038356824	2.99691445072999
171500000	-23.8139059714398	-99.7070095698158	-7.47480910345771	150.267292091661			-57.1822686178212	-3.53376429612861	-15.3598827458823	0.364083406471962
172187500	-23.2702143857267	-100.916823902042	-7.48748530968969	148.381819072647			-56.6127590644407	159.002532020149	-15.336892402314	-2.19129215873734
172875000	-23.6769870309859	-98.9831849584492	-7.48439215347881	145.981293988672			-63.7074841272001	-95.818815879431	-15.1896312818035	-4.97556398711588
173562500	-22.9215790193594	-98.7672710132679	-7.4923166581469	144.534460352782			-58.3163164089376	-130.516540981093	-15.100518056019	-7.49961945250911
174250000	-23.144844684093	-98.1392713792971	-7.49074920005121	142.261112964348			-59.1323702890113	-30.5678249618866	-15.0661469743559	-10.9115021871095
174937500	-22.7602286732012	-98.123111579411	-7.45919499346214	140.452087475629			-53.8828452962215	154.100257230623	-15.0290309705923	-12.077851940092
175625000	-22.8164384344429	-97.5876888257821	-7.50892528877654	138.376081671631			-59.5353546213838	29.2061551504136	-15.0029434311926	-15.3870975602988
176312500	-22.7117394444315	-97.5181760465864	-7.43549419791419	136.753510864039			-62.187360062375	176.012105206108	-14.8795274543386	-17.4944977427251
177000000	-22.9388458354356	-96.2781690045451	-7.41664674193222	134.664359362221			-54.4264811870898	132.385570322992	-14.9072349434576	-20.8598238097107
177687500	-22.8187293056519	-95.2360022230763	-7.46841005254938	132.940341642838			-54.1963776042364	143.416952864107	-14.934405003858	-23.1998843169699
178375000	-22.8955805899925	-96.8867225119449	-7.38246570225236	130.67548110293			-53.3798920725443	122.228390170908	-14.9475327044932	-26.0019822786162
179062500	-22.5034447732949	-94.5906207572833	-7.39738989010397	129.220683399727			-59.2813680958336	-137.789830195468	-14.8347960642449	-28.4818339167563
179750000	-22.9334170037927	-95.0825287972111	-7.37661487652386	126.614653115224			-66.1192889689295	38.3569228218373	-14.8177666995657	-31.7806482577746
180437500	-22.5395187321926	-94.2074787762584	-7.35371562396479	125.238243348714			-55.1604625261383	-128.569904630722	-14.8840705930895	-34.5459765577243
181125000	-22.758408155686	-94.6413486328317	-7.29821889910803	122.885405456048			-55.0977740150588	125.846468526606	-14.8388161777057	-37.5009664011265
181812500	-22.6269062893027	-92.2523755330339	-7.31223437238039	121.260723850652			-54.5581530856162	-73.5355870231061	-14.9094110798508	-39.6831092936287
182500000	-22.7261423704489	-93.7916996680471	-7.25203641421447	118.950175842922			-54.2370082142552	64.3805521437701	-14.9269950968754	-42.7814232169298
183187500	-22.6952792581117	-90.8862620505564	-7.20593749740337	116.999279829458			-62.4627956452343	-99.5512961665844	-14.8596615615866	-45.5112812423408
183875000	-23.0012263724993	-92.6157307640885	-7.13559414256028	114.994060848701			-67.4244238801399	-169.120913078357	-14.9093243955786	-48.6869492459115
184562500	-22.6721968880942	-91.5974000635202	-7.21289440306198	113.228098368943			-57.3051029848784	-12.6083487793491	-14.8691908269856	-51.6626990571372
185250000	-23.1693463324233	-93.2087400497432	-7.13326808682599	111.125343867722			-63.3075653017626	140.618622792942	-14.9557733710159	-54.1987421526631
185937500	-23.2446823786969	-90.37356642661	-7.14670098971339	108.759931308846			-59.5535957655502	-71.5147226226878	-14.9709544363039	-56.7055220634236
186625000	-23.1410014409427	-93.4002248929823	-7.11322165299974	106.94413926387			-57.7547578388931	171.551870898067	-14.9841542722706	-59.8165931707656
187312500	-23.284998245297	-92.9266688232416	-7.13655850908004	104.719739819158			-58.5738860771907	-0.240263347881211	-14.8520341578092	-63.0606998166853
188000000	-23.3118103869468	-93.1759125002772	-7.06978943280444	102.791145271615			-58.2501432497624	-167.588469076628	-14.927511149925	-66.01609865101
