# Hz S DB R 50
100000000	-30.880907609942	27.4545210400269	-29.5876902134078	8.19042081791928			-61.7156415635579	-86.2636070115513	-3.48932879995058	80.1462409009624
100687500	-31.484345854817	32.0541790898205	-29.2873619001977	10.8207077096558			-62.7189476376974	58.9210160898698	-3.47596879594969	77.7208984184765
101375000	-31.0242920186048	20.8685012894477	-28.8106215581688	5.78852693922586			-59.8172390403122	-65.2327617442463	-3.44297796946322	75.0052705612048
102062500	-31.40424825222	24.2307703241657	-28.6098464667412	5.28052610538066			-71.2008039577955	157.177427639905	-3.46140385215417	72.2684553220971
102750000	-30.9608973793609	18.1340423138502	-27.8304767092904	4.0021596719371			-60.1079293551183	-14.0858452317857	-3.4639408547115	69.6114680198797
103437500	-32.0085493044123	18.9123747503953	-27.7815192485551	0.086859856577005			-61.4119607931167	91.6643449557086	-3.40903979703701	66.8412344436408
104125000	-30.8847510707223	14.5271382024458	-27.0961972736576	-1.60713230128434			-64.4893686272907	50.2306953440037	-3.43673600563405	63.7685715822023
104812500	-31.9299843399655	14.4896587042478	-26.8891986852807	-4.51665076226034			-56.4186521963566	169.13445349714	-3.47662455291098	61.4625405949776
105500000	-31.1577811925066	12.0091045963336	-26.3934695999653	-6.54091282518104			-55.7668881180203	28.4816980559436	-3.43309919059718	58.5947684214574
106187500	-31.7052122181845	10.4264862248018	-26.245216347932	-9.53215488954723			-58.6754375351677	-151.06942390682	-3.4957385920147	55.830951926564
106875000	-30.833329892997	7.82934555964937	-25.7980973674712	-11.5998747119337			-70.1887857374713	171.699551094127	-3.47656869219981	53.1242816637711
107562500	-31.2042102245629	4.10037891305911	-25.5692575854841	-13.9308410031625			-66.1230032967201	121.571815325195	-3.48287809701669	50.1144936329827
108250000	-30.3801284057104	3.30626843199239	-25.3515700954311	-15.9073793018104			-64.195113687263	95.4305501639494	-3.51454509124259	47.3530108279611
108937500	-31.0175350490478	-2.45585783894243	-25.2312644018904	-19.1214529601354			-61.2647484884636	168.358008021863	-3.57091366535143	44.5985141087127
109625000	-30.7314765368072	1.83273003310728	-24.7508922143786	-20.6223997049278			-58.2539152555823	106.828003356206	-3.55646594936664	42.0586520013483
110312500	-30.9733975567826	-3.6889922878404	-24.7372852483725	-23.7484430407394			-60.6174160343694	6.1973931274281	-3.63320558053291	39.0938141856415
111000000	-30.4337242010887	-4.36883117399616	-24.5558536521248	-25.3039922535027			-58.1057442656832	51.1373991894472	-3.66638510470997	36.1781993128355
111687500	-30.7484315587221	-9.05419230030746	-24.2557846439586	-30.185645060419			-57.380058800103	-21.9312224980261	-3.66998656419868	32.9766559525437
112375000	-30.5833102839211	-1.85882823883137	-24.4248909166028	-30.7003116393471			-56.2954944437025	111.555851859143	-3.72526973045275	30.4332213398054
113062500	-30.3403731982175	-9.82833971208033	-24.0782943225354	-34.3185378193651			-77.9032962577977	-120.695898611685	-3.79338717767182	27.0931551466309
113750000	-30.2523147606537	-5.18142975738917	-24.3158562811549	-35.7263328626896			-70.9960587906472	-137.186050207142	-3.83280731521544	24.2279385759361
114437500	-30.4815064659371	-14.8222518769379	-24.178893996681	-38.9302531822625			-59.035488704621	7.23234849445323	-3.85414544651978	21.2237321182046
115125000	-30.7117575592454	-12.9654797207065	-24.3381282829886	-40.7009132898053			-58.1103269837306	89.8517142472367	-3.91401273302092	18.0533270516588
115812500	-29.9137586909452	-13.6967174223523	-24.2835922665901	-42.600920833245			-65.8525281417123	49.577398589312	-3.99427420380647	14.6556624320151
116500000	-30.3487508948398	-15.6411109951753	-24.5351391110157	-44.3098878584057			-57.8231720219523	144.616433274081	-4.01412262881331	11.4213506042821
117187500	-29.8986226738611	-16.3927846766234	-24.4931268976891	-45.6064688158205			-55.3164109954249	-47.5876122815117	-4.07117949562209	8.14255241479418
117875000	-30.3157852863505	-17.7110476083474	-24.7168573855541	-47.3636021811001			-59.4365057553332	138.834777266469	-4.15418681476302	4.6222071871911
118562500	-29.515198944239	-17.6411532233377	-25.1848207041552	-47.7723576383493			-70.4802299494066	-109.502218622153	-4.19879505414605	1.01938267828674
119250000	-30.1769400565403	-21.0002877355913	-25.6042963805566	-47.6032744530859			-62.6146381881754	179.449271286255	-4.3001010834756	-2.7122119444112
119937500	-29.5478257746077	-22.403238598527	-25.609204392269	-45.6529602760947			-62.6710398107862	75.630107606989	-4.37322528040253	-6.82548123427654
120625000	-30.0303226560608	-21.6044570830981	-26.2958066357282	-46.4095888633558			-61.1554854648207	-167.060204199868	-4.45225215755362	-10.7432044668799
121312500	-29.3854019589484	-22.7657820355293	-26.4050219910461	-42.2178302409825			-55.6139513836466	-10.485232970864	-4.53384944918997	-15.021008334569
122000000	-29.9627582000996	-26.1570376724206	-27.1374863320593	-38.8205266119166			-58.3642819825197	-149.729895256348	-4.61701548561717	-19.3606320740192
122687500	-30.008613935039	-22.8223037004161	-27.2639245394689	-29.8388227339353			-71.8607895018736	-144.012492251912	-4.73863873266013	-23.7220437511558
123375000	-29.6534704749984	-29.3990657396604	-26.7816793443527	-25.5737169945193			-62.6178041911821	-179.07963409066	-4.86841701936825	-28.6467830989157
124062500	-29.1236202386777	-28.2142013042093	-26.3678588995621	-16.2083111386318			-58.2040500090155	125.787467637578	-5.01890161406578	-33.5097394223811
124750000	-29.6207654486206	-32.7731416872405	-25.4838383008981	-11.5484461835588			-63.3929478298831	-104.07321395157	-5.15428453854124	-38.7259821255674
125437500	-29.0142696011335	-29.6532559823771	-23.9403817643557	-4.54678161720647			-64.6355724494102	-11.8754630810978	-5.34739490202506	-44.1656598630912
126125000	-29.6400282518923	-32.8021649575642	-22.5445477364593	-2.97630635878878			-60.234627927855	-72.7004778719712	-5.52823008794866	-49.2958299053668
126812500	-29.2085532091174	-31.4012670977213	-20.9847530884917	-1.52977168886584			-58.1894790757019	64.0216785761009	-5.77974371302643	-55.0115340015621
127500000	-29.0347525088013	-35.2676882979772	-19.8657384473942	-3.8578272895194			-56.662846095344	-102.15923178728	-6.01675888135534	-60.6621671642209
128187500	-29.3155882962915	-34.6337323195146	-18.4684623895866	-4.79250305602576			-69.8987607039905	105.860247679803	-6.35154814946377	-66.5714141365332
128875000	-28.6441646402733	-38.9251085439401	-17.2744915161303	-8.43297198704091			-65.7461360347041	-118.07410034578	-6.63605647800215	-72.4601956742759
129562500	-29.2081658813408	-37.1515622535813	-16.2068454981666	-11.7550584836753			-59.9578136850547	111.764542541086	-7.02617340667295	-78.6188747481212
130250000	-28.0705228953839	-38.9269692236635	-15.1610915023648	-16.6588119312849			-55.863755790676	-24.978276003913	-7.44252385795317	-84.2910813830595
130937500	-29.0474437538892	-40.391763050364	-14.434137136652	-21.2689450650125			-54.2155051403001	80.8841905997988	-7.78683832312374	-90.4231210424768
131625000	-28.4457571909098	-38.599188069453	-13.6501622846325	-26.3509833776352			-55.8138630591494	-26.2289346482259	-8.30328269178168	-96.0647989293707
132312500	-28.957086121073	-40.3346135754533	-13.0726652471339	-31.0279860547853			-65.4807703504795	-120.764237942004	-8.67297457089148	-101.94110930845
133000000	-28.1912754974456	-41.2441889130961	-12.3527021762822	-36.6272273908827			-67.3996753327785	6.88564819857076	-9.18501595564855	-107.269777309406
133687500	-28.7402750175272	-46.1177824087287	-11.9446588497384	-41.3954119222942			-60.3999403187528	113.908618202585	-9.65274395071901	-113.099396753387
134375000	-28.4867907635358	-45.2223667003565	-11.4068061851448	-46.2236960754032			-68.9679323238234	-57.728190724861	-10.1463619132733	-118.657851397237
135062500	-28.6499876139513	-45.9981882811711	-11.1094954185127	-50.8662738234084			-64.3408286544904	-160.970208524283	-10.6323458257027	-124.012560409776
135750000	-28.2259159575954	-43.1263165977585	-10.6666765485644	-55.7627647724247			-56.5557062303486	-37.764916554009	-11.0903378467092	-129.356068636058
136437500	-28.3283277798042	-50.0628962826763	-10.3959044343806	-60.5747742033076			-61.0226508246871	-147.786837860337	-11.6036519319924	-134.416291400554
137125000	-28.1925815994556	-44.9749932348053	-10.0383323041809	-64.8712700961248			-59.6894070167265	54.758914066473	-12.17238811487	-139.230392321217
137812500	-28.1627377270113	-50.5462835141387	-9.8783491961219	-69.6161536603192			-59.1254576382192	-145.675830345147	-12.5225803176402	-144.063777771039
138500000	-28.0384668382423	-49.7279968900191	-9.57388991181318	-73.2845212426905			-60.7394215253433	-35.9766104393878	-12.9776030754824	-150.399011539057
139187500	-28.0710275809234	-53.4893385909162	-9.40752805095727	-77.7331520687261			-60.5081213623423	-107.303584967377	-13.5023716689082	-154.438014291633
139875000	-28.5682369528456	-50.4627651415534	-9.1737803484624	-81.6861210940477			-60.1140596067809	86.2903540248703	-13.8575195141225	-159.004038887214
140562500	-28.3033240777691	-53.739177088475	-9.03574406396253	-86.1292328999022			-56.5490991611093	-146.184973320384	-14.364509460945	-163.664460640211
141250000	-28.9398079519842	-52.6410138968398	-8.85916294291934	-89.7779378351106			-58.4288290802433	169.191660975426	-14.7219773786721	-168.479868542516
141937500	-28.3625077782622	-57.5034813385336	-8.72079846805638	-93.7190662469809			-56.021618565726	-128.519659306484	-15.1521363542544	-173.886169352991
142625000	-28.7045575697084	-54.6748939231206	-8.58254974801149	-97.6438866553768			-62.2076851781237	90.8456274992861	-15.497000473966	-178.340060920447
143312500	-28.6899250266757	-62.7334184777179	-8.47589846722804	-101.020625430059			-51.9181063730186	-75.7294307563988	-16.040442375801	176.712529555537
144000000	-28.3982360017997	-57.6971117395369	-8.3653103499499	-104.526376436168			-57.604294052699	175.130491800062	-16.2545750306568	171.539379764449
144687500	-28.3094080685879	-63.293244967648	-8.27885880840535	-108.513529872487			-60.5545426629804	-22.3100854927449	-16.7209871934359	166.920886442555
145375000	-29.5468917142359	-66.0013474405188	-8.19444648304256	-112.092388230071			-53.3344010182549	96.8869096745263	-16.8791602621216	161.431538947252
146062500	-28.1667219539064	-65.1787058720998	-8.10119069979489	-115.538938437396			-62.0925961117422	-5.42701504516508	-17.4128994260293	155.664760966741
146750000	-29.3110657290358	-68.2087560059883	-8.00345320813395	-118.907656392235			-52.2966718975137	-127.788955487101	-17.5527478533629	151.880659444226
147437500	-28.4999705295119	-68.720017056761	-8.00980491473311	-121.923810451087			-61.1215957499758	-53.6304578343057	-17.9573147565766	145.074930570311
148125000	-29.1276822814573	-73.9259918738456	-7.92275600411216	-125.610204603296			-56.5263598136053	144.274695979249	-18.0720643512051	140.825556512725
148812500	-28.927471297002	-72.7809022717214	-7.90219088706773	-128.488746295551			-64.5809309722174	29.503594016826	-18.3812248477483	133.714024947258
149500000	-28.7467522361385	-76.4070528581535	-7.80028745198719	-131.722460294982			-63.5640297323506	-95.4334574492866	-18.7699720035107	129.304552988538
150187500	-28.7360684771537	-76.0615113866935	-7.83014991611517	-134.877904800756			-56.9862178305097	-80.9236983096673	-18.905803937924	122.487637421108
150875000	-29.078178811116	-82.1001077883776	-7.72769918319665	-138.136330384627			-50.8065680116765	-167.14911734785	-19.1691715327555	117.959240169508
151562500	-28.5896777501259	-81.205315547958	-7.78967195545254	-140.83639376546			-64.315080753774	-34.6004865104887	-19.1536558014234	111.829071932312
152250000	-28.7064200015694	-88.5831526271759	-7.70778949193384	-143.698160195502			-62.7424830007648	-49.4612710508879	-19.3309285252813	106.534545223689
152937500	-28.5139427484831	-85.9345693431098	-7.71658173893101	-146.257124085998			-56.4818968519625	66.7267253253689	-19.2511312284415	100.299497341474
153625000	-28.0317664246658	-91.7741033671481	-7.67496450515368	-149.155837746614			-57.8491221720418	-53.6970205612295	-19.4493637373013	95.318012922309
154312500	-28.3144306158878	-90.1645926127004	-7.69293306557819	-151.587754595919			-59.1371913275652	83.2082725557491	-19.1460980760995	89.3822950624018
155000000	-27.4241479089419	-96.4828115933235	-7.60134213998998	-154.74939058146			-72.4976932309061	153.615597679167	-19.2436169196804	84.1544355123316
155687500	-27.8813485455149	-95.5570624006102	-7.69563619994944	-157.074413117			-65.2088172190945	113.79105349316	-19.1306252750347	78.3846395761446
156375000	-27.1242809310908	-97.8809549795667	-7.569361343253	-159.951311378816			-56.9807368190523	-83.9434869728157	-19.2135282949322	72.8325311086984
157062500	-28.1292726014834	-98.0849658826606	-7.63220045279571	-162.472290183817			-66.7936021050058	38.8659542655227	-19.0627188075323	68.8923658618668
157750000	-26.7085092096214	-97.8126914989018	-7.50969165362549	-164.682151341158			-54.8328720863735	-100.031914937515	-18.8051083669155	63.7100811666379
158437500	-27.1008475554241	-102.422418047551	-7.567597779362	-167.509155017908			-58.7773796016454	158.282660771128	-18.5948962711079	59.9148462307775
159125000	-26.1224717418031	-102.247918406622	-7.48222890802544	-169.697356343702			-54.5580145172306	-98.0484008984536	-18.5096076631456	53.6622573685742
159812500	-26.9512009187307	-103.453848892835	-7.50665252225162	-172.491915467081			-61.9126239842833	26.6558027109666	-18.309809768276	49.6584230217869
160500000	-25.8539552216623	-102.317764861051	-7.44009238777782	-174.673759948447			-52.8235448836137	-62.3240794657244	-18.0305577873092	45.7107143119915
161187500	-25.6056539209672	-104.935463519728	-7.47848157959281	-177.003040163004			-57.2489187776526	151.902606233135	-17.96932463692	42.0982284948028
161875000	-25.276341006712	-101.696357340147	-7.41902844704128	-179.560088645513			-57.9468016626416	33.1246803881537	-17.5822021956458	39.014962940154
162562500	-25.3508378633443	-104.814836131359	-7.47846313420702	177.892519010442			-56.9432482146912	-173.916976550155	-17.458724381258	35.0731546892605
163250000	-24.907048512724	-102.889894699815	-7.41707210563658	175.64049862616			-62.8026336889778	-34.2677746182189	-17.096850990115	31.9526461506988
163937500	-25.008260901722	-106.606340173081	-7.39059641550401	173.420342517108			-56.5046676571335	-179.737840684728	-17.0838097130239	28.5262894863707
164625000	-24.7601329375711	-101.100879446358	-7.38627795308978	170.696930274342			-68.4820533062575	-3.58283146260297	-16.7261871835692	24.9019277002235
165312500	-24.5740395705834	-106.654572305014	-7.40907326529695	168.403012590664			-59.2620077471923	-151.832101360898	-16.6833807860139	21.5829886349012
166000000	-24.3810521849294	-101.105924821413	-7.38302611432905	165.988162116516			-55.4932605279784	25.5752002815247	-16.369913127109	18.9433932134597
166687500	-24.0797399177965	-104.614843464627	-7.41579118291382	163.836482585111			-64.0827549224522	-157.869041878108	-16.3590982587213	15.3273202262709
167375000	-24.0400746722397	-103.136397366946	-7.35034636299276	161.703153323287			-61.6450296692015	36.346745927445	-16.013848504492	13.6027885494906
168062500	-23.8638756504263	-105.965027886366	-7.39778260472122	159.635133253588			-52.0796291336945	-120.544736585102	-15.9370377806595	9.60791132399342
168750000	-23.7604009327974	-100.85439477048	-7.36426449825625	157.382022991587			-71.9962386911972	150.905896625365	-15.828696075399	7.78894139428874
169437500	-23.5824861879907	-104.281746992367	-7.46238034601117	155.056199010261			-60.2993635788887	-84.2606571447198	-15.7411302708595	4.00732266929701
170125000	-23.5553242611879	-100.924585783597	-7.41690126649388	152.822250564601			-62.7126882545073	148.06238570109	-15.6783217936468	2.34253927540604
170812500	-23.2364896157815	-101.037060350889	-7.46912965925346	150.696725596443			-64.9494656909399	-121.676156755228	-15.4722313036433	-1.17617526815622
171500000	-23.7046631994571	-101.087104031377	-7.38572570073276	148.520164036719			-55.3931151860706	59.9577108507883	-15.5598199192627	-2.44924160899923
172187500	-23.1122344689085	-101.348336237272	-7.47794203600789	146.775462186828			-81.9889470584793	167.980762696353	-15.3298709019793	-4.96107759988591
172875000	-23.5263691559235	-100.827046975752	-7.33637920142812	144.622166433537			-69.7518292841823	-24.5173399612923	-15.380469525428	-7.59745814169144
173562500	-23.00610704697	-98.8504266517275	-7.43910624867777	142.954820947589			-57.7332685915362	-104.685962537463	-15.1734709925145	-10.179449410947
174250000	-23.3707598938882	-99.6034852222802	-7.37630546227975	140.708937344518			-57.7189178559992	85.3656256102563	-15.1269388081094	-13.4132783550007
174937500	-22.8289082194211	-95.8943754473473	-7.42013864723047	138.985751015966			-56.3700261395613	-40.8844816036896	-14.9665467109101	-14.801881109833
175625000	-22.9279657683716	-98.4703915244296	-7.3519537321008	136.942070185137			-66.033468740807	-171.342545976571	-15.0243887533696	-18.1015601386694
176312500	-22.880568768559	-97.0601100013582	-7.42145401969769	135.113460224994			-56.6298937586787	-30.4659430287414	-14.8977809727142	-20.4587718370661
177000000	-23.0781525326398	-97.4868550229855	-7.31411191904845	133.044121660813			-55.0619988756546	-165.797052422473	-14.9802767122908	-24.3097368425452
177687500	-22.8861798145668	-94.5741889906229	-7.39983422583507	131.091177498349			-60.2804783098487	30.2802122245475	-14.869679649714	-26.4131460815395
178375000	-22.987960387997	-97.1804135598026	-7.2933874253864	129.444155305419			-68.3156298126721	167.865955201754	-14.9744074962438	-29.2788484327955
179062500	-22.7394448659505	-95.0339719332059	-7.36449861482892	127.293381891667			-61.261869199768	20.6487328273494	-14.9205331832257	-31.4984149789028
179750000	-22.9501276444807	-95.5442446254594	-7.28075398434167	125.443699574054			-59.9102369136789	136.617013541312	-14.9454687224189	-34.4906053677393
180437500	-22.8519084225661	-93.9258630540501	-7.25523241023726	123.508111775368			-64.6219748455217	89.5571978847713	-14.9301330672002	-36.771037908666
181125000	-22.9867084786803	-95.8594292203671	-7.19643685479482	121.598452170909			-54.5394702654368	-159.93126341236	-14.8952500450723	-40.3637454673807
181812500	-22.9982385185272	-93.7941766916645	-7.25289370349605	119.43415063422			-58.2731116087064	118.941739191822	-14.9912464795834	-42.7037862745549
182500000	-22.9807352184903	-95.7785523160663	-7.12782754458712	117.598128205215			-72.5812502954955	66.81328478709	-14.8654932873646	-45.7136153251765
183187500	-23.0887469754972	-91.739841427977	-7.14360896507569	115.305593577078			-58.4871499174441	115.682840341173	-15.0013104157935	-48.4744481993901
183875000	-23.2246509865846	-94.6904147006371	-7.05909103507976	113.577600020022			-66.0008720849889	139.420515945123	-14.9507856201331	-51.149121343762
184562500	-23.2832310367025	-94.2000417075954	-7.06816567118737	111.531517253135			-56.3042955614276	106.947294556586	-15.0140538736006	-53.9874211178777
185250000	-23.2781650935625	-95.0435819215444	-7.02172394483768	109.513318094726			-60.6240713275879	-64.1251773269523	-14.9858716376696	-57.4503489245198
185937500	-23.6027893613785	-93.8001901001668	-7.05405824793785	107.3343697357			-64.2243114771794	82.1051430681388	-15.0127694000706	-60.5856244349499
186625000	-23.4441798407468	-95.5933086442797	-7.03217840383677	105.395098411911			-61.2423621413909	-79.5569002580957	-15.0138453199274	-63.0743520596187
187312500	-23.7299075840085	-95.1719807237445	-7.04043347528494	103.076883819211			-55.7666760389121	113.400097347178	-14.9983037388532	-66.340933317648
188000000	-23.4087545220279	-95.3479665967669	-6.99060965696106	101.166110515011			-61.9030175340451	129.288240290173	-14.9068598679901	-68.9183437709581
