# Hz S DB R 50
100000000	-31.8816427738961	124.634099383978	-6.4784967744988	-0.74320887302544			-57.4829867910457	73.4630944876946	-3.47598601116636	80.5514626391156
100687500	-31.6377829553042	126.615348154807	-6.01186400283619	-3.03179899492028			-85.3870983885887	-46.1270507902174	-3.4304739464575	77.9528528135811
101375000	-32.0997385095969	122.913341778781	-5.57176441777646	-4.95126301016263			-59.4192415657443	-10.4741929791144	-3.42362847403316	74.9797913837665
102062500	-31.8265085255843	121.902474188368	-5.1677882250314	-7.25062184386372			-61.971899554057	13.5128335532146	-3.43561950403047	72.318384235919
102750000	-31.9799008714514	115.120426825112	-4.71206143780344	-9.26887558352564			-59.1787480834603	84.5848887878398	-3.42714865212952	69.7215272393928
103437500	-31.8094111850845	118.88449820097	-4.34150094308343	-12.1384805356154			-72.330841127275	179.656977498633	-3.42055105731102	66.8271836413164
104125000	-31.8016564402599	110.799706296259	-3.93849335366378	-14.2890015282409			-73.866690218379	165.40232749891	-3.42417344560431	64.2172365244358
104812500	-32.2509784648107	110.898062708736	-3.62138838934462	-16.9918766679949			-62.2473326945723	-157.62681513203	-3.44696191532059	61.1682956822608
105500000	-32.03561060624	106.170760937585	-3.23527538687333	-19.2696197980172			-58.6510743613603	50.4571155166681	-3.44441839628234	58.6076447897918
106187500	-32.0270302755085	108.3655741214	-2.94194063293561	-22.1663458858143			-61.3855977045052	-160.576361871062	-3.46534778787387	55.6607028355226
106875000	-31.9778844236126	103.07507862469	-2.61932450927165	-24.7018290239071			-55.8671883687729	88.6413207508485	-3.48689265147765	52.8212691045584
107562500	-33.0178511744986	98.6460319930981	-2.36962023437383	-27.2633831346011			-64.2057028818442	-14.4233841187338	-3.47169436996384	49.7033217903818
108250000	-32.5708809139184	93.6724221583238	-2.09004131808815	-29.9189475292464			-54.0257900722237	-148.359705107829	-3.53391695985885	47.1532188979047
108937500	-32.8017926478403	88.2670170011498	-1.92344730531667	-32.6572404135224			-57.4847056723327	10.3036548266589	-3.53251206086325	44.1553215275723
109625000	-32.5953305391698	87.8435675590738	-1.66350680565372	-35.3132262655132			-56.2022939241719	167.232029144945	-3.61423828818634	41.4857990092392
110312500	-32.7917883203773	82.6401908469529	-1.49490215664384	-38.2679074450187			-59.1208315645976	44.3923979070793	-3.62117089996767	38.5213694640286
111000000	-33.0384735222312	78.792038091727	-1.32710731332232	-40.8407144419982			-61.481217579669	-125.373398437315	-3.70798416741511	35.9406914039787
111687500	-33.0977512012461	71.7432928760475	-1.23990271168946	-43.7039899970942			-59.0907928490199	2.56910539576208	-3.6845929778692	32.441013957635
112375000	-32.6195304770015	69.271492926716	-1.1445473447996	-46.1833001346027			-63.8447829218499	-90.2662143728689	-3.7694102653499	30.0879124201356
113062500	-32.5861315847226	60.0639606473285	-1.1146765020732	-49.0653396756417			-62.8541025061729	0.30917851558973	-3.74237085016368	26.7097278679613
113750000	-32.2910281798438	58.1902141461897	-1.07073792625058	-51.4393210539043			-71.3567235564141	139.50667606878	-3.8457942228855	23.830647224496
114437500	-32.5690083004833	51.6998928308234	-1.09862072678409	-54.1490046691641			-69.174983016801	87.856504683601	-3.83104366048101	20.5611723016936
115125000	-32.0634094603751	48.7061989789111	-1.14007228618916	-56.4304317798478			-59.5518923068357	-123.972803832876	-3.94302475450055	17.3472024439226
115812500	-31.6690272751993	42.7035639352951	-1.21829187702598	-58.7833000709606			-58.0571731236394	35.3755777945094	-3.97492558524739	13.7743896189471
116500000	-31.9534173171346	39.4968705860735	-1.36461693542093	-60.6239677323568			-64.2373177419017	-82.51864950982	-4.02990494165324	10.5584882184831
117187500	-31.3712687722304	33.1926660241114	-1.5741800533833	-62.4525560039125			-67.6179093383741	-21.030099576061	-4.07638728288602	7.11810232898247
117875000	-31.3996389781739	29.2038109456171	-1.82824875678366	-63.8095241845145			-62.3262725685576	49.740852360115	-4.13195478999594	3.5879342970448
118562500	-30.6060845511545	21.3658334967143	-2.10996894886057	-64.9511040246503			-60.3814149226193	-110.041743929221	-4.2142541747456	7.76953264128322E-02
119250000	-30.5773854543539	16.389959838004	-2.45628661925075	-65.3021288929039			-63.7316295868176	172.723953143105	-4.28517085249171	-3.91643179860763
119937500	-29.7296963728507	13.9783847013543	-2.9025935703867	-65.0422892288458			-58.1058964734665	89.5372697141018	-4.35584582703768	-7.75909890674544
120625000	-30.1908688875778	10.2683359517391	-3.36533240523926	-63.5221369645887			-63.7230620756271	116.34349083842	-4.40714756601729	-11.8840946623147
121312500	-29.4982414821304	6.14322222707953	-3.83386535581314	-60.7568386670256			-58.3458618225052	100.186110848875	-4.51272097337368	-16.2710170987631
122000000	-29.7904157754218	2.30366179790569	-4.1967694306662	-55.8713260116483			-54.7256679834745	-87.9694901740854	-4.56798873045493	-20.7178269854334
122687500	-28.8747001136452	-1.30552296368369	-4.44811190051274	-49.6801520880211			-68.4900588741512	112.664471854211	-4.70732422451213	-25.3360485669591
123375000	-28.5448069706753	-7.59128657313841	-4.21782255704355	-41.6604056121638			-55.2385196655595	-30.9921506689973	-4.79871982777447	-30.2352105118165
124062500	-28.2369332880348	-10.8391231888164	-3.63458606045947	-33.5931623481961			-60.4584767273725	107.331477514766	-4.95095300200215	-35.222974949646
124750000	-28.2368034228953	-15.3199499890444	-2.48300915620182	-26.7887848148338			-64.8594696130479	-28.0354292835531	-5.06991203382679	-40.3322423054675
125437500	-27.7729906337075	-17.3138701266047	-1.23171394644958	-22.261681206423			-71.5758896367976	-108.244178760017	-5.20314527656548	-46.1161371707232
126125000	-28.1705934751262	-23.2791573586953	0.23050334325671	-19.9314782708808			-55.0455338373497	10.6068254102776	-5.44134652303711	-51.2603716933552
126812500	-27.9187387373742	-25.8187838990772	1.63582839242883	-19.4714536696473			-66.9000221899786	125.672548777934	-5.64799744098499	-57.0926135376129
127500000	-27.7802475288184	-29.9008381012899	3.04698983098962	-20.5864432674207			-52.5249185952923	11.9887103783863	-5.89982925037735	-62.5257737380187
128187500	-28.0334733186211	-32.4716261256122	4.28222958961283	-23.0501314494774			-61.2399561014372	-49.0171835065485	-6.11430276697154	-68.8740448348383
128875000	-27.458441131337	-36.9718770779428	5.44008141523395	-26.4271809011748			-57.0249584219668	8.41333600480589	-6.45672900996446	-74.4701514483641
129562500	-28.2906303786958	-40.9143740454419	6.435826725482	-30.5356389722176			-60.1364683824406	-34.5086972343392	-6.71680306707584	-80.8865952349347
130250000	-27.7205064185938	-43.867820940832	7.41981634565091	-34.8225731790569			-57.0423650617455	51.1924779292272	-7.17948551661218	-86.8325227586912
130937500	-28.2107207240528	-48.4578181175697	8.19677222947053	-39.7666053370679			-63.4976386267976	34.4590803733597	-7.43597589857644	-92.7742714916147
131625000	-28.1363616630202	-51.0697456885415	8.9101550490462	-44.4507789691031			-56.7366000864059	32.8208689004542	-7.91333532475914	-98.6269336297794
132312500	-28.5602134386592	-55.9990787950769	9.53212735983087	-49.5191952102992			-65.620943873808	-68.5909721435968	-8.24401938555713	-104.651720345673
133000000	-28.6310903739167	-55.6715925658839	10.1138961115397	-54.6997673913042			-54.4542413907787	-10.4333120712532	-8.72155583487853	-110.115656539456
133687500	-28.6218060424898	-63.5483599696151	10.5566641980396	-59.5485429146991			-48.6657728453254	-47.4464648037152	-9.06262219521855	-115.905816655082
134375000	-29.3497132044138	-61.1150331372132	11.0593785281406	-64.3544435085122			-58.7150051943516	59.6377243399932	-9.55215391030067	-121.96619130941
135062500	-29.2428900204029	-67.0625107962498	11.3825066003198	-69.0877299608125			-49.8749715863168	-43.6066206358511	-9.90620004966459	-127.436295562007
135750000	-29.7302813878064	-63.8685240618001	11.7794719616224	-73.8619969098914			-60.4792352733094	122.599570812663	-10.4130798786485	-132.656138818829
136437500	-29.8002679127395	-72.8470247620176	12.0353072442231	-78.5948962048092			-48.9495095090873	-73.9534865204028	-10.7384476230195	-138.159676220198
137125000	-30.3316439511549	-73.4797924250536	12.3532989616093	-82.6492466653667			-58.7710284871027	-15.7522309225339	-11.1748286390604	-143.365616944751
137812500	-30.7186915698751	-73.9590641755169	12.5619033581239	-87.4162447373784			-52.5155352368768	-62.3403813683684	-11.6070724919514	-148.605352737879
138500000	-31.0046481992867	-79.9780743498971	12.8282379820803	-91.3630631739748			-56.0899576065272	-66.0888042557226	-11.895071644829	-154.576051952742
139187500	-30.9530739561874	-76.9206826462832	13.012370181339	-95.807026489628			-52.2349982463282	-63.2646056321929	-12.4266621241484	-159.264029768898
139875000	-31.7059519066648	-80.7865144847431	13.2436388120155	-99.6537415480254			-54.250201112513	-76.0184561756985	-12.7118273887826	-164.449329903792
140562500	-31.6429237063739	-81.3582981764086	13.3911024996125	-103.682195440076			-50.6047779149804	-51.995603885407	-13.1808765057554	-169.590313220271
141250000	-32.0312379218386	-83.8795924061437	13.5872851531148	-107.609490550788			-52.8194243825874	-118.6825859476	-13.3896541327664	-174.531500359349
141937500	-31.5676067887434	-85.5318445912922	13.6607611476613	-111.595904003956			-50.4876209671681	-66.5553749884561	-13.8303198462683	179.989869964382
142625000	-32.2424732885955	-84.3252266779874	13.8456168704987	-115.339576402351			-52.9216140220632	-120.274313767508	-14.1025849429782	175.134677832913
143312500	-31.9410547898869	-90.0928945873518	13.9241443629252	-119.263001322052			-52.3633520085176	-70.9998458265403	-14.5324703127656	169.209175394781
144000000	-32.410153459719	-90.102212726191	14.0693663686355	-122.431110335732			-47.6673626856074	-78.7798904997786	-14.7165931046739	164.782190301567
144687500	-32.5335014645034	-91.1737990781688	14.1408806033394	-126.58822335749			-51.6491875585475	-88.3208088029243	-15.1033261754384	158.885262276551
145375000	-32.8791790226831	-94.6955029380991	14.2511200062015	-130.045526681196			-49.2791762556163	-107.078085962312	-15.3784389710849	154.358636373187
146062500	-32.6205910006409	-89.9709385594044	14.3144716959293	-133.549923673274			-51.9113768421825	-92.0426786356565	-15.6696381185028	148.345082761755
146750000	-32.631033939567	-97.4857013772552	14.3850576495653	-136.852902159339			-49.55846712726	-104.175889223419	-16.0001364930218	144.282887778409
147437500	-32.09900180694	-95.6970143331261	14.4352578702096	-140.363837372798			-54.562080452839	-107.217190227115	-16.2215317560391	137.168796036015
148125000	-31.8577121001895	-103.16608314739	14.4776140303398	-143.708678531402			-49.9601651410258	-116.779240734588	-16.5216952956951	133.594642606076
148812500	-31.6564351689388	-101.687243484731	14.5263553332208	-147.013540719131			-54.299937077441	-93.447466767266	-16.5323362111829	126.892419560281
149500000	-31.44751434606	-105.7758396478	14.5661896222814	-150.012594237108			-50.3078133023968	-123.687283478935	-17.0110346962112	122.117656891814
150187500	-32.0228691640439	-107.366390044471	14.5970436533713	-153.466341604688			-50.5754089193589	-125.778997498149	-17.0012140978062	116.215267606429
150875000	-30.8768853881684	-107.875126129774	14.6459598095558	-156.187853142912			-50.7932809797658	-114.907696812109	-17.2961169825689	110.757989081043
151562500	-31.1416582942163	-110.867753689183	14.6302219405131	-159.311440124058			-55.3039823175309	-132.25316350707	-17.2116727043883	105.79491519129
152250000	-30.7105478221852	-112.283067523861	14.6466237032266	-162.137320251679			-50.2515667904676	-114.203431758453	-17.5203374700231	100.188349843664
152937500	-31.2945275663844	-113.603663807725	14.6866351636941	-165.064037794072			-50.5854829412091	-169.419183709516	-17.3950901693599	95.1113480926723
153625000	-29.8723135632549	-115.939622510249	14.7019970482835	-167.822720229026			-52.4762974352333	-103.944049265897	-17.5981073519762	88.799112552482
154312500	-30.2502486221908	-119.009588324914	14.7218092173887	-170.385748174923			-50.228549772514	-151.911345858282	-17.3130487090779	84.9718729429367
155000000	-29.6305092890286	-117.239837585991	14.715283034931	-173.303741004192			-51.0105672318485	-108.890320239709	-17.400370973787	78.8099191267061
155687500	-29.9332659719643	-120.621466685305	14.7177134054775	-175.734386975437			-45.3818945209922	-156.557470246058	-17.5034046062807	73.5491805281147
156375000	-29.2370547297468	-116.981625392661	14.7688426853997	-178.643087758537			-49.8588317254754	-166.919006990497	-17.4072663884983	68.5869660009265
157062500	-29.7843001873741	-123.946411803367	14.7581892667522	178.822333077332			-53.9859288106701	-121.88799750966	-17.330759660593	64.7422257933652
157750000	-28.6174891004954	-119.180900325193	14.8197329943785	176.405264033912			-59.3285102733744	-155.210545616721	-17.1813501310222	59.5366910242318
158437500	-28.9763833388748	-125.652143121513	14.7759787655526	173.708671323773			-47.9825408101473	-157.485193308534	-17.0530974194686	55.2013296706892
159125000	-28.5556913788493	-118.899181354552	14.8573760814587	171.344386154576			-52.9506719204125	-153.377504140052	-16.9128550967089	51.2490366883995
159812500	-28.6189842541413	-124.389958857861	14.8613642444399	168.580436371737			-49.5368255416059	-153.493461384431	-16.9512016379108	46.6540142637085
160500000	-28.0932577377481	-120.485484873064	14.8733713337887	166.199153564775			-53.0515995227972	161.521633497775	-16.5846043257804	43.0304906616973
161187500	-27.4503146362996	-122.03107110752	14.8412985386342	163.691012312779			-47.492334691989	-148.442474691649	-16.581471985325	38.0996209768302
161875000	-27.5348969128653	-118.74588493597	14.924279950355	161.239958064191			-51.5165735952194	-155.817486735971	-16.3106796819862	35.7599748637149
162562500	-27.3494073126721	-120.711425248355	14.8865290396154	158.625285237775			-51.123269714405	-154.167479784549	-16.1837114401938	30.7519227015091
163250000	-27.3703467333926	-119.581703050807	14.9118860425187	156.108304066944			-52.2715287101105	-178.381277841521	-15.9337789811575	28.4191039354339
163937500	-26.7033363051839	-119.809922281278	14.919461681483	153.949214955732			-50.2927568585955	-144.392682136806	-15.9760402184904	24.6164611079008
164625000	-27.0361210275585	-117.045866956134	14.9253893397671	151.398813092106			-48.2327267034338	156.069803003529	-15.7400085139671	21.8176062454603
165312500	-26.6442739441675	-118.941496186333	14.906214175188	148.90546272296			-51.0090239530071	-178.705040048907	-15.5754039864807	18.0199391630918
166000000	-26.7600129851043	-115.538492931162	14.93008600572	146.620991392015			-55.117604368709	174.850577126813	-15.4046602617682	14.7449484719031
166687500	-26.1703496406754	-117.466045699885	14.8971884761371	144.246066220562			-52.4523563011663	-158.835094975321	-15.2767586034424	12.0108831395132
167375000	-26.1580489788051	-117.274301344903	14.9451974056349	142.220208414526			-49.1022249774626	155.5101173585	-15.3122781490302	10.3540570832193
168062500	-25.9204303944682	-117.13402767794	14.8831958898183	139.603736058687			-52.3738959719206	-172.660631822143	-15.0631610957423	6.90027990978936
168750000	-26.042517782223	-114.932560775644	14.9270546823596	137.598984991145			-48.3251007097242	173.395537903933	-15.0935643019087	3.42821376379868
169437500	-25.6363743693774	-114.153537292927	14.8362388318057	135.181390606542			-53.2538261225914	168.013197842694	-14.8339255444579	0.817332165983964
170125000	-25.7027532188877	-113.144591889694	14.8885825962101	133.086651487743			-48.7510642599313	155.613069640761	-14.9232011624221	-1.03055824839815
170812500	-25.5957112564989	-110.80543048889	14.8379766499611	130.805876129642			-57.995902253708	156.809042178118	-14.6696395757123	-4.48957127118482
171500000	-25.8828895874542	-112.769996435827	14.8602434445224	128.903713326687			-49.6869370509203	178.268378254219	-14.9036639635283	-6.17400370249874
172187500	-25.4309161942958	-110.738192429249	14.8170626351382	126.702987611036			-50.963428919328	121.7397633397	-14.6300150387192	-8.85329117593557
172875000	-25.9846018208541	-109.697736089667	14.8569853125703	124.988180660662			-48.2284965939833	168.816512032695	-14.6904050172488	-11.0964109495703
173562500	-25.4685581976568	-105.531815847475	14.8027007224912	122.753619261144			-53.5923223044181	158.099889247122	-14.4939948598152	-13.2479560432973
174250000	-25.5505201930355	-108.688636681523	14.8582261802417	120.835217272014			-48.2275840832194	148.975629475663	-14.5393306908672	-17.5317207080024
174937500	-25.1840580141963	-102.162587374851	14.8577983150698	118.722914665489			-51.391237276699	142.020533902328	-14.4439960759335	-19.1787262477831
175625000	-25.2101859617184	-104.999485348361	14.8505614663063	116.799740102802			-50.7936184861055	-175.850108474835	-14.4752902772846	-22.850892182065
176312500	-25.2682867561846	-100.95135011398	14.8622881915984	114.810164272178			-50.2551739662386	153.025090523576	-14.3702672312636	-25.0452463133615
177000000	-25.2556573705841	-102.116202457926	14.9121157628865	112.981474422942			-47.53977040756	171.27829265358	-14.4354723971489	-28.4529561639951
177687500	-25.3445755594801	-98.4417491058729	14.8771766103899	110.82602295534			-48.6250046619791	144.943063629013	-14.4825226925188	-30.8408329356648
178375000	-25.1576273121447	-100.913141529443	14.942984838691	109.027402057911			-50.4179466681955	158.529598572733	-14.4027937963673	-33.5870696392629
179062500	-25.0361206363125	-96.5206837708672	14.9373993492349	106.818249460329			-50.4800613459148	136.683828715105	-14.4430021213566	-36.1432388003484
179750000	-24.9580245346339	-97.2191777884477	14.9477970925767	105.091853959692			-52.6374633069313	156.970737847567	-14.3849333677211	-39.617731668711
180437500	-25.2373631831251	-94.2805354179059	15.017806760461	102.887038359907			-48.5078711933354	146.974435083861	-14.4885879955185	-42.6543823840116
181125000	-25.0944476655697	-94.7807398949881	15.0082638532208	101.104638438487			-52.1120147724211	119.059819277346	-14.3904132436769	-44.8818672837511
181812500	-25.1618979590026	-93.1999466729216	15.0237861237564	98.8242128993039			-48.4217301420065	126.812559817972	-14.4772260769566	-47.8487878679139
182500000	-24.7791394623257	-93.4397943916117	15.092107762521	96.9913741898306			-52.1181167690637	120.369554427412	-14.4160356094493	-50.8330449999242
183187500	-25.2202841696072	-91.5696985748917	15.1246773331137	94.5487863936763			-48.9771717759897	136.058851322068	-14.4984176912237	-54.207423298704
183875000	-25.3778145206609	-90.7014594815093	15.1405583553381	92.6459543766905			-50.9587549639059	139.562571223232	-14.4893377229559	-56.3203826171876
184562500	-25.3675067013567	-90.9693383679225	15.1317126610685	90.5876538335122			-51.5830387614485	132.626449936649	-14.5344292030148	-60.3771117280075
185250000	-25.3586429548535	-88.689847805889	15.1709934550063	88.4885039324844			-50.1143308816738	116.034424880834	-14.5020973153984	-62.4403123856472
185937500	-25.5334467020885	-89.6423809790748	15.1607313199809	86.315509652148			-48.6673185290256	144.338003328974	-14.5315324747742	-66.7701983238295
186625000	-25.5609777573159	-91.0294459645003	15.186275504316	84.1565304804507			-48.7504992948934	101.512501389673	-14.5679296198546	-68.316147354684
187312500	-25.6656550049916	-91.7566756622139	15.180276552477	82.0744473201327			-50.15778183198	126.453829439426	-14.4784195857676	-72.8980536322889
188000000	-25.5692515724246	-89.1718946894576	15.1918031082129	80.0716038201165			-51.858916824691	92.4580793303593	-14.5350152887891	-74.4803386139717
