# Hz S RI R 50
100000000	2.76818473125898E-02	1.75711923578522E-02	3.04456482116353E-02	7.61617942068697E-03			-3.25462027497099E-04	-6.32219747498693E-04	0.113167070599952	0.656137753898905
100687500	2.78798100432556E-02	1.71057375328816E-02	3.26989350074842E-02	6.32563671533439E-03			-5.32677053962461E-04	7.86553044863116E-04	0.142212668073509	0.65716305914904
101375000	2.79623813674367E-02	1.38137020267004E-02	3.37467597914379E-02	5.54535831378784E-03			-9.13193458610952E-04	-3.57295434358326E-04	0.173847157575653	0.644275059172751
102062500	2.87105611971778E-02	1.65198191333644E-02	3.60410029024441E-02	5.58052694180833E-03			-1.06241020604832E-04	1.08001655170141E-03	0.201105292708091	0.639211124094665
102750000	2.90416886445115E-02	1.22579136031548E-02	3.84357372102742E-02	2.77749518926348E-03			6.2708075050746E-04	-9.79087149990652E-04	0.235030955143061	0.625842959878405
103437500	2.75958091579364E-02	1.27665519289109E-02	4.03745599047561E-02	3.84166101312743E-03			7.15459430571869E-04	-7.5103214113984E-05	0.261418607050975	0.619602062208141
104125000	2.99474354720484E-02	1.00346925572449E-02	4.14532963671964E-02	-5.63752502184586E-04			1.46532031336761E-03	-2.90372474052406E-04	0.293151763596005	0.602301091607137
104812500	0.028045780412649	1.08676945191238E-02	4.37885518926541E-02	-6.81502375078635E-05			-1.93349394215996E-04	8.32574117288808E-04	0.318155068143456	0.589179537754923
105500000	2.99838529398554E-02	8.13130101098513E-03	4.51599029115914E-02	-3.99363235889998E-03			1.84371851848905E-04	-1.17256431522922E-03	0.350004740817153	0.570483939022441
106187500	2.78623262236433E-02	7.66763950151091E-03	4.70893888855865E-02	-4.59956913022631E-03			1.18078775787608E-05	9.18192303860064E-04	0.374710415573242	0.556776933600957
106875000	2.97825656589851E-02	5.72420424660714E-03	4.87511783081971E-02	-8.60308752005712E-03			1.55032222435776E-03	-1.68373120870088E-03	0.403815681769032	0.534095673206019
107562500	2.88373715588062E-02	5.48681962572853E-03	4.87782442867588E-02	-9.77212024083037E-03			-4.66173255608699E-04	4.19690647546033E-04	0.427016641505819	0.51519984472158
108250000	3.20709321754755E-02	3.53725958761366E-03	5.17868371389876E-02	-1.27420148467486E-02			-7.07519474058851E-04	-6.21770041096071E-05	0.451416346967447	0.487677943947192
108937500	2.96189443204897E-02	1.78833129758847E-03	5.12471599565011E-02	-1.37952281983985E-02			-4.40413849717114E-05	-4.43721446315855E-04	0.471958973757725	0.469262770694955
109625000	3.03779883158732E-02	2.52087271958849E-03	5.31860147719034E-02	-1.65872137478069E-02			1.0275693655813E-03	-2.47626212018697E-04	0.494315705085949	0.440266427679395
110312500	3.04253588289169E-02	1.21590896511949E-03	5.14755121489845E-02	-0.019401135188762			-0.001335277561125	1.98038880294554E-05	0.50875131459269	0.417653311842822
111000000	3.18589196259444E-02	-8.94149383951862E-04	0.052904191408622	-2.26974517135099E-02			3.18846148505334E-04	6.21331394583969E-05	0.530066778481649	0.385388162280745
111687500	3.03906311444824E-02	-2.59412147070522E-03	5.16778086275503E-02	-2.43256392625242E-02			-2.12598221019232E-03	-8.48189966170133E-06	0.54471946624033	0.360742464224825
112375000	3.27585251395601E-02	-1.8184036591346E-03	5.27058208639893E-02	-2.74493536450382E-02			9.19805374265178E-04	-1.01899111705573E-05	0.560381835550436	0.327601005703895
113062500	3.14886720559369E-02	-3.88558922106607E-03	4.93860219319135E-02	-3.01316506432483E-02			-1.0090650337054E-03	1.27876398049155E-04	0.574040098107216	0.299500588851099
113750000	3.24607099131851E-02	-2.3621184951471E-03	5.12236217666417E-02	-3.24287597857964E-02			8.10325768275051E-04	6.01122495616986E-04	0.584056684974056	0.265765745420964
114437500	3.04011068635026E-02	-5.60949018595166E-03	4.74332214472573E-02	-3.40209762337975E-02			-5.01874771054944E-04	-1.09049174755789E-04	0.596213336622955	0.234899803792557
115125000	3.26520059225442E-02	-5.97973504919118E-03	4.78889995334982E-02	-3.52112857684336E-02			-6.08446609385744E-05	-1.03853607014469E-04	0.604311293837856	0.196976280326644
115812500	3.37977760583652E-02	-7.0947630159621E-03	4.64516795406544E-02	-3.73682160384298E-02			-1.18156345951973E-03	-3.11700998276638E-04	0.608156208049398	0.163370017695757
116500000	3.28567612777139E-02	-7.08245694946063E-03	4.42720768256756E-02	-3.76214635891658E-02			4.19774008796522E-04	1.58313955217057E-04	0.615119460893085	0.126088472248411
117187500	3.25015021291032E-02	-8.97865378746444E-03	4.12518619110688E-02	-3.84467020648838E-02			1.35596159735916E-04	-8.91590175105532E-04	0.617547219092259	9.13774170284516E-02
117875000	3.28402007092064E-02	-8.07158319652596E-03	4.06560569840071E-02	-0.038420864658336			9.37504583433345E-05	2.9160285142755E-04	0.617578070020347	5.26227014459381E-02
118562500	3.48974920807576E-02	-1.04297769098827E-02	3.91553433453727E-02	-3.86116754093927E-02			-2.80975564223558E-04	-1.38698254526821E-03	0.613037742315159	1.53652266697075E-02
119250000	3.38151895301271E-02	-0.009761601762657	3.82446656761673E-02	-3.54207426490128E-02			3.58931802703237E-04	1.1475286824371E-03	0.605725297865705	-2.64342946049478E-02
119937500	3.51288292452077E-02	-1.28319810495119E-02	3.53102966237845E-02	-3.53053928287298E-02			3.00333182279997E-04	-1.75507237776135E-04	0.59902616367286	-6.64348746470888E-02
120625000	3.32130323044571E-02	-1.13572709672623E-02	3.55220019758427E-02	-3.26262876458437E-02			1.87979688159114E-04	3.82291468709228E-04	0.587988757763103	-0.107820200119033
121312500	3.48532630536357E-02	-1.57135470411053E-02	3.46022239921836E-02	-2.96212976208902E-02			4.81070557325407E-04	-9.86008450845774E-04	0.572865941126044	-0.147607430315032
122000000	3.30936257995726E-02	-1.22917476136534E-02	3.67456919349735E-02	-2.44586482334888E-02			-1.40497080458991E-05	6.93307917175038E-04	0.550878551362342	-0.189433472993514
122687500	3.47295512752298E-02	-1.35579322858194E-02	3.78917096134814E-02	-0.021291453095482			1.13967089959541E-04	-7.44173223554312E-04	0.529146151868405	-0.22650741470089
123375000	3.23240529007531E-02	-1.47287604531649E-02	4.15547779781332E-02	-1.56737610427574E-02			-8.43938417439528E-04	1.97877060566983E-04	0.498667975614071	-0.267895527238971
124062500	3.67434886287257E-02	-1.64327533260081E-02	4.70883097626933E-02	-1.20612360158087E-02			1.48473933881195E-03	-6.97002346618653E-04	0.468646881072506	-0.300713464643863
124750000	3.37461191300498E-02	-1.67156662165463E-02	5.40077682733068E-02	-6.70793228275435E-03			1.75050040144908E-04	2.67725056550816E-05	0.4298377639806	-0.337081592503546
125437500	3.67884815034945E-02	-1.59683529476722E-02	6.36821611099585E-02	-3.34799988309288E-03			-1.2452371535848E-04	-9.87437000227268E-04	0.389891013559174	-0.366414201030012
126125000	3.29623613155283E-02	-1.70517851275075E-02	7.34134754133525E-02	-8.37834241849689E-05			-5.55153348330225E-04	6.7558882606737E-04	0.34303899204192	-0.390512099319851
126812500	3.51173170225991E-02	-1.75859101083213E-02	8.74016522512105E-02	4.30059114117913E-04			1.08809944958373E-03	5.07792733444391E-04	0.295648463673404	-0.408931298112486
127500000	0.033093764204888	-1.84387852124965E-02	0.100410983402504	4.78905011164946E-04			-4.9344282172902E-04	7.99835054225944E-04	0.245189396686906	-0.424623574691904
128187500	3.55928481087383E-02	-1.76729583646217E-02	0.118723423787504	-4.36216481908486E-03			1.10616378411291E-03	1.19856085509296E-04	0.197087120224383	-0.431632926988472
128875000	0.034365974513076	-0.018639845324692	0.133711329870732	-1.44124138272195E-02			-1.57267398849317E-03	-9.42114955028164E-04	0.142916528873086	-0.430817729553831
129562500	3.50021616695797E-02	-1.76798940519106E-02	0.152380328733328	-2.57342856060106E-02			-1.63896753293516E-04	4.18366934803307E-04	9.58899828174974E-02	-0.427300823373181
130250000	3.47436713706298E-02	-2.02671877405743E-02	0.165942605329557	-4.18445104078249E-02			4.2528398830113E-04	-5.20908911744022E-04	4.70844211765582E-02	-0.409972466598924
130937500	0.033983641894279	-1.87624294721069E-02	0.179787746738189	-6.05632540519618E-02			1.16534338345076E-03	7.19127089232268E-04	6.30344327340093E-03	-0.397285834227981
131625000	3.43353696925651E-02	-2.27270889721927E-02	0.187884954566565	-8.37632273600544E-02			-6.70771068423275E-05	-1.80342646853692E-03	-0.031561215051592	-0.372514205313744
132312500	3.38539036356163E-02	-0.02040244208061	0.194562156665533	-0.10595320570338			5.22225114540184E-04	2.45573018500811E-04	-6.31291401685358E-02	-0.349469708431841
133000000	3.38711700384853E-02	-0.023008563739599	0.196496709065979	-0.134291054131137			4.43372376973126E-04	-7.94905757636112E-04	-9.15523930689181E-02	-0.32243000439164
133687500	3.21967417921545E-02	-0.022101044580764	0.195922262553984	-0.157429550291521			-1.58357055259565E-04	5.96134617519383E-04	-0.114773647596628	-0.294607233235536
134375000	3.14856426109033E-02	-2.33364936217187E-02	0.191711702816466	-0.184387238221294			6.08687303954613E-04	-1.00782012864216E-03	-0.136125363916206	-0.266221395190264
135062500	0.029959800609257	-2.25019010353739E-02	0.183331567475585	-0.206836277666153			7.77811970889893E-05	1.08311122959935E-03	-0.149427693620265	-0.239252210641686
135750000	3.33971872409386E-02	-2.35008164284099E-02	0.172053056735798	-0.234007084710906			9.15210320122432E-04	-1.33895013330193E-03	-0.160575832500669	-0.213392256341422
136437500	2.97220413360376E-02	-2.42956028215088E-02	0.157765933629157	-0.254723266903341			-9.1582611348613E-04	6.44401786948977E-04	-0.167964679363874	-0.186216348298755
137125000	3.03284705668218E-02	-2.56466539660142E-02	0.144190134580401	-0.276841047338809			1.62906926460456E-03	-1.28225881284578E-03	-0.172468998418653	-0.163487574920052
137812500	2.83105171913514E-02	-2.48113741797688E-02	0.124044741921066	-0.293590385169164			-1.14645625119982E-03	-2.84359587621218E-04	-0.175719051772458	-0.139942232962183
138500000	0.026781187380706	-0.0269133607382	0.104987251371392	-0.312426086187528			4.16083861434202E-04	1.50822744028004E-04	-0.178322462415579	-0.116129594997949
139187500	2.52135114243114E-02	-2.62460455136377E-02	8.20276113221425E-02	-0.323445226065342			-1.13097892499754E-03	2.54064034583845E-04	-0.175535721045747	-9.81539603536787E-02
139875000	2.74130642128883E-02	-0.026027985493111	6.10168931869471E-02	-0.33855908372429			5.60302787637323E-04	2.50429299374928E-04	-0.175368757650386	-7.91015521804007E-02
140562500	2.38695791002533E-02	-2.65852665325728E-02	3.57331948405777E-02	-0.347426052058837			-5.40530677784896E-04	5.93245674419123E-04	-0.171715661286458	-6.25348418236025E-02
141250000	2.48905729983184E-02	-2.64754914951982E-02	1.34277507709296E-02	-0.357155046594515			5.32094116985416E-04	-1.62651410131629E-04	-0.168663719186645	-4.48130516251405E-02
141937500	2.16872143527088E-02	-2.65171316413957E-02	-1.14287038962355E-02	-0.360275144854725			-1.42926348115734E-03	-1.27637732745202E-04	-0.164467532768334	-3.10519725860583E-02
142625000	2.25117440939284E-02	-2.81633873496107E-02	-3.60395901328954E-02	-0.366386904659887			9.61125473813363E-05	5.28853679181722E-04	-0.158418365350226	-1.72698430247209E-02
143312500	1.81001143542533E-02	-3.07512414119296E-02	-0.061009682678357	-0.366966612791199			-9.95470588706969E-04	-3.91483646709697E-04	-0.151484891637118	-4.45457762161029E-03
144000000	1.92022075638903E-02	-2.97233475183085E-02	-8.26777241569991E-02	-0.368028497399382			6.65013082045182E-04	4.14826899377891E-04	-0.146718066922747	8.60046865654071E-03
144687500	1.74984741864628E-02	-3.13570616705114E-02	-0.10999781836123	-0.365621984774411			-6.86740329826117E-04	-7.15224737011714E-04	-0.139377727234024	1.94415111021972E-02
145375000	1.70463765731357E-02	-2.87670048695548E-02	-0.132374203645041	-0.360940149755407			2.30745648255741E-04	2.65321422679927E-04	-0.132354077784672	0.031440408163893
146062500	1.49893905387658E-02	-3.14207666757836E-02	-0.154383955626858	-0.358170834153472			8.0831314962608E-05	-7.51229882074653E-04	-0.122552771923488	3.97189144185581E-02
146750000	1.42296632529216E-02	-3.04723005699982E-02	-0.178706595554261	-0.349494535790138			-6.18030294092402E-04	1.56724597048251E-03	-0.115172132699387	4.79793028533601E-02
147437500	1.41836814549312E-02	-3.39659440657462E-02	-0.198411315093506	-0.341830494498263			-1.4967539432982E-04	-1.58908207973183E-03	-0.106236160162804	5.76529201440172E-02
148125000	1.03511375749708E-02	-3.23955574343726E-02	-0.219993076176507	-0.330945810970652			1.51133526525599E-03	8.06167974442972E-04	-9.80645462458181E-02	6.41446152550829E-02
148812500	1.07737972485212E-02	-3.38196538920346E-02	-0.238338553849325	-0.32111094379191			-8.5737320399302E-04	-8.69082551567431E-04	-8.88477180197469E-02	7.04194991085932E-02
149500000	8.72924528937151E-03	-3.25938443100754E-02	-0.258505459680516	-0.306514022585847			-3.07097202486719E-04	1.12417692586856E-04	-7.95909318428024E-02	7.73395247304932E-02
150187500	9.21167019090927E-03	-0.036361343103335	-0.274036282202658	-0.295242660633254			-2.94099749322773E-04	-1.35201284221943E-03	-6.91451798391078E-02	8.23733621120659E-02
150875000	8.17273461814564E-03	-3.39544479019314E-02	-0.291346651172519	-0.280506907895361			-7.55077845683846E-04	1.14901140068369E-03	-5.82759449442759E-02	8.53807277646797E-02
151562500	5.43167973400767E-03	-3.78781295789004E-02	-0.30458438333698	-0.267343785290898			-6.3509045032731E-04	-6.50214311735169E-04	-5.07768485682732E-02	8.95395533599405E-02
152250000	3.40027141226611E-03	-3.62923572080621E-02	-0.320719133299073	-0.250295400956721			-3.98422521915158E-04	3.94370657076243E-04	-3.96342424185508E-02	9.34736723460547E-02
152937500	4.29340361885869E-03	-3.63931041568352E-02	-0.330284575538963	-0.237318747531207			-2.44129938673561E-04	-1.66135693454625E-03	-2.98069071392777E-02	9.57003193647463E-02
153625000	7.92829169034461E-04	-0.036965077454526	-0.34487036866497	-0.218841019993155			-1.92061198199537E-03	4.20982603944961E-04	-1.92632895930298E-02	9.69404998792536E-02
154312500	1.70308639968086E-03	-3.87320525161553E-02	-0.353552994011824	-0.205974747006176			1.70462883238272E-04	-9.27250103079588E-04	-9.5236084576707E-03	0.101482335558447
155000000	-3.03541082285341E-03	-4.08255469822731E-02	-0.364947916394411	-0.185493104084424			-1.75479973356538E-03	-2.12308251041309E-04	-2.66256337765725E-04	0.101587471284506
155687500	-5.95490474305075E-04	-4.05150724993373E-02	-0.371190865836716	-0.172827542322299			1.42745736732206E-03	-6.3100302472687E-04	1.07441240183534E-02	0.100971239511387
156375000	-3.50134179462848E-03	-4.07321297792151E-02	-0.384320500250234	-0.153112043921823			-2.09569049008889E-04	-1.87301624701665E-04	2.05922335357059E-02	0.100542925982932
157062500	-2.3316181407744E-03	-4.01475014441898E-02	-0.386752355320923	-0.137965649532324			2.4457379089549E-04	1.29221958762863E-04	2.91317638586176E-02	0.099182397866329
157750000	-6.49769880704924E-03	-4.29597058908485E-02	-0.398351728941661	-0.120173674985186			-3.28133236611102E-05	-4.71608213007573E-04	3.79918767234761E-02	9.81685895954251E-02
158437500	-5.97070328121208E-03	-4.24415318924651E-02	-0.399628525939367	-0.104950164095677			5.25636029991668E-04	3.806393238211E-04	4.87685724695548E-02	9.67019657255177E-02
159125000	-9.54219682205876E-03	-4.67364552957839E-02	-0.406617593340669	-8.54264216758495E-02			-1.28160060000912E-03	6.03284460037749E-04	5.73951997684526E-02	9.39552524735052E-02
159812500	-7.73358752098869E-03	-4.37656725941914E-02	-0.411525173676073	-6.93472821682133E-02			8.14696480248414E-04	1.4753276936803E-03	6.72653793747312E-02	9.13351654658683E-02
160500000	-9.38302531682596E-03	-4.80895452473797E-02	-0.417370414094593	-5.06928771398222E-02			-1.84607049275691E-04	-1.37176539238921E-03	7.49097649268684E-02	9.00674765705996E-02
161187500	-1.02069121361186E-02	-4.83403872238265E-02	-0.415323802216139	-3.46921879593638E-02			1.79090714476281E-04	5.58399000434921E-04	8.33234300075018E-02	0.086806005634637
161875000	-9.61799404179222E-03	-5.11425634786853E-02	-0.421128031472678	-1.58150332682243E-02			-1.06285896292156E-03	-2.26077344792947E-04	9.11806844795538E-02	8.37244229153508E-02
162562500	-1.03950201742284E-02	-4.86568749584677E-02	-0.419379764790023	4.06790528100329E-03			1.03695144117825E-03	1.37623154113165E-03	0.10112674660649	7.83628431501292E-02
163250000	-1.24523843158005E-02	-5.25800381835566E-02	-0.419955537417411	1.98118633800671E-02			-5.79708854943585E-04	-4.84382063825114E-04	0.107427874804124	7.41433182764657E-02
163937500	-1.36312976630843E-02	-5.18084604337133E-02	-0.419019691170356	3.71263743115875E-02			7.87624992194814E-04	-1.76784859620784E-04	0.114560650688674	7.11209859200351E-02
164625000	-0.010569422856837	-5.39315065109343E-02	-0.417025435307912	5.40669877350854E-02			1.43341697935742E-04	-1.7707484969218E-03	0.121256358535159	6.30375145949603E-02
165312500	-1.48472457105669E-02	-5.34973927049664E-02	-0.415963717795965	7.26020850019615E-02			6.43027933494261E-04	1.31580448566996E-03	0.126834101414184	5.93535301972716E-02
166000000	-1.33326810408207E-02	-5.61532718115476E-02	-0.412807553259162	8.87113201825704E-02			5.21302179803537E-04	-1.33426945403151E-04	0.135933656584456	5.05550868708488E-02
166687500	-1.54315343445275E-02	-5.67628609856608E-02	-0.407767659793638	0.105008390766941			-1.2682134959621E-04	3.4977857857539E-04	0.139892806661488	0.046734804834514
167375000	-1.61428287950324E-02	-5.93696111773537E-02	-0.406254987222189	0.120865389119238			3.37587324420198E-04	-2.98688003259344E-04	0.145620082090149	4.14779286335576E-02
168062500	-1.71234602076854E-02	-5.83193277771381E-02	-0.399829579122568	0.136722729384704			-7.51646725773248E-04	7.48505202320041E-04	0.15086829888298	3.61215830742039E-02
168750000	-0.013786038377826	-6.10629914901177E-02	-0.393667168047544	0.151301244082394			1.04964382978013E-03	1.00224211846719E-04	0.155104070329505	2.71310435187631E-02
169437500	-0.017399997881223	-6.08488017570624E-02	-0.387577729604364	0.167233902951357			-2.50385828653033E-03	7.12527425570272E-04	0.158312947692482	2.07842172051359E-02
170125000	-1.44665035038508E-02	-6.19657348207859E-02	-0.38199893518423	0.182100073247997			1.66971172384732E-03	4.21925944291823E-05	0.161118017268801	1.30762642793118E-02
170812500	-1.40079889932462E-02	-6.36790128416854E-02	-0.373450623618912	0.195401624687289			-1.29143227979839E-04	-9.21127129510185E-04	0.164344840704275	5.32113328410032E-03
171500000	-1.39753909628874E-02	-0.062822473590528	-0.365076083305414	0.209692261153299			1.33502982698665E-03	-4.61267308829397E-04	0.165552976336974	-8.27674862698552E-04
172187500	-1.64625401640427E-02	-6.66605862187051E-02	-0.357020352340712	0.221224566905067			-1.0090919886948E-03	-4.17529912932534E-04	0.167537409528314	-8.77228758043838E-03
172875000	-1.35021803343689E-02	-6.46540597066429E-02	-0.350473694507327	0.232586404070186			1.22695862055138E-03	4.40759709250445E-04	0.166237917905023	-1.65170217959582E-02
173562500	-1.46461126742203E-02	-6.82066397968969E-02	-0.341434470338952	0.244533869203905			-2.1771831963943E-04	-3.18533705407499E-04	0.16918402437524	-2.37700368381992E-02
174250000	-1.24671203140264E-02	-6.69217603823845E-02	-0.331117771034779	0.258694383996055			4.55153874267903E-04	7.95487382828167E-04	0.168420158267978	-3.42703850594159E-02
174937500	-1.23428319086943E-02	-6.92384465714977E-02	-0.324069060450928	0.267945355782414			-1.0638603675979E-03	-1.7411063000002E-04	0.16892232164714	-3.83819843717186E-02
175625000	-1.35507092948588E-02	-7.00624225437477E-02	-0.313333566785158	0.280864356491078			-4.78485062814551E-04	5.89125240241094E-04	0.167065988688912	-4.78687073722034E-02
176312500	-1.32290390296892E-02	-7.07883742768135E-02	-0.306877659719642	0.288684897290581			-9.73782335184446E-04	-4.43503172909313E-04	0.165843130000318	-5.75335799615374E-02
177000000	-1.22942382336393E-02	-6.98759176534565E-02	-0.296383374020996	0.301887283760168			5.3591123845986E-04	1.35085270322919E-03	0.162576265123166	-6.28287455414156E-02
