# Hz S DB R 50
100000000	-35.9165442384888	38.9571729889474	-14.9342574879228	1.89081427973332			-59.7421927761282	-161.516525480273	-3.50143972927478	80.3350644413202
100687500	-36.3438071435181	37.4627002385883	-14.4782665483593	-9.17947032188403E-02			-56.2248506148221	15.8599772823454	-3.42125854401506	77.7927754056038
101375000	-36.6648141834297	28.1874570314938	-14.0034740223436	-2.25077286924493			-63.6881896656501	-65.9687490595289	-3.48901880550175	74.8064851688262
102062500	-36.2577328984097	34.5340844728625	-13.5902839846149	-3.63427386260066			-60.9855067283604	86.2931405277882	-3.46789431751534	72.3526013805509
102750000	-36.5076441497069	19.5277592057595	-13.1765975226959	-6.77642583818663			-54.8530254476099	-113.395452571993	-3.48681212599255	69.4423762985233
103437500	-36.6363634345288	25.0985144955837	-12.8454480905961	-8.40955968963821			-58.6608959626904	70.3986994738414	-3.44392273197537	67.1118666804462
104125000	-36.3420773748534	15.2790933671057	-12.4137246319768	-11.1430776473538			-56.3667196875118	-91.6614680418679	-3.46234794416047	63.9582611172264
104812500	-37.281667072092	18.2311564484118	-12.0743983828192	-12.9208212882546			-61.3849195371312	75.061443623258	-3.45715063268041	61.4335284354728
105500000	-36.2083759740239	13.9362056343454	-11.7184647716037	-15.8842662989465			-57.0134192339879	-101.778218503098	-3.46483427246736	58.397912302422
106187500	-36.5718986612773	16.2192591951524	-11.3798698669381	-17.7811819020234			-60.3441935993519	-51.1088501096217	-3.42997328219266	55.9598803437162
106875000	-36.3856881515411	7.40451548156549	-11.0218960361846	-20.9988465361435			-73.4077112000921	-36.3087338887304	-3.48506996288772	52.9533713010524
107562500	-36.5298363912594	4.07040027501866	-10.8007240022406	-22.9918838096951			-62.2211050901504	102.349825912172	-3.4701684433248	50.1396631017585
108250000	-34.6424286598522	-8.87533771106833E-02	-10.5608596684955	-25.6470407918012			-65.3378745836237	-39.0459515599608	-3.54581262034624	47.1416542820712
108937500	-36.0958612380699	-1.83621985126554	-10.3711757955223	-28.0349107758574			-61.0179306869903	112.723864430286	-3.53437563183616	44.6791801694453
109625000	-34.9630759194221	-0.3171373122965	-10.0709095435706	-30.6224406375397			-63.5639071477379	-44.9448525224122	-3.58203481557059	41.7431014122097
110312500	-35.0572224907215	-5.68953744766168	-9.95914974465484	-33.2519459115992			-60.1354943492469	163.154114456372	-3.61312717988909	39.3215886465003
111000000	-34.3051736346652	-7.23647527607313	-9.73220222669396	-35.9965048550535			-60.5265878018469	80.1662418077952	-3.68988873888084	36.0403797068046
111687500	-35.2820078175856	-9.69684877885895	-9.68927985389882	-38.4801864572902			-57.4763966250285	-129.590887315827	-3.67288349086322	33.3890908320017
112375000	-33.5984219131456	-5.24218467001922	-9.51608638115384	-41.0343367226758			-56.9873623851649	-41.2366835710893	-3.72717970589511	30.2063552186955
113062500	-34.0119489234726	-12.4000161573356	-9.49812667396827	-43.5003115277153			-56.6221940789161	177.936561751356	-3.75628173812234	27.4947735842853
113750000	-33.6041893400442	-7.43277814415471	-9.47509583634853	-45.8488236082748			-65.4421328656654	-74.2973946904485	-3.81309347205339	24.2105465372502
114437500	-34.3802454363715	-17.8880753242651	-9.47674846418365	-48.1494488818829			-57.911639252951	173.797089925269	-3.86814813658516	21.3249534590733
115125000	-33.5115164178919	-12.3652996715041	-9.52540242092685	-50.5494079965646			-59.1433319036277	16.4893484195556	-3.91154135081185	17.9660776313476
115812500	-32.8346900534512	-17.308013424724	-9.54085554770405	-52.6164437003602			-70.9843613325658	37.3208635375205	-3.97800000241814	14.4410537244618
116500000	-33.0820556364649	-17.2406178382019	-9.7001429902321	-54.363719280306			-57.6862889125591	127.641094844202	-4.02009767198891	11.1941161363801
117187500	-32.6670140827377	-20.2477387172525	-9.88837444423251	-56.0156543217597			-67.6552150397514	-26.3678201324664	-4.1003248681998	8.10365677598136
117875000	-32.8206629299506	-13.3678012494464	-10.0929004133439	-57.3852622587711			-63.1251741436174	130.8431389626	-4.13081394408171	4.46019732545646
118562500	-32.4065718624162	-19.8132970214943	-10.3393165178361	-58.0287575735086			-55.5845781615837	-89.0202376913436	-4.23444799652527	1.0525385219047
119250000	-32.2886781464491	-19.3297971249091	-10.6902576608693	-58.5402894039469			-66.0587888232039	138.434340609879	-4.29673355199046	-2.83618016119448
119937500	-31.7792882070785	-24.9580807656374	-11.0453104806018	-57.958533578191			-65.1829467344031	-157.125081813123	-4.36939599405733	-6.83256689195532
120625000	-32.8015389949144	-22.824705047244	-11.490811684969	-56.4836360275525			-68.4736134650979	-115.574406344406	-4.45169281423464	-10.6920101069465
121312500	-30.9359617702885	-27.0198086725691	-11.8072031523076	-53.8231147194076			-59.2742306006008	-143.621469478481	-4.51791030694053	-14.9101774783547
122000000	-32.3761847179179	-26.3365373568034	-12.2427591597016	-48.9290042151348			-58.1680423462116	78.3731791269874	-4.62602308538777	-19.3184982543264
122687500	-31.5923046352214	-28.0499428397172	-12.3544485816472	-42.6376662060012			-59.476936563952	-46.2146725723091	-4.73313269704148	-23.693216447734
123375000	-31.2788677108939	-31.9773735961083	-12.1593252943754	-35.721934087809			-61.2676021596588	-169.076517906687	-4.87560832069785	-28.6047458216368
124062500	-30.842869186549	-31.670611930607	-11.5741902487355	-27.8575433135369			-57.7379636820432	-25.6184389077369	-5.00070286429073	-33.339236468072
124750000	-31.0964221893775	-35.865833347798	-10.5286173730595	-21.0042479482823			-62.1462196595514	88.2168399966245	-5.16690926020343	-38.836769753189
125437500	-30.6459385714706	-34.0813966752522	-9.22214716663745	-16.0218314054932			-62.5552042146064	40.9608700279328	-5.31421694973085	-44.1568341350284
126125000	-31.5595813153955	-36.0228109855235	-7.85330493964501	-13.870815528939			-65.396979852925	97.0441071726268	-5.56564163857119	-49.5428701805106
126812500	-30.4545652022223	-39.7928937627896	-6.36817881459102	-13.0661480778477			-58.0758953513582	-16.1141978771196	-5.80313638232834	-54.9570981161941
127500000	-30.4705257368231	-40.7164123210444	-5.00795234333439	-14.0945871723973			-63.8264381630413	-132.242372141771	-6.02686808829489	-60.7479002349297
128187500	-30.6532239656884	-40.3378879606969	-3.71690575776865	-16.292297323171			-58.5843364635524	21.550963830483	-6.32477662523775	-66.3608110561409
128875000	-30.6158069349673	-45.8518538333571	-2.54846930714194	-19.9284830761246			-67.7756356425487	-114.371506624222	-6.72186645313424	-72.754412818546
129562500	-30.2965845146187	-42.1913504842046	-1.51564824248173	-23.5359538241512			-62.8400938931813	33.803189648059	-7.01725632998226	-78.3763488050801
130250000	-29.8811500643299	-47.8455485237615	-0.519548528212886	-28.1740028339178			-57.4319470519092	-54.6433368804315	-7.45700644995612	-84.6085132707341
130937500	-30.2768548026082	-45.1885372789393	0.289804832082958	-32.8369427214742			-79.9790671891403	53.1271169274941	-7.7993636144966	-90.048744777577
131625000	-30.1565251955634	-51.0376054503832	1.05603173884966	-38.0786474298046			-54.253413138756	-56.1522026076126	-8.25796023341438	-96.152933450294
132312500	-30.4290995614802	-52.1933374531026	1.7112186305991	-42.7349533129901			-53.5292883169655	42.9488374356521	-8.72535979290298	-101.754311562588
133000000	-30.4653143959098	-51.5918652033273	2.29639065586138	-48.3353175168443			-63.0060858698053	90.1412968808602	-9.1896071867273	-107.746541594832
133687500	-30.4615640237627	-57.8383220683248	2.77434648184499	-52.9551589108023			-59.9620308690091	90.0614101267112	-9.65271347383178	-113.145463060289
134375000	-30.6492890867393	-55.9334269013589	3.26530170331484	-58.2490873048423			-53.2970460376745	-64.9566170079882	-10.1412510461915	-118.981948291165
135062500	-30.5382145222714	-58.2935679244636	3.63044822541205	-62.6744083811956			-56.6475683784843	61.1346970372073	-10.6315814484862	-124.024602488105
135750000	-30.0921196667463	-54.1977131233175	4.00358343529685	-67.9003380096418			-55.9742109774902	-79.4831687500097	-11.0774540044657	-128.851211667751
136437500	-30.4384000628583	-58.1816104806026	4.30042175728767	-72.4064992856947			-66.2637537224155	-173.056819698372	-11.5780908318926	-134.244573544524
137125000	-30.2556502518267	-59.0935796650488	4.61004800698703	-76.9347018279734			-50.9529369977247	-45.087261906833	-12.0999952811883	-138.995755577855
137812500	-30.9210758311031	-62.67398788352	4.82710063323857	-81.4032635865685			-61.8374730301382	-139.75224029718	-12.4995195435073	-143.948829895085
138500000	-30.0963161079875	-64.9263611257992	5.09230098617554	-85.7516274170665			-53.5585776368077	-52.5336727672936	-12.965494578363	-149.264092129443
139187500	-30.8065771712655	-63.742105172578	5.28140743940188	-89.9622664447448			-56.8991150094446	-93.1626528979157	-13.4411979280137	-154.115344214595
139875000	-30.744107220003	-62.5388274868008	5.47576034370923	-94.2649357736173			-53.6838659319096	-56.2755264073865	-13.8367295722246	-158.796747607114
140562500	-30.8469712265578	-67.5117993752194	5.64003646923706	-98.2260867357558			-63.36678017234	-115.377262477258	-14.2904882495626	-163.803659450172
141250000	-30.8058378879596	-63.4612005278937	5.81509388889893	-102.304641805476			-54.2729483970776	-39.7027354718677	-14.6668559003873	-168.253208652005
141937500	-31.2005416636521	-69.6235579695411	5.91760103044628	-106.295085689205			-62.2694084493766	-115.751866359595	-15.0521098149181	-173.97531520962
142625000	-31.1632589833391	-67.5503545990346	6.10104417078063	-110.132038666171			-54.2524042289303	-31.1123515998946	-15.502555211516	-178.581389076758
143312500	-30.6085255815287	-76.3940066981495	6.20721118157434	-113.817145763972			-57.8888543335	-103.726293979517	-15.8583904040116	177.061808495767
144000000	-31.4642020884287	-69.0745392550028	6.3095880097529	-117.320639854147			-53.6468172145226	-54.2889333165441	-16.2343832056235	172.212631133825
144687500	-30.939175254288	-78.3937324045331	6.39284136725295	-121.055092709806			-54.0847938144587	-131.558862492454	-16.556288149402	167.347251303128
145375000	-31.9575034595207	-79.140032682805	6.49398697837637	-124.778629748443			-67.0387763775063	-70.5606221334895	-16.9029490029244	161.445083849046
146062500	-30.6556628133021	-78.9161641274509	6.56257812338986	-128.074898057671			-52.2027823574513	-69.5724137824542	-17.3700153518122	156.579267640196
146750000	-31.2948248721494	-79.175555435315	6.60468281075133	-131.83215144143			-68.85299963938	-89.2559214734309	-17.6411106565729	151.669613056104
147437500	-31.0346325281988	-83.0171935006267	6.67764311840456	-135.015349441517			-54.3079071268796	-127.113776222874	-17.848176194397	145.646588484766
148125000	-31.3033292609358	-86.8657415521011	6.71771707955352	-138.606455883717			-56.8532432456167	-174.38299548249	-18.0663076472253	141.095861683882
148812500	-30.9955889118542	-87.4710063440557	6.7648304561034	-141.651692355822			-50.8804821673076	-114.853553129266	-18.3890605687071	135.399991522826
149500000	-31.3636774500407	-91.2621962905006	6.82794152712993	-144.850051094401			-59.502078713698	-140.169281966358	-18.5851860411756	129.107816743997
150187500	-30.9864296027621	-86.2635785080154	6.81181233872525	-147.939065183713			-51.8369534636505	-91.9117339193215	-18.8837947235543	123.632215438023
150875000	-31.0293822137655	-94.8225655212663	6.8796857182874	-151.159397188808			-60.9863665271118	-133.264680529574	-19.0463529711014	118.01127953248
151562500	-30.6198868039322	-93.1948711876382	6.88239249884573	-153.94459647097			-54.5504208932881	-61.3404868950083	-19.0848662001787	112.043847760704
152250000	-30.9002172617581	-100.118961914183	6.89496847109251	-157.061748543877			-62.8821413612825	118.679344733804	-19.201032724157	106.238108312309
152937500	-30.4837217518003	-98.6911142192711	6.95160044120704	-159.71430750083			-56.2168897535647	-99.1660727727182	-19.2657793587601	100.949989761119
153625000	-30.370769283948	-107.596815810205	6.95367597177892	-162.84875605533			-55.9501302623011	171.495246297938	-19.3023598283482	95.2772569047701
154312500	-30.3818988493105	-104.129890639135	6.97699634423769	-165.261260057079			-54.8665685252201	-63.8298906887122	-19.0677555626375	89.684960720218
155000000	-29.2500492652211	-108.228676507367	6.98608425109779	-168.462538114762			-56.6097608536318	-163.106056435625	-19.1356003313918	84.5055243298408
155687500	-29.5421037365113	-107.831426658248	6.99117875524412	-170.493595548968			-70.9923663906379	-4.28562666391747	-18.9430508896603	78.9084447939737
156375000	-29.121382453241	-111.962416897954	7.04718502817624	-173.822504283486			-53.4853446251299	-161.956354635469	-19.0260070712415	73.348990177482
157062500	-29.4840988106157	-110.25880504345	7.01805111633805	-175.957303308841			-56.0635506407877	-121.306921341883	-18.9442481212048	68.4121484048299
157750000	-28.4540217242979	-113.439697006126	7.08159262887658	-178.783609093621			-58.1954216761032	-173.321350702339	-18.8157835327933	64.2312876599221
158437500	-28.8464893694038	-111.167160508152	7.04258481622411	178.992907050861			-55.8206123049813	-160.180141023161	-18.5420267009351	59.6544333965646
159125000	-27.9028591820347	-113.365744185585	7.11453799748237	176.144541003714			-52.4267768650665	-157.299060100456	-18.3693127781276	54.4267291220168
159812500	-28.6692691183523	-113.769705977792	7.1182782886438	173.928881763142			-60.5148534202216	-132.082669873529	-18.1543857205015	50.6518833060967
160500000	-27.512406908012	-113.858534839619	7.15706849695263	171.138070440537			-53.4521595753652	-161.448676108827	-17.9361499112284	46.3589051685918
161187500	-27.5126934462732	-113.235098648306	7.10653564221488	169.024008733741			-72.4292701304683	49.928272004499	-17.7279956623376	42.3153863119829
161875000	-26.7716335529771	-111.284701632726	7.20103538080114	166.212253415314			-53.7886177310432	-143.261736768116	-17.5008885784558	39.016237105187
162562500	-26.9920787766573	-113.502559452208	7.14491456065258	163.774755676806			-60.390449402906	-164.23554236912	-17.3567669229063	34.8915257444274
163250000	-26.4111721762535	-113.371644927116	7.18646335496425	161.051375882516			-58.4454811124718	-122.303689182476	-17.1368714035743	31.5043909513277
163937500	-26.5217038120915	-114.335335106148	7.18171849290289	159.009695169587			-53.681807536979	145.666215884714	-16.9306279957062	29.1802709997126
164625000	-25.9846645467017	-110.401299048536	7.19213869746665	156.285769499249			-52.8660341031684	-123.667174738825	-16.8159589054242	25.1629255887439
165312500	-26.1838864766473	-113.7979126806	7.19142167314545	154.03853300158			-54.5325237366525	137.143192508838	-16.4599842647061	22.1611207029919
166000000	-25.8137798959841	-109.998300511877	7.19250224718393	151.487960224965			-55.0937875626126	-131.303412069624	-16.379783942374	18.6377138298004
166687500	-25.6578258600341	-112.429736963646	7.18326518733801	149.360105026337			-54.9465178955716	154.222243827672	-16.2053621426667	16.4246365815313
167375000	-25.3851642302704	-109.925628548429	7.21608776731819	147.045968266362			-64.0977420338785	-161.459234697108	-16.0255158720895	13.1300475519669
168062500	-25.2376656564722	-111.889559652695	7.19194795673051	144.814845921306			-55.3290081267104	-174.144877304008	-15.8797037538241	10.7707915631296
168750000	-25.1114738612221	-107.934859317573	7.19262977610759	142.545562941831			-62.7897860462209	138.926457325779	-15.7945428755711	7.50909328447645
169437500	-25.0242073723179	-110.687627090036	7.13414511544013	140.326916958919			-55.0598355076033	145.389179268366	-15.6137171810093	5.09766815817353
170125000	-24.8334390878821	-107.381065177417	7.16946438870165	137.926814462858			-60.5620825673152	-32.6275041912813	-15.5825312025376	1.83477182670638
170812500	-24.7635064480463	-107.682335066791	7.14194852641381	135.915383390059			-53.4124753906706	173.66756462877	-15.4751653173098	-0.231214745363269
171500000	-25.0528093533131	-106.289037607085	7.13200934232775	133.628932158604			-55.4671363136534	55.5696076608674	-15.3788042179521	-2.30070949544595
172187500	-24.5377677594816	-107.414943451137	7.10589308874935	131.714766077739			-52.7293464258948	142.231427006085	-15.29991347848	-4.83058611322264
172875000	-25.0697701468984	-103.772255611409	7.14315631560128	129.731744961895			-68.9260253745909	-9.05827079456636	-15.2215101986636	-7.53980870877489
173562500	-24.3409767032346	-103.959078788422	7.10587350003766	127.696052993983			-54.8197604502961	-142.77299304597	-15.0836585727659	-9.68721243952504
174250000	-24.3926806051309	-101.902034149062	7.14775916630783	125.554882247855			-57.3124242288431	155.546048256167	-15.0541591980184	-12.8306492190276
174937500	-24.4332419230241	-101.055325547187	7.12904671994103	123.721966562459			-54.3815745787899	-176.455474355125	-14.9458553962129	-14.4992522792618
175625000	-24.3306864026931	-101.165014191165	7.13574966977409	121.574740044008			-56.7233593031279	139.458348039299	-14.9520811167663	-17.9828060402921
176312500	-24.2030697059239	-100.457828683172	7.1377151270551	119.739827588452			-65.9982465235822	-107.601729915941	-14.8216513845281	-20.4772165159964
177000000	-24.4788991848576	-97.9017700220334	7.1761287451417	117.541854627916			-50.1040687262829	124.81000719872	-14.8559991091063	-23.6090951877137
177687500	-24.3339220583757	-97.1746301015543	7.16553319098906	115.730906842464			-61.1957517206092	-135.946151214697	-14.850523534969	-25.8356517497388
178375000	-24.4797452122373	-98.3520291230093	7.22094576513071	113.545626996951			-50.7890361116622	128.839456070971	-14.9082050342101	-28.2111958860629
179062500	-24.0561286766841	-97.1391895587949	7.22112293389363	111.820069357976			-62.4999490572827	-140.259800820527	-14.860478446295	-31.7292623709825
179750000	-24.404546835975	-98.1216748172554	7.23799151148282	109.611237748992			-54.190378199498	150.520496632132	-14.8305201291418	-34.5905515300852
180437500	-24.3080589422026	-95.0022082734712	7.27956837685048	107.866538768934			-56.4346255094989	115.333209075096	-14.8205869057125	-36.5812891605026
181125000	-24.5403954379525	-95.5209842183391	7.30021969224116	105.756457222266			-51.7327797580209	131.353616390931	-14.8183717880163	-39.8021341204818
181812500	-24.4344500736537	-92.5146808737859	7.31205336332347	103.869313095693			-70.5883171717297	162.012967530002	-14.8507612272378	-42.0416671459565
182500000	-24.5898133587515	-96.3143384699103	7.37380140421529	101.659274947421			-55.3049660428822	126.89087676088	-14.7829954026669	-45.4263110637396
183187500	-24.3852010712052	-91.9110010379873	7.40070209399509	99.6464977015787			-60.6386841970237	-176.417555290172	-14.7713632407333	-48.1140334255741
183875000	-24.6888090651648	-94.5094780092221	7.42927667986567	97.4678733376219			-49.3794176977812	112.404925039151	-14.9480361504476	-50.8432375301402
184562500	-24.7075883519074	-91.5060796190764	7.41371023764786	95.7085285839549			-56.753737671836	79.397638176987	-14.9729796698525	-53.7278848500676
185250000	-25.0520323212047	-94.6854144065665	7.45937417615619	93.3979265626296			-50.3447819753557	115.947202047187	-14.9802710241647	-56.8367017553475
185937500	-25.1218143019476	-89.6233727856853	7.45489021268224	91.1443098670954			-55.2472963340306	37.5173938966117	-14.9195103639149	-60.439347544813
186625000	-25.0741909622126	-93.4004432939159	7.47048573729275	88.9969913542974			-54.1107706675699	144.252765417342	-15.0270385686373	-62.9036504841741
187312500	-25.2889683504372	-91.5378353812965	7.48242344218324	86.9638246155397			-61.6791246439785	48.7069003520445	-14.9031865194168	-65.6643850765556
188000000	-25.2236661129735	-93.0799030086921	7.46478370004571	84.7703641207147			-56.7457246687612	150.289643979053	-14.8410285867927	-69.2694561036898
