# Hz S DB R 50
100000000	-15.2131039960735	152.392733625062	1.05954102919687	-3.28685835008152E-02			-63.3611265152803	54.799920074874	-3.47355000184752	80.6241698962916
100687500	-15.1541586370161	150.357259330555	1.53953007410754	-2.15264459079308			-56.6086932360613	-30.2089539164387	-3.37594705272665	77.8210789666364
101375000	-15.1590520363224	147.697934407989	2.00590363891355	-4.20798519777728			-55.498364799338	67.7319149425716	-3.43906143183906	74.7832827038435
102062500	-15.1474023595439	145.264106893329	2.44664423021218	-6.56069687761684			-53.7943813032219	-5.32592997681747	-3.42019152507581	72.3148758501887
102750000	-15.1957805006531	142.819554826735	2.85151265146095	-8.78279609004405			-66.5643913345877	-3.52296291687305	-3.427325893083	69.578543977218
103437500	-15.148908848443	140.529366167874	3.23715728540536	-11.094250750434			-56.8839325173143	4.53568365308314	-3.35668991756517	66.7828015640102
104125000	-15.3332062796154	136.960326873596	3.62697519226888	-13.6537582020155			-60.3136486425704	156.67676970899	-3.44983564394146	64.0294029448456
104812500	-15.2301625992593	134.972640577568	3.97945719140224	-16.1823965333292			-56.6989721191821	20.233161719117	-3.4134431691386	61.0189662780441
105500000	-15.2433105841231	132.165060565383	4.34909280901518	-18.6431861114801			-57.6881481417813	125.102931327666	-3.47529413415834	58.2776535075553
106187500	-15.3018115876351	129.346476812809	4.65419486725281	-21.2495701075626			-55.7710192840437	36.9156234378799	-3.41695851021777	55.5147757803048
106875000	-15.4001860487354	126.647941861743	4.9397877027631	-24.0239738667306			-63.286700437747	-92.7616754064991	-3.50722834005105	52.5645547035012
107562500	-15.3992089609745	123.309997850867	5.2577081962314	-26.5322690438194			-55.4695733596569	23.7108093201851	-3.43537968275193	49.6951771739451
108250000	-15.5487028499866	119.964922607815	5.48561640711407	-29.2798628754522			-75.1780760808116	-2.07638603970891	-3.50803472427268	46.7482506489883
108937500	-15.4700785862438	116.690377991829	5.71312774456591	-31.9931126909743			-60.134643962318	16.9114909322126	-3.47760989788717	43.9628249357727
109625000	-15.6178360132212	113.715389012534	5.96129457496542	-34.7794418724065			-67.1440858410376	-84.9529189144423	-3.5917442513982	41.1879276487979
110312500	-15.5435045307371	110.778991439919	6.15879458112002	-37.5737472729864			-65.1455344256866	38.9013843193421	-3.59456575055401	38.4697879949603
111000000	-15.7399062202676	107.538252094673	6.32135728542535	-40.3189262193138			-53.3640076395272	-25.2934611111327	-3.68192905567559	34.9875393156424
111687500	-15.6697031533827	103.608558358087	6.42169326711014	-43.2270638895076			-62.3667196140076	0.154116363563018	-3.64665451394154	32.3189105902397
112375000	-15.6991578701799	99.7654162354053	6.51608630775803	-45.7639807805597			-52.9858144611809	-38.2624849094558	-3.76908383345273	29.4060504089295
113062500	-15.7680290609136	96.2237718630652	6.53341724471816	-48.4983031427071			-60.6855169766857	-10.5286711862333	-3.74963478498499	26.3057783313992
113750000	-15.8557536228162	92.0895961833484	6.56278005855369	-51.0351065542157			-58.729955080834	-57.2702244656848	-3.84803046368828	23.2644528010147
114437500	-15.948042825101	88.6510461489143	6.55934231882259	-53.5530173849953			-58.5755105524297	13.3529741713267	-3.7942793028514	20.2368240697004
115125000	-16.1183834672129	84.846620947058	6.51211059756523	-55.8059139264458			-53.3611075639178	-28.3159791677498	-3.92037853053824	16.6410038402219
115812500	-15.9795718796008	80.4934833504825	6.43328625675041	-58.1473772832641			-65.6087379876969	22.2207771595801	-3.96880679957979	13.6308028133645
116500000	-16.1944481080489	75.831874065353	6.28452082625542	-60.1634179562858			-53.3701975274208	-58.2261022502151	-4.0071330145552	9.83730386680524
117187500	-16.2444710305111	71.9349980536826	6.05924638438129	-62.1203780136029			-63.3209699104547	161.478490513445	-4.06719283309302	6.75121074078758
117875000	-16.298524942741	66.5632159392958	5.80589106152501	-63.548340885309			-52.5517879401175	-17.6320665184542	-4.10382194565925	3.19696409105037
118562500	-16.3084884607579	61.864603311955	5.5379515084359	-64.7585221521426			-56.138596425026	-15.9595723822307	-4.17835042908032	-0.443392649230278
119250000	-16.4927011185576	57.2699830679585	5.15558386558142	-65.0874802777147			-52.9897384648397	-36.3395653296197	-4.27122261761616	-4.42568486406643
119937500	-16.5500432892301	52.2029001456153	4.73196591275687	-64.6938153125623			-59.4097455877199	-89.9793015704994	-4.31221862825752	-8.47484339997296
120625000	-16.6888809364522	47.2582651113377	4.25344298036351	-63.3210264736998			-61.9465618672001	26.6371822642328	-4.39425656684518	-12.4705594229069
121312500	-16.7557036814991	41.9427612205342	3.78843104038061	-60.5027696966895			-60.8909160918451	-105.300886995249	-4.45590684513202	-17.0178960145611
122000000	-16.9276197033946	36.74383999858	3.37554496110145	-55.5206734857708			-55.6602212179973	-16.145654378677	-4.53906298081953	-21.3511817412563
122687500	-16.937410350673	32.0458768166513	3.20124016705032	-48.9739284928946			-60.8720707267496	-12.1203713054529	-4.63877973185667	-25.7433418548692
123375000	-17.2179591691214	25.5778718757131	3.39455395099501	-40.9168371921686			-56.1917159361014	78.354584462969	-4.74878597313059	-30.9397481854761
124062500	-17.1704798340544	19.6675103619166	4.07738852105408	-32.622800497511			-57.6943290002086	24.4621352981112	-4.8618727767614	-35.7796572677075
124750000	-17.5525704561065	13.8545984455198	5.1830814916879	-25.9465660644599			-60.8652991749169	58.0124389748331	-5.01015602814131	-40.9940963528753
125437500	-17.5874727452675	7.87507098280249	6.54324994654237	-21.3966709995017			-55.0912610969392	-28.0611618492667	-5.10116923379402	-46.7189706565987
126125000	-18.0273093744727	2.2452099530522	7.99233461900154	-19.4703817935323			-51.2225025555289	53.1931682310826	-5.40239724842049	-51.8989835904762
126812500	-18.1162830848494	-4.94458498649173	9.48324253481185	-19.3060303601961			-65.5959713148424	-15.5521515444929	-5.52670305891474	-57.6738576913401
127500000	-18.5341366145546	-10.5695595233723	10.8322829860112	-20.7531689246685			-54.0468079419913	18.2629735168007	-5.76079036687509	-63.2625561592449
128187500	-18.7911314547704	-16.8109419966644	12.112751700155	-23.4644582228362			-54.6998676128564	-13.5320820943958	-5.9786840107809	-69.178091744969
128875000	-19.1548354500788	-24.2694222996594	13.2414202997907	-27.2825118149879			-60.529303797539	24.3795946851911	-6.35512719771985	-75.4024446631784
129562500	-19.6300536577466	-30.2620609928335	14.2710526818128	-31.3731600967613			-48.2041346803856	-13.1237318154403	-6.54755467625816	-81.0812304969897
130250000	-20.0740044252939	-37.7540181352264	15.2257593666385	-36.015758185946			-50.5212858870472	31.0108440233854	-6.99870943741345	-87.2532721278862
130937500	-20.514306207015	-43.8906379611966	16.0142755981014	-40.961773702961			-48.1335985844566	-3.586652219876	-7.24395480091723	-93.1772534607427
131625000	-20.9372042476433	-51.5470708860883	16.716638215385	-45.9445889444038			-50.7439769530913	-11.2210382008824	-7.72237234619519	-99.0155610002797
132312500	-21.5564254587554	-58.3239812363491	17.3306197225874	-51.0408823773386			-47.4566389714769	-12.5533503832047	-7.98668935563815	-104.990780585236
133000000	-22.2747781029598	-63.5882670738621	17.8664794277006	-56.1526754777321			-50.7805102824599	-3.78061754468101	-8.46771337698874	-110.739369684304
133687500	-22.748459113171	-71.7656021727341	18.3219945882599	-61.1722410719475			-47.4351511287019	-13.6588719601066	-8.74995185911833	-116.116908486442
134375000	-23.4602418527021	-79.0662424321585	18.7689905624396	-66.0861845005293			-48.5213946844869	-40.805146812646	-9.19715373931763	-122.418129821553
135062500	-24.0507532845886	-84.5148273634316	19.1174844228349	-70.6579626213628			-46.1799732725065	-27.6615365042522	-9.5550963379348	-127.551219852791
135750000	-24.8920226835519	-90.2987256572811	19.4631398328783	-75.5733249994526			-47.0218996254385	-40.4238426179943	-9.9649285581536	-132.952015280962
136437500	-25.3628670258814	-100.050698298542	19.753530374774	-80.0885236063863			-45.7513345725976	-38.3981434388745	-10.3079994986296	-138.543739675393
137125000	-25.9666923993604	-105.608983606787	20.0513403733956	-84.345545362237			-46.7494707839668	-52.2304299533249	-10.6812618751217	-143.488816273142
137812500	-26.9246175139291	-110.971302792753	20.2563741421943	-88.6841682029194			-45.6645111159658	-58.0931787406195	-11.0646981514165	-148.836547265239
138500000	-27.0239904472765	-121.217050964294	20.501300281204	-92.9864944637799			-44.4176034214386	-65.6375590174896	-11.3437610969765	-154.773900085593
139187500	-27.7053646815256	-128.819931821892	20.684985780463	-97.0996089316455			-45.8273346099566	-49.5304234056503	-11.8030664257342	-159.588687246095
139875000	-28.8312277769121	-135.656093424849	20.8790504650012	-101.069844418506			-43.8951240630927	-79.0109659184981	-12.061781818994	-164.153181850878
140562500	-29.3269004983664	-144.973246067354	21.0590147899835	-105.019264122973			-46.6533863992251	-66.3735780483558	-12.4329388103764	-169.430229625799
141250000	-29.89310039121	-150.407427499148	21.2289484685264	-108.913864628144			-44.8036461046547	-73.7730012483835	-12.6259517776711	-174.601956617506
141937500	-30.6543677795053	-156.872448129231	21.3391100888873	-112.775218018073			-46.9859131187085	-78.3204647891276	-12.9033460184692	179.341774386217
142625000	-31.4592480193791	-161.492170700574	21.4891511626478	-116.568372329328			-44.0912028392093	-86.2056675257595	-13.2584178167837	174.795673214545
143312500	-30.555438144387	-165.40296182202	21.6311427347005	-120.39117957312			-45.9146960982529	-87.6891859148736	-13.5045383438329	169.262117044392
144000000	-32.2737881044129	-169.665862405491	21.7288134805521	-123.784188298245			-42.3217890035151	-88.3183779467909	-13.8343365522604	164.380302008594
144687500	-32.0646737152576	-174.545937465169	21.8325195749522	-127.596998256007			-45.3233516757892	-110.06575431323	-14.0307203301836	158.140809452904
145375000	-32.2828754413672	-177.896957104529	21.8825785934277	-131.231767509742			-43.5571084562625	-86.2668234682142	-14.4696044970477	152.807978744999
146062500	-32.7623451043566	-179.646318772871	21.9752449127925	-134.666198144429			-45.2967367155555	-105.326631808803	-14.5835261358264	147.261063135733
146750000	-33.1002111944695	176.026165733451	22.0349994797977	-138.113865129113			-45.449531241016	-91.3871598342947	-15.0059788531679	142.593242579673
147437500	-32.8325154315654	176.759967940256	22.0922222287433	-141.376032118197			-43.4969308833166	-109.99141443865	-15.1103524361721	136.963822148501
148125000	-32.5109293069332	175.872550869326	22.1217064621493	-144.83811073601			-43.5604487098144	-102.691842595509	-15.3967294031002	131.445776627151
148812500	-32.7135775632318	172.126844744401	22.1932693474298	-148.173538366665			-43.608265577951	-116.260430278181	-15.6070308110787	126.121386744848
149500000	-32.692260550175	174.924358369367	22.2430423051586	-151.25540502998			-44.4212084941778	-109.07389673467	-15.8112808055793	120.534288137337
150187500	-32.5579454399942	172.832498189873	22.2666348244183	-154.524791527788			-42.9281982051745	-138.857867689968	-15.9252834059882	115.546753114847
150875000	-32.123080739896	172.090629925342	22.2776778565594	-157.547602722303			-45.4328355332251	-112.179801394669	-16.2204082749175	109.896793286284
151562500	-32.0829489703881	174.1787104853	22.2952748418981	-160.374755357658			-42.1329599052473	-128.847013257958	-16.202913405768	105.334919731192
152250000	-31.8034970003829	171.736056573849	22.3063303548151	-163.491185063005			-44.8226546994173	-117.972914330438	-16.4224205278117	99.2945248543238
152937500	-31.257672110082	170.210250552767	22.3674790807554	-166.039789328894			-43.0397994542352	-138.01099418176	-16.3719480668146	94.6988365845332
153625000	-31.1979211191169	171.616394677126	22.3471403573998	-168.954921125128			-46.4455726222601	-135.056795115349	-16.5618508092622	88.8277965809624
154312500	-31.4268939798162	170.859326426054	22.3860649981352	-171.650708508062			-42.1400843629644	-134.222736654859	-16.4649017660579	84.2478271126098
155000000	-31.4290941848725	168.939653518285	22.368552177586	-174.534261847555			-44.3073200629646	-155.27007022176	-16.3679840047456	79.2932765695996
155687500	-31.080438491811	167.933664063027	22.3799943000451	-176.93234076308			-43.5131015971622	-129.135216045789	-16.4341737960688	74.0222931643519
156375000	-31.2691932406505	167.32253638162	22.414479962769	-179.765182946663			-45.277142414203	-146.201862471964	-16.4291510743078	68.9961895696617
157062500	-30.985223433832	163.380664298451	22.4215123099342	177.817806299581			-42.3281120005771	-143.689751634552	-16.4060935591948	64.0469625037751
157750000	-31.5420339668158	169.859605732276	22.482633240255	175.192448862891			-43.3483237232567	-160.433046539958	-16.1291272119915	60.3028985154351
158437500	-31.3721956419642	164.827892584716	22.4638745687573	172.649068494002			-42.7945274836768	-149.60480426988	-16.0847222825802	55.4159756307316
159125000	-31.8584303375281	170.858895007164	22.4910518659975	170.12916262227			-43.2641234044024	-158.622579646323	-15.9767411621941	50.6882823210819
159812500	-31.6449037048667	165.378588873302	22.4989873602059	167.524106580198			-43.7036448973687	-156.779444165765	-15.9520912056037	46.229303230565
160500000	-31.808454730055	170.461995359461	22.5252618715687	164.950406575059			-43.805651156876	-175.914215212253	-15.6784222289911	43.3928844800839
161187500	-32.3716316198161	174.744574948851	22.5066763996555	162.690031864369			-43.3323335618731	-156.493620783756	-15.6030228652117	37.9303208479795
161875000	-32.8106999969844	179.798689196619	22.56005760281	160.048379447203			-43.6389360056265	-163.717615629777	-15.5308009502227	35.5819030890683
162562500	-33.2256656330065	-179.71871168305	22.5224561194554	157.367762048493			-45.6200349203363	-170.368918287195	-15.3249780095279	30.665394813033
163250000	-33.4891889144358	-176.998994944237	22.5581683316427	155.063970046621			-42.9746443624234	-174.361635013003	-15.1068812786613	28.3209151487608
163937500	-33.5607665223212	-175.572007782679	22.5705144622216	152.643007077816			-43.6527038377549	-173.527236036612	-14.9957370581959	24.6074845037296
164625000	-33.9884241634188	-168.486050543976	22.5546514436058	150.251264680907			-41.4745382510402	-172.535462048698	-14.9489486996557	20.8046520313123
165312500	-32.4780752731261	-171.323378660026	22.5581297927346	147.836545731237			-43.2810069621839	179.793809976376	-14.6828259165162	17.3591973666174
166000000	-33.0778782432333	-167.397987702881	22.5508843198217	145.499285713195			-42.9674149032952	-178.268545242648	-14.8047668707741	14.0504555771543
166687500	-32.5002239181423	-165.260828500363	22.5253886798143	143.021573343744			-43.4825081474639	162.011375126396	-14.5642052441946	11.3756600525569
167375000	-32.352982276403	-165.353843432362	22.5315695202651	141.116609946607			-42.6064092068478	-179.692463865037	-14.6079131137434	8.97687695321994
168062500	-32.7561365840678	-170.076839514457	22.5348189427257	138.696357786524			-44.0518381042508	166.179050640945	-14.3162359499426	6.06480962939198
168750000	-33.6148562997651	-167.989049184246	22.549672788688	136.470132736232			-44.1631156624702	176.670386230169	-14.3640250934263	3.65074418037186
169437500	-34.7367762904824	-165.942317909996	22.5151343341679	134.240297542993			-43.1790283818139	167.409681748384	-14.1926770124152	1.03913436332785
170125000	-35.7504454150131	-158.466733436471	22.5044262592899	131.970568947757			-42.3993481655836	174.68861078656	-14.2653386324073	-1.74041086794582
170812500	-37.6567851759938	-159.22147168921	22.5032846720651	129.877889136038			-42.9635982859495	159.245939673458	-14.0076498235357	-4.4250224688794
171500000	-38.0604119798664	-167.548019209536	22.4847630195292	127.737808766994			-42.5006456559829	165.1002122933	-14.111488365876	-6.67256301622408
172187500	-38.5954922966675	-159.07197692423	22.487686100811	125.566732332898			-42.9818028687716	151.725114923154	-13.9454138962724	-9.70602113832619
172875000	-40.8002803986453	-160.929023675353	22.4825443241064	123.654111791471			-42.8879275652616	167.36284327029	-13.9366072098817	-12.4392725475588
173562500	-45.1578558510421	-131.361765001315	22.4719757067194	121.610962903595			-43.4592357005236	153.347676214431	-13.968284329357	-14.473978827561
174250000	-46.3003296428708	-117.71361083778	22.4851282776857	119.585001063603			-44.0339267699946	141.948592657647	-13.8636391207663	-17.6218519877271
174937500	-46.1157937989575	-77.6103754414027	22.4899606322534	117.619348469699			-43.1292360991986	139.428293613762	-13.8451126693122	-19.674078818182
175625000	-43.8662795646519	-82.5181039210681	22.4700169844672	115.63999769854			-44.4614434937555	158.972326685618	-13.8340198448933	-23.3359243502798
176312500	-42.8659148360137	-41.4432298127488	22.4812240259882	113.783370386995			-42.6422513075025	151.583227302997	-13.779129953436	-25.4020848484259
177000000	-39.8080464108743	-29.4582495098414	22.492088298634	112.031177614525			-43.6415061373519	147.606843953386	-13.7813120978066	-28.6208171225851
177687500	-37.3524062575008	-21.3739205519686	22.5086186470095	109.821975559965			-42.5377658315265	140.875457079337	-13.8005175265492	-30.7541962343388
178375000	-36.2727836122613	-31.8223012641488	22.5409850095474	107.894583351462			-44.2693503127458	141.597226353586	-13.769879554557	-33.2246076612618
179062500	-33.7993707391549	-27.324248295757	22.5943378988774	105.823287019679			-41.7443778239446	141.99067081492	-13.7731177541593	-35.9985550728938
179750000	-32.8441514435587	-26.9622621637728	22.5585586209219	103.952575486104			-42.7995624459292	132.798561163259	-13.7407955324965	-39.0505031758239
180437500	-31.4812582848114	-27.8967166411628	22.6332017944058	101.902795493672			-42.2851559268352	133.724243312907	-13.7269080513439	-41.9694814257278
181125000	-31.1028453302527	-26.227590271242	22.6183098708683	100.07581577224			-43.7105707973348	123.241700948008	-13.7059641277309	-44.9697044035385
181812500	-30.1010336900115	-27.4179350083792	22.6775070166045	97.9283005653327			-41.849131221047	147.878082430612	-13.728340181708	-48.2274578574056
182500000	-29.7236633452879	-31.3747568807307	22.712206138172	95.813557783758			-45.430383424468	126.346758995746	-13.7791311711757	-50.6208088801338
183187500	-28.6864110620661	-28.1719480719524	22.7469072193988	93.6471822875913			-44.4334285505489	146.577507407529	-13.6811016192086	-54.4094394800397
183875000	-28.5017890920556	-29.3090974918809	22.7639713745161	91.6217457680701			-41.4690703146609	129.825333854474	-13.7255765790051	-56.7101821917316
184562500	-27.8583837524345	-30.9306920369891	22.7902424758958	89.6970795676699			-44.3710985630003	132.331833811222	-13.7153835288519	-61.3659076934271
185250000	-28.0122105625686	-32.1864120457417	22.790069847202	87.5194593537353			-42.1405254762302	119.505690580169	-13.7476727186431	-63.7819254609181
185937500	-27.5654799744428	-32.7449878542993	22.8044138191367	85.4351280479459			-44.9994395365112	117.382709473472	-13.688544089235	-67.0201728000798
186625000	-27.843140006232	-33.9206304948137	22.8274996173154	83.1400293929744			-42.2991354557308	117.149951842624	-13.7216955978915	-69.6816376568185
187312500	-27.8032149351574	-35.0904083958689	22.8408108148573	81.18312332024			-44.9865849266045	129.290955742132	-13.6323001237149	-73.3863459040689
188000000	-27.4369849737503	-33.7342882611887	22.8123651167648	79.0187429995898			-42.16969257052	102.943934200341	-13.7048154233088	-76.6220873014274
188687500	-27.1852218862258	-35.6312746042094	22.849227654387	76.6519462561226			-43.565910954734	107.345934727634	-13.6042536779354	-79.5116584040201
