# Hz S DB R 50
100000000	-18.620943888561	139.006727398506	-0.559979852843011	4.07226895806932			-58.9784335791242	125.818883839857	-3.58882539860858	79.7422973561356
100687500	-18.5417557335758	136.974170343459	-7.77782987625315E-02	2.12292269336961			-59.0821438219016	-17.8595417921938	-3.51937320138538	77.5501164817074
101375000	-18.5059055592929	134.82552102395	0.350268824379219	0.327153408948606			-63.7359664945335	126.911971774897	-3.53321354929174	74.5681855117314
102062500	-18.4981629655422	132.351240896239	0.789466555960207	-1.87452013043955			-61.6076807561467	-56.7453116944857	-3.53667460227073	71.8791516069371
102750000	-18.5285739723368	129.127665607924	1.21377560344027	-4.1766382705998			-68.3981864863894	-81.4212129386227	-3.54686216866092	69.307777527794
103437500	-18.3805366218382	127.171839628745	1.61071134919936	-6.41256149603116			-54.2862225214787	14.1961899199742	-3.49509704971148	66.4191867422816
104125000	-18.3810158458396	124.189351193336	1.9771728381735	-8.56303568145191			-72.1432731018319	112.672908430492	-3.54431985607863	63.8703431396383
104812500	-18.3849169821599	121.372667143064	2.36314489288172	-10.9223820097336			-52.976413724365	5.20238634223778	-3.52818991864818	60.9292497296572
105500000	-18.2893353320702	119.041323367411	2.71397035588401	-13.2549590145706			-56.8960757816263	-178.997489167751	-3.52193999763707	58.3855569007266
106187500	-18.3177045577099	116.302624070338	3.05021584044774	-15.6985127468801			-51.9790125973828	23.3126621816836	-3.48210645315431	55.5546742985375
106875000	-18.3496734086231	113.62128509745	3.36050680748161	-18.1960369595133			-57.8248372445003	-102.456230673457	-3.55619147702146	52.7662892539948
107562500	-18.1891697913296	109.677080640107	3.6654847580695	-20.6431910910903			-63.4115101329663	3.47761280074304	-3.47107972841937	49.7737073556961
108250000	-18.3116243303188	106.639426386166	3.92311745832842	-23.1257859350631			-66.956302705849	18.0615634274633	-3.58539622035882	47.05217538645
108937500	-18.300362976856	104.061132171389	4.13415788588796	-25.6245358599108			-59.9949752506635	36.6945375017103	-3.54396358325843	44.5258620418267
109625000	-18.3107944429954	101.031403065793	4.38253912579721	-28.19923481738			-51.6762660651902	-74.0699876417743	-3.62400064865037	41.5690064369902
110312500	-18.21915424072	97.4480534431438	4.5788049294138	-30.8841557348547			-56.3515954313044	-2.93433351956473	-3.62702095875802	38.9245886634383
111000000	-18.2412280292523	94.3533696357332	4.75395280829297	-33.3283053914043			-66.7212928432437	-62.3218237645082	-3.73461482058132	35.8014400582182
111687500	-18.1423030119611	90.3704328197505	4.84862082814149	-35.8919020155674			-53.9693006783522	68.4578246451319	-3.69509958404997	33.1402587057533
112375000	-18.0415276168741	87.0165846029252	4.99209058760867	-38.4368562101147			-60.1688298350956	-18.9341959185342	-3.80196937536643	30.1080703193118
113062500	-18.0544913013397	83.3984890437205	5.04512589894916	-40.8922251562454			-65.1628693729072	-60.3509083786296	-3.75095105002287	27.4006561163768
113750000	-18.0904690281301	79.6047318295284	5.0939736243366	-43.0912710475054			-58.4521600427976	-65.6030256981606	-3.88897483637039	24.4388311725065
114437500	-18.1191109348061	75.8786942793452	5.10838132940168	-45.471990517552			-65.7130669581828	98.5857222482972	-3.82465927791916	21.2238208634933
115125000	-18.0869595863627	72.1021166542983	5.10805525357957	-47.5560060400323			-55.5330517493672	-41.1257173320948	-3.95919004481408	17.9506190584793
115812500	-17.8037820317275	68.2525881346346	5.06584134190137	-49.4769177432166			-59.7466748129483	0.275407335765865	-3.98002294146876	14.8845915096798
116500000	-17.967941137491	63.6140556673548	4.94486570209769	-51.3034002567817			-52.6890338465767	-14.9311772824962	-4.04371623131948	11.3763738867097
117187500	-17.8158386840821	59.1893120157516	4.79993839285215	-53.1631202698689			-59.441288960712	-50.0006395226856	-4.11536841023496	8.45025446811992
117875000	-17.7924855868991	55.3319210104927	4.58204320150521	-54.3075500135099			-59.5435274017694	-36.5929814662174	-4.17151948980559	4.75643642554338
118562500	-17.6272310349127	50.6222713958958	4.38062965251691	-55.1630814128429			-56.7913945996425	-27.9914942960678	-4.22805261082736	1.41405969540763
119250000	-17.5563149245702	46.032852813847	4.07395936916106	-55.4567939409323			-55.4263692365648	-21.8249072569379	-4.32528360406425	-2.49572743490613
119937500	-17.4962022896009	41.0468656537078	3.7624689877977	-55.0191639602892			-77.3737743009911	130.58706746886	-4.39925338831182	-6.3805081989238
120625000	-17.4585898919401	37.0493904032993	3.35506162153248	-53.7388336939739			-56.5936720996579	-0.370320475864419	-4.46539800487202	-10.3089813848555
121312500	-17.3597463460782	32.0838459236659	3.00192068024985	-50.9180374548953			-60.71333938979	-62.8285749905158	-4.56540275852262	-14.6041127625301
122000000	-17.2583140986724	27.8222364392244	2.69649566077008	-46.635871840936			-58.7581310064968	14.8104929706475	-4.67915241436407	-18.9084058529819
122687500	-17.2195273845048	23.2697670911837	2.59152448987947	-40.7663986727637			-68.5153709869841	-72.6995834583123	-4.81208540121278	-23.1838615792148
123375000	-17.1786097722514	17.9151251583807	2.79031821655284	-33.6285059814538			-59.846841393763	33.605612643923	-4.92745548225543	-27.990557180458
124062500	-17.0274484055979	12.8384687820091	3.42607139990374	-25.9605405367322			-61.1506342995869	-83.2796999345834	-5.07399214150112	-33.009886605496
124750000	-17.1213071318577	7.84841993310291	4.44571737742464	-19.5556412478113			-55.5076729580015	23.8242499297858	-5.28183700921239	-38.0117842520266
125437500	-16.9929132652909	2.65052663734066	5.71074785680436	-15.152875942093			-62.8166741712998	-64.1924181449926	-5.43968942827734	-43.5490897230338
126125000	-17.3013720973183	-2.05573237369553	7.12588694687308	-12.9183365908053			-58.1167396758313	18.4557654242228	-5.73387528631137	-48.324091736804
126812500	-17.1554368870457	-7.92106600318292	8.57389630641369	-12.4366490463193			-61.3243421165981	-86.9599559148354	-5.93450751837588	-54.0231238042807
127500000	-17.3558701823615	-13.6451416077011	9.92874134474038	-13.6439639641333			-52.2583154235798	14.8822739461224	-6.26215095178285	-59.5154648839188
128187500	-17.4685117807365	-18.9207282817079	11.2231257937147	-16.0298047481808			-55.0538423567435	-60.0856497392757	-6.47599611130128	-65.5241358425594
128875000	-17.7143526110687	-24.4270906968279	12.3778295958474	-19.4811057876166			-54.6866123549393	24.1788621377168	-6.92187306925898	-71.4115376646582
129562500	-17.9229281424447	-29.9138783894003	13.4151022373331	-23.3941080381685			-50.8913014595652	-10.8274416574623	-7.20608656851213	-77.3283126037061
130250000	-18.1719511424421	-35.3243636511471	14.4044397499051	-27.9910180241256			-53.389734359466	14.9749641460591	-7.74369113253529	-83.1982355144926
130937500	-18.5118934095086	-40.0612511272009	15.2432671911205	-33.084945332146			-50.1126174277159	-9.33604741709103	-8.05482962315994	-88.8293959200544
131625000	-18.9761217105891	-46.5989978664033	15.9926940254748	-38.0713610205517			-54.3137290555397	-24.2842155081427	-8.61420793114898	-94.749846662632
132312500	-19.4030466778754	-51.3315933881569	16.6259098645162	-43.2919034374766			-49.2457005024915	-33.1119561152703	-8.99353875468139	-100.093993795505
133000000	-20.0332159418251	-56.9797278664105	17.1838462101774	-48.6171894564408			-49.7035983127307	-45.8421221491395	-9.57263935569778	-105.883843458069
133687500	-20.3923084749055	-62.7401396579838	17.6437917329253	-53.6633803250136			-46.327728247082	-21.9037820470559	-10.0142243643717	-110.683432883576
134375000	-20.9912465191309	-67.1400353572359	18.1066019885071	-58.7047437179917			-49.9079770185605	-40.3609741799856	-10.4915333812849	-116.433355334302
135062500	-21.5796547498839	-70.6911296073824	18.4645509304902	-63.5799581008938			-46.7059089473474	-37.0699933254486	-10.886375110906	-121.242341026841
135750000	-22.1242389068635	-75.1231449355918	18.8031299123884	-68.4366697645074			-47.8094823163141	-47.7263409057209	-11.3500911902872	-126.391288548462
136437500	-22.8339451072302	-81.4141171718579	19.1085146263699	-73.4110939532874			-45.091453029704	-37.3020750960508	-11.8324539371607	-130.910165716774
137125000	-23.5452014105024	-84.255455649109	19.3961546595401	-77.7205491352347			-47.501208998032	-53.4764070234074	-12.2275771253969	-135.739405866883
137812500	-24.0277541538942	-89.2474666736964	19.6240770640764	-82.2399875522491			-44.5366700638999	-59.2246440094569	-12.5944079407141	-140.4831120419
138500000	-24.532457695219	-95.4219695254005	19.8713287820064	-86.5225208161536			-44.766830345118	-76.9200350338585	-12.8851683442095	-146.51912929394
139187500	-25.3424820867607	-97.6083619944238	20.0631043221421	-90.8506231112851			-47.0178843130018	-67.5013048759096	-13.3296162106691	-150.450501605254
139875000	-25.9752503632144	-101.453148431308	20.2389558637214	-94.8583178018854			-43.4882856639741	-76.5793642511634	-13.6466876111718	-155.22550290484
140562500	-26.7654209331182	-106.355150123311	20.4092471574805	-98.9383293461666			-45.4203089944498	-62.2003276849341	-14.0326722469542	-160.345099184103
141250000	-27.4661776312168	-110.597870966012	20.5592962585597	-102.972840486713			-44.79376644618	-82.9097350570947	-14.3170887512704	-165.374698609281
141937500	-27.8184240716959	-113.011938894057	20.6746398659988	-106.903832067629			-45.1941847776501	-82.2599702315294	-14.7483928503692	-170.143684047051
142625000	-28.7774968879945	-113.132804330146	20.8198267491913	-110.666683571063			-45.3848757892214	-83.7276988267526	-15.00792585109	-174.250766934485
143312500	-29.0506850881086	-121.529053188267	20.9540700861649	-114.527678365478			-45.5237799164988	-90.9641663001143	-15.3749973395803	-179.918281233534
144000000	-29.5900259957043	-119.021642591582	21.0526969568403	-117.942463917264			-43.788541558932	-97.1843169064171	-15.6557005364234	176.490797877001
144687500	-30.1628322885096	-125.571217730878	21.1382201196311	-122.03169168679			-44.2705486841813	-104.949323038085	-16.040792540832	170.612642814204
145375000	-30.335345773098	-126.117324567477	21.2026219880567	-125.399866486273			-44.3881254507828	-98.1050019293887	-16.2788747708236	166.191658888629
146062500	-30.6077104217751	-125.630363211758	21.2969170019694	-128.994680612657			-45.7291481517115	-110.749308668916	-16.6279082935498	161.029166687881
146750000	-30.7341770578627	-126.51312065542	21.3395680092473	-132.409686805601			-44.1285745120854	-107.041600845889	-17.0544132391817	157.096500903913
147437500	-30.6907969280601	-131.762122555618	21.436138959098	-135.917948630569			-44.5491701627167	-113.929339337323	-17.2663542336168	151.01854194618
148125000	-30.4691350638556	-132.633048346923	21.4376720764053	-139.246553753875			-44.2920485980175	-114.707663739085	-17.4832742413603	145.991960597444
148812500	-30.4099354783615	-132.356562937223	21.5489335775997	-142.619233453276			-42.6222330930292	-124.184930869806	-17.6771526932652	141.157606822826
149500000	-30.9170994600901	-135.772116816963	21.549869796013	-145.617376484316			-45.0342521178546	-111.394472309654	-18.1146828853109	135.129464063566
150187500	-30.815124165377	-136.728776305127	21.5701755596627	-148.829402494164			-44.0576980307524	-140.207436705147	-18.2397544631821	131.136276995769
150875000	-30.7572086679397	-139.07775391582	21.6172496760656	-151.830843024367			-45.1283193489596	-132.004805399368	-18.6470121521405	124.926222816214
151562500	-30.2853157789717	-137.537487767254	21.6320720177501	-154.755473389656			-43.214200844556	-133.364236725056	-18.5163096921303	120.01656420036
152250000	-30.3295419415138	-143.84683723959	21.6309606378897	-157.768239879337			-43.4406469496222	-125.726166499242	-18.8647807045489	113.91727870759
152937500	-30.3081469977336	-144.819031005814	21.679066856411	-160.50895928324			-42.8738424461581	-147.499955537124	-18.8319904460621	109.279719180139
153625000	-30.249151571561	-148.546156228988	21.6759730345289	-163.499648163357			-45.2791268218722	-127.89933987933	-19.0695139367107	102.641287324368
154312500	-29.9170233726735	-148.06086053094	21.7293951406152	-166.097226931034			-42.7240268038462	-145.787693684911	-18.8510256869951	97.5622652915095
155000000	-30.0728434934618	-149.056767198837	21.7333141242026	-169.199175182155			-45.2081977809653	-150.69002413178	-18.8440754851931	90.77716049549
155687500	-29.81684609364	-149.737247788735	21.729069612105	-171.622498231161			-43.8657355488758	-141.509002560403	-19.015855667161	86.0141833136055
156375000	-30.5536985156743	-149.76884244374	21.7706959552651	-174.425939705331			-44.2211728670084	-153.171639767181	-18.9297819338159	80.4897810749837
157062500	-30.5424178526015	-153.051366444161	21.7831041209146	-176.906905917502			-44.1212655834705	-146.225930112172	-18.8117327630007	75.2113388014628
157750000	-30.3729239809183	-150.669462420668	21.8122646871651	-179.535053413496			-42.9770950970905	-162.604703338441	-18.5235229394803	70.3849361478212
158437500	-30.4793012200173	-153.165248559728	21.7862519110464	178.044766633388			-44.3881385182898	-143.968489708702	-18.365909021139	64.905926887033
159125000	-30.3753093571323	-149.788924188703	21.8523890911909	175.413892224751			-43.6716876388421	-162.93293901679	-18.0442550510398	59.6325258842053
159812500	-30.515546317472	-152.780767737439	21.8721969026055	172.663717545489			-44.2985485626188	-156.194601364193	-18.0623113891641	54.4075897955153
160500000	-30.7484866677331	-151.184481406193	21.8574312206938	170.293010492731			-43.3381207458726	-168.142540632449	-17.652725779602	51.5956523584981
161187500	-30.5670793043452	-148.201087010426	21.8599325649056	168.011911995499			-44.1297434067231	-153.605667164642	-17.4735796129689	45.6791601488057
161875000	-30.4466696717603	-143.908152954989	21.92400541903	165.323747650071			-41.016826622397	-174.315848215716	-17.3372552117129	43.156198529434
162562500	-30.5998754636058	-143.106969923481	21.8982812698498	162.708532537449			-46.0688501259593	-165.817464669332	-17.0026436398235	37.4663920935367
163250000	-30.2394072411178	-144.413332319578	21.9151222140595	160.334419542106			-44.0666765686083	177.533912694684	-16.745642221946	34.2782348570408
163937500	-29.93190455021	-145.003210608987	21.9394353823945	157.885615717063			-47.1110291265722	-172.769307991574	-16.5229978573189	31.2321859266922
164625000	-30.4117595180287	-139.488138830131	21.9280937503679	155.299435885312			-42.490042541199	-175.604192238856	-16.3682267237359	27.6142982284563
165312500	-29.866546007523	-142.525728067201	21.9173841941046	152.966658687856			-42.9661666606807	-177.741209127968	-16.0761654583991	24.5224590454598
166000000	-29.8130197508436	-141.453406051822	21.9430232865147	150.415782214771			-42.6342667030655	-176.203008193098	-16.01502727134	21.2463507083042
166687500	-29.5133138775659	-139.275803168653	21.9222289564501	148.214353364899			-43.5866568012854	159.939000706359	-15.7635767533588	18.1610558735676
167375000	-29.3850854040847	-139.577909680969	21.9384896409636	145.918879312164			-43.6959610207187	178.415620061608	-15.6563469570234	15.3882501387478
168062500	-29.0702319882168	-139.579207950441	21.9274653759024	143.498323618133			-43.3927829208296	168.738297420279	-15.3479487059371	12.9084484225592
168750000	-29.6300266460457	-139.501900632634	21.9428372798875	141.404090195744			-43.8056087169555	168.72550304575	-15.4036132547883	9.30754205774036
169437500	-29.8150525471632	-139.132515471345	21.8994694204086	139.065508600085			-43.9784395794559	157.286614221767	-15.1126818783941	7.24831030505389
170125000	-29.856174000828	-136.32522731554	21.9059989875297	136.713592654415			-44.2220729268437	167.619516112125	-15.1607866506601	4.44279015116691
170812500	-30.3210519162525	-133.880694350263	21.883255863636	134.50456842411			-42.8901379599504	149.601634934052	-14.8916881140074	2.73453121389439
171500000	-30.685525600323	-134.909180327301	21.8941097772239	132.442045481628			-43.3840446415877	165.625183738413	-14.8729134963384	0.18031245125729
172187500	-30.3955099262195	-132.519935885195	21.8646543343055	130.189489229202			-43.5547205906969	146.651273991134	-14.6410976056324	-2.36954046856089
172875000	-31.630327121662	-129.712874241634	21.8884436727472	128.349266474079			-44.559681569625	150.601041544043	-14.6127244108776	-5.05772140365165
173562500	-31.4837443430523	-126.168622119714	21.8582970593053	126.183325441589			-43.8696383824549	152.70754349583	-14.530143378097	-7.33756727831522
174250000	-31.4546238723769	-120.816189555346	21.8808174206351	124.162315894172			-45.5093580184556	153.955806941649	-14.4885346371632	-10.5276531748026
174937500	-32.2411933695794	-117.689819193379	21.8656588443621	122.14503119765			-44.0379399261812	149.770864858833	-14.4603651025616	-12.265898672358
175625000	-32.0758709878804	-112.913618310681	21.8650275680812	120.19496585141			-42.9909616735629	147.022569386418	-14.3015440842136	-15.1856971484969
176312500	-32.4698783450012	-108.862628343754	21.8720594764281	118.175055671181			-43.3378017040194	141.957412052142	-14.2924105584619	-17.2623447560177
177000000	-32.5613314835344	-100.301324612405	21.8843079923827	116.368977200748			-45.260506341217	144.951913468387	-14.2501945838462	-20.5745942617094
177687500	-32.4749721354481	-93.0187272819498	21.8909545263345	114.251733125854			-41.2859212255758	138.961226332606	-14.2988940256855	-22.3470753645188
178375000	-32.0163840195621	-88.2057611182275	21.9221726432826	112.295603926617			-45.568176819372	140.675146488673	-14.1741588556636	-25.6220999283729
179062500	-31.7569014666944	-82.6115848235433	21.9619301308912	110.230857394431			-42.6794016999619	135.822178632194	-14.150295989524	-27.3014690881859
179750000	-31.0422475155064	-80.6813691817971	21.9470626704212	108.35517868523			-43.8742477124791	115.343233534619	-14.0967524128046	-30.828937242228
180437500	-30.209623498776	-75.2946865931605	22.0232086362399	106.508036440067			-42.326341375057	141.527605912953	-14.1337655044812	-33.1748276192848
181125000	-29.8533135329783	-71.20942250901	22.0054781154445	104.296042636703			-45.4174367102845	115.490211051142	-14.0523061132211	-35.9949793250336
181812500	-29.1333717944243	-69.2586898391769	22.0247915363783	102.353201269673			-43.9082958787207	142.950395387928	-14.1585452001107	-39.5903310422008
182500000	-28.7365342967257	-67.58377825077	22.0925790987895	100.226006348846			-43.757107074345	118.944289330431	-14.106438761616	-41.6899530680643
183187500	-28.4824629835915	-65.811857090397	22.1159822668634	98.0303618403934			-43.5802160353989	125.63747652301	-14.1044346854275	-45.5678367207403
183875000	-28.1213755058801	-65.1922607636248	22.1516307637467	95.8895196983263			-43.1787664642671	112.87745753157	-14.199418038523	-47.4593566129691
184562500	-27.477644871358	-65.1055364894429	22.1389260636515	94.0456935966937			-45.0043288725594	118.372527796308	-14.1160290755373	-51.4471381388458
185250000	-27.8659369180501	-64.0408663621201	22.1823220843574	91.9295293833827			-43.509196867436	104.532684149491	-14.1827577340587	-54.3336079386643
185937500	-27.4428336589456	-64.6672571618222	22.1799650031064	89.5894626388026			-44.3559688957994	126.199648813433	-14.1416079473329	-58.1535668839246
186625000	-27.3175030424941	-64.5081352922298	22.1953304854745	87.6342226343849			-42.0047492548703	116.012959927841	-14.2556713368028	-60.3548388201951
187312500	-27.374148098388	-65.8020000763769	22.2252507803273	85.3607283019945			-45.9690863056137	89.6457874214731	-14.063356953225	-63.6853021357398
188000000	-27.1170666446208	-64.1507580555158	22.1822758869376	83.2257618462192			-42.0461559053914	98.8376065293592	-14.2213502917376	-67.3209905392897
188687500	-27.1015116603082	-64.6827042356968	22.2352868442687	81.0046413507846			-45.0013150171023	108.832244036109	-14.1073279912485	-70.1516580242519
