# Hz S DB R 50
100000000	-18.6018598618667	139.963032657452	-0.510246888678609	4.47217784884181			-58.4917817904064	95.857361376233	-3.51129205866944	80.1717489044902
100687500	-18.5385962692846	137.891052666884	-2.06489348416003E-02	2.41809810577374			-58.3485045318286	-35.1824577395273	-3.42381052476996	77.6978920077195
101375000	-18.6086998301279	135.399735343903	0.41358535001891	0.504873664114439			-60.7469396872838	74.3581745119496	-3.47479650861383	74.986695102518
102062500	-18.5183389896113	133.109184907351	0.868812578404814	-1.70113497530311			-54.0013658806299	6.13059997330228	-3.44226259309632	72.4550454757941
102750000	-18.4425074579336	129.900443510231	1.27649830876062	-3.81863350477867			-61.6420968124863	82.5275390330587	-3.49987991045786	69.4863699237724
103437500	-18.3725768244851	127.867524742868	1.67610503041391	-5.95933449421983			-57.0340079972415	-12.1403873911354	-3.40431489829769	66.9063904507006
104125000	-18.43297291103	124.912816921092	2.04158617790073	-8.31584239053833			-73.7202745770268	-169.682443328976	-3.48436092099421	64.0703966114095
104812500	-18.3725572568467	121.891528542399	2.42366521873635	-10.6138781080507			-52.870194954738	3.17065520217031	-3.44090456958982	61.4089719302195
105500000	-18.3492805244233	119.819008291807	2.75744868359241	-13.0529050243983			-67.9291111988229	-114.619879331055	-3.47680729470619	58.6263188568394
106187500	-18.2364486626081	116.762413070425	3.11383638387657	-15.4201257154204			-55.4525000649172	-2.29288802954345	-3.43005281776492	55.9953736818246
106875000	-18.3240370504242	114.077297478272	3.41117627108435	-18.1947414729333			-63.590605741837	-31.4649306923375	-3.4890380387488	53.1182874587226
107562500	-18.2828880465433	110.364164951405	3.72130573515694	-20.3764287579169			-54.7973262877664	29.5234111377838	-3.43381681402733	50.237245478498
108250000	-18.342901545238	107.229420916178	3.95812737787159	-22.9552349156916			-58.509100302226	-44.2415098094801	-3.5455150279952	47.4159920923664
108937500	-18.2806410346464	104.75733901538	4.1854422615239	-25.3997473548487			-56.0503591423302	62.5363728256722	-3.49407291620021	44.7788678529686
109625000	-18.3064026681615	101.066725108649	4.46191672052755	-28.0204278211526			-65.8403554959863	36.5175797653523	-3.58201602916303	41.7978304194782
110312500	-18.1868428895705	97.8229185460795	4.63522040747655	-30.6732194486677			-69.017654924283	92.5908470750851	-3.56877834451191	39.1176008081838
111000000	-18.3523083058158	94.4779488226612	4.82326987266599	-33.211406988677			-82.9864663867106	127.997797076625	-3.69633105740755	36.1040413804795
111687500	-18.1813549859929	90.2476805143957	4.90460220803714	-35.7524225325087			-55.0499878011542	17.8061471377854	-3.63418952437855	33.2440072864437
112375000	-18.0668982399128	87.1345385581299	5.03173787866461	-38.106212319391			-61.6920824106026	-65.3564526247731	-3.76608512718073	30.3862554965081
113062500	-18.0020220542096	83.6890508409338	5.1039784867464	-40.711529265424			-62.4634541522101	14.9924220331235	-3.74324725078883	27.622653353272
113750000	-18.0744119228212	79.6733173784142	5.14119156572153	-43.0322752659988			-65.87195468167	-46.377105119168	-3.85195047154537	24.4455481453631
114437500	-17.9606788636392	76.2807781051183	5.19185128842216	-45.3386817667954			-66.2827905014139	179.027520778853	-3.85193398741157	21.3886790378338
115125000	-17.9522703607716	72.7114282903653	5.13962635972543	-47.3365031456544			-61.754277849782	-37.7575477770415	-3.94529202062757	18.2706100274792
115812500	-17.83296089849	68.3957324160336	5.09792737095482	-49.509909132912			-65.3286170462898	65.9668701496814	-3.97355155384628	14.97234848827
116500000	-17.9203400386966	64.1734767024031	4.99215504173739	-51.3680879190543			-53.1877342226498	-22.3416523462341	-4.02509397490652	11.4061148180521
117187500	-17.726123437019	59.8996218669699	4.84111801891836	-53.0759255512156			-60.6685046272131	-71.8512837378351	-4.08249285154349	8.46367383342283
117875000	-17.6810079599785	55.7282746648638	4.63156741926587	-54.2620863170079			-60.9978769713004	-34.7806980989323	-4.16254034082809	4.70202567909441
118562500	-17.5547325477507	51.7440824930729	4.40766990625999	-55.2034868546234			-63.4745253433924	-112.218832832549	-4.23668504673863	1.40041380096655
119250000	-17.6113851574222	46.510770035405	4.11390922064942	-55.323614824426			-53.3752840904693	12.6747660619908	-4.33962367049724	-2.49106703418191
119937500	-17.4568613574282	42.0667219374818	3.77292774545953	-54.9106530317473			-65.8765299614765	144.393847379332	-4.37415024184656	-6.59452159166762
120625000	-17.4463379841785	38.1793295762146	3.36375532435725	-53.4752558692998			-54.9613734739652	20.5422568308273	-4.46243409619201	-10.4624634709743
121312500	-17.3383436561332	32.6678430582672	3.01840116246331	-51.0106706308709			-61.433163375652	-90.0988705881246	-4.55878828982532	-14.6880269415002
122000000	-17.350911447431	28.3753349680819	2.6882631981538	-46.3202899337846			-54.0865408567261	-10.7270921795069	-4.67580342163127	-18.7932211963657
122687500	-17.3039770648934	24.0405204125964	2.62011775475513	-40.3349750713628			-56.94615853115	-104.3573681736	-4.76549982053466	-23.3966264053167
123375000	-17.2898877981975	18.3064649558888	2.77861730086857	-33.2776172906494			-56.0685360962967	-23.3088514275457	-4.89612226632308	-28.0021630086653
124062500	-17.1357357197559	12.7774774746441	3.42152421285774	-25.741015193782			-66.9316094231136	-130.965642409585	-5.0253844743759	-32.9736948649513
124750000	-17.1663674080191	8.28197807878544	4.47935306305329	-19.2362812495897			-52.9769584470829	27.7202737560382	-5.22212577823512	-37.8836047870454
125437500	-17.0855437580893	2.78036719952016	5.75143253508949	-14.6300608645683			-54.9815227013699	-107.022012786162	-5.35553252007711	-43.5766260883924
126125000	-17.3590320949863	-1.98137846115289	7.16677859141583	-12.3377793545231			-54.0947863135297	42.8540512275314	-5.63685617840523	-48.3941287071652
126812500	-17.2410593668576	-8.38334501251884	8.63380010803841	-11.9973167476956			-54.4332588525688	-11.0762645556579	-5.83359480562684	-54.1540418645824
127500000	-17.4260597156083	-13.7911541268859	9.99220783538826	-13.0702689133918			-58.5913696327166	51.8278221663612	-6.15646599666056	-59.6051398162142
128187500	-17.5208682793278	-19.0345321600658	11.2893793024845	-15.5701566995447			-53.2347918981139	-0.468511129820446	-6.38447534038233	-65.4236964135882
128875000	-17.7036738925142	-25.2488146177397	12.4574367105698	-19.0797658188438			-51.6734452412846	15.0810349938188	-6.7974836370106	-71.2755237624105
129562500	-17.9510240584976	-30.5516564685227	13.5110805499289	-23.1145713355768			-51.7075366516166	-21.6287613084793	-7.06858597552053	-76.9586391506731
130250000	-18.2149397072916	-36.5317974692398	14.4734538427178	-27.6865881662518			-52.7328653396111	4.44695929571273	-7.59296246496096	-82.9220670282491
130937500	-18.5280028873035	-41.6886189823278	15.3336513763066	-32.7503780861717			-48.451559969569	1.25463574066867	-7.92051395192653	-88.4910095510685
131625000	-18.8657840368953	-47.4326926094139	16.0473816052299	-37.7239206481755			-52.6762707134097	-19.5985651553706	-8.49773275303952	-94.1820769214947
132312500	-19.3854120097968	-52.4384290238951	16.7167388934291	-42.9821028166851			-48.3739291461544	-15.9450223947238	-8.78529316491795	-99.5001090498931
133000000	-19.8967077830348	-58.2304710872682	17.2580016083473	-48.358416556631			-52.3023408141807	-37.1961616391398	-9.37136358013853	-104.974117564226
133687500	-20.0379543589824	-63.4832395940091	17.7417214083111	-53.4401751038508			-45.1593825553172	-20.8008806628354	-9.75505946162422	-109.896959830444
134375000	-20.8750528995504	-67.939559281017	18.2217363759443	-58.5289463087753			-47.5598522840001	-39.9267492891973	-10.2550155246878	-116.023611869195
135062500	-21.1826999376259	-73.397252363815	18.5719698560862	-63.3948270276651			-45.1141129186705	-26.6332092452878	-10.7170146186109	-120.720656660277
135750000	-21.8143089831023	-76.1225836661547	18.9085810262863	-68.4178513731686			-46.600045631656	-54.4952355571088	-11.1930067417902	-125.613985212761
136437500	-22.31666860193	-82.567751203639	19.1963424456217	-73.0926359087503			-43.9974243560429	-55.4978538635821	-11.6751551545804	-130.721317973892
137125000	-23.0246278068466	-85.6502574115952	19.493202500886	-77.4708682827554			-46.6211356136952	-70.9362471509577	-12.1792348503549	-135.195537716086
137812500	-23.6682202873101	-90.0056542527799	19.7146122604658	-82.1809952489428			-45.8586708024336	-48.6670093197923	-12.5847476551196	-139.901284147615
138500000	-24.3574014389058	-95.1586227410583	19.9330360531428	-86.4979207318904			-45.0132498155971	-80.1425858969299	-12.9496304125199	-145.51827834379
139187500	-24.8701926337515	-98.38009998702	20.1291622508289	-90.8833918132172			-46.1754722878983	-59.2541441331284	-13.4234923911698	-149.688399410812
139875000	-25.7509383382331	-102.498693835292	20.307242498872	-94.731454844518			-44.9232036819818	-85.9468351623122	-13.748657104909	-154.458668646556
140562500	-26.5848914933727	-105.221197128752	20.4733082288119	-98.9686346046185			-46.3189801608831	-80.4046495399262	-14.2602679895127	-159.484600662837
141250000	-27.2150524445363	-109.396875652713	20.6225586109715	-102.762608263853			-42.1023605102457	-97.0430721255269	-14.517323205562	-163.786989682186
141937500	-27.8389628354426	-113.777907326431	20.7437596083471	-106.823960046441			-45.7239486822299	-91.1622685690561	-14.8291827748422	-169.313248026548
142625000	-28.695368421457	-112.48286663643	20.8831715196793	-110.646195015943			-43.3637978112002	-83.1259600818928	-15.1706931441202	-173.624297101651
143312500	-29.0315266055222	-118.083409612315	20.9982589954953	-114.542006419819			-46.9247303738981	-95.1984668171377	-15.5108327629029	-179.117963179365
144000000	-29.6766905177054	-117.143945851202	21.1220196594173	-117.857692964483			-45.5228649215352	-82.2469336978488	-15.7852398922935	176.815058139806
144687500	-29.7747367439984	-120.003239761377	21.1895287737375	-121.897045879162			-44.2323602874753	-111.391767997082	-16.0805072050692	170.743819813257
145375000	-30.5747953199796	-123.530662586885	21.2711024879774	-125.301829730233			-43.2900779831292	-98.4789421751844	-16.4074966245339	165.518958497739
146062500	-30.720731609427	-122.72623715251	21.3560649534011	-128.921277717358			-45.4544849447201	-116.443015120598	-16.758202546635	159.900396965319
146750000	-31.1469674842846	-126.761645263835	21.41661131314	-132.266034626384			-43.9524891543917	-95.5725983107661	-17.2818171485849	154.982482689965
147437500	-30.9159557923096	-126.03674825644	21.4851247582484	-135.646778385029			-43.0996931636345	-123.885864472879	-17.2988363905274	149.373012228324
148125000	-30.894715155113	-129.209339591192	21.5250228291641	-139.153329338361			-45.2863725128239	-105.54764728832	-17.6084485341593	144.737451086153
148812500	-31.1896989807694	-130.676805513774	21.5908049102026	-142.408119466253			-43.4852121472193	-124.344879934116	-17.7368536719226	139.42086892594
149500000	-31.3761911746214	-133.728598655929	21.6095230163573	-145.651754133889			-45.311901953467	-118.154065171029	-18.0797699706261	133.236137295127
150187500	-31.0189436120681	-132.299285067743	21.6614923548601	-148.633183304522			-42.8379014521141	-123.419713500742	-18.1760093757742	128.390701504977
150875000	-30.8623430348283	-137.626361471442	21.6777905464966	-151.668265175542			-45.3099722535865	-134.574207382926	-18.4698018536308	122.17139883686
151562500	-30.7168241622926	-137.282004295909	21.6897163438742	-154.592125807654			-43.9639321366201	-131.90042683817	-18.4221398943276	117.449948737983
152250000	-30.5273005796244	-142.351417405976	21.692813355217	-157.644995052137			-45.450108161634	-136.222330771236	-18.6059228582313	111.201535676494
152937500	-30.890652717177	-143.485098892084	21.734902311324	-160.464023036757			-42.5657733407377	-134.584758128082	-18.5921328156681	107.556094131519
153625000	-30.2711387318326	-146.938711131117	21.726239408141	-163.373994245324			-44.3731877987399	-142.923449507353	-18.8296047393985	100.438487039188
154312500	-30.2176729328352	-148.401935414792	21.8008516227812	-165.937831640543			-43.2635916555818	-137.998066072496	-18.5672882671699	95.0001972262996
155000000	-30.0902594476837	-149.661459567441	21.7500721440513	-169.107026269329			-43.9519729999877	-157.818220493057	-18.4674837139562	89.9995340659895
155687500	-29.9240500289475	-149.955740646747	21.8013645821607	-171.472888865575			-42.3468256736541	-139.989571976655	-18.5951902600903	84.0943718189473
156375000	-30.2515040392223	-151.427725250631	21.8237021924026	-174.188457327451			-44.5323698987753	-156.037302610647	-18.3072321171667	78.6541825736611
157062500	-30.3713243149772	-153.356454437469	21.8186382280764	-176.895379253284			-44.644523545594	-143.716186913164	-18.3868069814664	73.7958692286342
157750000	-30.2135396327469	-148.935632362434	21.8651417893935	-179.481130254777			-42.4184582996407	-152.316533869103	-17.9842688173789	68.9713017008334
158437500	-30.2211441093626	-152.216085471786	21.8874878102476	178.165405995495			-44.0253034475063	-152.538262564417	-17.8445770135924	63.9180828570579
159125000	-30.2384947918379	-149.980752688961	21.8910253243628	175.326962557477			-43.9687073989285	-172.687544990698	-17.6617791968191	59.92971178751
159812500	-30.4358074300725	-154.089418841346	21.9033512281337	172.867431189424			-44.2617479681117	-158.656132900194	-17.4999591402606	55.1788117802153
160500000	-30.2915136818831	-149.246925638396	21.9301256605245	170.23339986255			-42.605590734008	177.175464516975	-17.2995256312796	51.7552426632885
161187500	-30.5340875338824	-146.379652652233	21.9081036843414	167.987352968804			-44.5197123118187	-168.2374573926	-17.0447381413154	46.8158914609483
161875000	-30.256386563369	-141.941498866706	21.9628908326712	165.327880529343			-42.9274790019417	-177.875403468197	-16.9411288244866	43.7504222281595
162562500	-30.0911746178094	-139.529054872949	21.9518815045932	162.795837196906			-44.9677304089322	-175.783384403077	-16.6998906739138	39.0726633374226
163250000	-29.8232855833675	-141.416001454959	21.9687058959213	160.235894280154			-43.1708604341212	-179.702852170343	-16.531040134565	36.553072742339
163937500	-29.6266337271882	-141.713457716872	21.9818152566584	158.006929412578			-44.9756422251277	-174.169229469522	-16.2427490475416	32.6346542030927
164625000	-29.4353646324068	-136.836010102419	21.9615381531591	155.471137819129			-41.5617926291028	177.940909713177	-16.183263495539	29.1240722108889
165312500	-29.2305289714785	-141.381240373035	21.9627995854992	153.087149857221			-45.8056640474802	170.227456034614	-15.9149132541376	25.7520967840046
166000000	-29.6167490051853	-140.004493196639	21.987803574925	150.613942239582			-42.6465717928323	179.025142400231	-15.8731157102848	22.4605321457921
166687500	-28.9759813739654	-140.585142372786	21.9693237854843	148.238762775482			-45.3672039755794	171.298229306872	-15.5308477076899	20.4322652646265
167375000	-29.2751308715621	-142.771593508988	21.9884464987661	146.254101349393			-44.1652613969446	-179.247908225388	-15.4248965948046	17.8204508988204
168062500	-29.380690962713	-141.951315003862	21.9921365713975	143.711440990864			-44.3276818701174	162.039957217989	-15.2359771279395	14.4789462498318
168750000	-29.8534950836513	-137.339123400668	22.0098409339454	141.591464475359			-44.4722778425208	174.229575309666	-15.2845233339783	10.9277577343975
169437500	-30.1587677187546	-139.770075568998	21.9590403703671	139.170495974945			-44.5386071252056	155.966546709272	-15.0473587374278	8.62996374435712
170125000	-30.5333810248875	-133.952437488602	21.9615755088239	137.006486067656			-43.3015469741956	168.297064303175	-15.0177324544874	6.0245099296698
170812500	-31.1963151670305	-129.563772479966	21.9188441914767	134.601039356858			-43.1150977419478	160.473506489529	-14.7354344645996	3.68734274257587
171500000	-31.2103474703326	-133.714010568627	21.9388666898584	132.571792764471			-43.912940942693	166.096196605719	-14.8195686409632	1.08296788821756
172187500	-31.2831825784861	-129.918641456891	21.9107544352711	130.422054148024			-42.266201597997	152.163205564309	-14.5998337227232	-1.22379451413959
172875000	-32.1256830288583	-125.106400293546	21.9406683776512	128.345275035546			-45.7638937725667	146.706705212279	-14.559046073744	-4.30824478626962
173562500	-32.4673729246944	-119.288153980319	21.9020738695051	126.319404339162			-43.9423639516104	153.361451426806	-14.4595429321709	-6.05293906709966
174250000	-32.598992749208	-114.948441068708	21.9108108063158	124.188832468975			-46.1202911217354	158.564900856893	-14.417219609802	-9.5873257834928
174937500	-32.468872340543	-107.090728205384	21.9224293598641	122.200441522083			-42.6078143051474	151.412373741971	-14.2993814391972	-11.0936714683788
175625000	-32.5410063137388	-98.4262304039294	21.9212613454506	120.326214704371			-45.7377692774049	146.12879030348	-14.287520232963	-14.6296291632936
176312500	-33.0105178944114	-94.2877823276621	21.9334829065082	118.466245447554			-42.0648596503292	143.128314861307	-14.2260454204873	-16.6636685792956
177000000	-32.5092375707917	-86.6819973937662	21.9366875631029	116.394924290082			-45.6712458775049	135.423951222107	-14.1970049666669	-19.6925322125675
177687500	-32.1743709204496	-81.0262569253875	21.9372229765093	114.400421315488			-43.0930586294777	140.080804054904	-14.1840881396655	-21.5307680821792
178375000	-32.0782210016811	-74.0345147529773	21.9812843466572	112.348583514638			-45.2857403387123	129.937333565523	-14.1588221098694	-24.7043250187366
179062500	-31.4938815550556	-69.9164149866715	21.9775397153046	110.239253233463			-43.2352102038352	145.267684617964	-14.1060034219149	-27.7071669458229
179750000	-31.1798334612058	-67.0468537846871	21.9927145009612	108.504536072147			-44.8889771263771	131.867372352077	-14.0070066110004	-30.4936815398039
180437500	-30.1835413996884	-60.1936463588803	22.0654341707265	106.500733385005			-42.8277267946102	145.041239527141	-14.0336072930574	-33.5574080550365
181125000	-29.6384579953223	-60.4660417450516	22.0366963354374	104.51133551494			-44.098201076027	124.764728367989	-13.9677952690544	-35.9705964982812
181812500	-29.2358636760672	-57.0764518450476	22.0852776227793	102.405135417676			-43.9694755348355	138.722331918477	-13.9953334787494	-39.1588202101474
182500000	-28.9675964461291	-59.0494732073129	22.1341219154656	100.301794911405			-43.4099191056307	118.106844535256	-13.9860585880061	-41.8498567355648
183187500	-28.2296029987819	-54.6811883486925	22.1995723140792	98.3003319038056			-44.4701582643791	125.943649878132	-13.9682547608822	-45.5632026841139
183875000	-28.0363888304066	-55.7623851065741	22.2093585438088	96.1355397719292			-43.3669194120002	113.073121843105	-14.0215397359968	-47.6836304520192
184562500	-27.600863686608	-56.244733178786	22.2021771753964	94.2588548379543			-43.1584161531642	124.594311499517	-13.9779479459826	-51.4816882305841
185250000	-27.5957703336231	-53.4417929191394	22.2221294951616	91.9543258178019			-42.7873048512988	112.794027192076	-14.0411672063294	-54.1997186192252
185937500	-27.5569001498256	-53.5169646764894	22.2382080238216	89.7992277598468			-44.3324482088206	114.980171813896	-13.9181880935786	-57.3408408576369
186625000	-27.7017839172874	-55.4918585734172	22.2411157501251	87.7571743383972			-42.3226451826063	104.672752896362	-14.1055688739992	-59.8936607861214
187312500	-27.5226161948545	-57.2999110983994	22.272887569028	85.6151271120452			-44.5898229336646	110.356675479499	-13.8987327927119	-63.6428490738838
188000000	-27.3411779153209	-58.3275805731124	22.2382762785978	83.5434763728777			-43.7303539276224	96.8271946933389	-14.0433357735561	-66.2552086073906
188687500	-27.1107489615679	-57.156484092098	22.2702481981369	81.2087102647666			-44.7000304798924	102.095657764112	-13.8840425674548	-69.2386656411693
