# Hz S DB R 50
100000000	-41.6685644714756	57.0387170424994	-13.5310472444619	0.442203798896908			-67.3316639828355	-171.207987583086	-3.47418303325105	80.3841969279624
100687500	-44.1936194858655	57.9083639315786	-13.0563999714302	-2.2010355589549			-63.6090878517373	-38.9102068761452	-3.40968747218403	77.8956950377065
101375000	-44.5714134485001	52.3379818323454	-12.6337236792123	-4.13399312169454			-55.4666628941887	147.039466451387	-3.45359595734152	75.0006804593617
102062500	-43.917829770635	42.9352349995767	-12.1616631373172	-6.39183428247379			-58.26156599033	-33.3301031270732	-3.42376506765276	72.2000605828891
102750000	-46.2988137585596	45.9139155642345	-11.8286653447102	-9.05422134854749			-54.0622028577769	-162.030338592873	-3.46364099504858	69.5004861272007
103437500	-46.9089274347832	36.1967863231991	-11.3900603219782	-11.4815307369047			-52.994887570243	-28.2814583374323	-3.39189103407218	66.6556120521852
104125000	-46.6025489627621	22.7339024965223	-11.0266077117136	-13.5762830018323			-60.3528310023646	18.8699470448072	-3.44555972162065	63.8082330781646
104812500	-45.7870862835404	5.35508585460197	-10.6384726317949	-16.0313351626674			-62.7358889968783	-100.631808199248	-3.48036312827239	61.1261778176542
105500000	-46.0095692515966	19.3850883541606	-10.3409010495391	-18.9241383944993			-54.5103050778188	132.946006868147	-3.45426588013126	58.4800897445335
106187500	-48.2106210635405	-0.322311749343656	-9.98982822796794	-21.2712258471474			-63.8011173507159	155.87938785727	-3.44259372972288	55.5952669533467
106875000	-48.2161708162866	1.58134687573866	-9.71500158551329	-24.2125121942492			-63.5584611517267	-77.2684907420718	-3.47671653468293	52.6441644743265
107562500	-44.6468916283724	-4.30098634578132	-9.43477095649153	-26.6594850699314			-53.7923817414173	-15.8480285718924	-3.42437860663442	49.5712818630145
108250000	-41.4689908607146	-24.1313217058945	-9.18012871049816	-29.6714656791494			-58.215682549462	-135.894623293229	-3.55674626152443	46.7556555492254
108937500	-42.2935829596624	-33.0015675087986	-8.9823737560038	-32.1411130728459			-56.841431176991	61.7813723383725	-3.48921128373892	43.9603337491322
109625000	-42.4690095362556	-20.9562395493493	-8.72206541701024	-34.9971246340891			-56.8475904358328	-103.681558786864	-3.61784649545001	41.1105886095094
110312500	-41.2156820614847	-16.0852576394561	-8.56125375912148	-37.8469023402193			-55.92958662789	-2.89903770467139	-3.56749681821059	38.1854331398351
111000000	-40.7816392550744	-30.0660337464571	-8.41639154541699	-40.7059103780289			-64.2468479476971	-104.063238455244	-3.70070601791963	35.1013126706126
111687500	-39.2791986840445	-29.6412294946321	-8.32827631437316	-43.4532564062981			-63.1858978071983	73.1370504474797	-3.69656887511023	32.2289311100901
112375000	-40.3301016900622	-26.9056794692624	-8.23118503061717	-46.0183112624567			-67.4303958027405	99.0920169704277	-3.79552850077608	29.3791199972014
113062500	-38.9895248170141	-36.7282322150933	-8.22075535168441	-48.909675447259			-56.588330250265	49.2920964350782	-3.74888734555816	26.6035675939211
113750000	-39.0016061531162	-35.5548614800279	-8.17171700343253	-51.6394599574124			-61.5899511982338	-123.544690753851	-3.85657737450005	23.2481236979903
114437500	-39.351627055788	-43.1269734948071	-8.25071459161878	-54.0647877476248			-65.3876223306426	122.986462120433	-3.83466128070768	20.381208639161
115125000	-37.2112221914879	-37.1902345537363	-8.26153055557367	-56.3986016218114			-55.4858210406243	-62.0550239366319	-3.92986262054521	16.6928187228282
115812500	-37.3143752334936	-33.8148419519339	-8.37344523635808	-58.8100307496135			-60.6400341878864	175.282338568323	-3.96855145693938	13.5919518850018
116500000	-36.7089932637685	-39.5048542056822	-8.51423900648516	-60.6628276539506			-76.369511298468	-146.45183871349	-4.03379256104936	10.1901658318811
117187500	-35.7640446889916	-40.3011814763981	-8.71241349806443	-62.7837173550303			-61.5583866440527	123.710081222268	-4.05515548086383	6.9757995830513
117875000	-36.1165915370523	-38.5176493494119	-9.01202369989997	-63.9908732796989			-59.1036297333937	-43.6528874240055	-4.15027250926828	3.1239082412578
118562500	-34.7929275633478	-36.324344985883	-9.30822409207319	-65.4402107933079			-61.9859763399615	98.936587295897	-4.15455926476953	-0.435107006570331
119250000	-34.4107465257851	-40.4879628597089	-9.6532695880201	-65.7012689200668			-70.995171190391	-5.74478608501388	-4.27830340422393	-4.30609600518614
119937500	-34.2312574214941	-43.1894037693452	-10.1177389929267	-65.4720118615371			-61.8569143192271	174.751456908654	-4.29827295415707	-8.485039927613
120625000	-34.5614538724617	-43.2326285867264	-10.6110495810595	-63.5100651876814			-62.1634609136675	-163.464835502189	-4.37912808730287	-12.2420119774256
121312500	-33.8267372563551	-45.1007837684571	-11.1534224950353	-60.9122712692593			-69.3178714007706	96.7868893466559	-4.47997348572597	-16.8127583802833
122000000	-34.0085706248149	-48.2634670003629	-11.5537250070542	-55.9015754928495			-56.6881564296704	41.2480238612081	-4.57015887147404	-21.1031034287163
122687500	-33.5950430456107	-47.8676752263559	-11.7109579929925	-49.4271202518809			-58.641282371656	-63.6598111681982	-4.64515485980983	-25.9792520064108
123375000	-33.1121292798737	-50.4120643819052	-11.5696630233184	-40.8984332965328			-57.9720633481332	80.8144704821374	-4.73043031782979	-30.8300171644727
124062500	-32.5006220940393	-49.4385769284694	-10.9614349346546	-33.0226239698625			-73.2835098481525	143.86078136723	-4.86038165433716	-35.8045638677876
124750000	-32.26405709913	-52.2309432989406	-9.75016728168068	-25.6646266588491			-59.2428493912201	-25.902236355904	-5.01273206997204	-41.0320564722684
125437500	-32.0562535688757	-49.8627565598537	-8.50534085224337	-21.2040228071877			-66.9270407242767	-55.3711169921719	-5.13963508321913	-46.719352474282
126125000	-32.6060438030136	-56.7011886321183	-7.03604444484943	-18.9458800223448			-64.8008672560053	-26.8725128455212	-5.3946938160616	-51.9335297754468
126812500	-31.3144590186913	-54.1325326022287	-5.55497549082163	-18.8150716165079			-58.6220631423757	-79.4249041046192	-5.53645643785729	-57.8751914919671
127500000	-31.9554219728339	-57.1976845289338	-4.21018549678639	-19.861046332305			-59.468920748907	109.082963562435	-5.81870250722709	-63.3404479156858
128187500	-31.5457658712753	-55.7896097444834	-2.94680997150766	-22.5201872745378			-63.0841204415198	-75.0586194056498	-6.0148477927986	-69.5951006042394
128875000	-31.6407007169185	-60.8449491990855	-1.84544287840764	-25.9215961258645			-59.7830976849326	111.468119640931	-6.37737128901678	-75.5617715388131
129562500	-31.5117489726867	-61.334763298864	-0.809478269082376	-29.8987117493926			-62.6063508741894	-26.0477049684299	-6.58690496467572	-81.6844526916432
130250000	-31.5170828199569	-59.8668939382072	0.13595156054468	-34.3488715591568			-56.9945506099128	116.086253822698	-7.0485972840507	-87.8752771952581
130937500	-31.0417391297234	-61.009268335775	0.952822054118276	-39.2081158645945			-55.6959684802508	-26.2343332294787	-7.27999824517284	-93.6071592455558
131625000	-31.4231416249079	-63.3334110456544	1.65633625927728	-43.9264875522999			-57.8798829276793	150.677338838835	-7.74705266439862	-99.7713969243025
132312500	-31.1785055864942	-65.4150376497949	2.278571623377	-48.9388692202226			-55.8486911195373	-34.0589481679311	-8.0488974146625	-105.41658604549
133000000	-31.8359059734429	-69.1898994120943	2.80056960770418	-54.0415038245737			-62.1821258775872	-75.7088596484117	-8.58698011197726	-111.550292750668
133687500	-30.9533498773114	-71.97700501534	3.2889618054924	-58.7444809057516			-58.3444640844127	-59.1420061555643	-8.895410603876	-117.007777102706
134375000	-31.3933164659653	-70.8521197119362	3.72421273708035	-63.6474352079078			-67.108843619499	-120.748862650842	-9.31168463788371	-123.231850043137
135062500	-31.4847859304752	-72.4595863985701	4.11011914305627	-68.1952716534822			-54.5977331769339	-37.5929147436836	-9.75873858616449	-128.479066177353
135750000	-31.6867693051414	-68.4489470738089	4.4639458254434	-73.2185031319265			-60.8215776711412	-77.4003134534955	-10.1518480274222	-134.023547166477
136437500	-31.3268783257133	-75.1094028134339	4.75271963822535	-77.5954498874963			-65.6650745997483	-138.116959869995	-10.5189688419798	-139.639437429618
137125000	-31.9517766104168	-77.3997771628023	5.06262054487813	-81.9507229914481			-53.6694227079704	-66.724928612339	-10.9695513221915	-144.530905961445
137812500	-31.6841472824201	-77.7176123142709	5.28086675279239	-86.4802925776963			-57.7746583587987	-34.6020761527548	-11.3703649007279	-149.581816645442
138500000	-31.4121310930252	-84.0520815788837	5.52639035103568	-90.4575887082872			-54.1525030474216	-83.5438143321828	-11.6412646330741	-155.68983857763
139187500	-31.8264066076528	-83.1343364297569	5.73091926588321	-94.7160303179657			-55.0895342994425	-41.7665036620255	-12.1556649865138	-160.519814410907
139875000	-32.1482702059183	-86.6767770146402	5.95036153895515	-98.7564034935742			-57.9616344716002	-90.7654299282082	-12.4772883486855	-165.479209036238
140562500	-32.0907470840526	-85.4319909510517	6.10428653617153	-102.817603044122			-62.8763904956107	11.2507152279087	-12.8361095930945	-171.113112647067
141250000	-31.9974920368411	-88.3912707252349	6.28492084916223	-106.63529844433			-57.8794029594414	-88.6678741024674	-13.1628125709114	-175.795099947236
141937500	-32.6002411036368	-88.8403479106491	6.38946705612236	-110.707923498622			-62.2334242663139	37.4437123189432	-13.4517143870279	178.238165341281
142625000	-32.5534918896244	-87.6677527788372	6.54702987412394	-114.427218878147			-53.8977968556909	-64.403404729039	-13.884776253003	173.855221573576
143312500	-31.4398254850184	-95.8824173773601	6.65450678378923	-118.157604023081			-60.2614037517426	-166.410240355993	-14.169523680079	167.951218865935
144000000	-32.3574585591447	-91.2663366436303	6.77277289883737	-121.575666355769			-55.4500183218471	-56.6083254463797	-14.5420705005769	163.409626050178
144687500	-31.5936206578214	-96.6318320515798	6.85810115350352	-125.559044717006			-59.1397986365792	-53.8134479304033	-14.7251942938786	157.494602939531
145375000	-32.2465686833167	-100.0594113986	6.94932563190679	-128.982261342418			-52.2326886451286	-62.4080836686902	-15.1178386388734	152.673968275634
146062500	-31.3308820178832	-99.9408725399974	7.03480119396552	-132.580512032407			-53.5121331789927	-175.035475664406	-15.3318779792891	147.017670998746
146750000	-31.7377974706661	-101.026425645497	7.07952112984461	-136.036815188165			-53.0695786942672	-82.7532567584325	-15.7746709789794	142.90747610141
147437500	-31.2189036988553	-102.788856951011	7.13997057769915	-139.367628644075			-53.7497738759556	-169.511075619897	-15.8645357355566	136.632839892736
148125000	-31.1613920779015	-106.58929937703	7.15457376003904	-142.876319707054			-55.4489332449397	-94.4698926045592	-16.2830735566283	131.778166967258
148812500	-31.1372335714171	-106.802537033355	7.2337459400517	-145.986150865665			-58.3903562226586	-135.081730009471	-16.3356562960469	125.994050480426
149500000	-31.0396849737684	-108.822018993019	7.29260289162457	-148.958139214287			-69.3628335667814	-78.7946707593359	-16.7428675951991	120.242573736731
150187500	-30.508477322772	-112.406098202123	7.32180220659836	-152.171982888771			-59.1307427083999	-173.754959279864	-16.7823260696933	115.237121933902
150875000	-30.4210183614232	-113.774209917378	7.31573219812829	-155.344896814627			-59.1420458821748	-104.749142959937	-17.1076152627657	108.81769274548
151562500	-30.015019725617	-113.336021882248	7.34177939845408	-158.222722636735			-53.2037096107847	-140.997233076273	-16.9871147495289	104.31585415561
152250000	-29.886960981856	-114.963078781057	7.31794725678192	-161.164653468242			-59.218997966737	-71.4003511459106	-17.2486021884268	97.305962096275
152937500	-29.95771595565	-116.190543867174	7.40221319255433	-163.798945449249			-53.0772453113956	-120.676377823253	-17.2087130561895	93.4474431182065
153625000	-29.7051309729893	-120.052424597715	7.37143349273646	-166.75070883215			-67.0384991658678	-80.370889911331	-17.5119300314727	87.4996474505869
154312500	-29.1816111426014	-119.135184806555	7.42058822220626	-169.245774656571			-53.2122495750933	-105.198537996677	-17.2991861930876	82.9596532088618
155000000	-28.842702874075	-120.678383863395	7.39538606235286	-172.31720496501			-64.8647266326614	9.11207344806344	-17.2942758340882	77.5163896988941
155687500	-28.7214211074817	-118.31018472245	7.42446374441038	-174.650271941824			-51.6519534279686	-129.496889585979	-17.3807445201752	71.95248865838
156375000	-28.6377108075338	-122.044025150517	7.45253757514523	-177.508003733698			-58.4511037477041	175.463124217627	-17.3277049883092	67.3705949050253
157062500	-28.2778463003071	-121.886577540705	7.43799568663828	-179.882753446542			-57.4341548675979	-144.421853818845	-17.3118523505032	62.8778262339263
157750000	-27.9125746081898	-122.334029181394	7.48492458919511	177.487361754235			-53.4133760489736	173.598846364739	-16.972412490408	58.6137619616502
158437500	-27.8390893303732	-122.150976300278	7.4851288813981	175.164892003759			-52.1362217740887	-157.093835758167	-17.0196920070731	53.1412170865023
159125000	-27.3973477884081	-122.769810329595	7.53665912960014	172.433959882879			-55.8900042306735	-164.068858709005	-16.9151436392421	49.4905188640208
159812500	-27.6370889888506	-124.33300679512	7.54548278476439	169.850355236699			-54.7113451636535	-116.265870083851	-16.806875849957	44.4001485037608
160500000	-27.2988460826242	-122.685082134746	7.5553555678161	167.360384810652			-52.2597850167932	-154.80242123213	-16.5721862780234	41.8667571621595
161187500	-26.7013194558437	-123.054082539721	7.54991646870044	165.109993324436			-60.5386386568508	-84.9736045226965	-16.4780693636552	37.1871530870984
161875000	-26.8066922550255	-121.205169026017	7.59257630024858	162.66329331201			-51.8647748042715	176.088837648516	-16.3886046925856	34.2370033138459
162562500	-26.3311059661912	-121.650875648902	7.57740885203025	159.928242867325			-55.9245681796168	-148.928040526747	-16.0965326288128	29.1278869324347
163250000	-26.2775587943386	-121.055388751568	7.60039324884449	157.527141338661			-51.4335855500864	-171.033399993305	-15.9967882241559	26.3824954967761
163937500	-26.0745633076794	-121.869749448728	7.60098485673642	155.229894272108			-60.7757784222333	-143.490496908275	-15.8133097017595	22.9925681881158
164625000	-26.0770218045615	-119.542915786976	7.58116526478691	152.774399273456			-56.2831991701358	148.966708286358	-15.6887080818463	19.581042758298
165312500	-26.0021117710671	-120.900027586481	7.60906701094465	150.329800466084			-71.1371986342391	75.0617572789126	-15.4952096106541	16.4245687207385
166000000	-25.8615070887477	-119.959529458442	7.59439637023326	148.023530478582			-54.318353381929	-177.220784966377	-15.3965917299946	13.1909371492415
166687500	-25.5592120695022	-119.76117358275	7.58568802067789	145.700950195749			-57.7075378097307	122.654963758682	-15.2043372013411	10.812437311997
167375000	-25.3966447230476	-120.060707069869	7.57761605555993	143.523022840189			-54.5503682630399	177.415429080515	-15.2120494035574	7.57322364866191
168062500	-25.2589280177229	-119.104958001636	7.57626909859849	141.267290572059			-65.1503268707902	159.714813756093	-15.0239221368354	4.91338818375702
168750000	-25.0979710694501	-117.747931858593	7.56902827910627	139.052053016949			-57.6531024492331	147.826690271451	-15.0433393216263	1.85394451873451
169437500	-25.3526929502354	-118.967877018772	7.54980074933758	136.653223842258			-57.8312302681586	140.397821050291	-14.8209991538523	-0.465153818501087
170125000	-24.9757592883162	-115.226862295704	7.57451723084597	134.460025937872			-51.2647932861106	-166.679734077664	-14.8905182888435	-3.38566426777624
170812500	-25.0339312387366	-115.069255348635	7.53112404295846	132.330277335142			-51.1587700215861	161.12944863334	-14.6764042882531	-5.92640514985341
171500000	-25.1290206370148	-115.142525010896	7.51137290326013	130.341887201815			-84.6199592118841	177.072174622152	-14.7782583306769	-8.28250337703721
172187500	-24.7301073685671	-114.452211353601	7.49797890021268	128.065361891383			-51.7669941938187	146.148112116628	-14.680508034531	-10.7545368847186
172875000	-24.8509199962741	-113.189716843056	7.51642772704627	126.408502438586			-56.0289947840389	-120.427347721799	-14.6701996414486	-14.0318732431196
173562500	-24.8215490683933	-112.527821751773	7.49339068899978	124.37325871459			-55.0655062839305	123.31825855096	-14.5243003098481	-15.4835112361967
174250000	-24.8301275796364	-111.68673666552	7.5373284585202	122.400444215954			-57.7520966075572	-165.116506284107	-14.4892222185359	-19.9372777472239
174937500	-24.6911842515807	-108.617139671202	7.52680126382982	120.325825950909			-56.0173218533304	152.076623079522	-14.5225302514998	-20.3748926493243
175625000	-24.4648490625012	-109.80611918806	7.5172496510023	118.43221101853			-60.6983507553592	-79.803047025688	-14.4857976850438	-24.1755392130129
176312500	-24.49103757212	-108.916778188319	7.55324430095371	116.310710944724			-51.2570322383336	118.666418382395	-14.4402448858989	-26.080774722206
177000000	-24.5533051598419	-105.952951018265	7.56860732681235	114.676336054648			-67.5140130532615	127.30455165862	-14.4967067144603	-29.8701671661069
177687500	-24.6118585792794	-106.967830706413	7.57177469385786	112.570562069044			-58.1580734940963	139.531245092387	-14.4920368298332	-31.7043785982483
178375000	-24.6745432059971	-106.551447490098	7.59593875488269	110.578531439954			-56.1725117287474	-154.978671373495	-14.4651627825928	-35.2009401718989
179062500	-24.3845859614142	-104.231278951308	7.63412156210944	108.448774163772			-52.0708827955163	-173.712875677918	-14.5411298205472	-37.9260399478536
179750000	-24.6478889008371	-104.765200700737	7.6335763098902	106.466684739754			-54.2463827065566	107.616383438127	-14.4097607373629	-40.991371309326
180437500	-24.6362017112307	-102.569950424443	7.69809818979996	104.713396285027			-55.3835437456163	-170.568813196845	-14.4968064788014	-44.0419450037307
181125000	-24.6683869209639	-101.256648780547	7.68540599630211	102.56870780111			-57.6963449951527	100.587349759069	-14.5049982886232	-46.4368302730967
181812500	-24.5562305692993	-101.113759315529	7.71482731946655	100.429988274173			-52.9775355159803	-140.165465855273	-14.5747433949403	-49.9841609366078
182500000	-24.8523500643206	-101.800269717869	7.74801899772025	98.4684726033623			-51.6197785440912	96.0923544957107	-14.5822137289445	-52.1314870254254
183187500	-24.7712243775286	-98.8264305319636	7.80096683568658	96.293957396243			-55.7926813926281	167.351422371321	-14.5586004897177	-56.2330485385948
183875000	-25.0550192380458	-99.5301301074897	7.82147167757979	94.2521178961953			-55.0334871326667	97.6166803616763	-14.6405403910831	-57.9264778106196
184562500	-24.9446650895119	-98.4289054265604	7.81981321873705	92.4458103470133			-55.0928019954255	92.0042621453233	-14.620848877294	-61.9677946456645
185250000	-25.3280419587726	-98.9904404516779	7.84393694444358	90.2134874731593			-59.7445745334378	105.608612182547	-14.7131589895328	-64.4814147719981
185937500	-25.417692135496	-96.8876195139793	7.85588277241155	87.9328974575223			-54.9884784966911	153.636472566521	-14.5696102041497	-68.094537040948
186625000	-25.6260982151637	-98.6665584482859	7.85790936675564	85.860247681058			-56.4194958677255	97.3607327984739	-14.7631373955178	-70.3802132083512
187312500	-25.506620153019	-99.4047852217733	7.87427157699721	83.8576092736292			-57.3517329901596	-158.488835148069	-14.563822951412	-74.2088781246544
188000000	-25.5022055868667	-98.1107555498111	7.86697387297703	81.769190052038			-49.7875008774863	119.798567562115	-14.6840158930789	-76.5495937859303
