# Hz S DB R 50
100000000	-31.6154952237953	134.058025619549	-6.15759078349422	-0.450122951461769			-65.8198634186924	64.1450398907554	-3.47446135237256	80.5282623436159
100687500	-31.8263165664604	131.188475004964	-5.65961531987035	-2.95397438515742			-70.5180745141818	49.4062341354392	-3.40087738124559	77.9150431708958
101375000	-31.5912056023566	131.37733170251	-5.26309176593221	-4.65683826181764			-59.4808738793676	-154.430111752129	-3.43740580017412	74.8885587438803
102062500	-31.3998640608053	130.004216356779	-4.79705950768576	-7.2347709868104			-59.8673882502798	-27.3559822056146	-3.41530555076222	72.441500910474
102750000	-32.1498131945778	128.756446091553	-4.42762792805778	-9.56079492270069			-62.8885736472349	94.2744838601647	-3.45128595381977	69.6318087941993
103437500	-31.8369928525013	126.48985390346	-4.01069411919944	-11.8668070041012			-59.9166256996813	13.8460410859789	-3.42008587015125	66.6689042929313
104125000	-31.6027957804025	121.570858003949	-3.64431339330692	-14.2197219928128			-60.173555270998	-178.889275247273	-3.47292942496207	63.9307989560145
104812500	-31.850233551457	120.738166190541	-3.27958150207059	-17.0108471460529			-52.3872007232703	13.1925419485298	-3.41084435433236	61.1423092929167
105500000	-31.9643608559914	116.47832872584	-2.92668801913571	-19.5131942016664			-64.6723260455145	173.421508692471	-3.43785558686137	58.2109280474187
106187500	-32.1353398854702	116.88951960806	-2.60723879267611	-22.1287008543902			-57.9882631344654	144.024040243345	-3.42224700324704	55.6041538138952
106875000	-32.2543060079804	115.879443848433	-2.29856136972854	-24.9433085614895			-63.5235951057151	120.142308978961	-3.49932732380957	52.763897125426
107562500	-32.5900671074342	109.184184018831	-2.02166128844566	-27.4322291745211			-59.6179141107704	-57.277582312071	-3.42881104228557	49.6235668828207
108250000	-33.2226573506247	100.935186947039	-1.77067423886589	-30.3481034517736			-55.4216068844464	-106.864743454834	-3.53850197782394	46.7723394859031
108937500	-33.1424713306816	97.3771724257275	-1.56635624035855	-32.8267102339022			-57.9862568085496	40.6071050246666	-3.49513858419127	44.0174462729828
109625000	-32.3817368542335	98.632135475704	-1.31171435879384	-35.801232293607			-73.7988109424838	-83.3638713975163	-3.59389071448247	41.0824819245113
110312500	-32.6660052572011	89.9230133637209	-1.17453471434975	-38.6305178981003			-59.5689554766337	61.4675749321576	-3.56507587443682	38.3458442527122
111000000	-33.4325208544578	86.2855174275349	-1.00439861765171	-41.4219175242332			-61.1512366431751	-89.2505394258408	-3.67165556589257	35.102873764783
111687500	-32.8561147537832	78.1977600077779	-0.889495925572842	-44.2217728642816			-87.0116531954764	-116.612835664848	-3.63062006233334	32.3982468972937
112375000	-32.6999501911613	73.8605843920132	-0.803347300165152	-46.8447303968172			-53.49827424907	-115.844021154204	-3.77136675506574	29.4534612249201
113062500	-33.3933445532119	72.2458332936367	-0.766957615687758	-49.5467468449512			-60.2102078321547	75.4526144335919	-3.70563653107434	26.5351595059142
113750000	-32.9967233588467	66.4083151526482	-0.767880174217142	-52.1353869873488			-57.311084462559	-42.6848140511053	-3.88401309503889	23.2192430693615
114437500	-33.2324956922988	61.3753462770449	-0.783172642515735	-54.7783797467384			-60.7277202458834	152.715726219815	-3.81674164344793	20.3096746295055
115125000	-33.1918441232563	53.092826624686	-0.825442284483038	-57.2701472876569			-61.4343226115165	13.5821129915257	-3.91952500021913	16.9031065798222
115812500	-32.5169013562284	49.6555888808661	-0.909886428176861	-59.5395822846955			-56.7823897118637	145.522409647034	-3.94293906571263	13.4898458496954
116500000	-32.6345757397637	39.522427394113	-1.07898649433574	-61.5287226164541			-63.202807460856	-116.735765999793	-4.02549995861092	9.89349016355824
117187500	-32.4352075339558	36.8544300313639	-1.28597368192797	-63.4546515747536			-60.3489964655744	105.435257598339	-4.06019605189015	6.84516818651961
117875000	-31.5303525619319	29.9149812973338	-1.5577012096825	-64.9011473336006			-61.2532772165977	-1.80215697686151	-4.13622922998929	3.20240219292234
118562500	-31.4525057479792	27.6949439863055	-1.83963901433452	-66.1334157853127			-64.2666593112413	-0.684843835138099	-4.18360374729535	-0.372290003423565
119250000	-30.7114697571065	18.3683310044768	-2.21215819765083	-66.4048952453993			-53.9031791465521	-29.8370963069685	-4.26816716547646	-4.1789765337064
119937500	-30.3635469526135	14.6634265225024	-2.64059267281837	-66.0865810857738			-61.7574041542673	-134.900807315194	-4.32673883676428	-8.36709096557059
120625000	-30.4527112425205	12.1217095712737	-3.14746313152659	-64.606184313641			-61.5470029105005	-81.4165333564598	-4.38298567270684	-12.4129534661722
121312500	-30.4341130733276	3.84560561820146	-3.62967275059315	-62.0254374941374			-59.4684549476607	-80.9114435554539	-4.45788627986833	-16.8012339591647
122000000	-30.1220898671474	1.25891733843082	-4.04574944529001	-56.7092553751809			-63.6251193786705	-4.5856950178644	-4.54740126890222	-21.2659877095501
122687500	-29.5099549103505	-3.16795105076996	-4.24169299601617	-50.1446764973016			-65.3300832127541	179.005432788566	-4.63177558180759	-25.9664110841413
123375000	-29.4372972187944	-8.104460424893	-4.06626795888735	-42.030148145082			-55.2737682660268	14.7110094351978	-4.73541594221044	-30.8085437269088
124062500	-28.9422533011801	-12.394064035085	-3.42395622510048	-33.8537749701871			-62.3433243193859	-34.9785799036925	-4.87273716994724	-35.7692910572078
124750000	-28.8575727769971	-17.2816686077799	-2.29648010952811	-26.9698294927049			-58.2861280249101	14.3797124453942	-5.03131506640411	-41.0057139181056
125437500	-28.2833012697752	-18.7572799785561	-0.983803022109643	-22.4630169185868			-59.9892524787933	-96.6519615673157	-5.12220456330816	-46.7121787461022
126125000	-28.8125613530924	-23.9636874735463	0.453553888420245	-20.3718181889699			-57.8067623761717	157.802563061025	-5.34853861930069	-52.0365986687912
126812500	-28.1755263280287	-29.7361610811392	1.91659402924632	-20.0224513536746			-62.3501750093786	-2.79386668283869	-5.54687230812039	-57.7328661953092
127500000	-28.046701469279	-34.8615900991972	3.27815666536904	-21.2869123497202			-55.247661642887	61.5700812698664	-5.79157602177108	-63.4545725680688
128187500	-28.3446035164897	-36.2674130016543	4.54629657852526	-23.830570036149			-67.2755768704974	60.6963393786966	-6.002009929767	-69.3423202501954
128875000	-28.4821890927543	-41.994139766519	5.65976747228101	-27.2699958399085			-63.475281212655	103.013366730084	-6.39060829119625	-75.6134642759205
129562500	-28.1881679470734	-43.9355871696583	6.70619852264128	-31.3327111234789			-53.9029675346483	-9.09504037717936	-6.57747006644597	-81.6182925409473
130250000	-28.2637507829478	-48.7716791023287	7.63084936805229	-35.8348878409227			-60.8117670390779	92.0234809649424	-7.03647332371959	-87.6967911354212
130937500	-28.3713007692865	-51.133673348119	8.44065189239523	-40.6568882450423			-52.4199497960993	-35.1374724339433	-7.29066617811628	-93.5152532447116
131625000	-28.6445192662278	-56.0926177984718	9.13747628432713	-45.4594271927543			-60.1642150579404	84.8793272205836	-7.78530871679302	-99.6609250166971
132312500	-28.6428201084132	-58.0211766671722	9.78177813200768	-50.5626936524629			-53.9092251187759	-25.3623583951607	-8.05783976761893	-104.838797920943
133000000	-29.1362471754249	-61.0518946361604	10.3108123791825	-55.6458064145524			-67.6045436542117	102.105926833232	-8.5172779619551	-111.462450247185
133687500	-28.9583599684472	-67.0775576488249	10.780424122188	-60.5243649945614			-54.9601350222716	-35.3942028775387	-8.85175146189307	-116.662654362346
134375000	-29.7748592915627	-66.6845985940593	11.2134578601552	-65.3527579141379			-55.3053590568775	-59.3004789995944	-9.29072312749359	-122.898770077483
135062500	-29.5725767234796	-71.6613080774117	11.5979290628568	-70.0040498315385			-51.6154722189422	-9.02944315050524	-9.72517025322788	-128.1929137726
135750000	-30.0816285001339	-69.2674927393249	11.9099284366167	-74.916828822498			-58.5479532155356	-79.6387976074974	-10.1075527550524	-133.509014981223
136437500	-30.169388982799	-76.0619680159708	12.2113339896162	-79.4593422363956			-52.9410001541735	-38.0146979781081	-10.5115692381217	-139.040356229992
137125000	-30.5076834385547	-78.8376544928958	12.50110202547	-83.6899709527985			-49.8232593496419	-78.7624231396333	-10.9419393653619	-144.159603074526
137812500	-30.8239832424157	-79.5170092308349	12.7311293397953	-88.1886205569724			-50.8343576502289	-29.6131441818865	-11.3481966787662	-149.292124034304
138500000	-30.6175216286975	-83.6692714838096	12.9834264850405	-92.1645095000276			-52.7646592575108	-64.3289438273955	-11.6311787772668	-154.979039774938
139187500	-31.1273382450824	-85.7267820731996	13.2046788428112	-96.4626035805428			-51.9025084340707	-38.4675098253789	-12.0627261900297	-159.952408600935
139875000	-31.5362981551052	-85.4163981792619	13.3856139318448	-100.410185161434			-48.4806612762214	-93.2217965939377	-12.4111716396655	-165.082990772733
140562500	-31.8191670530757	-90.7283213027252	13.5513404173091	-104.571446965029			-57.9269899604549	37.5491418212792	-12.7640670535666	-170.489435612497
141250000	-32.1644203804451	-90.6607220369652	13.7297778359077	-108.400621232325			-51.2828258060423	-61.6804726447975	-13.0660584483845	-175.231829447669
141937500	-32.5502371004626	-91.7912357875467	13.8504539407849	-112.409926555492			-58.7081975744613	-84.6660899103409	-13.3624551492386	178.981283175536
142625000	-32.9531060587899	-90.527591393896	13.9990129026073	-116.050028991819			-50.8036262219841	-87.7941227180702	-13.7628214461603	174.529156471312
143312500	-32.1322431299758	-97.9929671838966	14.1192022265369	-119.927089681675			-53.2084839612249	-81.1720679727739	-14.0273812740367	168.56078588504
144000000	-32.7091446312436	-96.4102091454326	14.2274853805627	-123.357778401854			-49.4284697159235	-68.4204383701122	-14.3180516055858	164.125096731097
144687500	-32.5414509104882	-96.1962975490268	14.3202327381863	-127.264098055285			-62.4401531454737	-93.7134274931049	-14.5658596649603	158.988745856808
145375000	-33.0746412408084	-104.954301331099	14.3913659814048	-130.87579502692			-52.3158837055214	-69.8877775522954	-14.8898421702841	153.076921977381
146062500	-32.6328571465392	-99.7562987476121	14.4905150485573	-134.275418517343			-53.0983626668458	-126.842557600318	-15.180653259532	147.41103911165
146750000	-32.560610624934	-101.493949292579	14.5477618429798	-137.688047071253			-49.2295384556293	-96.5727973452987	-15.5793647791273	143.18502806595
147437500	-31.8985320968179	-101.846351149679	14.6031883880124	-141.097859138418			-52.7081816555049	-124.009385921586	-15.6218387558139	136.90016273868
148125000	-32.0944037623634	-105.946891173812	14.6359929787314	-144.516058807059			-49.9332368459667	-110.548063752403	-16.0503642310105	131.859171315468
148812500	-31.9375195945955	-109.786467896144	14.7050381183232	-147.671607777635			-51.2484691341135	-132.852489193699	-16.0825901883309	126.27370005183
149500000	-31.7474199799318	-109.485961533179	14.7178223684591	-150.965802302759			-53.3782174121695	-84.5910143347517	-16.4496347167205	120.158699923439
150187500	-31.415853418565	-110.394907841257	14.7588986774073	-153.908758206806			-50.5559652919227	-113.389597885578	-16.5319372780495	115.810297086731
150875000	-31.3141776562969	-110.959094644688	14.7852569117973	-157.028868348025			-51.5679355392277	-103.739916338318	-16.7895038423122	109.472695483124
151562500	-30.9286895531287	-112.919276726261	14.807224390072	-160.036438464056			-49.9145428624153	-139.738760274703	-16.7774107325069	104.907119684396
152250000	-30.7638852894137	-120.144431706337	14.8233439118909	-162.903326583486			-54.6920551455617	-108.01776687637	-17.0561567083347	99.0795923457291
152937500	-31.1565654661187	-121.478014160121	14.8547051199916	-165.6550361536			-50.8717151787234	-122.823957456632	-16.9578689683866	94.561640715253
153625000	-30.2449636503291	-121.578696305579	14.8323987966235	-168.428980844678			-53.7518430807956	-158.205827223426	-16.9601270630902	87.7325725591208
154312500	-29.8975468423365	-121.276176249481	14.86436755351	-171.013770044049			-46.7731552618959	-121.897356986097	-17.0564103365359	83.6243875675793
155000000	-29.5021597612224	-120.719576011847	14.8557273119691	-174.085057263313			-51.9101446785089	-152.72023163159	-16.9838331100599	78.3472196326197
155687500	-29.4242933541152	-122.456876793518	14.8790140619193	-176.485076570567			-46.7962814257569	-144.782519695646	-16.9601070752982	72.6674417468705
156375000	-29.5708784608752	-123.474833208846	14.8869707575554	-179.34057221518			-52.7990638333082	-148.806924130852	-17.0117147484037	68.3748371422964
157062500	-29.3762033619598	-124.787532680167	14.8922470516819	178.133557125122			-49.4544886096955	-141.836641353652	-16.9829852026826	63.5789083524454
157750000	-29.086535828184	-124.728183152246	14.9533721982816	175.633712786022			-52.5440339726605	-172.269797663148	-16.7987990684004	59.2293399920063
158437500	-28.7643147776543	-124.995905685215	14.95622035631	173.109685680032			-51.4948782399007	-147.435007840354	-16.7592555173725	54.6451431050152
159125000	-28.5032435993362	-123.411535465351	14.9625122849504	170.512614900603			-53.2921586380235	-161.95531403943	-16.5098666684159	50.318213369492
159812500	-28.5935500394172	-124.89204850988	14.9913658752297	168.056516508133			-48.7416619479196	-145.777742333888	-16.5493982259744	45.1631388337819
160500000	-28.0860707112209	-124.767419808982	15.0002484195404	165.537822143325			-47.7272883475792	-156.414606798287	-16.3166615948974	41.6224072630594
161187500	-27.7466908455049	-121.392820077952	14.9755073789622	163.205497316658			-50.9315973999307	-160.190454832988	-16.1407510833116	37.3853986303793
161875000	-27.5914739294324	-121.426488407738	15.0302924819688	160.698892569063			-49.8252480729583	-161.615322789453	-16.0367898483521	35.2149597746118
162562500	-27.4920974690743	-122.308472801619	15.0239838454529	158.074993657421			-54.1364838038093	-159.606164444434	-15.7968148126754	30.4009446834687
163250000	-27.2821653933097	-122.46495440484	15.0334700806412	155.656877944899			-52.1603448464727	-160.890950829537	-15.6960267740298	27.1778128867291
163937500	-27.1651861515057	-121.91006705505	15.0415851909308	153.30427005319			-51.0922222782045	178.664007996412	-15.5529019211582	24.2710887294448
164625000	-26.897122300737	-119.373957787818	15.0383493711977	150.760866115445			-50.0747046596638	169.754241423279	-15.5114500909392	20.5868306102802
165312500	-26.9471593448695	-121.279208224445	15.0351397632478	148.394282413161			-52.1543590154229	-176.803394701388	-15.220317225548	17.5153263438203
166000000	-26.7789834448322	-119.523332017071	15.0453516525678	146.117968004181			-47.1367388037567	-174.099100009648	-15.2275686147708	14.3115850707032
166687500	-26.381666029389	-118.184774990633	15.0185742733859	143.713390653459			-53.1993436232481	152.090499513725	-14.9361000961526	11.4912025285184
167375000	-26.2272504472112	-117.887046836087	15.0553064303965	141.574617564452			-49.7771270367401	-167.665308419306	-15.0048127500002	9.01422621930864
168062500	-26.0956376190595	-117.94562886398	15.0215643207162	139.290453330207			-50.349236052595	159.38653186979	-14.7279479794938	6.30461113881335
168750000	-26.0618294284111	-116.349284097331	15.0381926921165	136.973910595155			-48.0492761634498	-166.058656166904	-14.7432765481551	3.06897672692679
169437500	-25.7933490781663	-116.110971538086	14.9949123623872	134.715716675911			-51.4728751507861	153.559865301007	-14.6088065828902	0.726971257672152
170125000	-25.8134256731052	-114.800595689932	15.0157715894531	132.611998572088			-48.6480655099072	174.481257042808	-14.6639148585949	-2.56312640629213
170812500	-26.0234777753401	-112.374858430216	14.976787357501	130.450603302237			-53.5397837216031	156.792441408809	-14.4061679386938	-4.85293819062165
171500000	-26.0021109926119	-113.946181548393	14.9976274413285	128.324832364388			-51.1489174322698	170.305303909332	-14.5309732989636	-7.40837190603928
172187500	-25.7121266262424	-113.509729645488	14.95077675704	126.289585352464			-51.1089689270335	148.47780547064	-14.3218602893168	-9.86125300268325
172875000	-25.9768220218456	-111.048398401809	14.9891245167953	124.273891924137			-47.7886938545415	-177.298960791187	-14.3971867577227	-13.0762340742755
173562500	-25.6248994022718	-109.176001057217	14.9623966653298	122.14759297427			-47.8073420078049	168.357850441908	-14.2705255747332	-14.9019531529125
174250000	-25.5024849405065	-109.483571253223	14.9672911626857	120.254485770575			-48.8644950891658	155.919648123647	-14.2312688968251	-18.6860392218888
174937500	-25.5828339707888	-106.00733911668	14.9771213462416	118.260081031524			-47.6350716060579	167.437107447072	-14.2273243848266	-20.8112009249764
175625000	-25.3784170817021	-105.468335855197	14.9582020142007	116.393756261823			-52.7090771670269	173.010051773756	-14.2426061268771	-24.0535915534917
176312500	-25.3610240447504	-105.34877522302	14.9901935349244	114.289287892805			-49.1874512855238	158.99826379164	-14.1436925298634	-26.6175244999163
177000000	-25.4577146206586	-104.963711371421	15.001662382127	112.449913097591			-50.009780921653	144.390336302358	-14.2569699638327	-29.4368498660018
177687500	-25.7339975948664	-101.677045032306	15.0194790119948	110.461496249977			-46.7847960975339	144.929693184249	-14.2677604874903	-31.7439364284876
178375000	-25.5120438770035	-101.369420583569	15.0438363462069	108.476862243391			-51.4774860328876	126.936771957857	-14.1347147668972	-34.8129818495976
179062500	-25.4046026140797	-100.038051616498	15.0754057398718	106.361783903257			-47.6707357820206	148.193275538083	-14.291488939027	-37.3226120733042
179750000	-25.3153656292733	-98.1301926081687	15.0635079970989	104.490568503778			-51.5380184414317	138.467465534123	-14.1680900991001	-40.169424210054
180437500	-25.0324627963179	-96.5315155826929	15.1262109577687	102.329284017386			-47.6462756505872	156.935730752018	-14.2713025027652	-43.7026669981855
181125000	-25.2765177573892	-94.9868452693801	15.1240799534345	100.394378447059			-52.8801919978208	100.174034720065	-14.2210823462088	-46.0721829621177
181812500	-25.2889135845154	-94.5826320333312	15.1679596379302	98.4765507898876			-52.2653124364552	129.199624829941	-14.3354048662053	-48.7281455298809
182500000	-25.5542776277837	-95.6881713891746	15.2054668786464	96.2750630568931			-50.7657243886124	135.10311938473	-14.3107391677692	-51.5314192011935
183187500	-25.2974040395136	-92.443966105693	15.2611849139648	94.0651260035104			-52.0726786780372	127.236981174217	-14.3040914963087	-55.6070844086712
183875000	-25.5234946221079	-93.4814070802956	15.268804877835	92.0644116579595			-48.8812335020546	120.48007860386	-14.3763189275784	-57.6477438054399
184562500	-25.3915263903149	-91.6666464772463	15.2881986134286	90.2799675473361			-52.8185079712781	148.92487936595	-14.3079649408524	-61.5743027492304
185250000	-25.5671954360475	-92.5606255373382	15.2992625135796	88.0291723051606			-47.0881166150611	116.434219405888	-14.3975459020641	-64.21444766023
185937500	-25.5938181721238	-90.1152423870893	15.2836370233408	85.8312149402587			-51.3070359040572	108.872629471009	-14.3378380944743	-67.5402967638612
186625000	-25.7803388749333	-90.7038146141056	15.2950034147536	83.7955031099542			-51.8123815667223	115.186356334524	-14.4603423321991	-69.5528633020394
187312500	-25.8889825748498	-91.1257949478265	15.3128216715781	81.716935519957			-53.9759579981839	153.341884038389	-14.2833682512265	-73.3307925607506
188000000	-25.9157221524943	-89.8626868834553	15.2865504774484	79.5816873794243			-47.7230665359203	122.846032585438	-14.4439822513887	-76.7666445890942
