# Hz S DB R 50
100000000	-40.0855843498428	53.3085662239828	-13.8816636119273	-7.15256346304282E-02			-54.9534174344492	169.684358151771	-3.48072555195797	80.3409169984467
100687500	-40.2697703773691	56.9765074542903	-13.4087950738368	-1.94530832837457			-61.1233897826892	112.721133780767	-3.42539505000725	78.0618459848334
101375000	-42.2232309274622	41.8661902104051	-12.9611308478371	-4.48403021036064			-67.0583376952144	-88.1257081886492	-3.44016641611961	74.864125115474
102062500	-40.5183443609738	52.5518930442727	-12.4930113039609	-6.5175562353398			-59.6164467064264	55.5968686871953	-3.44585205948379	72.4005318848105
102750000	-42.0926342630361	26.7941964656865	-12.0894860922961	-9.25098236852627			-64.0281104201509	-62.0515498193363	-3.45862828099082	69.5351623898091
103437500	-43.8705055986391	40.6084592877671	-11.7605440416381	-11.2408576769596			-60.1457144554649	73.4854239097797	-3.39992910540569	67.0077332978554
104125000	-42.4110391617112	23.093082448114	-11.33272912568	-14.0318927971241			-72.7582014194993	43.2338625577298	-3.46338235574759	63.8675231136324
104812500	-42.605180856709	28.9560899013606	-11.0097220970022	-15.8254586896124			-56.9603098883417	32.7112005731395	-3.46252626494361	61.3496786300426
105500000	-42.080419849368	12.2828188883962	-10.6173006201447	-18.9367497154634			-55.4736659598751	-80.9793466199431	-3.46963017931913	58.4642704801562
106187500	-44.8292983761631	13.5383590960411	-10.3629369754351	-21.2456464930468			-60.8726584689393	95.6301352878537	-3.47481975412259	55.9061553318321
106875000	-42.970653560827	-9.07823804899575	-10.0202507652716	-24.3606921916239			-57.4519344794441	-81.8891173616326	-3.46883971863306	52.6832373372105
107562500	-42.2868146219925	-3.52096300835262E-02	-9.79839945822057	-26.3934947202239			-56.4475578309588	78.3864867755671	-3.4634149467075	49.8784017435729
108250000	-39.4862351439247	-6.5424899085715	-9.48480361453228	-29.1834798322007			-68.6471222148433	-34.723054685129	-3.5210652640106	46.9663682050684
108937500	-40.9032395393663	-16.8951045037948	-9.31190202093087	-31.7949626510035			-67.7379399150587	-136.833743897565	-3.5411450178036	44.4395455906378
109625000	-39.1852983898154	-11.4509122113012	-9.03564797805098	-34.7288028366083			-62.1668341737146	-42.5697536343968	-3.59081891592915	41.3130916301436
110312500	-39.721434848647	-16.9289212658758	-8.9042425582727	-37.4652207931392			-59.8170544372424	-173.087171081545	-3.6278230326892	39.1033409340005
111000000	-38.4240729056557	-18.6167660275328	-8.73213690914786	-40.3074647585492			-68.0384146142643	0.693497478126655	-3.67023803502573	35.6660474055897
111687500	-38.9152264993317	-28.8506976399684	-8.6470998491154	-42.8195742161224			-64.2861535594541	-179.436276000679	-3.70403014638897	32.7209317571403
112375000	-37.6688686278701	-14.3145623385348	-8.5443177533466	-45.6594089618001			-67.3979957917634	-140.531703125497	-3.76274916869874	29.6593447934825
113062500	-37.7460719225363	-25.764714537435	-8.53897023752323	-48.2289520408266			-61.8230749684349	-88.6981528034434	-3.7815221409783	26.8926114607491
113750000	-37.2751702434873	-14.9478343852659	-8.5025894589601	-50.7687113590261			-58.2592183674287	67.3372520347131	-3.8384708095528	23.5935812466272
114437500	-37.348082041345	-33.3579761031792	-8.5455556385283	-53.3760110777787			-61.0406240129095	-159.023027088446	-3.85533432709342	20.7051205850133
115125000	-36.4533094453552	-23.6998605907741	-8.55541990909727	-55.4503753327513			-59.8589180978559	24.379792193794	-3.91562008133916	17.2698324368181
115812500	-35.9792685884008	-29.4148930335272	-8.67141213143441	-57.9211381277394			-55.8046088830733	-94.8227729486863	-4.00327273831575	13.9769229210468
116500000	-36.0831431025709	-27.021818864222	-8.83642812254607	-59.8795534885443			-56.8804933651874	0.526265837465308	-4.01631424865499	10.3710802597031
117187500	-34.8830115592708	-36.777268400856	-9.00706521560347	-61.8239731741588			-64.9908620073731	-146.554268910018	-4.07990511099353	7.14730142888585
117875000	-35.5123126473038	-27.3395383000449	-9.28012877060259	-62.9661684608486			-64.2110662480181	53.0723564530616	-4.125701548352	3.74324108789842
118562500	-34.4914058273142	-32.0040547294642	-9.54711551800188	-64.1432466213253			-53.7065592245698	-26.7829129563152	-4.19635325980035	0.132947177495643
119250000	-34.5923002312208	-37.6131975190586	-9.93258604037949	-64.3107313519547			-67.7803247123791	8.17184747712394	-4.30607438063138	-3.80760664330953
119937500	-33.4447853436963	-35.1395536201427	-10.3514539894016	-64.0988637615313			-68.6904643134975	-28.0898579494499	-4.34096276938867	-8.05573361291281
120625000	-34.4063183618227	-40.9430646950073	-10.7961042991244	-62.7904077870247			-57.7217396397922	97.0029448096802	-4.420487015505	-12.1104061983396
121312500	-32.9474868659159	-41.8875896692675	-11.2609733480702	-59.6550988979555			-60.4836026483591	-97.148058567856	-4.48865657178798	-16.256761481214
122000000	-34.2212653276982	-37.5882157910889	-11.7113295653238	-55.2071616179129			-57.8183896357686	78.960640483276	-4.5974438403138	-20.7396523178241
122687500	-33.0121051217095	-39.5183280551258	-11.8330716286355	-48.5795098495219			-54.0215658842423	15.1671407625255	-4.70798812075853	-25.0397906382861
123375000	-32.7094991719218	-44.728205845132	-11.7067153965996	-40.4678326455449			-70.3326172526886	-179.255505041079	-4.79219225970647	-30.264250157923
124062500	-31.9448438743859	-41.7438551939981	-11.0789533946778	-32.5474203109105			-55.7397744570792	-18.5324307644649	-4.94061433604229	-34.9768044633301
124750000	-32.6018883553613	-44.9578519918564	-10.0416173045894	-25.4381412214952			-62.3058671034744	169.800942947949	-5.06968764704045	-40.5396249894497
125437500	-31.7944323236591	-44.8609868028463	-8.70595955379829	-20.6229061956517			-56.448650277051	-2.34585936867965	-5.1971557085959	-45.9697163851809
126125000	-32.5916792531783	-53.2255870464018	-7.29690247973946	-18.9505654066889			-61.0897543802629	-67.4116502933346	-5.44284422858617	-51.4457729457698
126812500	-31.7289116215926	-51.4913728241697	-5.84458241305816	-17.9940802386463			-56.6131090020187	2.89763832059343	-5.63301806719178	-56.9975859034204
127500000	-31.7245060540432	-52.2937036146576	-4.49036321316524	-19.3944637433324			-58.8183274860964	146.46745125955	-5.87403141763543	-62.9243465237407
128187500	-32.1876629875966	-53.0762646664042	-3.21006403271136	-21.4944638540341			-57.8279246934507	4.8433840524272	-6.14119837447614	-68.5541645267674
128875000	-31.5233212792935	-55.4679494245635	-2.07475949751517	-25.0733262592366			-64.8852080933014	-97.2465587695948	-6.46766561870859	-75.0282953266262
129562500	-31.6833693481322	-52.7997851295296	-1.03389846988851	-28.8216398306035			-61.3722997211489	24.6107277956528	-6.7204401271314	-80.9592037135921
130250000	-31.2172421126305	-56.3382653745094	-8.15212747285585E-02	-33.4738016759787			-68.4576918377159	-75.61010738036	-7.14055187790469	-87.1258570950745
130937500	-31.3232910149839	-57.2228366713043	0.699771625553982	-38.0639877951116			-60.3963671002641	70.9006045368246	-7.49213972675701	-92.8305288452802
131625000	-30.9587229711995	-61.4487140487792	1.42137438514875	-42.9965211947899			-62.1433886681157	-21.2852741878907	-7.91427795654452	-98.9063018437092
132312500	-31.7123597326789	-61.6183351008216	2.06334016468909	-47.7082382139107			-56.1065676970382	51.4730014038857	-8.29319201891207	-104.666120415823
133000000	-31.5160598388842	-63.9731682454651	2.61829395994137	-53.1437690882972			-57.4104665828122	-79.6396744817963	-8.72585944062727	-110.733358358572
133687500	-31.2491601803058	-67.4563651715283	3.08547132636559	-57.644538744925			-58.3990754507815	-14.1153430089364	-9.13979829280679	-116.096335208098
134375000	-31.5689357486923	-68.6863140296783	3.58284678644515	-62.8014083475449			-63.4381263977364	-107.461964655289	-9.59304866043227	-122.29231964375
135062500	-31.732849769896	-68.975612054171	3.91904956355025	-67.2553791911755			-55.3688471480152	22.1566464653887	-10.0053182141053	-127.825605898247
135750000	-30.9088924893179	-65.2615987394209	4.28273025144999	-72.0774223581623			-49.843013483978	-57.5612949788238	-10.4322892100588	-133.061003920171
136437500	-31.4618261100587	-71.7427570947915	4.59185346731667	-76.5667236103679			-68.0785821988047	-154.861193036939	-10.8273939254334	-138.709560059606
137125000	-31.2738950019788	-70.0725539109682	4.90339101402331	-81.0307810900166			-55.5239556290084	-33.6384884427834	-11.2663468059432	-143.668990752464
137812500	-31.8837297034206	-74.8813217162954	5.13279736007756	-85.3441654425396			-59.1332511231117	102.916156364881	-11.7165472389429	-148.924134415865
138500000	-30.8529933426429	-77.8877723854137	5.37718793039481	-89.6052172965239			-51.1455346255539	-33.3964193842682	-12.0712045492761	-155.063529934655
139187500	-31.9609521467407	-80.4740033585765	5.56305228757129	-93.8552543727966			-61.405689298767	-102.651094590153	-12.462576338644	-159.746169565707
139875000	-31.8048724559078	-76.7942208795489	5.79128993842125	-97.9653043271932			-63.4888663035661	-43.9527676618523	-12.8848357803432	-164.592288653779
140562500	-31.6869570607572	-83.6733114266849	5.93816452476919	-101.865796514994			-59.3585573434769	-46.8152183114479	-13.1980970060855	-169.840210985316
141250000	-31.6117504633176	-79.316186311417	6.14217694370215	-105.918718367513			-62.1544991789336	24.0098365133588	-13.6425968876147	-175.038666922688
141937500	-32.116980517782	-85.6711784836702	6.23800353366779	-109.836946232218			-58.733268436638	-148.735485104273	-13.9207688535863	179.845066724455
142625000	-31.713080642713	-80.5658717667374	6.41085764522244	-113.70647142177			-53.7869094941199	-32.7588761378558	-14.3355386848614	174.558785441423
143312500	-31.0059203849233	-92.0339103824407	6.53751320145895	-117.385764954107			-54.2748419982744	-122.608984143659	-14.6672868788107	169.53714281764
144000000	-32.1641762417131	-88.0691054649957	6.62738307753213	-120.974742989197			-55.5235093520693	27.1266257290529	-14.9440686413823	164.630480779761
144687500	-31.3844268055449	-91.3370901018966	6.70533817103814	-124.722407105702			-67.8202872527432	-66.5964108555631	-15.3240512528401	159.580119744796
145375000	-32.5305282802916	-93.1441781000441	6.79021575972839	-128.331788261922			-62.7799343900765	-117.761579986797	-15.4957180592271	153.529256575499
146062500	-31.4378335483044	-93.4674670656698	6.86723558223885	-131.763684499142			-51.7878120566806	-135.392556402227	-15.9815898935828	148.58971348676
146750000	-31.8304028373106	-94.5218104555332	6.93467434416624	-135.15045993648			-59.7865953503084	-135.289466622347	-16.2033980499926	143.394875981404
147437500	-30.7970177303722	-94.4133666291855	7.00841117043922	-138.467814960481			-52.4241320929773	-92.5724535516828	-16.5100389050112	137.952599376638
148125000	-31.3364041062585	-99.7201052964271	7.0396055475194	-142.009913015756			-64.3303279528053	-47.0732195089561	-16.6347019557339	132.342307002724
148812500	-30.9539624094896	-100.165032460859	7.09448916181207	-145.034025658041			-55.2647299938313	-139.39346002793	-16.9090113152097	126.926797283534
149500000	-31.2363360968737	-102.936474145809	7.1240824487466	-148.258875668483			-56.9238544325597	-160.245762604922	-17.127301342282	121.047205961314
150187500	-30.7263504217921	-102.549016366327	7.14488779702142	-151.402322090567			-58.2126179622345	-128.624632104332	-17.3952964269175	115.689930527955
150875000	-30.8800969355383	-106.556572616878	7.18445739261138	-154.616545481194			-60.3197815992353	-141.137382962375	-17.5100316136902	110.376257854614
151562500	-30.0680597962076	-104.646996817029	7.20327336711712	-157.246594289239			-52.4365063679546	-69.6049493639444	-17.5920743569807	105.430040049551
152250000	-30.6198716648532	-112.551573305685	7.20421444570318	-160.438183232578			-54.297787807602	-178.286657194903	-17.8090663846789	99.5562826320273
152937500	-30.2402331525789	-111.534995364968	7.24957909612177	-163.085787751357			-58.4884674223283	-85.8272826682145	-17.7831548673145	94.2669460562905
153625000	-30.030466745297	-116.194396904291	7.25277767131452	-166.071141635035			-54.8297537498848	-156.327305959228	-17.8065468660844	89.2872947099882
154312500	-29.5171138811537	-113.075578392652	7.27393647113655	-168.432889723374			-58.8710450318292	-58.2603946997215	-17.7166309388635	83.3647425573208
155000000	-29.0094206487678	-117.521631346721	7.29126440743455	-171.665237916538			-60.5647652356227	151.007843901343	-17.7476255255567	78.4832522229039
155687500	-29.2222387532694	-114.294411861421	7.27456918430281	-173.706906206581			-72.0204836774482	175.795912875175	-17.7400359513662	72.9079370672442
156375000	-28.7939750537612	-119.647287569225	7.35723710259275	-176.791041965753			-58.7489133032345	-117.310728389018	-17.7841028657092	68.0099191750517
157062500	-29.3575003158267	-120.74547817355	7.31801579139765	-179.157231129097			-57.2572805950889	-135.086323622281	-17.6959859173313	63.4546986638574
157750000	-28.0398021345874	-121.835789276805	7.36758473540221	178.226809450058			-56.1470974732225	-163.653794674725	-17.4515468682915	58.8041543277479
158437500	-28.8251595553621	-123.373104820348	7.34750660575427	175.726571960026			-96.5609963594366	-68.5500835569313	-17.3580925317081	54.4358928437355
159125000	-27.3179247969798	-120.426029004404	7.39753750834391	173.13592298136			-51.2580561466448	-139.76829653919	-17.2511705214185	49.2422381065068
159812500	-28.2179956851252	-122.113934418119	7.42850356147425	170.673450551885			-57.5129747214442	-172.186940976919	-17.1301759900663	45.1909462490737
160500000	-27.3365139452965	-121.070328095093	7.43329887082855	168.045387727025			-56.3082949144212	-162.919849459556	-17.001581228491	41.8058766343348
161187500	-27.5293800309607	-121.558571420254	7.37455264134603	165.88276281292			-59.3406772996947	-21.4233713640051	-16.7537572045719	38.1282605095178
161875000	-26.8615197003864	-119.517573315487	7.47161961046279	163.17149169355			-55.393527757282	-148.447178241754	-16.6656701528143	34.5124247098949
162562500	-27.1702367296866	-122.122607281259	7.43875293253471	160.646909855025			-55.0639684312777	129.148466303269	-16.4321026671459	30.7168691401742
163250000	-26.6287277433935	-120.374969663767	7.48099589590793	158.177472135184			-52.6769474494999	-142.352602316984	-16.2030733303941	26.5787958764012
163937500	-26.3764557168616	-121.624173511893	7.47277193273522	155.970015528716			-57.9043976540731	154.550598434483	-16.0911552962629	24.6076241625928
164625000	-26.0598327873656	-117.384192019592	7.46663810675485	153.375378820959			-61.8859313632708	-167.675293453879	-15.9639100467666	20.2234227856989
165312500	-26.0828528351398	-121.471451430326	7.48073672425156	151.157999298014			-54.7767687530145	67.2455278914866	-15.8501872008515	18.064720698408
166000000	-25.9162482161073	-117.705102470762	7.48823684284001	148.556834397328			-53.0028365053416	-149.009526710933	-15.7022223177499	14.3745297982544
166687500	-25.6772085387929	-120.590950839169	7.44225321155447	146.517480867006			-52.0904165593586	164.640058622635	-15.4939562848145	11.8048835054774
167375000	-25.5713280347718	-117.478948799856	7.46630561416498	144.163751249294			-58.3686945210038	171.320549414079	-15.4495882084873	9.14195779893104
168062500	-25.3336223244807	-119.176114712252	7.46663153733793	141.914058263596			-65.1552622526967	162.8875025714	-15.2843355329169	6.4073122962268
168750000	-25.2772983727491	-115.439070874897	7.47141627328028	139.695122310337			-59.8972346746578	-89.7713269166749	-15.2600890989468	2.92384892664015
169437500	-25.1942480878	-117.881599554802	7.41813371488721	137.317893087544			-66.5959837160802	110.556827579518	-15.0368892842735	0.20007459386023
170125000	-24.843373223612	-113.016556245235	7.43091228173614	135.11314697779			-59.5243818756972	-152.297328774181	-15.0299369229019	-2.37490705931202
170812500	-24.876271886807	-114.349630036857	7.41952728587686	133.089120456466			-52.1518618891752	159.489351946419	-14.9789866518037	-5.24717180979467
171500000	-25.1761903147099	-113.96599199857	7.41342095922372	130.868555103918			-56.0969447085941	129.319043845005	-14.9913741950669	-6.9462592751076
172187500	-24.6446945472224	-112.260990217212	7.39045102359254	128.920558909807			-53.1926372492648	154.994679047217	-14.9262348720666	-10.4976167772142
172875000	-25.1556096087461	-109.775779702711	7.40911584471453	126.772599445831			-62.6335191523704	84.895668130829	-14.8140448981563	-12.8709189885528
173562500	-24.3926522481425	-110.124595963483	7.36841224606373	125.042315217874			-51.2528680425025	-157.529014953601	-14.7920595045599	-15.7378600233995
174250000	-24.8575326940191	-109.962034422431	7.39525645549957	122.729003068179			-61.1073712142067	129.554482348119	-14.8364486912697	-18.4623607339287
174937500	-24.6486502943499	-108.141322060007	7.39419251234304	121.01576456527			-54.8781076540662	158.937909993517	-14.7887757622577	-19.603110161626
175625000	-24.4915620462776	-107.703862452121	7.41870995108761	118.881450500599			-63.8971109937163	155.628935868132	-14.7835025410488	-23.0414815871191
176312500	-24.307931095458	-105.2435064746	7.41879710113027	117.077187456934			-54.583651526137	173.68065492625	-14.5914545150225	-25.4452695621754
177000000	-24.6210361164934	-104.991262293773	7.46296474109748	115.087781469963			-54.7334389656101	118.512663132556	-14.648769747497	-28.5565843917039
177687500	-24.5354193431621	-103.248635039179	7.44191585323983	113.202832100196			-63.7333600832745	37.9800468579107	-14.6599006961985	-30.9632488220949
178375000	-24.3297852960779	-104.796404146286	7.48926069845778	110.963671125105			-53.5333094136665	120.035978954984	-14.7310561547466	-33.928521744938
179062500	-24.2461069230292	-102.474153198324	7.49766416757527	109.158726908006			-59.9439542813933	-169.725270591326	-14.7531640263579	-36.228794571792
179750000	-24.4868402321722	-102.164306199842	7.52836159475344	107.074355020784			-56.9975909616612	100.583029605608	-14.6576164665524	-40.0829506795609
180437500	-24.246768110885	-99.3504177154848	7.56854144934998	105.207090315144			-54.2518611223946	-147.505016756158	-14.6850679446726	-42.7998927338478
181125000	-24.5381624686914	-101.125448710165	7.58114222225224	103.027905257938			-54.6449311494266	132.381739569405	-14.6236360129101	-45.5626734631634
181812500	-24.4742488804642	-97.2196007368092	7.59670319132148	101.049511670212			-54.3462572204541	62.3311789243274	-14.7934745872996	-48.3054394197055
182500000	-24.9543382287801	-101.394325442349	7.64454443405607	98.9561903212502			-55.9421372008945	109.999648626672	-14.7762897183024	-51.7420961177026
183187500	-24.5999328683066	-97.3630291806883	7.68076035445907	96.8795040814754			-60.9460057941732	19.3113575485268	-14.7720010178917	-54.6535031420289
183875000	-24.8683220513101	-99.6350816517034	7.70796082643993	94.7529493787699			-56.406290500738	130.557012091311	-14.8236616812564	-57.5773406364392
184562500	-24.9380010459941	-96.4494841613281	7.70191572319875	92.9562044311046			-57.5883797393867	91.4198951729297	-14.8293903738462	-60.1812752056382
185250000	-25.2619051062687	-98.3872596480757	7.7485888021096	90.6025733041213			-57.6093659771551	133.65470005614	-14.8013680185923	-63.8194026933418
185937500	-25.2800857288762	-96.1532393599636	7.73297317906072	88.6383938961372			-57.5994836651986	32.6757744163498	-14.8161090561397	-66.374628758437
186625000	-25.3552972435995	-99.3864520668001	7.75541897336212	86.2472118631373			-53.5595651168724	130.365753001253	-14.8750398367453	-69.2265718176572
187312500	-25.4122937382181	-95.9189331023432	7.73829334905406	84.3545862620477			-51.9382253266909	71.6222503845091	-14.768970976319	-72.8515558590615
188000000	-25.5941895604377	-96.7823858876579	7.74281445630462	82.0895551463035			-55.0904693607014	109.729670162562	-14.8262055449317	-75.4294189639585
