# Hz S DB R 50
100000000	-44.894388060633	67.5970994580953	-13.3440160268171	0.982414184658994			-57.254405945048	142.881189801932	-3.47541119168668	80.37840976049
100687500	-46.7026712377958	69.8188048866718	-12.8100198786809	-2.01592460591474			-63.7345955145158	-162.564405726323	-3.4025568346586	77.9784263722921
101375000	-47.5380982036005	46.9798183737701	-12.4099839280542	-3.63168729632879			-59.2842065770227	101.780279593477	-3.44943142203408	75.2038554293095
102062500	-48.1042811943546	61.8905147494795	-11.9169416649813	-6.10384593484218			-60.3843425352827	6.11339223602183	-3.44669770169054	72.2614262518169
102750000	-48.4652586460308	49.5879739714207	-11.5460574705366	-8.28092190104067			-65.7140036069212	83.0045763095866	-3.45779146708822	69.5784119780339
103437500	-52.2054605176084	38.8762756402471	-11.1397476503986	-10.8944148611513			-57.8315505916805	-19.7389457299893	-3.37832303223215	66.769189817213
104125000	-49.4302312706656	18.4164781883182	-10.7966215420708	-13.4975101760377			-72.3993199450198	177.273089560476	-3.4671773550894	64.0663831483705
104812500	-50.1867850496318	25.515123078699	-10.3644039120127	-16.1189719837063			-57.2397278692422	6.86774049763061	-3.43391911358483	61.0694520702643
105500000	-49.3918302307806	26.6653574232117	-10.0451687132336	-18.6279658299468			-58.694647876389	-141.595014994568	-3.44623350052295	58.3072809577254
106187500	-50.591171601477	-13.6860043203927	-9.69625504021774	-21.2517003749641			-57.625705478202	39.1880532351567	-3.45002122558618	55.5022143653643
106875000	-50.5887809918302	-39.8734269286468	-9.41019336225187	-24.0872123406269			-56.788067355357	-104.405059348408	-3.51089058632637	52.7779437426412
107562500	-45.2686765792331	-16.1747043523177	-9.1147214081953	-26.7414468395272			-68.6213872000021	173.791089930269	-3.45754976526805	49.5520462750819
108250000	-43.9655299620267	-24.3742316096122	-8.90989296652941	-29.8091853480148			-62.3880358782943	-67.018724416667	-3.54241620948338	46.6763648874174
108937500	-44.48707417763	-37.3768002869866	-8.6793639485948	-32.3532035326456			-61.7998436958453	72.3758001938427	-3.50320663151025	43.8782111837769
109625000	-45.607095247545	-30.8594814588469	-8.46756701052169	-35.2362373316765			-59.7926547064724	-154.720901179389	-3.61679268936468	40.9356508409521
110312500	-42.4767874031382	-25.3721946267618	-8.32229247605884	-38.0401474585587			-57.3229779485485	95.8400789452327	-3.60232165683905	38.5139133696389
111000000	-42.5457489064314	-40.8323590810895	-8.13634810316579	-40.8078274757306			-71.063276370121	-131.584298724259	-3.70182967050107	35.1180019077855
111687500	-41.6003938704584	-42.8660790327619	-8.08275603357283	-43.7633045425094			-54.5723589872003	76.0836937365641	-3.65477828879792	32.3618981918218
112375000	-42.1512084194407	-33.071204142168	-7.95217172050555	-46.5502337342339			-76.0289802869767	-45.9271958745768	-3.71343638934373	29.2490996413049
113062500	-40.0713576453902	-40.3960337924971	-7.92237709250487	-49.3959621539975			-53.7447732143916	73.7478998739297	-3.72043283475202	26.3669780623466
113750000	-39.2256808950167	-36.072404271383	-7.89879304084721	-51.9713058875317			-58.3087827981731	-49.3731525109711	-3.84598394124516	23.0722692067987
114437500	-39.9237904716921	-45.1503506274427	-7.95457365977886	-54.4671864542604			-70.476463623925	22.2527152116976	-3.81461239709313	19.8619239543498
115125000	-38.6793127702116	-48.5176474974385	-7.98638406787966	-56.8658701074567			-63.4554591596618	14.0208774685117	-3.90264330134335	16.5806588696986
115812500	-38.1394156966479	-43.6630492990978	-8.10023319925707	-59.1384339805684			-59.202140569833	92.788403215308	-3.95622437914207	13.2777157394047
116500000	-36.7910920118951	-46.2145344462007	-8.25656036514122	-61.375030352789			-56.1808543853945	-53.0024687172604	-4.00087213131894	9.71529864541069
117187500	-37.1952725838053	-48.9647645882024	-8.4997109994503	-63.560529081941			-64.0382042183134	154.488157453023	-4.03726746047341	6.39859852732979
117875000	-36.5473222711473	-45.3006395102741	-8.73952298692701	-64.8391856275067			-60.5488104335658	-68.6604969330782	-4.11439808674361	2.68850914883123
118562500	-35.7442110585616	-44.8034694997767	-9.09708504935449	-66.1845559190421			-57.8376164959569	145.924540247511	-4.15042605937896	-0.785601040427448
119250000	-35.3104420021126	-53.7496371052687	-9.48321105789766	-66.4902203987422			-57.1692241058219	-49.2461667446557	-4.24421442784441	-4.73791368178626
119937500	-35.223561004654	-50.6739097898912	-9.94800693515832	-66.1418439837143			-58.3223839645466	-151.292372130943	-4.28853714162114	-8.88470093185603
120625000	-35.3443001669433	-47.7696625680829	-10.4827161090177	-64.6062242556019			-60.3013331837684	-31.7282407427696	-4.34255461156328	-12.9338292262005
121312500	-33.8151532642529	-54.7172255813825	-10.9846960267781	-61.8663012443601			-54.132292602912	-161.380337549707	-4.39732381643452	-17.3318628030831
122000000	-34.6561213105433	-52.4951718645167	-11.3895766101702	-56.228776285232			-64.0135763883137	30.2521121136853	-4.49250381478532	-21.6146827522723
122687500	-33.9412096240637	-52.2119220556235	-11.597607493123	-49.8146879849563			-57.7530900146546	-154.294912118089	-4.59713941841214	-26.5588683545912
123375000	-33.4866954945691	-55.8235472694911	-11.4303357291535	-41.0410508721017			-57.3955031641315	20.0409515635163	-4.72013314544453	-31.3185154534043
124062500	-32.9814925127069	-51.5203545856529	-10.7239332814093	-33.0600915105295			-68.5078529766488	-34.5865239239661	-4.82478615160387	-36.2679494374955
124750000	-33.1233388300263	-54.1653492510327	-9.57174307415879	-25.6826083811893			-60.388342150467	136.643943091283	-4.97333659234187	-41.7576823689802
125437500	-32.4729067286367	-55.6047329751476	-8.2422186987759	-21.3491012799459			-60.841576448073	-106.997701344044	-5.07163281061183	-47.5026145517114
126125000	-33.0309659189057	-58.5534197485612	-6.77704672007315	-19.164450736863			-62.3356671526642	-6.52398761042149	-5.31069079314605	-52.6545575474874
126812500	-32.367470627874	-56.8172962703713	-5.31358319173364	-19.1638246151783			-55.823731435245	-55.1280710574276	-5.45176200094281	-58.5335715221177
127500000	-31.763799631251	-60.4897098766441	-3.98896614963384	-20.5066975775792			-58.6590587053981	42.1995364932605	-5.72660443061495	-64.1558504113205
128187500	-32.0685317278572	-60.8072695095756	-2.70672070883546	-23.051649354826			-61.0756356113509	-115.220257811674	-5.9189823025541	-70.2636520346711
128875000	-32.2046674995735	-62.963640557733	-1.5869209793389	-26.5646024334271			-70.054273806042	-143.478970405969	-6.30910869420386	-76.4469002221909
129562500	-31.8320113028082	-64.3983234089042	-0.583255225716237	-30.7202352228022			-63.0741281740904	-0.178631673171308	-6.51931629234743	-82.4453700971163
130250000	-31.7670474479398	-63.7922281469687	0.343749768592199	-35.2769673222958			-53.9629089034891	65.0389807714696	-6.95282768070386	-88.5817203402626
130937500	-32.0209105062099	-65.314999681134	1.14108399346166	-39.9767978028936			-78.8652048304844	-106.04096427534	-7.20127215227749	-94.3165024292945
131625000	-31.5250689387441	-68.051133741991	1.81752296940744	-44.8506246388569			-56.4974428444718	128.106922149125	-7.67281470325687	-100.740014847887
132312500	-32.1927346647633	-68.9454962542657	2.48559894242526	-49.7555857638356			-54.9988919417346	-9.98258197143603	-7.89653785928644	-106.182382233394
133000000	-32.2239539324935	-70.0386884514239	2.96277919802483	-55.0249174034827			-61.9143852085651	-146.046413382556	-8.41975092170433	-112.17558089696
133687500	-31.724335488939	-72.797804110305	3.46136552525816	-59.7060237535953			-55.3293667507619	-16.2456119951089	-8.69650034972428	-117.692604315832
134375000	-31.819601134883	-75.6845098876021	3.90149365680826	-64.5453809526501			-56.3912947160068	-137.607298947412	-9.15382263318488	-124.16700318724
135062500	-31.8495249313339	-77.3540999211361	4.27117360970689	-69.0981104648267			-53.5942545889777	7.6359560027841	-9.56146344775555	-129.162974351684
135750000	-32.3676159512244	-73.5024680041569	4.60447237004293	-74.0154394036086			-55.1566931162925	-59.1891078581713	-9.9648219496384	-134.623581016993
136437500	-32.2917725928222	-76.8376358073958	4.90043076280186	-78.4786855090733			-63.847509368955	-8.62946080005778	-10.3235855545084	-140.216204892891
137125000	-32.1331485573775	-82.5821633055561	5.19798020761141	-82.6892385083779			-54.7859626377521	-65.9540528782608	-10.7459444957572	-145.313387761577
137812500	-32.6328716863984	-83.7504796315449	5.41674585079085	-87.0972771739038			-59.8144854014503	149.386160369054	-11.1269337658878	-150.749965338905
138500000	-32.1063502779009	-86.3466177352114	5.68454673891592	-91.1619916146053			-60.1082008851715	-59.8754218066326	-11.4465630429704	-156.965406774233
139187500	-32.0910558820343	-87.7373555916021	5.86445448875359	-95.4663658962447			-59.2950994220688	8.75193253365818	-11.9269545063085	-161.50258543454
139875000	-32.5270719793842	-89.6563275545265	6.06743106643272	-99.3816042388493			-58.6575353268608	-91.9631739827651	-12.1309193569523	-166.258395042989
140562500	-32.6796338613739	-89.4957617166507	6.238813444558	-103.420073743864			-67.5365009613934	-84.7338229907766	-12.5201041169668	-171.957821557903
141250000	-32.7502485090622	-91.040172678825	6.41564824393117	-107.250258831896			-50.3883498377643	-65.723922778297	-12.869738731584	-177.219471354455
141937500	-32.3757597943923	-95.8637518434161	6.51260928114336	-111.306720747163			-60.1206502040963	-46.565291037695	-13.1517921568076	177.071611795719
142625000	-32.5411034168849	-95.4057062003945	6.66270843577568	-115.020005924271			-50.0813728667043	-72.3643020361535	-13.5140207594935	172.826778940131
143312500	-32.1471286807904	-104.491668842699	6.80759884677826	-118.973824019837			-62.4139234645919	43.616222555155	-13.7716080234899	166.878621422187
144000000	-32.4053559846939	-99.1389540120614	6.90496556379683	-122.320228417292			-53.7787541843855	-64.5943600370823	-14.2331241667497	162.410141489928
144687500	-32.3938813220846	-102.12913704099	6.9664023343885	-126.113063977436			-61.4958515548478	-86.3910140490125	-14.3406885885446	157.29032673111
145375000	-32.4122877804045	-106.145188867599	7.05969081414405	-129.762532150821			-57.9237286849808	-69.1266628939649	-14.7282179883443	151.63566675376
146062500	-31.3560263884298	-106.475367665745	7.15436235216672	-133.26793767017			-54.1683589769246	-163.864658939056	-14.8941436837525	146.126711030003
146750000	-31.7714691587087	-108.330999479873	7.2000023397798	-136.687252378715			-59.8414951544616	-31.9957994302948	-15.3064554831724	141.817685718877
147437500	-31.3603247777205	-108.931718665446	7.27588226032762	-140.036069824657			-56.2789218736919	-127.648659139044	-15.4610097879	135.332321100571
148125000	-31.4023027439199	-113.739648506975	7.29727492632409	-143.377226751798			-56.9640834044258	-56.9091888891845	-15.6858977628524	130.713435596572
148812500	-31.1561925962521	-116.113010830522	7.35386538251018	-146.720173755122			-55.8433392628076	-126.258024053887	-15.8632228034196	125.336918465012
149500000	-31.2648604813485	-114.92410270965	7.37099021758523	-149.709537521259			-60.6492971684086	-32.9644911406901	-16.2921760262915	119.669352958161
150187500	-30.4893453025404	-117.254743763134	7.41693571549027	-152.942003626257			-57.1457147655044	156.171221054147	-16.2271249342151	114.374411486205
150875000	-30.7972809521911	-121.094765981429	7.43415725713372	-155.992536501662			-58.4312481847623	-133.353079403409	-16.6484293331107	108.622073901105
151562500	-29.6006207281255	-121.139508960842	7.46116518746539	-158.860022373154			-51.6800455652846	-126.281302339408	-16.5712898930072	103.970088258242
152250000	-29.7369739976449	-123.076028567365	7.44918707291839	-161.703958990161			-55.5467702948035	-70.0717128334234	-16.7926332637144	98.2131762677328
152937500	-29.5665224283222	-122.289541021387	7.51831108679208	-164.415796692408			-55.872793426839	-169.866828539178	-16.8066640728733	93.4969683478087
153625000	-29.3203958321346	-124.013697866808	7.48870558994538	-167.30346929947			-63.4762851478725	142.971383954543	-16.9730102105463	87.0013873592332
154312500	-28.9969777976244	-124.73912047143	7.52631068527086	-169.935573172933			-49.6036371497447	-119.220937713756	-16.8934377100468	83.0842544781999
155000000	-28.642589297728	-127.733992848188	7.50529279852322	-172.847999574338			-55.4057177098734	-178.828316817821	-16.9028870116013	77.4945543970368
155687500	-28.6051091227174	-123.54763698214	7.54547186570579	-175.321226944705			-57.6739814379817	-132.182149369853	-16.9091847439145	71.9034957702034
156375000	-28.4426841627204	-126.789724809524	7.55877679229455	-177.995808551435			-61.1626552674083	-143.01968224641	-16.9570255957422	66.9006804996565
157062500	-28.7914593634312	-126.817032553933	7.55453274099236	179.460038187243			-53.2165042806879	-119.893197418884	-16.8728040774852	62.5327592265863
157750000	-27.7786103347306	-125.751863635426	7.59430704158481	176.971837832112			-60.5798255752263	-148.946172349996	-16.7097889031108	58.6433397875783
158437500	-27.7489991021085	-127.979514856541	7.59478991833661	174.568452316611			-61.3871652448532	-124.714740569501	-16.6422780040753	53.6829811079709
159125000	-27.4453704936029	-125.863195841716	7.6208134305646	171.741598940164			-54.0808013580175	148.666231876215	-16.4355194158076	49.6828111800192
159812500	-27.7619936260684	-128.184279354813	7.64197004523305	169.393616185267			-55.8019676298273	-116.141174012305	-16.4663866939896	44.5480899763076
160500000	-27.2409305668297	-125.372574524383	7.65946904356009	166.913090650931			-62.8253389991006	167.674027937421	-16.2561830246306	41.8891769295184
161187500	-27.0541739940977	-125.326580812584	7.63025785383301	164.614886608193			-56.47674151647	-140.256627947937	-16.1162794574055	36.7780550556379
161875000	-26.7663878887755	-125.745310086623	7.70432932258639	162.114475867131			-53.8811305404042	171.300977330165	-16.0928068930809	34.4558725378098
162562500	-26.5949338755477	-126.634541118256	7.6754611381521	159.421013654349			-55.4718917321036	-163.818386079582	-15.8664554830484	29.4100345111543
163250000	-26.4422393443029	-125.384431995893	7.66804683641132	157.01237304435			-50.4307053069536	-162.94676534777	-15.7728428282989	26.8328299656885
163937500	-26.2772542431767	-125.001178199506	7.68995404363456	154.788468323702			-56.9239294916436	-148.347133018733	-15.5121372005472	23.3746601657197
164625000	-26.38649200945	-122.717391980249	7.69418691472362	152.124259664165			-50.4272606807303	161.124618954199	-15.4323932557241	20.2325193108366
165312500	-26.1054972510571	-124.556519155514	7.69333942537862	149.866033472707			-59.4471467672713	56.781904944922	-15.2545475980971	16.4302987191628
166000000	-26.0799915679483	-121.936588997021	7.70399361951575	147.46063110201			-52.6752901801068	174.956517852722	-15.229436042719	13.6680587679766
166687500	-25.52466626164	-122.628833481967	7.68888997095071	145.087986716685			-61.557178335305	88.6932940727211	-14.9504844876673	10.7312834618305
167375000	-25.3963243670913	-122.064164471098	7.67489373186371	143.009848956968			-55.1784609353233	-170.027271043227	-15.043243021808	8.11354020679139
168062500	-25.4624207983088	-122.111061032793	7.6957668656895	140.562040317583			-57.25511073464	139.358088537243	-14.7538539169442	5.47786279852083
168750000	-25.2186805079399	-121.653350125996	7.66938757730546	138.568533728162			-51.4411664097214	177.609919221359	-14.7678497526793	1.92067152312222
169437500	-25.0558692164968	-120.369664265518	7.65717464223859	136.307593047237			-60.9273709319691	155.485060013131	-14.6214096119447	-0.647675740606418
170125000	-25.1082565107106	-118.766637613579	7.64110600043663	134.209170751266			-60.4057150946937	-164.215039700892	-14.6359170025929	-3.83241868241061
170812500	-24.9923818499547	-117.300138867023	7.63032196862669	132.02829092566			-66.2276282481784	165.347314955297	-14.4443731654322	-5.87181706313539
171500000	-25.3196760611742	-118.783622119305	7.61661813988462	129.957927045059			-56.6729705635734	-145.278631045911	-14.5295320791835	-8.3605590446396
172187500	-25.0808551084716	-117.334472687248	7.62126451021542	127.702000541735			-55.2325047173717	118.010185354135	-14.4435972377013	-11.5146444890021
172875000	-25.2129987997374	-117.039588449485	7.61277985089002	125.861282981131			-68.6924241772368	154.762493345456	-14.4388196557792	-14.3647701581994
173562500	-24.5637981750374	-115.443362167525	7.59849299093001	123.828749406609			-49.4121200215898	138.845093387642	-14.3083012428758	-16.5841665069845
174250000	-24.8774961548561	-112.7278160415	7.62631913774018	121.77194699751			-60.5686679661068	-158.692234949543	-14.3059854638012	-20.478967657604
174937500	-24.9885166608358	-113.313074167132	7.6253508800796	119.820337141564			-52.2469894241735	149.520480108625	-14.3256358046425	-21.7482479729458
175625000	-24.7050300149181	-113.348416469129	7.60583596907508	117.884940992517			-66.5457228553556	-154.355409930415	-14.3255941804579	-25.6367028728813
176312500	-24.7678328012676	-111.897369486504	7.63982083669231	115.895599518321			-51.8233625713802	-179.515477773086	-14.3289741663226	-27.4913371647054
177000000	-24.7463914403048	-109.889811915955	7.67488916996209	114.292392883033			-60.1409039854083	67.415255778974	-14.2867201921954	-31.1810282057611
177687500	-24.6765269509698	-110.346548895525	7.65746878997362	112.006364536862			-50.6609798233993	170.375934242782	-14.4220753024034	-33.1596261463221
178375000	-24.5445905942009	-109.371897929706	7.67770856193105	110.171988780263			-65.9633256498595	78.2470730683071	-14.2930630008838	-35.9305698110118
179062500	-24.714043403799	-108.217120140712	7.72395350618662	108.063263114648			-51.3730943991619	141.985451504035	-14.3645208846057	-39.2541877615648
179750000	-24.7073467049479	-107.496509770959	7.71205006593481	106.118104111453			-76.9905168412967	-123.161454425416	-14.3036338715491	-41.6225394512303
180437500	-24.723312712023	-106.90188992615	7.79925258353553	104.129620330351			-53.129085430315	162.206973513158	-14.3775308783175	-44.6486747177416
181125000	-24.8312077800027	-107.265587752819	7.75767324428035	101.919071044805			-52.3520556063782	84.3888870133842	-14.3592130295161	-47.7727031119321
181812500	-24.6546707481373	-105.174369583088	7.80330219323009	100.033367859347			-55.9169984562565	171.183395122973	-14.4634995162249	-50.8252897621245
182500000	-24.8802739315214	-105.471428557489	7.83570416936033	98.1630344608456			-54.1313128651716	93.2052849597102	-14.4484806044302	-53.422585981711
183187500	-24.7257583284756	-102.361014927646	7.87776732922183	95.9359038216978			-55.4781587240182	141.517554995927	-14.4235819572469	-56.8956921348022
183875000	-25.2130351693149	-102.382765464484	7.89928589572893	93.9798793505539			-67.9628035389941	78.6876630494194	-14.4804588697825	-58.7122678285901
184562500	-24.8882469360945	-102.628595555365	7.92480626516717	91.8948348585699			-53.6388391238662	-141.070812067642	-14.4708687842788	-62.6726605003333
185250000	-25.1087187986131	-101.870635590642	7.94223197861994	89.745705739265			-53.4979647145994	101.417529336386	-14.5721677883178	-65.6736219149892
185937500	-25.1161365559157	-100.898947673997	7.93227861055858	87.6108546891477			-54.7915618970054	152.602238225421	-14.541403646086	-69.162791502109
186625000	-25.5572387789879	-103.361294666946	7.96269328362891	85.4193289037217			-61.130935248472	78.2071651887151	-14.6402932584395	-71.2319373304817
187312500	-25.6383093892327	-102.708930088154	7.95595900373376	83.5570091636168			-71.1746050326678	78.7229330770929	-14.4133686025907	-74.9781900307875
188000000	-25.3678740528819	-103.591758492834	7.92964738473919	81.4239889122219			-51.8764329763806	149.194836029095	-14.6117085040502	-77.4356328844586
