# Hz S DB R 50
100000000	-34.029832632534	26.8620950722672	-28.2829340293585	7.74038683109365			-59.5501649631389	-52.1440994786829	-3.44202246132269	80.5093067855007
100687500	-35.1372858494327	34.7731043223427	-28.0384332098175	8.45483671672669			-58.0691739929733	132.381096593407	-3.41155715070439	78.0985920129448
101375000	-34.1965400355364	18.6163386349384	-27.1180371662772	5.39494050952856			-59.5002276474077	-57.6353296738266	-3.41486572004952	75.0006842492133
102062500	-35.0793535650003	24.0551542809469	-27.1854688063924	2.17799892395658			-59.1641799438435	124.485922907559	-3.44542800496726	72.4408839331436
102750000	-34.6930054243032	13.9479433222202	-26.5979757384895	-0.275952233379206			-69.7575569632219	48.6780968355065	-3.45466009424506	69.4468483904141
103437500	-35.7360549017579	15.5266714730006	-26.4282610324939	-3.70391856374095			-59.3364519997439	163.683295687753	-3.43189822032389	66.9006004593963
104125000	-34.234854104598	8.39603177885373	-25.8323724292045	-4.71048486495214			-57.4399940779212	-24.6231261718864	-3.43129334140469	63.9419838873035
104812500	-35.3215363705462	9.36216215155097	-25.6138161045439	-6.37675704443748			-58.8989025041895	-98.4308293353561	-3.47856253118251	61.1615555994831
105500000	-34.4868862065663	6.6997764148855	-25.0778754258449	-8.39521215526392			-64.7129870402624	5.40110783896223	-3.40682565445497	58.5697012664878
106187500	-35.9610704482957	1.57630845720038	-25.1285098805374	-11.798458321621			-59.7842768041561	106.089125273797	-3.46831964569397	55.6208306114476
106875000	-34.5281711150177	-2.3033372863493	-24.5242009886341	-14.5536322409072			-55.002781973919	62.3644237580297	-3.46842491121762	52.6978557526164
107562500	-34.5978598250523	-7.55102370014119	-24.3315568829995	-17.5632663756314			-54.9202493320003	-114.329981673155	-3.49484484264001	49.8027549022168
108250000	-33.6333357522547	-6.47269297421247	-24.0107828313701	-19.3221975721443			-67.0025514299317	103.759007977406	-3.5233769220304	46.8259991919814
108937500	-34.8488213665053	-16.2266866863141	-23.9605273329224	-23.1921941428477			-60.4066197364594	-179.036157333737	-3.55303999683293	44.0835201555628
109625000	-33.9407942519115	-9.08258317432909	-23.538503660339	-24.8611182099188			-56.2692591150026	32.7148728692442	-3.56110232803368	41.2657126647051
110312500	-33.5455203571674	-20.1414144126555	-23.3765446951712	-28.9310416129674			-58.4813405991622	-113.592324977649	-3.62795507724195	38.2686156094985
111000000	-33.4435673154819	-15.0480858437858	-23.2712368165819	-29.8692584089195			-65.07848771705	127.980396842435	-3.68059074058837	35.1719341814503
111687500	-33.5669875043007	-24.603387381387	-23.1564884866678	-34.060465633442			-55.5837427408439	-89.6590128564071	-3.70287788214543	32.2079874808949
112375000	-33.3595945534429	-20.3047176304309	-23.0671925258109	-36.462563997436			-53.8010420245468	103.696777924225	-3.73113158271375	29.5833862477532
113062500	-33.2042809797139	-29.7256677036929	-23.0322565217184	-39.6898069613929			-57.5029837829234	-74.7844024554151	-3.78225054404979	26.3896508680147
113750000	-33.2324286355398	-21.5670043669915	-23.0640350752339	-40.9042206436491			-56.8478550456929	82.2238050227339	-3.81927480048378	23.4845118277514
114437500	-32.6441273754067	-30.5821885200205	-23.0464186758365	-45.1558286279424			-65.6522608583709	-54.575393766031	-3.84243916428905	20.1596069645474
115125000	-33.0352581806253	-29.4216591000823	-23.1994713663581	-45.8756840550525			-55.6936123326574	134.570882073239	-3.91271452254051	16.8574543510147
115812500	-32.2285266575494	-29.4905266046443	-23.1657275809041	-48.097755881925			-65.5751405048678	29.3390286635553	-3.96153908250834	13.4522613975447
116500000	-32.6348145443935	-33.2685198648775	-23.4694500548008	-50.4063764786631			-64.8326511470195	-24.8381503330895	-4.00991991838786	10.0534097868119
117187500	-31.7542388833161	-34.7575998827179	-23.5302494648192	-51.8092692036688			-66.503682713364	-17.7696427462912	-4.04626329568587	6.67056277432035
117875000	-32.1022192975623	-33.6894381131125	-23.9264211036076	-53.9983736856412			-64.0804043892846	123.018800174084	-4.13080104073912	3.24721039918899
118562500	-31.0152110058776	-35.4269860220545	-24.1246868670928	-54.928304748536			-60.997597185593	33.5649480033927	-4.16002069744563	-0.444272559289151
119250000	-31.5404627549182	-37.8495469307716	-24.4745679931672	-55.3821146141601			-58.2200748467325	-148.862431787839	-4.27555991929951	-4.25128009334853
119937500	-30.6158995558267	-34.4270923470117	-24.8988126079855	-54.1189378523725			-67.5789970630686	72.2567652103696	-4.29239071219531	-8.59011256643464
120625000	-31.4234499429705	-39.1030558208929	-25.3298034476305	-54.8675576063936			-52.3960461163882	169.349754208676	-4.42253271413	-12.6359420951652
121312500	-30.4216699276248	-39.8386103680439	-25.7825201959796	-48.3313001491577			-57.1705649924351	113.306851804925	-4.45182866864726	-16.8187283447803
122000000	-31.1169504968726	-41.6450696820315	-26.3337618331986	-46.6153804315326			-71.0925348816336	-163.73053178949	-4.51757924503782	-21.2453816700741
122687500	-30.9543333232149	-38.536137171187	-26.4493162661175	-37.9692442067363			-61.5227192610499	20.0161962164492	-4.63132713859705	-25.9056066043777
123375000	-30.5762053563965	-45.3104716250708	-26.4850241290552	-30.6670438816865			-67.6477323871675	-36.5656569513527	-4.73558468444983	-30.9547295983998
124062500	-30.1544479451803	-40.0760497620212	-25.9338390060476	-20.4138819717405			-54.4288294856112	71.4240311839677	-4.87400901737991	-35.6538493400893
124750000	-30.5405859369267	-44.7110638083647	-24.7057224925788	-15.6213345286148			-58.3793789051678	-85.2514000906157	-4.97358253891557	-41.1442937448632
125437500	-30.1649347379419	-40.5437538297787	-23.2965014426777	-9.30957958188903			-58.9462932507778	56.7598156791807	-5.12183534110996	-46.8667780574138
126125000	-30.5568510355726	-44.3134812341771	-21.8451565076067	-8.71647187409117			-70.0115942767812	18.7481849041796	-5.34142210367485	-52.0677022991825
126812500	-30.048835595309	-43.4630889670166	-20.4518645198653	-6.77922317484504			-71.5581631479644	175.585445447749	-5.54839369259437	-57.7497111752723
127500000	-29.5162653399068	-46.0223166269075	-19.0151465695288	-8.936353971205			-58.4561424531955	-99.8912412604264	-5.74108066508752	-63.4517074951709
128187500	-30.4351173283431	-45.5920892728179	-17.7732704904513	-10.6301665843415			-54.1128515428681	57.9136945996169	-6.04012643396398	-69.4853029450355
128875000	-29.7997396458877	-46.0645505443168	-16.5074350385498	-14.9716887296696			-61.1327774459573	-80.690734870285	-6.31998380095271	-75.6446082449342
129562500	-30.1720868650752	-50.0848952202719	-15.7001486262392	-17.9211915725604			-57.9017395098501	81.6361118065129	-6.64023899881632	-81.7316890003137
130250000	-29.1822821985646	-50.0617229206891	-14.5704602075938	-22.8493261880716			-62.7664840960959	173.059882626518	-7.01003413358393	-87.8275853206626
130937500	-29.8898828203937	-48.5635394842859	-13.8990051312013	-27.1985795427581			-60.4984147289788	97.0417694637078	-7.31295463519161	-93.725117195586
131625000	-29.2237185992825	-49.1744400273641	-13.1563041700261	-32.1393869736712			-69.513771382938	-102.787771234479	-7.74234008930379	-99.5485567883457
132312500	-30.1363429255711	-51.6202009658601	-12.5759124125298	-36.9974130012799			-60.2020832594514	118.37090059939	-8.07165436066714	-105.515721947625
133000000	-29.6266610243522	-52.53489077399	-11.9441073362519	-41.8911644397117			-57.2732068465994	-8.59383146765669	-8.53731097397223	-111.489124748437
133687500	-29.6634583000482	-53.7759644193647	-11.5415110616838	-46.8267759554141			-66.3801567569073	-77.0308854159786	-8.91020281343736	-117.31304213585
134375000	-29.6831020382168	-52.5140164230236	-11.038602595725	-51.3244731132997			-55.6453286539805	52.7458515706455	-9.32837552544661	-123.204395502802
135062500	-29.8680123901576	-58.2572753399455	-10.7021404059829	-56.0606287137416			-55.8144910874046	-161.456103096344	-9.73355384605247	-128.813867608481
135750000	-29.6820254941198	-49.4629308379581	-10.2969287532689	-60.863479857598			-58.8085175688743	54.9707337900838	-10.1653851492641	-133.802778086806
136437500	-29.7935616364646	-60.6243110207404	-10.057405771465	-65.4045849308516			-56.3831024000734	-93.1411922450719	-10.5684562528051	-139.458388302647
137125000	-29.7396622708508	-55.8545890063028	-9.69926585956111	-69.4575746183999			-57.635611876875	52.6045614811674	-11.00932404622	-144.83132381938
137812500	-29.7133478065352	-62.8888900414902	-9.5350416339161	-73.9224967215408			-58.1000967169957	-131.214538992284	-11.3693003380862	-150.093153170732
138500000	-29.9913585748664	-63.5223462066441	-9.1895129689854	-78.0112652534536			-58.6465028473137	70.5076933669533	-11.7556708975985	-156.041804525356
139187500	-29.3187836155002	-65.2622860943286	-9.03601973689328	-82.1652972382946			-67.9194142467841	111.753550989513	-12.1565988199713	-160.631515243633
139875000	-30.0221622826821	-63.2563146259582	-8.81169857841807	-86.3596328088719			-71.192367565137	71.2950540851798	-12.5068458484478	-165.955440621524
140562500	-29.7531703434743	-67.4149279394805	-8.67934338926759	-90.2610569816491			-52.6409893070622	-100.251587804313	-12.9142473928372	-171.198248239325
141250000	-30.4937493133719	-66.8519628004342	-8.49771118812146	-93.9393046951662			-63.9213739101783	68.5035047588879	-13.2272408242125	-176.360851373026
141937500	-30.0031019913764	-69.5677226261179	-8.3464743976181	-97.6526168132723			-57.7514188172726	-124.293939111647	-13.609074835744	178.455495783078
142625000	-30.3695392424789	-68.8278228514014	-8.18228706320538	-101.605403160072			-54.5725597745387	58.7667625762167	-13.8908940352032	173.712160689085
143312500	-29.5883408658186	-79.3071439476582	-8.0822407305158	-105.209481079437			-57.030270967567	-83.2301891670533	-14.3093385532563	168.146481145375
144000000	-29.9670026036978	-74.1657833467701	-7.96095286034683	-108.769888379575			-60.6433953006652	68.979534498254	-14.5228099663045	162.749017984806
144687500	-29.2247961650519	-77.2073046512337	-7.88240718515054	-112.418801562609			-57.976340716442	-3.675889126182	-14.8897267407634	157.804069433385
145375000	-30.4956531855147	-83.8663721634775	-7.80631138689721	-116.059736634391			-63.2384882005841	-84.7847027915097	-15.0598908493812	152.400782055482
146062500	-29.2329011858693	-81.3491142946964	-7.72844387196422	-119.28842636638			-63.2180484054968	-10.8157392916623	-15.5557448056029	147.034189519215
146750000	-30.1296399777601	-83.5953851330994	-7.67681195567836	-122.960721321097			-64.5513817774303	-158.174174180917	-15.7319022907276	142.40909841991
147437500	-28.978173092915	-84.0918756838551	-7.61252154598593	-126.020975942294			-60.7150754664761	-28.3789760764769	-16.0439217043899	135.879723901353
148125000	-29.6045163994853	-92.9678571092426	-7.54151772952282	-129.584278873785			-59.0896409653562	-163.441498821963	-16.2531590678238	131.654363477136
148812500	-29.0560196001261	-90.8988256481059	-7.49318647878932	-132.567136383818			-69.1625910645493	-78.1421156532036	-16.4447320942075	125.517061825239
149500000	-29.412135908639	-95.7665700083454	-7.41827880213905	-135.720911495026			-62.5139731049644	168.504903789921	-16.700362447143	120.342241190696
150187500	-29.1145999189798	-91.1327727213942	-7.46604608987086	-138.67625316688			-63.1638996031428	175.778427725156	-16.9210701140784	113.931635674509
150875000	-28.8138260088956	-97.712073325351	-7.36735717580167	-141.777914365497			-65.9413621994765	-109.44199040733	-17.0993105515148	109.455792949489
151562500	-28.6410941494178	-94.6919519665933	-7.45427086890432	-144.508503263195			-55.4844472227998	57.685162687782	-17.0915989952287	103.70682815353
152250000	-28.7087695362844	-100.570749167999	-7.33838218785586	-147.425595836651			-55.9812922889327	-134.246141519326	-17.2405656557271	98.7433082148522
152937500	-28.6841080182608	-99.6769940895274	-7.33220821679692	-150.001874786803			-66.5371287781644	-126.419703903989	-17.293468147225	92.7789527598354
153625000	-28.0431843559545	-104.956127286433	-7.30380854237901	-152.905326058734			-55.5727977501772	170.500479227344	-17.5040720297043	87.9075982677802
154312500	-28.1371787337271	-102.467713814917	-7.33916071850916	-155.600106289038			-57.4430497004468	96.3467444316116	-17.3681837855796	82.4145464550481
155000000	-27.4119729789458	-106.812795721668	-7.29151063406086	-158.18877770937			-55.2595651987644	-127.771181325532	-17.3449573101422	77.104971717909
155687500	-27.8368404309866	-105.663227379609	-7.33921061298265	-160.484852145439			-56.6111542736378	-5.13906429252502	-17.377074373857	72.0014776278346
156375000	-26.9760434827486	-108.979349100725	-7.17142640163665	-163.301521108123			-57.0419480508877	-147.167412497109	-17.3982758507393	66.5620680019932
157062500	-27.9069347510717	-109.147651082192	-7.27784946151748	-166.075033538796			-56.0570744070767	11.2669183713601	-17.3499769165597	62.5396132835702
157750000	-26.5172379435274	-109.364749416609	-7.1664645842028	-168.361954314185			-57.7729912773554	-99.794344204074	-17.1596582053383	57.1800511128144
158437500	-27.1102202878371	-109.738317707076	-7.25003759161838	-170.828352604027			-62.8661834466051	12.6956340593284	-17.0995709071241	53.5672142371284
159125000	-26.1727306707591	-111.959086163197	-7.16839836309682	-173.422485639316			-57.7963535861703	-17.8927848260539	-16.9036667642715	48.4660781386787
159812500	-26.7406822370059	-114.709209587097	-7.17857952811773	-175.875358626314			-58.4375615934136	172.805593099733	-16.8856339915115	44.8299607404864
160500000	-25.8567824551694	-111.081188635595	-7.10487722057841	-178.226451339075			-68.8361363212604	-35.5952029428474	-16.6272090504387	40.5241264201256
161187500	-25.872358200483	-112.782505064885	-7.17546278805704	179.475084231851			-54.8160063476112	-175.052064406826	-16.6170773554131	37.4343628331532
161875000	-25.4991957640629	-111.927347041448	-7.06029251380789	177.095726578482			-63.8176916681843	22.6315321639573	-16.2995104716202	32.9669973212278
162562500	-25.5231301606378	-113.711831395125	-7.10837821234034	174.56751365317			-58.7606334793528	135.292684747104	-16.2906744445222	29.9626918517132
163250000	-24.9787971735602	-112.346238952578	-7.07222036650679	172.210975267412			-73.8786188939845	-173.821763321491	-16.0220873095104	26.1588586508626
163937500	-25.1165636438738	-115.448104437289	-7.10042097584036	170.043656668877			-55.8989053656842	-170.978334504432	-15.9902391900118	22.9144511502517
164625000	-24.8295730244089	-110.054965142977	-7.06669295836024	167.329066042001			-59.373255928028	114.083043627247	-15.6950412365104	19.510639032093
165312500	-24.7223787261764	-113.98273697527	-7.10185674152229	165.084247004743			-59.6387807807453	-153.661848911684	-15.6398642939788	16.0422753972654
166000000	-24.6272894277173	-110.492750374618	-7.06207000981555	162.713546071287			-63.9579153689364	39.7624906726565	-15.4152610231944	13.6012107123369
166687500	-24.3388862724842	-113.569220535984	-7.11181332294289	160.695458334723			-57.4521369192071	-167.185013799829	-15.469512299637	10.4312150605749
167375000	-24.2687635643904	-112.452439316026	-7.04911364854707	158.34726867012			-63.6658173911147	86.4900685740297	-15.241045400586	7.99281078930653
168062500	-23.9330734177436	-113.762279226574	-7.10531338931224	156.400801335652			-54.6716920989384	-48.4551835566264	-15.0425310792108	4.83333167354781
168750000	-24.2336474826212	-110.452661721775	-7.05321741752445	153.89949036888			-58.3264907981092	74.0736744464543	-15.0083059442495	2.05872775823085
169437500	-23.8161059484658	-113.961495275893	-7.11576113076146	152.022900722969			-62.1297860335416	-121.676337955455	-14.9529492347964	-1.34091227752034
170125000	-23.8223712391483	-110.511229878057	-7.05946130515582	149.615021202424			-62.0571862536835	99.4214803763829	-14.9239547778305	-3.28188677911582
170812500	-23.5841012804287	-109.696403121097	-7.1789015164969	147.771503625433			-66.9924049809101	98.4768560455687	-14.7998888623458	-6.74457543203749
171500000	-24.0105789440577	-111.383784195201	-7.08092290335264	145.579159116272			-65.8732335078913	100.183893463675	-14.8958103341725	-7.8673616983045
172187500	-23.20673370895	-109.419180322771	-7.14544607635173	143.608070974365			-58.5514619841076	-84.5057111396662	-14.7315225125228	-11.8376290542208
172875000	-23.6903959023676	-109.131184609416	-7.07973251501309	141.642664176711			-52.7418483027954	118.601572076533	-14.7299627910226	-13.94679724972
173562500	-23.1152162355034	-107.842562791221	-7.16120783942291	139.928031245914			-57.0243300438357	-63.715587549695	-14.641491622665	-16.6620393562276
174250000	-23.389170680937	-107.073395126831	-7.07926478520851	137.77887331713			-60.143458403131	172.458147048604	-14.567182949464	-19.5818178873798
174937500	-22.998286353604	-104.417543957756	-7.15608999433501	136.116912782289			-57.7937340332157	-25.1405194933874	-14.5362328368427	-21.4864854824879
175625000	-23.0860545477743	-106.777728790252	-7.07496027226869	133.938581239999			-55.3632245110272	170.186182660454	-14.6691490938672	-24.8316760684551
176312500	-22.9922881475203	-104.978841103	-7.09851984884337	132.21727569993			-67.5219220967995	-142.703173443195	-14.4286117657518	-27.2913858344052
177000000	-23.1507290531519	-104.524799208677	-7.03717309742156	130.588696842777			-64.1214613530133	-23.7435830592062	-14.567443815172	-29.8613520023818
177687500	-23.1380683437677	-103.049399068471	-7.06683759040508	128.60879018092			-56.5105557591531	-19.6451559260495	-14.4992285555713	-32.4574143834923
178375000	-22.9995980009585	-105.873012493143	-6.98375293910237	126.584357395506			-55.8960420616871	-130.402103527816	-14.5657528169252	-35.8454555564896
179062500	-22.965525730927	-102.505158185919	-7.02090987350845	124.727479895443			-63.9938204374499	39.7817464860007	-14.5601153940862	-38.2116011853247
179750000	-22.9275578071173	-103.618875353798	-6.96443870629134	122.736822356165			-62.2412778738504	127.457213875731	-14.4896997236365	-41.2530959524089
180437500	-22.8889074543909	-100.037532436314	-6.93925747290865	120.80516788217			-59.8857030729064	-18.4599163359403	-14.5735182341982	-43.9549645311161
181125000	-23.0457137840226	-101.483006024825	-6.88971156284197	118.734146384011			-66.1458751646671	-122.274308549228	-14.5057977831831	-47.1558865045936
181812500	-23.1210658303382	-99.7221498104709	-6.91992502778687	116.726059824745			-58.2668170748442	-9.63137298769981	-14.6472727020561	-49.7527800189979
182500000	-22.9925122465923	-102.478291106667	-6.80790160015545	114.827882526589			-62.0617404673811	171.167927857154	-14.5790105961731	-53.1020685831469
183187500	-23.3160088759299	-99.0555101723923	-6.80520285390652	112.514656190286			-58.0546365078929	124.679575754422	-14.5738935248649	-56.1031987912922
183875000	-23.0325691829497	-99.9306741529539	-6.77933358177193	110.798983775991			-57.091300854328	171.115043757068	-14.6392112217649	-58.4709703482307
184562500	-23.1982508463877	-99.4552370027772	-6.73881586886687	108.948389950182			-61.3693762374281	-15.4312548238101	-14.7131505571858	-62.0317801630335
185250000	-23.2109574457382	-99.048577700769	-6.74634688085441	106.769234785163			-68.6294069215207	119.242378192802	-14.6171321148245	-64.9910624677838
185937500	-23.606010167196	-97.5495026270464	-6.76339383284955	104.621052438899			-51.5982814135554	101.527617344089	-14.7404365138508	-68.3094022953139
186625000	-23.3336817870325	-99.9433119673184	-6.71030883230108	102.433684363052			-70.9462200918494	-75.6713534578375	-14.6937796763967	-70.3110003439281
187312500	-23.7346232207008	-99.4920043085499	-6.74019196294662	100.408361245296			-54.2162092566483	79.1435084829432	-14.6224752239694	-74.0969748256767
188000000	-23.7072395662062	-99.6237187321081	-6.66342789351916	98.4766583023669			-57.5682977282027	-54.3840962719289	-14.5878516337911	-76.5350811669704
