# Hz S DB R 50
100000000	-31.8327168485849	141.804038465079	-5.8832680080317	4.49265956871466E-02			-59.3885879420961	115.753104461678	-3.46633804619734	80.4344905480636
100687500	-30.5775728078318	143.123596387805	-5.46412971024067	-2.3483049805811			-68.1554913364424	-155.245944551021	-3.43004542488245	78.003213403882
101375000	-31.1109874808619	137.601342533585	-4.95491317816012	-4.15049829529256			-58.4649331721952	52.9273110138477	-3.44957074980794	75.1374409211368
102062500	-31.0664674285558	138.103700360063	-4.55332302717022	-6.81191391507768			-58.1637783356793	-98.5456371009826	-3.44361943147702	72.4242259208684
102750000	-31.5344140319658	132.953937881099	-4.11738663176253	-9.01714150314197			-70.0994474157961	79.8271620585596	-3.45158652616501	69.6092750183036
103437500	-31.1727984824384	133.904366522485	-3.73918675419199	-11.6819495887819			-64.5360836409054	-118.966241121594	-3.44266818191658	66.6435140402485
104125000	-31.5751120286241	130.698083807143	-3.33581042892511	-13.9283457340997			-61.7366744118326	115.440603748702	-3.45167359713642	64.0035996533164
104812500	-31.7142145543403	128.729951373436	-3.01340899865732	-16.8435522987896			-61.3576398828626	-62.3410124974849	-3.47681569913653	61.103122335994
105500000	-31.5243145925597	122.714860533894	-2.6157482940837	-19.2089797913491			-58.6545747373765	67.5396589629991	-3.45369142754063	58.2704341829258
106187500	-31.684984582825	126.194069620009	-2.29750676163714	-22.1892155949477			-56.0641614311418	-29.231563766294	-3.4438037680502	55.3593920351156
106875000	-31.8491833057261	120.708215137139	-2.00958635323246	-24.7943301723791			-55.566891152879	112.057351455715	-3.49761375148029	52.7973900585567
107562500	-32.6442346176345	120.432875645605	-1.74076465784442	-27.6194124932242			-74.2160064507648	-9.90958364817045	-3.46258070415751	49.4567486413173
108250000	-32.8456487587728	110.85661292338	-1.47704471817892	-30.2100850664128			-59.6742902063812	179.91409967044	-3.5370845183126	46.7618479746505
108937500	-33.5953067420471	107.301869720029	-1.26923820089503	-33.1753688632912			-58.3389512510746	-10.2207873709289	-3.52822546703259	43.6551348567534
109625000	-32.7571861254982	103.219293199167	-1.04068694875799	-35.7119559134637			-60.7611036741724	159.679014552559	-3.59574154780021	41.2652886095086
110312500	-33.3498636055103	97.7546743298049	-0.891412552311321	-38.8119909667078			-55.7369728406598	-11.0437106933691	-3.58573624981154	38.231016121289
111000000	-33.1439429605079	94.7379774711243	-0.70700043558719	-41.6379356400858			-67.1131841704541	158.536343771601	-3.67779440647577	35.2019010184819
111687500	-34.4162181459879	91.5409017449745	-0.647220612482068	-44.5908725330751			-63.969018716791	-25.6901349621803	-3.66412913962778	32.0614974733566
112375000	-33.1529558519603	82.9402845285313	-0.510986117750881	-47.2477777925929			-58.623893967251	-62.9351631622519	-3.75367473299123	29.3514045413409
113062500	-34.2301110599016	77.1454328977357	-0.504559866467214	-50.1457631850695			-57.1849214077809	-7.44937588669377	-3.71988501900472	26.1662083653216
113750000	-33.5394583125734	76.1529451689623	-0.472676809735812	-52.5611349856768			-61.2639556177286	-55.4593646178217	-3.8433775217971	23.1739953469531
114437500	-34.2092326394805	64.9160642266601	-0.515329806278524	-55.2891081194523			-78.7080111980823	135.264175511284	-3.81565904343484	19.934506471529
115125000	-34.0153473847611	60.5886489318429	-0.555086843920649	-57.6940174102863			-58.4327901292594	-83.4429433640423	-3.91889254343069	16.7795039057661
115812500	-33.1546588351914	50.8435400030788	-0.65597362903171	-60.3371843151811			-54.7564182225847	75.6512144382536	-3.95889453117152	13.1893334938407
116500000	-33.6370754774678	43.8165927382749	-0.804526056551795	-62.203088984221			-57.0000666231602	-118.500418885001	-4.00608489669757	9.62108465845338
117187500	-32.5327806207589	38.0745838206628	-1.04923023252374	-64.1762336206357			-66.1592499878435	46.6384214129466	-4.02831968917621	6.24469979367179
117875000	-32.6705561659383	32.2608247641039	-1.30746136880585	-65.774431758693			-64.3851059066193	-119.217778811852	-4.12035309984303	2.81741215193316
118562500	-31.4182324103374	26.1680470428956	-1.62645586770187	-66.7741532433166			-57.7578561637526	17.0482684349086	-4.14938882748722	-0.945231567881837
119250000	-31.7995687776091	20.6708386672743	-1.9978288929457	-67.2622299627455			-53.9259279756063	-68.1253935940407	-4.2392804629215	-4.83080922609283
119937500	-31.1009536744966	16.8734873804732	-2.48310594900374	-66.9760237415127			-64.6348843927918	143.942904964283	-4.24511041041434	-8.89712021901177
120625000	-31.1187499158698	11.7028873827853	-2.97494926143929	-65.533198650677			-65.7108057833171	-88.5559548795194	-4.32702661851445	-12.9856931888093
121312500	-30.7584125292108	5.98523107821021	-3.51727982946198	-62.4603670992731			-62.547954448896	77.1638188568274	-4.42163569808968	-17.3924344477341
122000000	-30.5899435161027	0.992847199737842	-3.9022106337404	-57.3928543237812			-56.0682250607943	-33.1031185298197	-4.49286283087596	-21.6319599150305
122687500	-30.1514457343465	-1.83562197932242	-4.1306636227118	-50.4815079385219			-67.0409560597259	48.0205192812054	-4.60800966957806	-26.5988065560413
123375000	-29.6931063144098	-10.4354541454491	-3.92040228517788	-42.1378427164139			-55.0879075875722	-85.7250418593532	-4.68300311802112	-31.2545288236017
124062500	-29.6728521016705	-12.2688136692252	-3.24864956724537	-33.8455153589823			-61.8919625042144	101.134497638947	-4.84819494316456	-36.4806470606033
124750000	-28.8753607349986	-18.2016853733811	-2.06821558519471	-26.9884186322302			-61.4979288938236	-65.402660166999	-4.93045009516852	-41.5459368663249
125437500	-28.8269612015138	-20.7944004397708	-0.761968088930022	-22.453866444439			-58.4781440930227	-179.528135746961	-5.11955906500594	-47.3949102866288
126125000	-29.2514705780663	-26.7687214643889	0.753931960048534	-20.5933593611728			-62.4334636342893	6.64499102486051	-5.29757496627274	-52.6816174422418
126812500	-28.7409090575169	-28.7805189391138	2.17788950873381	-20.5087482062495			-65.8314676149105	103.749202827924	-5.48129141010156	-58.6234525790677
127500000	-28.6522557027802	-34.5605694823752	3.54019530314172	-21.6647022913165			-55.8442756927909	-11.4717477620525	-5.72162289840495	-64.1010142089544
128187500	-28.9916148656077	-39.1558972235048	4.79302622733572	-24.5497323244181			-55.6001310783476	-6.74610347078659	-5.94425731705818	-70.3316669879091
128875000	-28.3418849298973	-44.2939981604656	5.94048085165538	-28.1069860147625			-54.1121030997108	6.34574564544586	-6.27192522286336	-75.962956722936
129562500	-28.9860106650842	-46.7726345350534	6.91561841747027	-32.3017703883818			-67.0608815449699	-90.8604407802361	-6.51563792889408	-82.6089665823066
130250000	-28.4049901159606	-47.735240483433	7.87068612450562	-36.6314065295463			-51.0706061701775	16.9414958512356	-6.93260291669095	-88.2872518546426
130937500	-29.0122620864369	-54.3389562067485	8.62092340078183	-41.7892025981111			-57.5156689598759	-1.09877970001443	-7.16977462910336	-94.4518930144842
131625000	-28.9859126267481	-56.3005395215355	9.33104214012542	-46.4539886129175			-56.4172997876629	16.9476150112257	-7.6268732728459	-99.9700902773759
132312500	-29.1582683168057	-61.4476034148774	9.95066203368606	-51.5041915920035			-55.5625607156124	-75.3922116006921	-7.91325035702972	-106.21131112745
133000000	-29.4968621007479	-63.5481516409069	10.4920901631394	-56.5381026117605			-51.4198482506035	-7.56194886769045	-8.3834404873754	-112.106223676363
133687500	-29.4342458078697	-70.3899662956157	10.9219010278557	-61.5859875594455			-52.550358429818	-41.5001812045357	-8.71120358943118	-117.654629618104
134375000	-29.8103863887643	-69.8531449170828	11.3977863959803	-66.3228181900459			-52.3475298639138	9.98551821715463	-9.16443535032846	-123.797165282318
135062500	-29.9739009959436	-74.345814451934	11.7310513252783	-70.873695656736			-51.7139170202201	-62.3219996095095	-9.52404807765777	-128.955098324515
135750000	-30.7027574133888	-71.3855082320102	12.0765608624017	-75.7023450679103			-55.0082766176846	-47.0116839083913	-9.94267855493378	-134.379495926182
136437500	-30.7862181633756	-79.2180088329586	12.3475812418459	-80.3604331555221			-53.031773455256	-57.6778134154224	-10.2845794525098	-140.081365356137
137125000	-31.2259691769678	-79.4794418059064	12.6717290365234	-84.4895877141802			-53.9359585192246	-24.6438068371803	-10.6858573385028	-145.335479540715
137812500	-31.235020159118	-84.9443363091895	12.8800869488011	-88.964259314637			-50.4524154081577	-27.3461377686006	-11.0265283087762	-150.482673452326
138500000	-31.6586709126667	-89.5305509092557	13.1342015862767	-93.0533974908973			-59.2923670370103	-86.2633508362952	-11.3447386895507	-156.696993012102
139187500	-31.5010153886915	-86.5666272815717	13.3068602826346	-97.3666865768911			-52.4788344053601	-52.9992987396961	-11.7315470163629	-161.221262020364
139875000	-32.5143983863465	-93.8742247100103	13.5287893643333	-100.923950597521			-61.0005080030861	-107.701732783676	-12.0387552451453	-166.311724021285
140562500	-32.5594246810686	-93.1059177207108	13.6920818280707	-105.36121312107			-51.6841980529427	-56.0063931485686	-12.4510358302739	-171.976860916479
141250000	-32.9126431717919	-97.1752684759153	13.868695382991	-109.062674381811			-51.8872636973583	-114.484817697371	-12.645752824605	-176.922518970204
141937500	-32.8315859399614	-97.2173085949237	13.9732962542117	-113.184794306564			-50.9348529502192	-37.357815838248	-13.0398293612022	177.549933752181
142625000	-33.9401524870005	-101.288241864375	14.1389308999729	-116.771538165474			-50.5258370782907	-98.8434102338049	-13.2789470873706	172.775764041088
143312500	-32.7663071703916	-105.703376832365	14.2451998358692	-120.717414477694			-50.9963055492702	-75.062322239812	-13.6578937251757	167.48873972966
144000000	-33.3551786494013	-101.735604110772	14.3853449787087	-123.924009089966			-48.3880392890089	-109.022240005949	-13.8518026055961	163.023618083883
144687500	-33.1849493180897	-105.391349394173	14.455825176806	-127.844766530073			-50.9723757322475	-86.2951664185748	-14.1742304833952	156.580677987418
145375000	-33.1334265074968	-114.468940171968	14.5456917021841	-131.427378353194			-46.7761242162624	-109.591230568454	-14.4448370877599	152.262788831043
146062500	-32.8663198412132	-104.659656852356	14.5787490308163	-135.013553057405			-57.8189002504912	-44.1705412888182	-14.7376853316277	146.105031197595
146750000	-32.8988649408277	-109.023459794911	14.6749578849923	-138.180388759216			-48.0257965247587	-110.555248973212	-15.1143412707447	141.952446209107
147437500	-33.0277622271327	-110.075232503639	14.7203743470194	-141.823122601786			-52.5274217675911	-111.989059447597	-15.2191676910924	135.55321804519
148125000	-32.3925441050839	-116.521563634783	14.7578512624119	-144.942988521226			-53.601612256756	-110.04924965933	-15.500803566446	131.131439427658
148812500	-32.7969410037538	-116.052990952463	14.8023104922184	-148.45687975868			-53.7849659011042	-95.4567758071156	-15.5634138922996	124.962508158031
149500000	-32.3001715376354	-118.140262236428	14.8446032486594	-151.289701643801			-47.1812275338764	-107.997755372193	-15.9871227042193	120.097607651526
150187500	-32.1963175204221	-118.890349666728	14.8616544119627	-154.66496057757			-50.4101728664749	-158.355084823886	-16.0549716034623	114.613506993312
150875000	-31.6514908908207	-117.118196843753	14.8870156222455	-157.521800757187			-49.242232595119	-93.3824345574559	-16.3684882156855	109.67807555779
151562500	-31.8093911027128	-123.545796400758	14.8895406380411	-160.592613990776			-52.2273899931055	-146.959159335847	-16.2770178145218	104.13699709861
152250000	-31.1482737360873	-124.546747532357	14.9276570304447	-163.485298569086			-52.1403276723576	-113.605075717649	-16.5694193640589	98.955043315299
152937500	-30.9421026338228	-127.0582543063	14.9596754402043	-166.318990840782			-51.0013682392574	-166.472415891885	-16.5379246771948	94.1929681658369
153625000	-29.9325532361	-126.151456879394	14.9497988945795	-169.037463515616			-50.8562966243707	-103.26616177794	-16.6251598829862	88.22997467665
154312500	-30.5723476298287	-130.343938721959	14.9654380099453	-171.830230442894			-48.79473749381	-152.464192908192	-16.5915307836586	83.888462950815
155000000	-29.5753376863296	-126.634789397194	14.9821194850756	-174.443217176514			-57.1937076812086	-99.8457718038161	-16.6272463811201	78.2635773488854
155687500	-30.1346632407991	-129.550351422343	14.9691002911576	-177.05871502105			-50.0872877501701	-153.278545983593	-16.6207426913445	72.9509555920365
156375000	-29.6513004328301	-125.815448631286	15.0285106733694	-179.799078375118			-51.1849819787848	-152.18062420565	-16.6913079616006	67.8946253706067
157062500	-29.7349843707636	-132.692485616223	14.9968840917268	177.642336715658			-48.6594358992552	-177.939833599999	-16.609873756192	64.0248212255196
157750000	-29.1193168249391	-128.568620413433	15.0860079379973	175.342155294444			-57.5004691210046	-103.362259485743	-16.3385642559544	59.0263029341096
158437500	-28.9939862656272	-133.029226442301	15.0399854888022	172.511527236142			-47.1316040374213	-149.310302615983	-16.3946336757969	54.4066269341787
159125000	-28.8808130814737	-129.455068025282	15.0959150208692	169.984709181618			-53.1284559350414	-118.769413349835	-16.257242540619	49.8683987305247
159812500	-29.3257842973287	-132.815309767025	15.0821903761879	167.486795151518			-48.664676151407	-155.180955385717	-16.2413890876823	46.1629016070474
160500000	-28.1147180965712	-126.920918144582	15.1262337613966	164.980438274733			-58.4142349276593	166.948846813885	-15.924408056747	42.4755223009832
161187500	-27.7506560369764	-129.769158735512	15.089970223642	162.639839308257			-50.1722452412567	-141.573160835392	-15.8571261525294	38.029495040891
161875000	-28.0634143000338	-126.343749511618	15.1575481329207	160.132174899309			-51.5829225558093	174.067817120263	-15.7274603602328	35.0501628949586
162562500	-27.4713359689443	-128.186896573382	15.1173261473292	157.552962594612			-52.2759688236235	-152.735554285908	-15.653070041036	29.9839875168771
163250000	-27.6980475163128	-124.329632331895	15.1600685220379	155.125841248915			-51.5042995657712	158.615235014508	-15.3483835030387	27.9163789863105
163937500	-27.210375798195	-126.235713599408	15.1488190375334	152.749980798271			-47.8726318551239	-170.55484902034	-15.3841670507965	23.7284397703171
164625000	-27.5044863492473	-122.164552384984	15.1644684780873	150.174041705707			-48.1681832577625	163.78818263735	-15.2019050523476	20.9948148465758
165312500	-26.9639017638134	-124.978650032633	15.1422938431468	147.878597429316			-51.9608467781216	-146.278478683822	-15.0945566044326	16.9080032379706
166000000	-27.022778399524	-122.950673481536	15.1621170906309	145.571115864543			-48.3218753787154	-168.219744311242	-14.9858353194782	14.2861548241987
166687500	-26.4937547931426	-124.32264031805	15.1277325587611	143.22860533131			-49.2614648811002	-163.725720839203	-14.7915408594262	10.60715686475
167375000	-26.5847686136538	-123.629449871	15.1774068786581	141.15200744005			-50.554519126957	-178.830667207056	-14.7693043529124	8.9057839704488
168062500	-26.091234198741	-122.561643878907	15.1307227576462	138.659537294683			-55.2938968086376	-135.894145289316	-14.505476630386	5.05848325427392
168750000	-26.4586573928695	-121.014300944612	15.1287995183555	136.594233289628			-49.2426479343435	155.461539136104	-14.5826872131659	2.63043882616514
169437500	-26.1702234270521	-122.271091323127	15.1106805174984	134.22293599818			-49.9747464211993	164.704101774211	-14.3746394285213	-0.586240087723103
170125000	-26.3596791444534	-120.42730814184	15.1180691684157	132.073562673045			-48.7598912232918	172.160408836443	-14.5499215533785	-2.70842504135501
170812500	-26.1273416842619	-118.620244624359	15.0726427556782	129.849787923633			-60.3833007690248	92.6432935382744	-14.3232329308885	-6.08765656133637
171500000	-26.5217372335084	-119.731181302665	15.1016488834981	127.902157780486			-48.8636852933038	165.365297179512	-14.458305779414	-7.71910853021543
172187500	-25.9838697117155	-115.997494811645	15.044710409995	125.659974368661			-53.7860059626631	165.825938884595	-14.1700166492044	-10.3519940407067
172875000	-26.2909870213053	-117.21879265321	15.0836246070431	123.802785709956			-50.5344603602726	179.618554279006	-14.1813755446073	-13.2124180672851
173562500	-25.8736825979194	-113.153590628946	15.0387663221658	121.626010392526			-49.5608263680713	145.471752942423	-14.0469962307256	-15.4349539408949
174250000	-25.7597031867737	-113.963415631156	15.0906998747215	119.828390468273			-48.1289713089206	161.904815971519	-14.1514357238289	-18.8100666208303
174937500	-26.1276686641533	-108.98318317308	15.0707630487497	117.660359332611			-49.3567153188293	137.031658085882	-14.0789354892469	-20.9007061233504
175625000	-25.6328788515286	-112.589053941298	15.0660807043893	115.811726400561			-54.6164079062325	-179.304907951778	-14.1781697145061	-24.3279890067791
176312500	-25.727219890015	-108.114003635815	15.0814633874443	113.73000792276			-49.3907517926291	130.941366545349	-14.0664086070255	-26.6564117317698
177000000	-25.9272805394701	-108.138985141084	15.1202385634183	112.078886560598			-50.170161479981	157.267179210265	-14.0806722140466	-30.2936753947247
177687500	-25.9276472464056	-105.789866077382	15.0807468258437	109.824589188421			-46.478733448882	136.668529670853	-14.1811305192244	-32.2337056899312
178375000	-25.5475434607817	-107.717307322276	15.1508589796913	108.10968725151			-50.6207082280287	152.912247753217	-14.0909655039554	-35.5469327776485
179062500	-25.9739149517102	-104.004294708513	15.1481463187307	105.710725092589			-47.3927254543499	139.79214330746	-14.1644248664508	-37.6403122490704
179750000	-25.6737497397125	-103.973783076628	15.1739329640327	104.00140419866			-55.2531899114514	143.491762472761	-13.9976648553939	-41.2046736064315
180437500	-25.6715592348103	-100.345004780116	15.2293110675241	101.915146502511			-50.1836337040906	130.99232565165	-14.1919229217813	-43.6516082577394
181125000	-25.5627005124202	-100.804793919616	15.2551272249961	100.096583502919			-56.7101937721456	169.251025573583	-14.0772761192754	-46.8325539652517
181812500	-25.7177597377111	-98.7435499673031	15.2612165945759	97.9965202814567			-48.2503154691961	130.031146103377	-14.1898058198795	-49.5093462980594
182500000	-25.5038014275304	-99.3703969641205	15.3021529806015	96.0062955873494			-50.758390087028	142.991921848039	-14.0859939041793	-52.6715096318103
183187500	-25.8594026048368	-96.966358429235	15.3218328410381	93.7190968133582			-47.1878074341245	156.161767165311	-14.2640521372012	-56.1357561322902
183875000	-25.5597988745977	-96.1751739992786	15.3763957128048	91.8396988533313			-56.6045353075535	109.217609865412	-14.2155545795565	-58.3317133865829
184562500	-25.9224392487703	-96.9140668136965	15.3464282531021	89.6843743085975			-53.2889728509618	147.254422706929	-14.2459131614138	-62.5376490704604
185250000	-25.7264156371905	-96.2868216092017	15.3901435111226	87.5848229738648			-52.1009109474067	97.0515624841177	-14.1879346312634	-64.5712120123742
185937500	-26.0492038305666	-93.9148200037962	15.3867427756701	85.2711332855175			-50.1844641961008	140.224796005887	-14.3170761063655	-68.3561615428425
186625000	-25.6772024683303	-96.6754329118015	15.401771303567	83.3999284904874			-49.1335042647951	111.6088739319	-14.2764962101125	-70.5764070214702
187312500	-26.2919114671966	-96.6296587199229	15.3875888993491	81.2410122625891			-48.2095936109278	139.504686895348	-14.2537674291544	-74.8409730329735
188000000	-25.9188036492911	-94.6942150719175	15.3987430679559	79.1820826305526			-50.7500894783733	88.7648139798919	-14.2460890519912	-76.8327395887201
