# Hz S DB R 50
100000000	-15.6248990755545	149.477907084056	0.775113000766804	9.11774242313784E-02			-60.8578856685997	41.3782545663479	-3.47333175653459	80.5317756977984
100687500	-15.6374900521484	147.434822079052	1.22601062346469	-2.18796967673394			-64.2414992325082	-111.841176861764	-3.42006005881016	78.002798294685
101375000	-15.6595302340851	144.741863018278	1.6982424243846	-4.02596766618664			-54.2688074368527	49.7662908295116	-3.41716926378152	75.0443001131757
102062500	-15.6005038409743	142.780505042363	2.10729431560563	-6.41068652238381			-60.3858175648893	125.945319060892	-3.44383954399288	72.3282931306415
102750000	-15.6944987889579	139.702848321882	2.53151807807192	-8.46862145659356			-59.6387713101038	-7.64402315793635	-3.44309858779877	69.6734432148663
103437500	-15.6246632753551	137.606372563618	2.90115675275311	-11.1928812709785			-52.4279742203397	-25.1534716314673	-3.43169786531611	66.8923691117332
104125000	-15.6763250533191	134.190658295511	3.30821863801331	-13.3614366111221			-64.3815657368517	120.708077164365	-3.46118522489412	63.9764537918609
104812500	-15.7252036217549	132.358734909683	3.64580706166506	-15.9685040203195			-53.0647806230704	-19.7678814640519	-3.4420139871278	61.2652752463066
105500000	-15.686060082939	129.12934873886	4.02925953938179	-18.3738505318315			-58.6713938777189	36.2251198443379	-3.4465590933737	58.7549700206877
106187500	-15.7826545210888	126.910151517978	4.32867872979377	-21.1008242823079			-66.1789662832806	-40.1396023534452	-3.45894264505619	55.700482702372
106875000	-15.7652201381708	123.71859722373	4.63933762685604	-23.4984205614475			-60.4177083675139	71.5324378115271	-3.49779954348667	52.994716589585
107562500	-15.8515487272755	120.209733737262	4.91557770197355	-26.4118357792714			-61.5735227334086	-32.2828224369501	-3.47386716182959	49.8513410053922
108250000	-15.93828046982	117.049584747441	5.18482295622649	-28.6943437145098			-57.0725490471109	53.2650042572652	-3.5277970538483	47.2926149735271
108937500	-16.035360895062	114.415089493853	5.36831866940703	-31.4436425957669			-54.8206354086492	-31.8266605770574	-3.53833504762704	44.2644837825681
109625000	-15.8845716215925	111.130494604284	5.63080698340509	-34.1007930225099			-60.148334216365	35.1145111500421	-3.61749776557925	41.5034155674393
110312500	-15.9809108505284	107.455887119251	5.80046926038724	-37.0321692899889			-54.4300712284473	-24.9945050765454	-3.62805975502836	38.6776646230098
111000000	-16.040745064227	104.330919657627	5.990571936597	-39.6177579251811			-66.2956934385897	170.507023832938	-3.7108126906289	35.8819162629385
111687500	-16.1649987903814	100.274693636579	6.05341913174273	-42.5779382579283			-66.1972269221482	13.8927292316724	-3.67878342201414	32.50188732885
112375000	-16.03062231494	96.6454707454874	6.18959845405248	-45.0037349586649			-69.5797861719002	-10.6872028391853	-3.73651975706777	30.0167958098342
113062500	-16.2119414195646	92.8156267193799	6.21932426972134	-47.7572591891593			-54.7612974542555	15.9743067782918	-3.77333544194277	26.592815314138
113750000	-16.143106122996	89.7998599201769	6.26609345312783	-50.0583271897264			-69.3303517870821	-130.355640651423	-3.87428496593256	23.8196398119904
114437500	-16.3649906940366	85.3369833034301	6.21772183229255	-52.8033875471686			-54.1981211428084	23.2953937851625	-3.83778214001147	20.5035835790817
115125000	-16.3585315745892	82.4597111058871	6.21726072566636	-55.0158312390448			-57.8969989049815	-79.293301985667	-3.94736797845337	17.4021981513176
115812500	-16.3658828930103	77.1159549836209	6.11740690753605	-57.3016450729615			-55.5052807555192	13.8655485532488	-3.98756684570564	13.9313977871315
116500000	-16.4665672833851	73.3074298494979	5.99774081837958	-59.185516754419			-55.4000477201419	-51.9081935127939	-4.02930745713108	10.5291807111974
117187500	-16.443748912075	68.8565698882641	5.78587534769571	-61.2032880224611			-63.8544222864674	-46.4013449885195	-4.04369211735552	7.15185806489413
117875000	-16.538203707702	64.5724988254863	5.53446313050129	-62.4539163637056			-61.5752778798024	-81.962482142613	-4.15442530627959	3.57378050452757
118562500	-16.4133623920986	59.4037022405429	5.29264677565479	-63.5525039199286			-65.6115516937166	25.326695517491	-4.19227999441515	0.125345275010894
119250000	-16.6794044661856	55.6206151109578	4.93463052963811	-63.8444970470115			-55.2846995795371	-60.0944099304783	-4.29297169698305	-3.93578275443927
119937500	-16.6194202496723	50.139453893672	4.51150686196694	-63.5147666082872			-56.8634420464561	12.6411950242667	-4.33776777332608	-7.92688394004169
120625000	-16.788190181787	45.4032214271641	4.07183732184284	-62.0812704513087			-54.8069312859591	-5.89710178431689	-4.4167017884505	-11.9290132889507
121312500	-16.6833563110985	40.0919415205219	3.60654227585671	-59.3873589569088			-60.4844851682275	-57.490320319904	-4.47972529009661	-16.3876326522787
122000000	-16.95653168077	35.3644703346959	3.24808641333902	-54.5100541231116			-54.0209995872251	-61.8049508175093	-4.55463270377571	-20.6512148906017
122687500	-16.9179681962001	30.4721370994181	3.04601201540448	-48.2857095403724			-69.6575493151847	74.5592540390435	-4.72228305582413	-25.2663038356834
123375000	-17.1576858756696	23.9119709380457	3.25922444661969	-40.3771631485564			-54.6842490810883	-27.1278470212298	-4.79450577109867	-30.322046424962
124062500	-17.1008837767823	18.3603840282386	3.86727875472984	-32.3395318570561			-55.6727350730772	89.1223909475292	-4.93827633156107	-35.1274084860125
124750000	-17.3199544205934	12.9198232052818	4.9879104744449	-25.7004569050166			-58.208369725443	-35.7228385795184	-5.04595618691256	-40.2375134273055
125437500	-17.4524338519553	6.93079548540078	6.30093492303478	-21.0987435538422			-59.758599686782	19.1678391404893	-5.22556799864814	-46.1143688029994
126125000	-17.7839826299087	1.15222644764765	7.7541366161819	-18.8523457201585			-60.8998532316889	4.25917496804651	-5.42594437822641	-51.1915131602559
126812500	-17.9639416129608	-5.40530198229546	9.1792282576053	-18.8470579389442			-56.2661697407132	20.3430682935742	-5.63962353589968	-57.1788934560076
127500000	-18.1930630458935	-11.6516692186156	10.592198805905	-20.0802242299702			-53.2022826384103	19.3316634329728	-5.85916410291177	-62.4495630134727
128187500	-18.5493935365112	-17.3254092770187	11.8440077212	-22.653949669904			-58.5672852818777	55.4488157758608	-6.10594136552058	-68.7117826823549
128875000	-18.8182730322008	-23.1908158938881	13.0052917552286	-26.2219661019767			-51.5474489729307	0.466634801389402	-6.45489178963836	-74.3481511972753
129562500	-19.3049920367131	-29.9078369654516	14.001582091652	-30.4257275757224			-52.7981375372691	-5.99576701756555	-6.72250264818766	-80.587856889792
130250000	-19.6824992705271	-36.1225312836073	14.9656769626134	-34.9214143469924			-52.0971898848881	10.9942374465424	-7.18839656068286	-86.5394139273065
130937500	-20.2374222480963	-43.2363144367786	15.7501391332686	-40.0653361507071			-50.2033104917416	-28.8086388129355	-7.41234303788812	-92.4182765466384
131625000	-20.5354807218665	-48.6061883972558	16.4900150049621	-44.7750545758726			-49.8558806712289	0.897257240988849	-7.9249562110344	-98.20240561327
132312500	-21.3065075942886	-55.1662313313334	17.1133493387086	-49.9647511740542			-50.7528313550803	-32.6190499121326	-8.20000253018998	-103.905839118711
133000000	-21.9438965016196	-61.1199800259542	17.682776523748	-55.1709688061469			-49.2329344981047	-12.1071351675049	-8.68575076838215	-109.480652066843
133687500	-22.2856607140142	-68.8519049566854	18.1084221410469	-60.1299446646521			-46.6445893704812	-24.8622842476942	-9.02370266646122	-115.340692095846
134375000	-23.1235805765474	-72.6629598927092	18.5766504968129	-64.9001051561512			-47.3375319963105	-34.8826431291423	-9.45984867342477	-121.161453746013
135062500	-23.5884231372837	-80.2950821434945	18.9252934952546	-69.746445808804			-45.6126819379588	-30.9678738539865	-9.81605998120544	-126.064257281878
135750000	-24.4937214820628	-85.1912892387221	19.2871471045815	-74.4895890592041			-46.0730353822839	-34.211298087238	-10.234874600102	-131.687657278773
136437500	-24.7843015676125	-92.9374653249742	19.5514014121558	-79.1664129050627			-44.717621589614	-51.1614073382715	-10.6082411708841	-137.112273721578
137125000	-25.7611902554753	-97.9273985712586	19.8765772755538	-83.3950460414777			-47.440221496499	-54.914560993848	-10.9527247266098	-142.350587897394
137812500	-26.227737388881	-104.97322855962	20.0860817076478	-88.0178243846257			-45.2733282034615	-54.3755082167799	-11.2872063700795	-147.44223969365
138500000	-27.1247066674301	-113.713485082872	20.3282495874996	-91.9609053690439			-47.0577580942508	-74.0399112517545	-11.6156265139184	-153.77494489112
139187500	-27.7856400068214	-118.597803583157	20.4972771567288	-96.3649664691657			-43.0499702233584	-58.9956878257602	-12.0483668266343	-158.346898374811
139875000	-28.8503244842645	-124.968459794183	20.7259791385029	-100.22588934671			-45.3477493544387	-77.5565452152314	-12.2557019413466	-163.575223631154
140562500	-29.6027102504028	-131.013423635358	20.871959561361	-104.475854210201			-44.7936110081217	-66.5285046064026	-12.6977581254317	-169.345714507107
141250000	-30.5330547893547	-136.417729367921	21.0538042104703	-108.141641329003			-45.5985461548533	-68.5578815480068	-13.0117236972422	-174.496408549965
141937500	-30.7767303295804	-140.000582177836	21.1546339569089	-112.18272138546			-44.4266928508501	-74.6371286986568	-13.3367809545243	179.765090077221
142625000	-31.7660126898686	-147.412377295134	21.3212672380433	-115.655654908519			-43.9528504069047	-89.0710124158446	-13.622291628494	175.281652968654
143312500	-31.7204212871019	-150.57059508642	21.4361471289138	-119.679514875488			-47.4916867057414	-93.4374699315313	-13.9670522727573	168.897449840958
144000000	-33.0708702104854	-156.574365420747	21.5774818284422	-122.939885159617			-44.2385035180684	-95.8440883954866	-14.2425799736397	165.290388880139
144687500	-32.7933886761003	-156.065683065974	21.6342719320764	-126.982832958276			-44.2067613781995	-89.2273033915572	-14.597409588663	159.106344257634
145375000	-33.3765734574767	-164.35495891193	21.7390455566782	-130.197500459761			-43.9015255715321	-108.425420760045	-14.7863628202447	154.052358277681
146062500	-34.814015259432	-159.786388534363	21.8100740852231	-133.904067767738			-46.0733698914876	-85.1201250239539	-15.0906465667341	147.752181843226
146750000	-33.2216103157537	-165.215560027974	21.8831021099913	-137.16587270719			-43.6593098001812	-96.8491688538931	-15.4085196775274	143.710026868545
147437500	-34.7131682982201	-168.231419366477	21.9357902371866	-140.803697402931			-43.5237316860995	-100.137557637936	-15.6530379472938	136.876305685954
148125000	-33.5664955702526	-170.369569713676	21.9812991319341	-144.069647012002			-44.1499016945533	-103.316493311114	-15.8250082766763	132.639629510667
148812500	-34.4100216183752	-169.613917007773	22.0406364565077	-147.501738152345			-46.049754085863	-106.957060785831	-15.8975544912385	126.210219591823
149500000	-34.2463575281077	-169.54923937531	22.0865053632384	-150.33173780721			-43.1252011542745	-116.631700683801	-16.3179485302646	120.971595701562
150187500	-33.7248364990856	-174.916709652931	22.0880998191442	-153.75966147873			-44.0888726318303	-117.213765138011	-16.4095297306785	115.665026093814
150875000	-32.9730605287311	-174.064195360724	22.1345499302538	-156.810102288707			-44.4133848648626	-118.426504337243	-16.6955924757311	110.12163837597
151562500	-32.9143954911135	-175.576985272335	22.1389140719122	-159.78999048002			-45.869584114044	-140.659536942512	-16.5592806710595	105.763876508493
152250000	-32.2960253244089	-176.575505038896	22.155979095054	-162.561514927658			-43.071243941228	-125.832030346575	-16.9426316327647	99.8140228048815
152937500	-32.5818601613057	175.092912813546	22.1847247744193	-165.453077584308			-43.9650542557184	-140.038684037719	-16.7989688545564	95.3732397879475
153625000	-31.7937136990531	-178.903259534725	22.2006127350023	-168.190275208559			-44.6776893605089	-130.15707603477	-17.0144061298172	89.5331675657954
154312500	-31.884866383559	175.187306248604	22.199022199799	-171.078902163007			-42.7607003821731	-134.520513028045	-16.8430407055416	85.1618200678127
155000000	-31.4691835142559	-178.005432735063	22.2186271095311	-173.805488701719			-45.2265444341816	-137.422489416513	-16.842774560169	79.9890060072324
155687500	-31.3843216913095	173.297278970005	22.2165047646364	-176.181330385751			-43.4701500258595	-143.783934482973	-16.8655476468146	74.6931273113738
156375000	-31.7501389433248	176.200697923252	22.28911701099	-179.178309392641			-46.1446626645672	-146.651810548413	-16.7714298022291	69.2748158475063
157062500	-31.8610825522125	172.213672527059	22.2369478707882	178.372261462174			-41.066228894448	-147.473369406785	-16.7649954308255	65.4653548282131
157750000	-32.3261527839972	178.432348852487	22.346225958051	175.993726391169			-45.2458049994984	-152.84571975921	-16.5852009097459	60.8305963648877
158437500	-31.6389617854669	176.458136107361	22.2753668787977	173.325617539821			-42.7369594046958	-153.227226565496	-16.5206482748846	56.629085641519
159125000	-32.5007777804044	178.731277293218	22.3585189354124	170.879331009139			-45.6324536432191	-168.644030304155	-16.1580628124446	52.3074821643758
159812500	-32.192640250957	172.619271953135	22.3572682226104	168.146737790102			-42.6250823490156	-155.51643292077	-16.2675140948649	47.5332420373519
160500000	-33.3477135189152	179.154728983392	22.3846732423885	165.647850511748			-43.6865144293136	-171.799944879581	-16.0228670010494	43.7879509361539
161187500	-32.2579450498927	179.814002560172	22.3457111009565	163.294830632453			-42.6818289783232	-150.424279850422	-16.0231364821655	39.368401177203
161875000	-33.6168856842032	-175.166162750053	22.4414668481433	160.89706233087			-43.9070351574507	-172.906243794332	-15.7149011888337	36.5844276967638
162562500	-32.2746795802453	-172.303055779865	22.3782714591609	158.115366632605			-43.2591307198992	-164.047208879609	-15.7055530580798	31.552757211746
163250000	-33.2522454548198	-171.438993747931	22.4214873250114	155.811332115022			-44.1049786773664	174.333161487333	-15.4879359048773	29.0785437411394
163937500	-32.4315010940482	-170.10245712989	22.434002346254	153.319442864218			-44.9575765505757	-170.393865937944	-15.3934059271343	25.2584179131514
164625000	-33.7870864450606	-163.228135139402	22.4242318370147	150.849389976754			-43.1757213457374	178.55116760764	-15.2982698106089	22.4799324565794
165312500	-32.6433141990677	-164.749111560147	22.4213048832207	148.488004341175			-44.260056930971	-166.387849351237	-15.0298963608482	18.3544711724538
166000000	-33.8380878096552	-160.097267443598	22.449226716219	146.053407689675			-43.6928038593429	179.641308975646	-14.9462139894558	15.5239099961754
166687500	-32.6782972505016	-158.114080576658	22.3959271938676	143.694417760964			-45.35816334507	-177.576528708492	-14.8514563125793	11.7056610223792
167375000	-32.990035568432	-159.790928875749	22.441580678172	141.622201402601			-43.3165857116519	171.24363412176	-14.8883956251524	9.94056554355054
168062500	-33.0991108595586	-156.489770983297	22.3890481223398	139.221323774706			-44.9722311994033	163.65381821769	-14.6036431030178	6.37019166113705
168750000	-33.3610289909896	-157.570131764844	22.4140727430134	137.001528747352			-40.5028206611827	172.579431668955	-14.7108110635932	4.17038617166322
169437500	-33.5595850018606	-154.38800886282	22.3656785771551	134.649651052287			-44.3191675525568	159.895785414033	-14.4601924964914	0.860383733368445
170125000	-34.3705430389653	-149.357828879168	22.3930280655824	132.690726691655			-44.6417542088389	163.965215224535	-14.6475495280352	-1.33210577348696
170812500	-35.180512427875	-149.347486636753	22.3297575500114	130.384849343066			-45.1235403125552	162.240682471449	-14.4182515712955	-4.11599562806632
171500000	-36.4343206025533	-159.357946546957	22.3406888684452	128.465508916749			-41.2041953060981	158.844678407633	-14.5394454141978	-5.72339549127102
172187500	-36.9083902644455	-138.122382152127	22.300600037357	126.191602497166			-46.5813305800943	157.715910030735	-14.4062398532399	-8.52593715168338
172875000	-39.7142546658656	-152.779457586577	22.3607440318779	124.407970043399			-43.7650964337459	165.022824428815	-14.3568258350948	-10.7144886394242
173562500	-40.091496268013	-124.39189774038	22.3082520294132	122.230133952449			-44.6026662473241	154.549004003883	-14.1065084982205	-13.0676042052216
174250000	-41.5140493466866	-128.630865464884	22.3363317790103	120.290568418325			-43.1838110482722	166.18483986951	-14.2043319376891	-16.6232563880798
174937500	-42.7153895827875	-76.4137699133457	22.3433560129322	118.148865639402			-42.9876979326628	138.930324747078	-14.0966260632535	-18.7129187770459
175625000	-40.3256568341414	-82.5222312397015	22.3731469186584	116.395275167451			-43.2642503026481	148.998107810605	-14.0961653433365	-21.7404178139556
176312500	-39.0043478357955	-54.3513113330382	22.3660176786686	114.344837605838			-43.2231281943064	137.765249784663	-13.9298649198072	-24.0053865392143
177000000	-38.3456244803624	-51.6960432875215	22.4031346025025	112.56470500468			-45.0462639348287	148.39874614871	-13.9758415750563	-27.0940162563572
177687500	-35.0512805727718	-35.3561730442785	22.3758228981139	110.32475306891			-43.6500583762647	133.445437304758	-13.9449313006863	-29.0648840858684
178375000	-34.7145390193495	-42.5161710645996	22.4211584873826	108.501687126478			-44.5513650517634	136.45310425765	-13.9682745699694	-32.808609351318
179062500	-32.4611848037469	-34.1302018777402	22.4352351343014	106.2570815845			-43.4602913024404	131.767550674523	-13.9710803980227	-35.1225060757439
179750000	-32.2517021639426	-42.4170149221827	22.4550958835421	104.615783655547			-45.4607031124133	140.488636825927	-13.8511213744446	-37.9911248915987
180437500	-30.81264719409	-35.502137659544	22.5023236669692	102.451763277293			-42.938041364657	132.458302437265	-13.9174444043698	-41.0522001473052
181125000	-29.9742792766911	-38.0549940172536	22.5024907158855	100.577423235955			-43.8068926952988	131.232610133419	-13.7875107579388	-43.9756928198726
181812500	-29.208866070928	-33.8044515940012	22.5211046020119	98.4070262385462			-43.1458186922702	141.855648015862	-13.93629110315	-47.0954864203636
182500000	-29.3385174810501	-40.9012481097713	22.6078635233621	96.5074228475234			-45.2476635231829	125.580907162286	-13.8321919887796	-49.8366348871839
183187500	-28.5345456804435	-33.4903862876414	22.6041597047003	94.1638085199053			-42.3870573715491	118.711166597467	-13.8686569672825	-53.1700895959592
183875000	-27.8136456448663	-37.6615340340769	22.6526894795987	92.2143815605508			-43.3293518434958	118.755255654748	-13.8302707836464	-55.4611279040448
184562500	-27.6669235566873	-38.8667736692346	22.6334742330776	90.233938648325			-41.9446759838604	123.78629691592	-13.8599559749762	-59.6080061429707
185250000	-27.5664843726923	-36.932773084139	22.6969914834219	88.1183806227279			-43.3826418602914	108.428740229697	-13.8439585135253	-62.4578447502225
185937500	-27.8832253516535	-35.9748764147978	22.6699441108132	85.8581263146439			-43.598875062347	123.459307557084	-13.8893739240022	-66.4296592077356
186625000	-27.532664199569	-39.8862492679045	22.6984991946114	83.8124175235847			-44.2438715819096	107.955667194325	-13.8661871488761	-68.0192668404975
187312500	-27.9799313842336	-37.7139691749681	22.7040076441772	81.5141611882875			-43.1833403474299	108.518215031088	-13.8121643090681	-72.8387059252683
188000000	-27.2403523910972	-40.8113663656862	22.7048395216508	79.5808570224353			-44.7151450730502	112.360239027282	-13.8446747022919	-74.8717712622641
188687500	-27.4477862010922	-41.3223311450128	22.6922935797542	77.2225092143119			-43.5648112771906	111.02090759043	-13.7660699803754	-78.7154496434467
