# Hz S DB R 50
100000000	-14.7376301847127	155.565393829352	1.36705808817906	0.453828244008503			-58.1264326028114	73.5233504104336	-3.48783532998972	80.5636349550381
100687500	-14.7080193554377	153.513920068551	1.8377070740782	-1.66289824039089			-58.4775567175257	-58.4473818192757	-3.40144533378481	77.9134209390858
101375000	-14.778965939618	151.107678206243	2.2912541805761	-3.81886478862925			-68.92746871717	-101.398212626011	-3.43073652126992	75.0641133701851
102062500	-14.6965716867818	148.24002063375	2.75060743346859	-6.19785749430797			-58.2370550962154	-36.8880182398096	-3.4100675745562	72.3495528254444
102750000	-14.7255956481841	145.736481557547	3.13370933183662	-8.48300451643287			-66.8041879650772	49.8060020447181	-3.44605750207966	69.6358092981874
103437500	-14.7620143595461	143.601302303119	3.5547711595667	-10.9835225642813			-59.784423558148	16.5251137155568	-3.38102021072473	66.8281322287448
104125000	-14.8271592821094	140.274333048298	3.93357133760257	-13.5080471901749			-57.1403491226194	71.142110147773	-3.45873792590355	63.9530561566499
104812500	-14.8434686625902	137.907859070291	4.27726259050297	-15.9759785960077			-59.362910758775	11.1077332385632	-3.44790813201571	61.0219991180026
105500000	-14.8739655137084	135.12384054354	4.64396068057801	-18.5643765912665			-64.0164612645466	-71.0381745809984	-3.45738663522764	58.2177733508813
106187500	-14.8934870247169	132.301096074929	4.97896980949895	-21.1573629620408			-55.5970611090799	37.9914456327359	-3.41059157127034	55.6355329787011
106875000	-14.9663191733432	129.491576509603	5.26031070466305	-24.0495309978209			-60.6910404485738	-53.5375936910604	-3.49597496569063	52.6592554527098
107562500	-14.9964272128374	126.1777002675	5.5806239934949	-26.5851722359913			-54.817122079974	27.4003851150676	-3.43787766130152	49.5645513853178
108250000	-15.1112791817646	123.032958528107	5.81577703122484	-29.5841111022042			-68.5238882078977	-48.774563970309	-3.55526603253297	46.7279645812264
108937500	-15.1228998558945	120.12153578937	6.01912408771442	-32.1137358690836			-58.728726541952	-0.339487903179108	-3.52772148891101	43.9299031017986
109625000	-15.1716409848842	117.137189886075	6.27042818456294	-34.8301322764347			-64.0149341269867	110.274725067593	-3.6046456471294	41.2209109528681
110312500	-15.1930199661591	113.194567610568	6.42752362125051	-37.9092977214719			-66.9088448510988	84.3925855854528	-3.60546532257998	38.3493139162755
111000000	-15.4264935494569	109.829211125903	6.61323800399205	-40.5461666283319			-62.0611942856023	-57.2777147221755	-3.70570477953564	35.1325964562072
111687500	-15.4442299439693	106.102112537699	6.6975509542571	-43.4107811091838			-67.7755536055017	35.6460607810133	-3.67073410771686	32.2233581293028
112375000	-15.469659079869	102.732204850716	6.79820907559268	-46.1147754768464			-58.5935559253248	-88.6118822430071	-3.76059804334017	29.1328196804462
113062500	-15.4927173911611	99.329533236877	6.8430836206646	-48.8442852521327			-68.100820649704	85.2992556189035	-3.74595406994417	26.265738033338
113750000	-15.6020407222246	94.7958691130983	6.84107649038338	-51.5090138450574			-55.2729691121453	-58.6287792992715	-3.84512553340631	23.1059520315064
114437500	-15.7374447356846	91.1927411339463	6.8283379871712	-54.104078071603			-64.0784386139501	-7.40140494752499	-3.83978754781304	20.11919699884
115125000	-15.8807180582994	87.0617405257044	6.78641682422638	-56.4892835757266			-57.1804359936973	-6.43892635427089	-3.89947282786365	16.6602508930847
115812500	-15.8219975637617	82.4004738491666	6.70386290060718	-58.9385699951623			-62.5332918615021	2.05664600276248	-3.96291820154188	13.1827847373938
116500000	-16.0966432827139	78.118696285481	6.52336063454066	-60.9514946218968			-56.1517744288968	-33.8387171990681	-4.01815475892295	9.73411133984298
117187500	-16.1256312631129	73.4863865012151	6.31991428844855	-62.9201956896503			-61.1270791360358	24.5407270048746	-4.0296244940243	6.46225787151454
117875000	-16.2155312618311	68.7809512407342	6.03633211587389	-64.4716373923088			-54.9058761758424	-27.3836628784328	-4.12239173337486	2.66052531532476
118562500	-16.2471435188926	63.9057462285978	5.75065949338232	-65.508948043595			-59.4397034033226	-6.98039453784217	-4.14692000254604	-0.670795379972167
119250000	-16.3753391801027	58.8285500458316	5.39257446565243	-65.9328211073914			-54.1029241522353	-26.8191978181195	-4.24900659602032	-4.79461507046854
119937500	-16.4264674534394	53.4896197568595	4.91236784214845	-65.5804985475633			-66.5993420299698	-7.29414121745759	-4.30085908012642	-9.00132814443885
120625000	-16.6288252372674	48.6647925947774	4.42616176624639	-64.1324699321816			-60.0022461342643	15.4174662687716	-4.37278449263299	-12.9178405566996
121312500	-16.6825115910788	43.1850441528708	3.9194892286425	-61.2445765617727			-60.9915842933796	-114.6683085246	-4.41992156217874	-17.3443196648451
122000000	-16.8707611071893	38.4349374706463	3.52755078904222	-56.1573350118858			-56.9362464305468	-3.76813885101426	-4.49227694031722	-21.8136771834855
122687500	-17.0264398096046	33.138921761724	3.31711056393428	-49.4544234821833			-66.7265475541455	-42.0343286412937	-4.61499973454911	-26.4895557110156
123375000	-17.1857037583571	26.3004100512127	3.56635243112589	-41.0243598691221			-55.0601212074183	12.1825012320108	-4.71666201539566	-31.28971836673
124062500	-17.2952301751011	19.8838598969028	4.2382319868674	-32.7156651029992			-67.7845156442035	-103.098579936032	-4.80684046432246	-36.3971041778658
124750000	-17.5314502288772	14.580134726165	5.40387859953235	-25.8730938945153			-69.3896094843138	3.0508462444661	-4.96187449077346	-41.757374694727
125437500	-17.6814863375434	7.89683920786582	6.79154440278097	-21.4590963459728			-60.6359515147981	5.18174399657257	-5.07374372594516	-47.3442172885186
126125000	-18.0991632310386	2.03914704013794	8.28653899330425	-19.8988457741004			-54.6743494992024	-3.34583703562754	-5.29983355189612	-52.6078697994436
126812500	-18.251321228119	-4.8101192948835	9.76200852660969	-19.7621597133544			-61.2271009875451	-35.6880139201136	-5.47301259543407	-58.3506872728524
127500000	-18.7919068833903	-11.8061735758402	11.0996942367078	-21.4388629553005			-54.1327243374653	61.324948262112	-5.71136495379713	-64.1973288767157
128187500	-19.0214246272511	-18.0148850002113	12.390590160691	-24.2270445453263			-52.439672017122	-20.2721245905749	-5.89036802380939	-69.9549783186922
128875000	-19.4933792460471	-24.7907861441517	13.521732637382	-27.9950806717868			-51.7758144242367	11.4316571031844	-6.28229613350673	-76.2673775189422
129562500	-19.8757511774739	-31.3452478050803	14.5165268050497	-32.089359126707			-47.8489809626814	9.37025096465825	-6.48106098562319	-82.0424016132749
130250000	-20.4033953378326	-38.2286305862691	15.4416012054985	-36.7741478733392			-54.3709101196126	-18.0225960696008	-6.92877375393114	-88.2534261166259
130937500	-20.9763947671665	-44.901274318946	16.2318277929863	-41.8125449197548			-46.4664352124565	-9.93685233321026	-7.10907580823226	-93.7697410419706
131625000	-21.4658887503012	-52.4432311761571	16.9182927295229	-46.8990880458766			-55.6808363732903	-40.4269281547221	-7.58690470145376	-99.9049861787088
132312500	-22.2599349929942	-58.7048336418634	17.5273216257939	-51.7734586635952			-47.2082142127306	-16.7025501275726	-7.87318731251608	-105.586999341883
133000000	-23.044706295765	-65.349554216906	18.0475423608206	-57.0643456818605			-50.3589227302219	-31.2733521034855	-8.30541965804492	-111.405241857606
133687500	-23.3958472120531	-73.6619097483151	18.4972511423994	-61.8549200674946			-46.527952169716	-14.3344862822231	-8.62159318136637	-116.753420513465
134375000	-24.3021143591578	-80.2220851117842	18.9385265346236	-66.7480699013612			-49.2197351736715	-38.0669930533031	-8.99543909716481	-123.268810742125
135062500	-24.836195242129	-89.2120068166293	19.2857521385019	-71.5209299808668			-46.3591098597043	-27.5219081803988	-9.34456619079974	-128.259119539267
135750000	-25.7144159940952	-93.9304009123835	19.6132175124636	-76.2526430620561			-51.4672799116236	-64.9393308775846	-9.76832735968582	-133.390197596904
136437500	-26.239521721063	-103.684075109624	19.8927598807479	-80.6844301417887			-46.8975594982681	-23.1994452123198	-10.0810946975225	-138.80425041807
137125000	-27.2342579196126	-112.9254791118	20.1835109076996	-85.0435322132082			-45.7503278412662	-64.7541692507865	-10.4205765170904	-144.090561251547
137812500	-27.2409561518571	-120.594576889205	20.4167647939946	-89.4202859151401			-46.1201504228748	-30.6965374820406	-10.765644498732	-149.431441280619
138500000	-27.6046940965295	-129.572989849348	20.6534196909081	-93.5447687764932			-43.0889150385678	-57.5306913579784	-11.0250108458965	-155.572183057994
139187500	-28.3880849680808	-137.313773833367	20.8234925977803	-97.7688284103369			-48.170095049707	-51.4347403082868	-11.4081422925566	-160.508274768855
139875000	-29.1456774378218	-143.167625313453	21.0213831237589	-101.534013912067			-44.894550013328	-66.7187989450673	-11.6650025878447	-165.626490442778
140562500	-29.6766075284188	-154.131136009312	21.191143414928	-105.606619931569			-45.6216291806657	-74.9789968288583	-12.0467160718345	-171.093440187961
141250000	-30.0695393763586	-160.298526070002	21.3735491009551	-109.422934950671			-42.5928672874061	-75.6132871603094	-12.3328839278053	-176.328436811558
141937500	-30.0802518793081	-167.870793048369	21.4868692319006	-113.360372287176			-46.5531019647601	-75.6171880949233	-12.6025173468376	178.008394672653
142625000	-30.5485012544962	-172.989923416458	21.6362532120948	-117.175994109187			-43.9345440796605	-79.9709016625212	-12.8996136598263	173.579931772778
143312500	-30.22972193172	-176.488594215886	21.7626917714205	-120.934551432825			-45.5175581590719	-103.120991160885	-13.1662507631224	167.99655542544
144000000	-31.0600162098118	177.179595910094	21.8759243212252	-124.197801994539			-42.6080215344661	-86.7750213601804	-13.4187551895549	162.930629362182
144687500	-30.9129991289429	174.637193968974	21.9481011135453	-128.303249326474			-47.1484707218436	-105.811378832144	-13.6587047692558	156.829664958087
145375000	-30.9522224003907	169.437688650274	22.0459486706958	-131.693329979941			-42.8286518341822	-84.3448991181187	-14.0420476328997	152.129752709662
146062500	-31.5888833730128	168.931144411832	22.1447804928082	-135.304820261216			-42.6474865397163	-107.858487110282	-14.2929326445174	146.47671414054
146750000	-31.8396787997787	165.059730678306	22.2030947044241	-138.643631080949			-42.7276216093016	-95.7556597484693	-14.594794444918	141.639808837235
147437500	-31.4950268989172	168.279693276595	22.2457171405789	-142.166321344325			-45.7279680013945	-113.761361919138	-14.675509184448	135.442551826859
148125000	-31.6688219029474	164.455795701549	22.28567249938	-145.282431797177			-43.51776574215	-95.4658965755611	-14.9611658416236	130.971920927177
148812500	-30.9282236778976	161.217126921469	22.3424973434193	-148.565418451563			-43.4866715877552	-112.757983892164	-15.1613902806071	125.202968822278
149500000	-31.2346620326872	159.793381014963	22.3730124582525	-151.857413465852			-43.5084381291698	-109.238518653035	-15.4328775509798	119.978646124202
150187500	-30.9599829521609	163.180177734354	22.4013977396508	-155.018290380918			-43.3202076374012	-130.201911222681	-15.5472330643285	114.849270184813
150875000	-31.5503945434842	162.382482406392	22.4080746683722	-157.889277221414			-44.5231166933684	-108.278151894001	-15.8014092850217	108.831455550071
151562500	-30.9386243502045	162.668088040565	22.4412983502587	-160.837464191637			-42.4404743947544	-130.525691247722	-15.8301587941031	104.205178979206
152250000	-30.8696665158297	159.944920229186	22.4366013877564	-163.783492258092			-43.4128284356318	-117.336153020694	-15.9915268878809	99.0026903264038
152937500	-29.8939905929587	160.530399862489	22.4799948929512	-166.648956543297			-42.6440354708043	-127.298956898809	-16.0242742585762	94.3188472394548
153625000	-30.2123641591819	162.303612010665	22.4805821914076	-169.492911531501			-44.4231702524588	-137.504726134083	-16.0308723155218	88.6712756790878
154312500	-29.9441884968674	159.811500234198	22.4992034579578	-172.145350276709			-42.1412322529135	-127.940766183875	-15.9913550283295	84.60709423373
155000000	-29.7900767378768	160.457371681881	22.5156497865693	-175.125372024505			-44.5224227186286	-145.495577399369	-16.0206128664335	79.2720556836146
155687500	-29.8545459755735	158.736760635404	22.5107038019704	-177.37091908455			-41.6756405129441	-160.952135250541	-15.7544560091745	65.3404435990458
156375000	-29.9514049229269	157.319099904066	22.535544445208	179.713368564118			-45.5531500359829	-152.487159836578	-16.0390076754112	69.102704531059
157062500	-28.5618230195365	153.466126951918	22.5293763431354	177.225795205761			-42.6295207843404	-141.19762639383	-15.9717898765742	64.4681843200342
157750000	-30.2574632795091	154.696495804951	22.5848085428903	174.781581497026			-45.9177254226397	-161.362926373739	-15.7933068125346	60.6725197684091
158437500	-30.168210543956	154.51558350605	22.576626234286	172.247387203667			-43.587588929779	-145.526709595499	-15.7220531715164	55.3801735755858
159125000	-30.7055446863417	157.454919512373	22.6022282016288	169.66414820695			-42.8235121513135	-161.833588325424	-15.6183812165263	51.5573411399005
159812500	-30.7490757439452	156.980538698114	22.6385819299374	167.215478038854			-43.4313970621791	-154.228209854493	-15.4569052342061	46.6803188721883
160500000	-31.4510475936752	159.661031560411	22.6477054224821	164.603805256686			-43.1605535322945	-168.445307038841	-15.321940988149	43.7045912891106
161187500	-31.6664543601719	165.215158617606	22.6165769034454	162.39292921512			-42.2818542550532	-160.175290905005	-15.2204011750939	38.9967906429306
161875000	-31.8921420632182	165.994173922027	22.7043923947927	159.824465394308			-41.4177268328765	-168.112129170688	-15.1548029711146	35.7795145402761
162562500	-32.0943588308732	165.915663520079	22.6773272164781	157.175050261823			-45.0663570715838	-164.024935581528	-14.9798337707697	30.8794777207382
163250000	-31.9007134187052	167.707300779741	22.6875681324162	154.657541179719			-42.1466635667787	-174.224038469491	-14.8928583049114	27.9587476782419
163937500	-32.1543565606617	171.6462382536	22.6907375364293	152.213909559003			-44.2689601605216	177.588078271032	-14.6943982393281	24.5193381328539
164625000	-32.5543888712835	170.39966481085	22.6700745032938	149.812764423742			-42.2633972757625	-171.50289837285	-14.6352575311873	21.410911659654
165312500	-32.1222983541226	172.175568619997	22.6719723779045	147.401017692077			-46.221570617747	-177.083061841669	-14.4870323795929	17.8206829203557
166000000	-32.7217744278333	172.236048244289	22.673779388932	145.219462247708			-42.0934812905178	172.531872731355	-14.4523349282797	14.4942647938308
166687500	-32.7759281203057	173.707490963258	22.6666368695666	142.799641520057			-42.5154186645693	171.257061401485	-14.2766541891865	11.7014781040573
167375000	-32.6327751441269	178.985827066562	22.6814021265246	140.552833996048			-43.4830982938196	-177.865368184621	-14.2984646751187	8.61407267239552
168062500	-33.2216779699475	177.773672599118	22.6803737449412	138.206707937047			-44.9448253697677	163.944633065632	-14.0932726880919	5.58986712456372
168750000	-33.5462813984553	-178.596095060825	22.6425539167028	136.170102759916			-42.0539599590096	179.626257678154	-14.1728030249413	2.57184517984711
169437500	-33.6792390856231	176.450696490493	22.6264654625716	133.766232704819			-43.8942191545666	161.831289500237	-13.9748413518228	0.175406674224983
170125000	-34.5559100691763	-179.08451435844	22.6382816116198	131.553108201079			-43.9272137669906	-177.67844117629	-14.0742931881709	-2.4986300634731
170812500	-35.6163962570745	177.252762124597	22.5960020685223	129.366482294035			-43.65360069791	157.41392711867	-13.9002509175327	-4.69116923715872
171500000	-35.8800622710825	168.354010241609	22.6122127348702	127.432261885052			-45.0696410623225	169.402586858843	-14.0029877226764	-7.70549458793715
172187500	-37.621892057537	175.555804553894	22.5932475293408	125.186573934904			-42.9242771108704	152.018392083899	-13.8879679748691	-10.2177811422854
172875000	-38.9568717839895	173.195649621664	22.6139462220799	123.343798048593			-44.1757957675074	-179.177166779072	-13.86906044899	-13.535669099879
173562500	-40.9950266098245	175.333894702228	22.5625170107339	121.241877968763			-43.8774563448143	156.610998791468	-13.7975181481666	-15.3853365502349
174250000	-45.9469098674431	-173.717892948792	22.5899683661732	119.236322120864			-45.0040120168704	177.170817670221	-13.8137336489596	-18.340424500221
174937500	-49.9526518807042	168.476572188475	22.5859809467118	117.33390904797			-41.3201336600596	150.228551759628	-13.7895237258703	-20.6609279586838
175625000	-51.1547447001106	-146.972636524683	22.5857832958525	115.385704578624			-43.4670158965859	149.308663640262	-13.8099624746749	-23.2689049617538
176312500	-57.7768422802246	-14.0031963602514	22.6094295599126	113.459063350479			-41.4834239522879	131.928282110647	-13.6901261541548	-25.2755657487067
177000000	-45.4024111307604	-14.5822785680012	22.6279716557411	111.594952800961			-44.1378696599199	143.4073414462	-13.6762329788571	-28.5986982020651
177687500	-40.4364327024085	-17.5397920862002	22.6216906883817	109.439835281818			-42.0112499268188	150.793801985658	-13.740075117696	-30.6628197334605
178375000	-38.2320740094479	-24.5367556326562	22.6589802505069	107.628403867964			-43.7696209016192	133.234799063212	-13.6736808878238	-33.8513258648598
179062500	-35.854676340992	-18.3003344179998	22.6896851425411	105.560404635306			-43.4067888151865	143.076883926717	-13.7293067388584	-36.9188197490145
179750000	-34.4879156431578	-19.8380162895081	22.6788327809137	103.681867895419			-43.3542166363316	129.913328307702	-13.5847567155477	-39.9146040484293
180437500	-32.7100691912168	-21.2819920484445	22.7429150550433	101.556506103524			-42.2217125210551	138.256478094779	-13.5955127899546	-43.1746766924518
181125000	-32.0567511483455	-24.4315765660989	22.7685011807666	99.5879152581932			-43.8590109655791	132.118880449709	-13.5979347229319	-45.5342038640856
181812500	-30.7821194013111	-23.5795100492222	22.7645727371066	97.505365278881			-43.1195040966527	134.654946558004	-13.6241173248468	-49.136148626727
182500000	-30.7742434559495	-26.1120064874369	22.8261212267919	95.5331872964457			-42.6387824222799	117.318182713873	-13.6113016162978	-51.4885316283024
183187500	-29.8515242568848	-26.8109123400066	22.8795213911906	93.3620403655482			-42.7348105466111	139.650163862959	-13.5640819477666	-55.6780976324188
183875000	-29.1630245851381	-27.5110409240704	22.8693738603932	91.3579819680259			-42.2327123213113	121.881816765002	-13.6828905521278	-58.0047775401121
184562500	-28.6491015341794	-29.0854694190917	22.8748975434751	89.4194382199762			-45.2387189095233	134.174579909832	-13.5752299224514	-62.1636946167729
185250000	-28.680795728989	-28.7399311504172	22.8996035424106	87.1715127309056			-43.0015978436386	115.194728005672	-13.6844702164669	-64.7607106258
185937500	-27.9153596710382	-31.1169281003706	22.9278719759335	84.9862486572639			-43.5766829904046	126.620382841519	-13.5590664119012	-68.3655564321652
186625000	-28.8102506001457	-31.8255556074826	22.9340869783065	82.9416269999449			-42.0917413404832	115.453959023204	-13.6766398714079	-70.5438621513895
187312500	-28.4705648463033	-33.0862504035765	22.9481622608939	80.7926194884451			-44.5628503746232	115.031904584966	-13.4833956445775	-74.7212141797996
188000000	-27.9526468274231	-31.0779163986447	22.9195224041442	78.713558755211			-42.5207086867031	114.438089080534	-13.6252826035391	-77.4600965837003
188687500	-27.9720338087351	-34.389584999512	22.9409636905367	76.4209619802094			-43.6112718268447	111.875707170758	-13.4956462530861	-80.6321644953598
