# Hz S DB R 50
100000000	-44.35751883934	19.0832176998142	-21.0646124966095	3.55490163069086			-56.3982829775488	135.392391300535	-3.49102166219347	80.4888391817957
100687500	-43.8506823046477	8.99448193456851	-20.5761159664729	-0.101407510717875			-54.4586075437079	-93.2342280698804	-3.42235473836059	77.7302403098019
101375000	-45.01395265609	-5.91109632682535	-20.1258566733342	-1.05122611594422			-57.9988281087983	137.006487186106	-3.47319323088982	75.0919504834788
102062500	-43.7967018375189	-11.0297886748378	-19.5072292854628	-4.18047960334689			-59.5957947942237	-35.7085327009131	-3.43850506898655	72.1719128267352
102750000	-45.0707477143669	-22.753079449864	-19.2960248417193	-5.67767632098198			-62.0274610295848	169.463778791402	-3.45865259466499	69.6442169711475
103437500	-43.612719831081	-19.4250574251912	-18.7739978191745	-8.44463924587336			-60.2550962293889	-57.8734070785064	-3.39890096851581	66.7555425876647
104125000	-42.4846514354037	-25.3611646779102	-18.5601410115148	-10.6846458750286			-66.9805768866808	22.6666194403337	-3.49716303982321	63.9058821619709
104812500	-42.6893033121492	-38.9237568997264	-18.0847036574353	-13.2597296723376			-54.1072840589052	-37.5671679429332	-3.43342032078444	60.9136984781199
105500000	-41.8851470981482	-37.9749669024032	-17.7993003883461	-16.4798735507091			-61.3934340141863	177.290863968202	-3.4675782186298	58.2760211128471
106187500	-42.5157050592629	-46.1284343061825	-17.3774806855784	-18.4068531426787			-61.4976581390934	-88.4612820749066	-3.45007359983486	55.5606045710985
106875000	-40.7004625341024	-50.0774541421709	-17.1908036179687	-21.5476022948655			-59.2239503033933	-106.512679768035	-3.52171739892104	52.7357750323623
107562500	-41.584843683411	-47.9110821303009	-16.8611233947538	-24.1827043022993			-62.8607170475826	-91.5372566900051	-3.4562806956797	49.6524752672874
108250000	-38.2242085050961	-46.2663218168187	-16.6369742528623	-27.1706130568783			-58.7601283664896	-176.473908243501	-3.54135609478144	46.9639128242975
108937500	-38.831708821658	-59.0020381200259	-16.3601702643463	-29.1262146917057			-60.1785092229316	14.6999983110191	-3.53203042082949	43.9957703178918
109625000	-39.4230912244273	-59.3831900749199	-16.1917821189054	-32.2659793880948			-58.7007941458679	-125.77172217812	-3.62439712719288	41.3409946235376
110312500	-37.9373399663834	-55.7143707960459	-16.0251768024543	-34.6179350737883			-69.0585912120406	-13.8463438082888	-3.60954949519355	38.5452736633766
111000000	-37.6491445271457	-56.6430788883581	-15.8491624756828	-38.147105063116			-61.8908717699465	-86.5354654199912	-3.69722020660281	35.3825165684206
111687500	-37.781410534391	-58.8312651627525	-15.8097091682096	-40.2583129413783			-58.63116803133	89.3083630325889	-3.6416548851883	32.4552217774243
112375000	-37.470639155241	-57.3862374771693	-15.676317493522	-43.1661767584132			-58.016605359312	-33.1328971517446	-3.77848609277217	29.4785924043093
113062500	-37.3825717936364	-62.8277000943587	-15.6283133879414	-45.7921601176299			-56.9470627895362	90.4061919764913	-3.75266336939664	26.3811303986301
113750000	-36.957763867731	-55.7580673952878	-15.6265116791086	-48.2582295186332			-63.7339233134068	-104.161584418105	-3.82350941754183	23.1951987375151
114437500	-36.0517253854126	-65.4551449721707	-15.6747898813985	-50.8124971860098			-59.1320872838721	120.106861739321	-3.82299538621293	20.3636199768454
115125000	-36.0210033069617	-62.6198595272369	-15.6861383624867	-53.2097016668122			-60.5462447756952	-6.32564719395152	-3.90180510223739	16.6799102595821
115812500	-36.1513977366902	-61.5993658264411	-15.7629897809809	-55.4989006765903			-66.088985875442	146.208190227945	-3.98363057980197	13.4425301034771
116500000	-34.9277478208901	-59.9387375012005	-15.9462311677	-57.4536886322276			-69.820057097526	-167.460211649718	-4.00616459233335	10.0244142653691
117187500	-35.4562014515486	-65.2034501713906	-16.2308652752146	-59.9952873232497			-65.5421526194447	3.0756510571303	-4.08958152891608	6.84249195169099
117875000	-35.097047073239	-61.7529773772059	-16.4297102590813	-60.9497383840619			-64.0265738780284	60.4243609708959	-4.14669035209135	2.99924651228781
118562500	-34.5052007332791	-59.656398818327	-16.7645231297081	-62.1518910092463			-58.15263254239	149.851855349124	-4.18960052254598	-0.255671244249997
119250000	-34.0980072309065	-61.8303890994929	-17.1679608538599	-62.3837509994302			-62.6594100181172	28.1751677933891	-4.27275293539874	-4.44299215671539
119937500	-34.4621211753727	-64.7180577430902	-17.546578212989	-62.4518941663496			-66.4114780335231	103.411262537504	-4.2921967148874	-8.41394147737135
120625000	-33.9749565591416	-69.1648680764556	-18.10158838346	-60.5180513465462			-61.2446176228463	30.613962633061	-4.38253204422014	-12.5319263692291
121312500	-33.2617459940025	-67.5330790997225	-18.6496836901583	-57.7704672174298			-62.4849955164452	-127.788136723108	-4.4359388269375	-16.9792296720657
122000000	-34.0241419798802	-66.722360007286	-19.0356213825412	-52.3614556351355			-57.6669147551624	11.6085056282868	-4.53492103472031	-21.1382122305425
122687500	-33.9634466589535	-68.364960816968	-19.2332201545948	-46.7577872977768			-54.666028747087	-78.8921429735893	-4.65244913778141	-25.7326541039057
123375000	-33.2211352406088	-65.8418141175196	-19.0392569463044	-37.4205729035447			-60.8597795668434	72.5048605139473	-4.76388585477467	-30.7646547952018
124062500	-33.2248875827914	-67.1465362137265	-18.4438502344715	-29.4056617537826			-56.4324262329676	-98.4567744650339	-4.85807386200905	-35.8253633436553
124750000	-33.0032252896472	-67.8171622207228	-17.2549617041803	-22.2060385516555			-52.8586740341005	97.2941112871324	-5.03068190114787	-41.0147127142716
125437500	-32.6704534739978	-68.2243803566791	-15.992484034128	-18.1813897839781			-59.7709404052249	-158.821640564385	-5.14474190751169	-46.9347096862069
126125000	-32.8151713043992	-71.1891154558977	-14.5370596675618	-15.5441777707461			-70.4505031441517	-147.02839091643	-5.39317289873671	-51.8366679233146
126812500	-32.582724751648	-71.8033262160208	-13.0400702658512	-15.743072233285			-64.8321888816693	-94.6086411098376	-5.5029781733257	-57.765276835759
127500000	-32.8776307649287	-70.6582934527898	-11.70847902024	-16.0957978487945			-54.3026417549117	123.780372656751	-5.81104565875923	-63.4118970795095
128187500	-32.8835926026146	-69.8949884618349	-10.4369733748198	-19.2055653837967			-54.8625015662014	-71.5278557450564	-6.0061095544643	-69.4390712176804
128875000	-32.1998577798194	-72.6331087599555	-9.33261716581902	-22.4938266219231			-58.813079763265	-128.329091788388	-6.39020932402061	-75.7664654466979
129562500	-32.5389540376928	-72.4563721506192	-8.26767170643217	-26.2474378376681			-63.3482875846047	72.5928259418922	-6.61755491568878	-81.6711937648666
130250000	-32.2724454822915	-73.8671977104381	-7.37555444858155	-30.530621153978			-53.20897625283	57.3701586413503	-7.04148587701742	-87.6854706907653
130937500	-32.6808205048512	-71.6434206004484	-6.52061785059224	-35.5508884255277			-61.722632024105	-10.0175155290777	-7.3148773641942	-93.8027526644762
131625000	-32.0674703376563	-74.442562925532	-5.83590616116234	-40.2970189328561			-68.7092046617597	-120.406123407938	-7.78882143151957	-99.7393075049073
132312500	-32.5828736086524	-78.1496067246416	-5.19412810992233	-45.4008813208448			-51.6089773837698	41.4299024092215	-8.08938150311768	-105.430032868517
133000000	-32.8582976282731	-76.8954467295682	-4.68139513178124	-50.1227210839534			-57.8915826004546	101.257542725646	-8.53113747696429	-111.60774422681
133687500	-31.4963385208207	-81.7605003531038	-4.16825758893355	-55.1526062264781			-59.7637287212425	-11.8415080782761	-8.92036899348097	-117.206453595498
134375000	-32.4693077461038	-79.4797492303271	-3.73787787358021	-59.9213374652684			-62.7889333364243	-129.946538393532	-9.34707309796736	-123.547721600521
135062500	-32.2873482565186	-80.9004915702938	-3.35548148248723	-64.5101933538193			-53.9805733301515	-26.5320440599145	-9.74987674328416	-128.508271890491
135750000	-32.491076289178	-78.0766161128627	-3.02665100787006	-69.3260231661555			-57.5277388999012	-136.871658407631	-10.1758256552349	-134.295567117175
136437500	-32.5858014207833	-81.5822834652716	-2.71756967616177	-73.7618126757739			-63.0392122188119	5.42742896639489	-10.6090798783567	-139.723799419121
137125000	-32.1231189652938	-85.2525874702455	-2.39040664258295	-77.9858478852554			-58.194227672872	-127.287322053446	-11.0019136552467	-144.672978190808
137812500	-31.952155212389	-85.3631344924455	-2.1589217933619	-82.5078085345803			-60.0705420140087	-88.095703382514	-11.4036262197035	-150.194426538515
138500000	-31.7529460844691	-89.5683609955909	-1.91181803867338	-86.7333682578951			-81.1944069088902	-140.620758810356	-11.7283675074081	-156.112804452774
139187500	-32.0216985354111	-89.5164943099382	-1.73276889413163	-90.9030124454817			-58.2443450265733	-20.8160407063544	-12.1966397936639	-161.381786197458
139875000	-32.1113888814659	-91.234419739856	-1.52328465050015	-94.8493672050691			-80.7780879600845	173.992943223904	-12.4661575304174	-165.821091130526
140562500	-32.4214465045946	-90.6927760962636	-1.34972551624562	-98.872808871536			-59.2647252212475	-51.3951790978477	-12.8765989011397	-171.384751725176
141250000	-31.9697200931535	-93.6035707255533	-1.17416822764888	-102.715564254034			-63.9756622000704	-105.543648344311	-13.1378104693098	-175.945755921473
141937500	-32.23013167476	-96.5048284770633	-1.07556183227263	-106.695055892077			-59.8866588649347	87.0923101254586	-13.5343645502294	178.095207049565
142625000	-32.6252579617682	-95.8879005036227	-0.904925248796657	-110.507489555492			-52.9646354457526	-78.1981342648179	-13.8940461308585	174.130268967871
143312500	-31.7680695570315	-104.977223848821	-0.777138157491646	-114.344156991629			-61.7047535784747	16.8221766961058	-14.2587939773227	167.76320980245
144000000	-32.1073147011465	-102.862219888248	-0.675126098356954	-117.574017686217			-58.1902725548038	-67.8661645421769	-14.5868313301607	163.423963749329
144687500	-31.3456015431721	-102.543681263957	-0.588277337974499	-121.741628743408			-64.3847138133723	-82.3096436770972	-14.8055680846628	157.698358569535
145375000	-31.0521845378792	-106.261753945985	-0.511592615540272	-124.880762894555			-57.459756826371	-40.6092884619047	-15.1561555639538	152.433375775499
146062500	-31.5038357277171	-104.449021965542	-0.42356536921138	-128.612780676937			-64.0119803974817	-128.069999379243	-15.4035972355847	147.254228349792
146750000	-31.5615382238345	-107.682060802511	-0.376891867013432	-131.905161482855			-64.0760015595635	-122.3981757896	-15.7994171401295	142.640062967305
147437500	-31.3374959505376	-109.835673974812	-0.32111666911048	-135.256456577833			-55.1893078030798	-142.8120570094	-15.9607107353232	136.468963519724
148125000	-30.5179155456974	-112.828549403333	-0.269514395106961	-138.500739426873			-63.4370709065493	-42.0175861796981	-16.2426236432827	131.627369063362
148812500	-30.7820695165345	-117.6781307209	-0.21781321180805	-141.814304965663			-68.2491625385222	5.29659483471921	-16.4701408260714	125.984104308089
149500000	-30.7738528750663	-115.274016068246	-0.159681811597247	-144.861120571782			-66.2248975959949	56.8506784133055	-16.7022827454011	119.890571150705
150187500	-30.8344467969944	-117.507585494302	-0.145733704973214	-148.123724397927			-58.9759349159839	-119.813938165562	-16.9117662970043	115.152063922077
150875000	-30.7602162087803	-117.612707244272	-0.130330681573859	-151.008848935571			-57.9377177215411	-61.3212649558846	-17.105610992833	108.982923018437
151562500	-30.0039641926451	-118.942885125413	-8.56547677493145E-02	-153.854774247935			-66.0265156068967	-123.866920079938	-17.132796098509	104.253019273322
152250000	-29.7034287204738	-119.436627381173	-0.118967231405502	-156.808363019133			-54.6815599265223	61.3542212949448	-17.3603376515902	98.4240154597893
152937500	-29.5365176596277	-122.588490801715	-4.96863245225853E-02	-159.536446366669			-58.7543281571541	-166.229082524187	-17.359040963636	93.7612090238311
153625000	-29.2532712546821	-123.365636971549	-8.76554560839318E-02	-162.389473533427			-66.9514903892821	64.5967404217493	-17.5211581822643	87.1967492848084
154312500	-29.0224567329363	-125.822013661534	-3.33501181859307E-02	-165.158468479305			-57.6178841478099	-100.992331423077	-17.5041797916699	82.8949925038732
155000000	-28.6411781333401	-124.897679445315	-2.57926577147989E-02	-167.874376942439			-61.0592807178762	80.2340318723818	-17.4324975758859	77.2320251171226
155687500	-28.3178890768208	-125.506474004958	-2.68817973495442E-02	-170.262708486907			-56.2639324406415	-154.245869478339	-17.4232324015679	71.8097159629705
156375000	-28.6331476614159	-124.909046813539	-5.2991268547249E-03	-173.15747097429			-57.4359596975831	147.579602972825	-17.3938117271555	66.7411266828387
157062500	-28.558598015718	-125.447180625686	3.33795182509345E-03	-175.583167675665			-59.8733677725552	-105.775512908641	-17.4613995053358	62.6857670449625
157750000	-27.9803372566987	-124.070264843161	8.17224884397934E-02	-178.031546872757			-66.3164154039754	38.4806486415261	-17.1321222939431	57.907878597315
158437500	-27.8497019899621	-126.996575150753	5.22900614914123E-02	179.49179327026			-56.4291386116747	-100.919378639668	-17.1057250414401	53.3364624546972
159125000	-27.5710343069848	-125.942340607013	7.41841974452662E-02	176.772351245072			-55.3687319808153	164.27459516859	-16.9322932267977	49.0538404058951
159812500	-27.7663634128466	-127.242823264798	9.73968655404158E-02	174.443463706713			-61.0593821204133	-157.333120135762	-16.9060712563388	43.9345415578005
160500000	-27.0832683797871	-126.429689137483	0.129354952554443	171.810019604382			-55.1371308468895	145.192994078348	-16.5906582307041	41.3475624470856
161187500	-26.8885308099213	-125.212720155468	9.01746884802988E-02	169.692692494022			-54.8572406117325	-71.5044960177784	-16.5154358930979	36.6050053825587
161875000	-26.7609040476508	-124.054080871316	0.167025220029396	167.147424887902			-58.796381964499	-160.283078332716	-16.3608240530072	33.5508145350631
162562500	-26.7092622607272	-125.172808107042	0.131399919070533	164.500180969874			-61.4656020228535	46.621746100524	-16.1789265308452	29.478497739503
163250000	-26.409230869406	-123.996431281274	0.139279872450274	162.083970461885			-61.0143375952644	167.214674325858	-16.1075943038807	26.5552065216646
163937500	-26.1472498738562	-124.033191790334	0.157581841853996	159.786763892915			-57.1265921485825	15.3560168786134	-15.8750023800864	22.9503308372508
164625000	-26.0233239263056	-123.52591820973	0.156581970288387	157.352129824637			-52.6602328368254	-156.481268924738	-15.8593522101901	19.4331414694825
165312500	-25.7431429784748	-125.476094103857	0.146730541589075	155.04806759645			-61.946124602297	28.3059172492339	-15.5878675131378	16.4944931578245
166000000	-25.8951625367209	-121.706680460019	0.166837364064948	152.698252247118			-55.5213743695307	153.525486101457	-15.5042288826766	13.1330474023633
166687500	-25.5396496629265	-123.751111738252	0.145439931752967	150.347766687654			-57.8838198620105	47.7081856560169	-15.2801064282443	10.5056755894532
167375000	-25.4531274410294	-122.096018217688	0.158682269649751	148.248459464189			-55.811655130229	118.14898955601	-15.3404357075212	7.65475440485442
168062500	-25.3035558981795	-121.553686699165	0.145866524400004	145.9501242314			-64.459840105913	-19.6847094192286	-15.0473778774654	4.81678022728766
168750000	-25.36725898377	-119.383032503794	0.157470326107227	143.714881158261			-53.6629318499757	-117.528508621847	-15.0729336300625	1.60671918589179
169437500	-25.4219594794261	-121.559014310843	0.105444522161943	141.212132149017			-60.2490590646515	58.2278089627548	-14.8237183037872	-0.523480770799962
170125000	-25.0105803211253	-119.873845606268	9.46584695616284E-02	139.255401430019			-57.183626765709	-152.005937273961	-14.9821145255216	-3.73241773218147
170812500	-25.1060904255695	-117.08548664788	9.17289786494887E-02	136.9873343831			-67.9935197515574	166.976021689165	-14.7430206847658	-6.82432997871456
171500000	-25.211180046464	-117.972547025733	7.04047340848039E-02	135.120522933773			-58.8230869722639	-52.396383330412	-14.8494751461834	-8.55688523032048
172187500	-24.7857418625056	-115.868603678204	7.34183025939598E-02	132.839975193322			-62.4102628299112	102.249486742884	-14.7499522673877	-11.0662809286927
172875000	-25.1452129931764	-116.416384153734	0.076934248757193	131.345254066528			-57.5899296842643	-36.8158853619935	-14.6909660821198	-14.2936074993293
173562500	-24.8144749362948	-114.251526935651	7.79351995369153E-02	129.114896921405			-63.2936527867457	-153.453897670297	-14.6311729600646	-15.9664979341211
174250000	-24.7965562311291	-114.435692407264	7.46841075932055E-02	127.221960430427			-62.9025204805366	-150.003830659497	-14.5293726204373	-19.6220371725678
174937500	-24.8925929091417	-111.581262177255	9.87886201019084E-02	125.221025136128			-57.9563185429031	111.417700990649	-14.5867281861896	-21.1055807620016
175625000	-24.7231702992075	-112.258908444312	0.100867589915065	123.425897916378			-54.1960632273874	-80.865041630305	-14.5767062411351	-24.3078631471356
176312500	-24.6868798747883	-111.348757397846	0.122299485201968	121.291743022853			-54.1913558425635	148.909600425503	-14.3755792227578	-26.8669989867959
177000000	-24.8364218708688	-109.522839856482	0.116349902636976	119.595825075524			-60.7932769608913	149.172383760499	-14.4563588987005	-29.8922458991933
177687500	-24.8675065015813	-107.529437010706	0.150413937755055	117.53352139466			-54.1555222573128	157.80399073871	-14.5345589033578	-32.098568244072
178375000	-24.8066743802871	-109.192564710594	0.162290578821569	115.505631850787			-61.4629808035088	145.461551169731	-14.5139507098395	-35.6047767996622
179062500	-24.7718548396406	-107.782871560235	0.188448848928293	113.475702642032			-61.0851429999809	166.518073350915	-14.5447788659183	-38.213496124417
179750000	-24.7058238458644	-106.124177498123	0.184974254834758	111.572316076877			-68.6455601240973	3.23968005642729	-14.4643429608282	-40.9061097533901
180437500	-24.7749517675615	-104.59581721461	0.242115435731746	109.673203648686			-62.7179828948112	-123.626441121381	-14.5968102828338	-44.3084055081878
181125000	-25.1658268846257	-105.448895443782	0.239323141777797	107.507392261262			-53.2638815761361	88.6125775447581	-14.5995928422914	-46.7171497841272
181812500	-25.132400995586	-102.837087766448	0.280323281407621	105.627840653393			-55.7279834929198	-155.86428892191	-14.6217680840534	-49.9200989400215
182500000	-25.0739459253217	-104.329167738378	0.311016131016642	103.468474236204			-55.8197077145974	85.7559111545579	-14.592951314748	-52.4455198799066
183187500	-25.1764668584223	-102.97031943743	0.375337814245401	101.318079052921			-56.4013199654466	139.537425547076	-14.5556015073598	-56.0806793809813
183875000	-25.4316996528341	-101.772673891346	0.377886737469608	99.4045492030564			-62.4596704338775	147.112541274243	-14.6725881802618	-57.9775068141465
184562500	-25.2480138456456	-102.978563968524	0.371767737392861	97.5999578896631			-63.942577874049	146.426829422289	-14.6426056569852	-62.0990171644136
185250000	-25.504736142506	-102.178426855845	0.414683984805664	95.373479426027			-56.1665436664268	95.4380406215617	-14.7078509580386	-64.46455826739
185937500	-25.7306821708949	-100.022084754604	0.411619834536779	93.2568214332269			-66.1667089923538	-113.310243148438	-14.629370580086	-68.3080819250465
186625000	-25.9527041256536	-101.711499729979	0.431323940135866	91.0053753106639			-54.3087085230628	59.4539569955538	-14.8126487009821	-70.5220308534044
187312500	-25.9037455277083	-102.564733805106	0.435601437869394	89.2199656699218			-59.9699192092372	123.155075113283	-14.6215226075739	-73.8957546373493
