# Hz S DB R 50
100000000	-35.1485464565818	26.5689624244285	-28.022901180551	7.75283837165047			-64.3908849569504	2.67413461609477	-3.47525633688958	80.5478412679061
100687500	-35.6276197882438	34.5007617905107	-27.6893373617076	9.12237366103754			-64.2692630745479	56.9054390392625	-3.42571312958119	78.0789817951708
101375000	-35.2186485512829	16.6165258540395	-27.0230976324488	4.34741797801456			-57.7326110987925	-0.830076947775966	-3.41395802046107	75.0934133630802
102062500	-36.8768102255441	23.4780301209835	-27.2284604626935	3.10240467939907			-62.9818063038563	164.442014368549	-3.4565610101812	72.5210845051963
102750000	-35.1088997533227	17.5787477498689	-26.0995828375768	-0.2090919624248			-56.8202791927079	-24.6431031393664	-3.43802842237851	69.5274401559163
103437500	-37.0347003118425	13.5112082831695	-26.3199771684414	-2.04058554956667			-59.5187457397676	-166.111135716359	-3.45257710873776	66.9552980562584
104125000	-35.1554417834342	9.02697209099278	-25.3953563152767	-4.6370551551937			-58.2661900052281	-44.2234450605338	-3.42407800255645	63.9951142193867
104812500	-36.8050940791689	7.94322104738215	-25.3204687182496	-6.79415956019501			-57.5533825014822	141.903553371932	-3.45260585576354	61.3456423284025
105500000	-35.3134095466618	2.2067623183592	-24.6718924430323	-8.40358485402191			-61.8173299313859	-17.3111683177074	-3.40932573707806	58.2462397836083
106187500	-37.2339080787785	-0.141649686382213	-24.7157322451723	-12.5371768927067			-76.8137821704619	-161.736598255191	-3.46557303159371	55.6360633165416
106875000	-35.5854090227065	-5.57282156674339	-24.143965428681	-13.9974497792393			-66.342427834353	57.9193057271428	-3.47354281825765	52.6398365094666
107562500	-35.936596372922	-10.8416614193543	-24.2984467358238	-18.4470013613081			-59.9052961974844	-122.987285426556	-3.49024477505605	49.7532068988072
108250000	-34.2264370621945	-11.0211416826094	-23.7907954245692	-19.1073683602459			-68.8464405830121	147.79533876224	-3.51095248453785	46.8223778094714
108937500	-35.785625129731	-17.3775999998487	-23.6200531355756	-22.4618677515463			-60.0837232870546	-123.556673604153	-3.55232724947281	44.0206008260245
109625000	-35.5019947936429	-10.4336906117881	-23.2397290413008	-24.6740844619237			-75.1064073572545	22.1707634822776	-3.5766411575557	41.1591717273932
110312500	-34.9875813790195	-23.2751250519132	-23.1661836850053	-28.8824096295249			-64.5588966321081	26.0340647217213	-3.62400669649121	38.2681335667279
111000000	-34.675865182573	-21.6634162368334	-23.1386636876207	-30.1878459222843			-58.6163803441362	109.041842351363	-3.66339782396838	35.0723200300746
111687500	-34.520053580523	-29.9656004252139	-22.8713998133258	-33.7868390045828			-54.574782611473	-73.8873475453827	-3.70003342618713	32.0781539640157
112375000	-34.8024544073961	-20.8407408218694	-22.8224760547746	-36.085475489461			-68.8011330923158	-148.651226619229	-3.74488967029276	29.5399525464675
113062500	-33.8393142553561	-29.0891760296092	-22.7360099925049	-38.7752685724587			-58.027648698435	-89.2403612385447	-3.761270764652	26.1082526858209
113750000	-33.9577757879631	-22.8098222629277	-22.9111754912056	-41.2545274726232			-57.5776332175656	39.8797299789179	-3.83874731750259	23.1295416543478
114437500	-33.8909287253696	-34.4135177996303	-22.821573023031	-45.4309109183652			-60.7885680448679	-17.416204723016	-3.83488451646105	19.949055892822
115125000	-33.6045267088336	-32.6966800654772	-22.8481073186796	-45.6574930702763			-62.8175186614261	93.8987033352814	-3.90703602079929	16.6793811306959
115812500	-32.5223743120446	-34.8417778016904	-22.7652782511656	-49.1722442995418			-61.1597882459931	2.21288064924031	-3.96880933302667	13.258849507481
116500000	-33.0411232253979	-33.4234534681674	-23.1215570189384	-51.3039183220197			-67.0931091403032	-126.067256897746	-3.98683993917807	9.62586602185339
117187500	-31.8027182526243	-38.0866760333936	-23.2795260406501	-52.545918993538			-59.905497311959	-70.2870755293757	-4.07638521070469	6.60384803795816
117875000	-32.4154364544379	-35.9415247528657	-23.7005504096526	-54.6127816694524			-58.1022383716291	155.395462466287	-4.08957558319306	2.76149459615376
118562500	-31.7751982252242	-36.3169075595373	-23.9136708463273	-54.2731773945351			-67.2078321742326	60.6636672064568	-4.17371011000006	-0.730656086820932
119250000	-32.1461518807127	-43.3154717686609	-24.4135565530202	-57.0328719957899			-54.0498144297567	-155.0994041661	-4.23092920870008	-4.71278256094428
119937500	-31.3775102839768	-41.2458296221468	-24.803874172436	-54.3486904305832			-60.2938907812519	87.722175535735	-4.28045812627731	-8.98023767849569
120625000	-32.3322284077057	-44.1265215333039	-25.3548468094738	-54.3694610758431			-69.9032338684203	-54.7883084821342	-4.33259505066009	-13.1225596343947
121312500	-31.0920054104564	-40.5722411384383	-25.7350392050712	-50.4795949456987			-58.6412227266798	2.1126433374356	-4.41822691963624	-17.3918348937903
122000000	-31.6159562862211	-45.917744136262	-26.3803482214099	-45.4944867423076			-62.9182540506536	-151.046343594126	-4.49476980876101	-21.8842835340298
122687500	-31.271060389558	-41.5178184685094	-26.4384891406704	-38.2806812671899			-67.8801901182971	27.5402218882456	-4.60576704797961	-26.459458287807
123375000	-30.9643106524607	-46.5100068284616	-26.4111026957945	-31.546247551313			-59.70566165369	-126.735374601405	-4.69720771416225	-31.6005343407347
124062500	-30.7417568131757	-45.7713763683722	-25.6135889963209	-20.291997111425			-67.6039500852914	70.3100766897372	-4.82465163623178	-36.247174694585
124750000	-30.610485519915	-49.2708068218852	-24.2952290541482	-15.4225525360593			-63.7662206037385	-94.0682797684411	-4.91838011604861	-41.9555641717496
125437500	-30.5835009618027	-44.7598769069021	-23.1801971544865	-8.84839276460416			-62.1835082324828	4.32144326917867	-5.10353033536878	-47.2996900305173
126125000	-31.0896207022948	-51.5668838569262	-21.7958072449338	-9.02745572742181			-55.5237612275891	-108.032212247503	-5.29184891646244	-52.665753304278
126812500	-30.7394347478815	-45.7717544556559	-20.0855979750475	-7.30872766799629			-56.3627965721109	61.334746179139	-5.50097258234098	-58.4631227922031
127500000	-30.2547645693225	-49.5515541061994	-18.7845419248194	-9.65002633827576			-57.3877658467397	-160.200570303526	-5.68905612408431	-64.3834210956962
128187500	-30.8767897814824	-48.0405381709612	-17.6393016881441	-11.1097015670694			-59.6227532402753	33.8107967691072	-5.96709775301667	-70.2192728564817
128875000	-30.0655499278279	-51.9465252432683	-16.3780971284788	-15.1212258832954			-58.5564899061748	-62.342300828853	-6.23646459266672	-76.3387457372757
129562500	-30.5309454046975	-52.9652106658026	-15.4764091715766	-18.8433985258232			-71.5864616361764	-121.669196856457	-6.5298505642695	-82.4684588538347
130250000	-29.698430555442	-51.7117723879046	-14.3992041914043	-23.686574518235			-58.3673736757869	4.09366735727994	-6.91663097075303	-88.3660377814035
130937500	-30.6736346816093	-51.8617851780901	-13.7816098954834	-27.9112433615971			-66.8135078223442	156.773063793507	-7.218709451396	-94.6459360622258
131625000	-29.5290254578025	-53.8162016271905	-12.909196221518	-32.9544543885249			-65.3760423679141	-28.7007433911139	-7.64527366324929	-100.502407998269
132312500	-30.4864898647979	-56.4315477230583	-12.4072822798346	-37.4252028000475			-58.202844898385	-135.74750087165	-7.96660908400162	-106.536114999399
133000000	-30.3847895018571	-55.1734084663856	-11.7957455212418	-42.7204012235151			-61.8806155115865	-56.0928121727646	-8.38636870515013	-112.221788797989
133687500	-30.3243273766617	-60.455432947812	-11.4257574803672	-47.5527115436536			-94.1348688042035	124.236767887343	-8.75228410598078	-118.125606825579
134375000	-29.9935062814193	-57.3830959857924	-10.8686548067401	-52.275253370986			-56.4716799241042	-0.615710787417865	-9.16766187948707	-124.034156149353
135062500	-30.574059226245	-60.3579716636117	-10.5562161433884	-56.6841878659247			-60.8489945891934	175.941285933141	-9.56730429448103	-129.416564086033
135750000	-30.0348445334112	-53.9826387604115	-10.1934928308542	-61.2958496297997			-62.1430761661883	-38.2406586358707	-9.97097641833971	-134.82707887363
136437500	-30.2816020379089	-64.1568229415978	-9.92868020735886	-66.1145647197251			-65.2517596282706	-167.409226176515	-10.3113473923635	-140.359216407347
137125000	-30.1252669765758	-60.9055135770363	-9.59210827272528	-70.0803294198083			-63.5945607560247	56.4329858105895	-10.7800374861458	-145.636501157942
137812500	-30.1932576239188	-64.5023335852168	-9.43290837894604	-74.4456463530575			-65.0518308481764	-34.4087107907329	-11.1356031800538	-151.023676551439
138500000	-30.0489221835732	-66.2118435575464	-9.10912841005242	-78.6143258022072			-57.6898075286962	-2.11206306776973	-11.5136767118068	-156.602591730481
139187500	-29.7238337405651	-69.5574855424898	-8.9515017350622	-82.917703412972			-56.5158865303321	-133.987156479033	-11.827233861398	-161.647524464123
139875000	-30.4934115305917	-68.9957487155095	-8.70874155848005	-86.7860782668247			-68.3355439863941	96.0942556455003	-12.2127067240885	-167.096813440734
140562500	-29.9806082856768	-73.3510152415327	-8.54431888024424	-90.8009294505324			-58.6811049881871	-105.975463773501	-12.5991298940332	-171.851489972633
141250000	-30.8910261883285	-71.4893046045142	-8.38506480592116	-94.5907880017091			-59.9041788261956	125.318947794596	-12.8573641872779	-177.602500798815
141937500	-29.8623559759575	-76.799024757314	-8.26263950434203	-98.3444133990902			-65.5207387883606	-113.538718808279	-13.2511637610931	177.516151013059
142625000	-30.6611144509056	-74.158543395458	-8.11664962824481	-101.994465217218			-53.9454761361977	99.355531056428	-13.4638358889886	172.563959981383
143312500	-29.9561301679835	-80.3591638942526	-7.99355368733776	-105.673485163731			-54.6400758290039	-58.3248617166858	-13.9287160324935	166.78573969194
144000000	-30.1726319123746	-79.2619292428182	-7.89530578307174	-109.219512831113			-58.9072784150036	53.2175505707985	-14.1176915586561	162.403142821057
144687500	-29.6800767958929	-83.6527326082129	-7.80368363360732	-113.013082146159			-56.4719725846625	-101.016879743846	-14.5100777150561	156.886852688262
145375000	-30.713124797202	-87.7652436743331	-7.69671796848554	-116.690126972333			-62.5617871660068	151.148524904798	-14.6939166493499	151.882549587307
146062500	-29.5856603814586	-84.9485385513545	-7.61159775440046	-119.808913654226			-72.5696985384966	110.235661784705	-15.1203712892324	146.111025947706
146750000	-30.1800210415468	-89.5904213311503	-7.51415647539514	-123.28196552705			-64.1536327461127	177.380064401595	-15.3513687458137	141.728912689873
147437500	-29.0093990417914	-88.3043261072066	-7.53129624698072	-126.620084345067			-57.5947628748135	-46.4075682427214	-15.5464598877807	135.571080886773
148125000	-29.3972583993737	-95.8729455958435	-7.44612758675911	-129.875970925987			-56.8409180119899	178.538125261531	-15.7339634723265	130.67322522784
148812500	-29.4953360028493	-93.7949866173536	-7.43312372549015	-132.809503703793			-60.2239736195799	-55.5670203527772	-16.0115141045931	124.92748182582
149500000	-29.0277428214318	-96.8946802842871	-7.34401844846628	-136.166113448417			-59.5276972140834	-145.336008553245	-16.3042972644895	119.917152547495
150187500	-29.0909542236803	-94.9690497190022	-7.36980231142001	-138.976835354537			-59.8725351051694	70.1007166770686	-16.3942898087682	113.855633397146
150875000	-28.9905632457685	-101.943204113225	-7.26988740096512	-141.961046177067			-58.4961855093039	-110.887949142433	-16.6295848183793	108.773021739843
151562500	-28.9914456107869	-98.8199234045391	-7.33162441732865	-145.053034898103			-57.4650779418524	-8.39249701679246	-16.5356966240509	103.186938877118
152250000	-28.2982789280537	-107.12984235979	-7.23883107065848	-147.970038536874			-54.6312201098173	-126.68029735867	-16.9226061938532	98.2750607625138
152937500	-28.9161996878794	-102.845105054737	-7.28090057607302	-150.476334174171			-56.4528810279714	23.3523553415163	-16.8479903491435	93.0748677892041
153625000	-28.1404478147791	-109.237550423092	-7.23553665392037	-153.279530898129			-67.3447737592128	177.408921158408	-17.0967256562192	87.2033418247993
154312500	-28.1101382787914	-106.365228540974	-7.27368416856426	-155.865855164247			-60.1392364461996	92.1903761285331	-16.8052622432062	83.0261140323347
155000000	-27.4402465592351	-111.395851300525	-7.20424788289515	-158.61630126517			-61.5012284481878	-100.372625088403	-17.0640169077672	76.8621346876379
155687500	-27.7842815043506	-109.095121464335	-7.20699650036491	-161.195089077865			-55.855154109148	47.1916757559045	-16.9568442671636	72.0351332222988
156375000	-27.2472816007034	-111.437285065889	-7.14740298697018	-163.722668128182			-51.5944808775297	-73.3515879271142	-17.0197850576741	66.4740699798679
157062500	-27.4036508072276	-111.544007321574	-7.20103830163397	-166.175564439976			-57.0668975280803	154.136026704402	-16.9108688741439	62.5235562909778
157750000	-26.6736362251263	-112.466575321548	-7.10710653758527	-168.666619002778			-60.4100297519194	-103.869151108161	-16.8384918688628	57.9362783055017
158437500	-27.1239886730879	-113.92416962193	-7.17746916389984	-171.193264580379			-56.8640845401994	95.4806294850352	-16.7550679160076	53.9039020023515
159125000	-26.1584388137418	-114.123063696395	-7.04441791937201	-173.646823839293			-64.0728207889706	84.6965703526823	-16.5909780525838	48.9807787996526
159812500	-26.6612610844816	-116.22710358406	-7.0832979081202	-176.109269588867			-71.1272498150342	-38.7294352472192	-16.553591457612	44.7362683936579
160500000	-25.931336554091	-115.267532588286	-7.0461862362579	-178.630093824215			-58.2395184940149	-30.0986417209159	-16.3124782167326	40.8397627631351
161187500	-25.9514169902675	-116.291625676623	-7.08981827709103	179.230986033727			-64.9814921876021	71.2615469729023	-16.2752904542357	36.8407627209894
161875000	-25.6837701862188	-113.832360271554	-7.02034674252724	176.566095114631			-74.8742209725571	126.245023377793	-16.0318608635867	34.2552939749286
162562500	-25.8641493204884	-116.60369267755	-7.02408232597434	174.250153584554			-59.7554604241663	-117.145446412282	-15.9675566194589	29.2686398750529
163250000	-25.2096752711054	-113.2999749156	-7.00430011600645	171.758817014852			-64.8246857295225	-134.174726253091	-15.6878602718511	26.4835788031286
163937500	-25.1918870399658	-117.33337733571	-7.00825828743971	169.412958576065			-58.5635615601263	-173.174076312751	-15.654603239551	22.9191988493731
164625000	-25.0684659842445	-111.895707933122	-6.98933984744506	167.131962348878			-59.8639619086159	-18.198504191302	-15.4543106217984	19.7061214252239
165312500	-24.8960121038128	-116.740455434693	-6.9882704546412	164.955264562567			-59.8344687468445	160.485625116986	-15.4202120987907	16.1179260674124
166000000	-24.8590938649228	-112.683996645043	-6.99957121644447	162.421644804942			-61.9500199450217	-17.2473439568621	-15.1488774216145	13.4094612219488
166687500	-24.2768795593527	-116.22781784948	-7.02159004156609	160.403098373512			-58.2686274838678	-100.23065393655	-15.0868370620475	10.2417295598045
167375000	-24.3611080297468	-113.328249985243	-6.98078718146997	158.106184903895			-64.0339331746234	48.1274117766961	-15.0206660943075	7.80403620263703
168062500	-24.0273889651627	-115.457746820187	-6.99599302763788	155.904593252223			-55.2851266281074	-138.383584961577	-14.891896321738	4.63122580486108
168750000	-24.019738884371	-113.047558835848	-6.97820065680685	153.861995796215			-64.5102029964973	123.712648313409	-14.840677384196	2.11371889840374
169437500	-23.8640462071631	-114.937077185545	-7.0457058829965	151.671705576517			-52.4217740275175	-118.826987283968	-14.6596123079962	-1.13662596049487
170125000	-23.8125928295855	-111.343243375459	-6.9754811744796	149.351355417449			-54.642206955826	123.985044761736	-14.7362011879611	-3.06145116286908
170812500	-23.6058173224879	-111.23164692699	-7.04397679878589	147.617428398799			-61.3624975798143	-124.617850223466	-14.6000580885076	-6.33561321915607
171500000	-24.0391666003935	-111.352435296618	-7.00531110969359	145.269074607102			-57.8658548292384	31.0520652919612	-14.6371942999673	-8.85606505255897
172187500	-23.4377403383772	-111.831902696216	-7.04931735853275	143.388446959232			-58.3741775458641	-91.782639538385	-14.4649345469658	-11.6768756489586
172875000	-23.6375752213902	-109.150871551724	-7.00547878389271	141.390815557899			-59.9318132158352	88.5976480655703	-14.5045849184167	-14.3023799215783
173562500	-23.1363057636729	-109.62513650904	-7.10806153823566	139.539131116739			-65.7559081871093	-115.405700624971	-14.3445502878812	-17.2531684775332
174250000	-23.4602706464218	-109.094880573299	-7.01468214023895	137.5396299743			-60.9142057599477	116.611841045264	-14.4002755765996	-20.2073863399547
174937500	-23.1835756354566	-107.025135415054	-7.05775027630704	135.675532660323			-71.8743118469618	43.6574642189348	-14.426580218381	-21.973391586524
175625000	-23.1478848932635	-108.83843136497	-7.00151734731415	133.715201794676			-56.2322781752802	-116.162110597946	-14.3676008282436	-25.6815106114571
176312500	-22.969385858509	-106.69067345422	-7.07429074743277	131.954387638481			-69.9602651164519	143.793723527446	-14.3095757104918	-27.4762075079707
177000000	-23.3211479833204	-107.363301067393	-6.95219959717315	130.041826054583			-55.9453389664958	-172.704083242504	-14.4105799126318	-31.4523996598386
177687500	-23.1271904061259	-104.667984116423	-7.01087139186472	128.238912367857			-65.4608777523437	-120.86451351983	-14.3831343153232	-33.1492940361387
178375000	-23.0817816103627	-106.718339483128	-6.90645648946608	126.308128985139			-60.4999025072221	-150.005557567177	-14.4355459751108	-36.2886414964162
179062500	-22.9055731400674	-103.672559171906	-6.95722037782822	124.031334820311			-61.9918786324724	85.9306121501393	-14.4681888501213	-39.1532858900634
179750000	-22.9816373188681	-105.966190160294	-6.88336829925373	122.308211326128			-59.0308366262166	179.696829503907	-14.399704623081	-42.4711673130832
180437500	-22.9487050606223	-101.949109035204	-6.91149287672151	120.520244647935			-60.0007294387527	-94.1059283662484	-14.4604731130814	-44.8488793488938
181125000	-23.1390993563023	-105.361999350451	-6.83382891597026	118.519691271576			-59.3153679839906	-151.094560316074	-14.3407160130944	-48.2195201469738
181812500	-23.0997396510981	-100.387170305479	-6.83503398890632	116.336697584994			-57.6972121737082	57.1290651851352	-14.5396127803487	-50.9076026801796
182500000	-23.1113190608403	-102.629853872566	-6.76111296780652	114.641702924085			-59.6632994980001	-162.552859545722	-14.4682549099333	-54.2435405638988
183187500	-23.2872437180292	-101.363840898541	-6.74752969926455	112.211494814194			-58.0962804733597	73.1007476238753	-14.5676840803848	-56.7906682394601
183875000	-23.2853895199852	-102.933734134254	-6.70659829869981	110.447223560786			-57.2667353894498	-94.7158459651613	-14.52899242789	-59.4334508970902
184562500	-23.4095049956773	-100.673005657488	-6.746213802394	108.48115127415			-58.6812946879368	38.6204968531733	-14.710360906144	-63.442129399706
185250000	-23.3107000508572	-102.291393094878	-6.67085952580418	106.51057603094			-70.3941724267805	-76.109236956621	-14.5800953095831	-66.1611003585502
185937500	-23.8032765679982	-100.649916814739	-6.67993202232059	104.262119050036			-65.958333233022	100.467701066149	-14.6857993979045	-69.5110611925238
186625000	-23.4829737390218	-103.448043781144	-6.66006064839547	102.320018774202			-59.6737198247228	-74.0096239698554	-14.6069174270767	-71.6691105526936
187312500	-24.0139745883556	-102.500994943887	-6.65459828969475	100.20384567282			-53.2782765384022	121.231713707147	-14.6361543069714	-75.4850100150955
188000000	-23.7423367238287	-101.838773441387	-6.66997806422201	98.2869596713267			-59.3383082608079	44.257053082881	-14.5993779405378	-77.4367535821833
