# Hz S DB R 50
100000000	-31.8379848168961	78.0605162751948	-7.91409377225358	4.04149059092337			-64.6670077406977	32.3252218555894	-3.49478306389968	80.2236820293936
100687500	-32.2411792958383	85.2475714173475	-7.50036490161362	1.7187676363804			-63.5276650889906	-102.951156109732	-3.45671633969641	77.7904360732114
101375000	-31.7336876944753	79.4548783433246	-7.01784758843477	0.256659711205			-54.8535737241695	40.2697323088676	-3.44888636848054	75.0363669562148
102062500	-31.9400884440753	78.6422522820725	-6.59735258613267	-2.07866095920469			-60.1816306245871	-95.8144159039473	-3.47764924256064	72.1820630068179
102750000	-31.6653147105988	74.4850900197471	-6.17994663581295	-4.12270377627263			-67.7573860635511	20.6871215896143	-3.47184455546342	69.6655602616693
103437500	-32.0567147482842	74.9209124772853	-5.790558798532	-6.73924622659989			-61.6618829931921	-22.3810980064327	-3.41984498973292	66.7305587590314
104125000	-31.5157654431899	70.6441849233472	-5.37486189889504	-8.59387145085458			-56.7277272734075	74.2972789591986	-3.43889141828706	64.1462294739843
104812500	-32.1861960173771	71.3086014485078	-5.05234909402316	-11.2326492449805			-64.9802525044669	-29.8025352074895	-3.4667370260402	61.4169207138497
105500000	-31.9744841221001	70.8522223891438	-4.68254996932972	-13.3586656402763			-55.150922030337	148.573875821116	-3.42009571529779	58.8734751443993
106187500	-32.5264773502078	69.7115440006457	-4.38197342919003	-16.1352596134924			-52.6568366868867	-18.0514753727187	-3.45041405971	55.7855335669814
106875000	-31.8282697061791	65.728258001039	-4.04611470012592	-18.2805298568164			-65.290331091342	58.9229330704135	-3.48822040097576	53.0937738070351
107562500	-31.8872273200981	59.3541555808303	-3.7654328009008	-21.0642834193886			-62.8135973625798	-34.1200676470757	-3.46677530359361	50.0392578592678
108250000	-31.6993042436963	56.4895479170436	-3.51006575872967	-23.1809651111071			-59.2270118661245	100.833065984612	-3.50974762284324	47.6279733000263
108937500	-32.0114056527269	54.644900784922	-3.29995255176426	-25.8156550507957			-56.2129864114032	-28.6610947221106	-3.50119008420165	44.5261109452483
109625000	-31.2565606220707	55.0237149242541	-3.03159670740073	-28.3000525742162			-61.1828083610892	-175.066219923543	-3.57344367331455	41.9335641268269
110312500	-31.0096858320516	46.6877909290112	-2.87329130510443	-31.0580467031815			-52.6471042692582	5.00269303542351	-3.60952929297696	39.026074208867
111000000	-31.2386221779975	50.1034021356758	-2.6927263041291	-33.5073426635468			-61.1975349619913	-128.564610179273	-3.71141506379168	36.3822522556139
111687500	-31.3592965212104	41.9890461673274	-2.59388036415765	-36.1309904399682			-69.3110647297928	101.570348638321	-3.68155817900286	33.2343670561162
112375000	-30.6358975029799	45.3430386930674	-2.49542459163215	-38.6915417146747			-58.578279333203	88.3286723234704	-3.7722428340883	30.5870837687099
113062500	-30.3018222481315	36.6292077381899	-2.42665211913495	-41.0181953449051			-55.1012225884109	10.651938257091	-3.75466008167065	27.565562715619
113750000	-30.1020166912857	36.1249237043522	-2.3798235233659	-43.293809532834			-57.4702804711505	-99.4101134232593	-3.8725148579146	24.6001611717248
114437500	-30.3367716577946	32.6996506260588	-2.34613872497461	-45.8196495839869			-59.7265938928062	18.8633885652626	-3.82962770809298	21.3003893963964
115125000	-29.8716951695543	28.2106837459346	-2.35976111550248	-47.7054253073605			-71.5306680600963	-69.6164924062652	-3.9508704253934	18.2325515075421
115812500	-29.4091694302578	26.9896773716653	-2.43036487682321	-49.9066680774823			-62.8085972747872	33.6253859025669	-3.98951252972044	14.9411721468566
116500000	-29.489497938024	23.5835733135538	-2.52923115827807	-51.5854445183181			-56.3823165610452	-58.2687576815218	-4.05657352143158	11.4881751632714
117187500	-28.9107223690422	19.4414575601885	-2.70844604614965	-53.2755210205814			-68.8153679481192	33.8360457201604	-4.09676765638331	8.42166850946387
117875000	-28.8158384464504	18.671597159503	-2.88329146641971	-54.4063905532954			-55.8408849673186	-91.4873486231546	-4.19335425231024	4.95003402550618
118562500	-28.0997438962096	14.5870606824314	-3.14506913390846	-55.5396457586841			-68.8630359160986	56.6421548133095	-4.24591231997206	1.33812228718409
119250000	-27.8733240998325	8.09989471619897	-3.39085796702973	-55.6004558674059			-55.9990549440662	-28.1155544613828	-4.35811722382533	-2.56693945371594
119937500	-27.6411154967588	7.9121529201219	-3.78435446568785	-55.0303691759049			-62.3347633299406	-16.0856620261745	-4.38110289495842	-6.34577652632584
120625000	-27.5674113950944	4.81572016747817	-4.15419203108992	-53.6681681034964			-57.0589833503741	-74.2719396785736	-4.46513088494555	-10.5043755550608
121312500	-27.1704826557748	2.48490678496489	-4.52703065378928	-50.9362355764106			-73.3531980895176	168.074605838813	-4.55342141994347	-14.494066161018
122000000	-27.1496832665409	-0.192451398786225	-4.82146054643332	-46.2566890366058			-81.8325977770642	-108.202077397632	-4.69290741602855	-18.9472774962674
122687500	-26.8297394054043	-1.37558869740134	-4.94899313154288	-40.659818552847			-59.6407778297517	158.856796677294	-4.81163327129635	-23.2209688801894
123375000	-26.6645345761964	-5.97936428480638	-4.73482584316892	-33.4026294762881			-58.7741241465697	-67.072358224091	-4.92250549000966	-28.023372276247
124062500	-26.1956506828934	-7.83197763694309	-4.16105020026067	-25.7533406425556			-56.2954616465763	164.604994180606	-5.09596541109706	-33.0954655669822
124750000	-26.2049729778621	-11.3774507296354	-3.08842610720611	-19.3945883523179			-63.5719573291901	-26.1799802262312	-5.22522056104935	-38.1318527363278
125437500	-26.1091302590549	-13.2911613311647	-1.86706865902179	-14.7031831392637			-64.0416440155759	-144.060327032186	-5.41268582121018	-43.66348343446
126125000	-26.0611396898384	-15.6694495733271	-0.4175791079238	-12.4752618589236			-51.9424365679345	25.0350796834835	-5.65400046238673	-48.6202958478772
126812500	-26.0282000598087	-19.600997136908	0.975330907366836	-11.894817338486			-57.6932386812869	-105.969293196005	-5.91323471349733	-54.4464976547829
127500000	-25.9608605397739	-22.8819994689937	2.37753052964262	-12.8744937943504			-55.3103248536837	-2.11075361309855	-6.1818811472213	-59.615997295968
128187500	-25.9577481665611	-24.765827002006	3.64803484959185	-15.325064100003			-61.5381728966421	57.5325651793107	-6.456430823229	-65.8499105477524
128875000	-25.9300171101735	-27.6984096233399	4.84006973847915	-18.447606750028			-55.6944498942161	24.3897379463242	-6.84042707487591	-71.3283831875113
129562500	-26.0221890344711	-30.1662564167422	5.85985327835649	-22.6767618913741			-65.723651895965	-36.8556424934988	-7.14302699443546	-77.5792910895432
130250000	-25.9211173632466	-32.9715033706293	6.86713748013644	-27.087648181568			-58.1084391905302	10.545379287459	-7.66169277471869	-83.1981951805673
130937500	-26.4311240119587	-34.2809621888339	7.6800608052255	-32.0551444809623			-76.8032183440699	-45.6174515092359	-7.98888457093238	-88.9453603243914
131625000	-26.3741225215509	-39.2821203223178	8.44335383943039	-37.0343153849599			-58.5396973202124	12.5950593422793	-8.53116784162606	-94.5516680073899
132312500	-26.9838869279892	-41.3837092916713	9.07562516012013	-42.1856266771705			-56.3604764847587	-55.6684309565424	-8.91985935094236	-100.305993135904
133000000	-27.2157704480297	-43.3674838834681	9.68879972702117	-47.380270287238			-54.7904581714096	21.3716134609447	-9.48663623573869	-105.549899361739
133687500	-26.8550924651755	-47.8537583040317	10.1511314071834	-52.4644025275497			-59.7052074668975	-27.9084332633892	-9.91419524228131	-110.709288204346
134375000	-27.6629213326459	-46.052939992066	10.6517546010113	-57.3993331470605			-56.4167680157779	-8.72263459060359	-10.4631717000729	-116.693378339722
135062500	-27.9598592466457	-50.7495328194245	10.9851971599504	-62.5211449383102			-50.3665484467511	-31.0470555872334	-10.9143967825722	-121.672280601807
135750000	-28.2092447523632	-48.2311005506814	11.3710582173974	-67.1926469339878			-51.7461123677492	-60.937505439049	-11.4329564020612	-126.61239342036
136437500	-28.5748143168752	-54.1230303459004	11.6468390384665	-72.3953441779664			-53.3554974671858	-31.2672326853244	-11.9119440423145	-131.405836753288
137125000	-28.7974696982741	-53.1336538994362	11.970025143844	-76.4170371678343			-53.763332795777	-45.3804088606175	-12.4064274189652	-135.799699136811
137812500	-29.0261582018054	-56.8954413552362	12.1740487403298	-81.3623822468797			-52.4052707220426	-63.2385516790403	-12.8629162993113	-140.725604672909
138500000	-29.3650361210078	-60.3063640770979	12.4197769337453	-85.4469405478149			-52.5100088161197	-77.6763821771063	-13.2627647309998	-146.28163721743
139187500	-29.1418853205478	-60.4627488187896	12.5910937738541	-89.8724914020862			-50.6479948894284	-55.0326817228128	-13.7695632948531	-150.145242358582
139875000	-30.6948539136103	-61.5443439552385	12.798982457743	-93.8220337497774			-54.2965348362435	-94.9247460694192	-14.0895938140048	-154.737545621888
140562500	-30.065505246954	-64.5642821965294	12.9460473923019	-98.0739590681715			-49.9887964846364	-72.8256999309314	-14.5866463626713	-159.463627892887
141250000	-30.9287324853707	-65.2581227952551	13.1521083677682	-102.00344532			-53.5642810431809	-92.8159504492873	-14.8510940053321	-164.286201966657
141937500	-30.6455024477338	-66.7429979200185	13.2235984146972	-106.162250762843			-51.1104082494754	-78.2215315082854	-15.354324750414	-169.784594310978
142625000	-31.285557520992	-65.8002260405273	13.4040349852963	-109.760523308583			-51.4031482301388	-94.0134089222924	-15.6380461721101	-173.410711145936
143312500	-30.8315546451626	-73.0933960224772	13.4822847106281	-113.736861915466			-51.8400343323286	-92.4593310295152	-16.142875082372	-178.939606708612
144000000	-31.5815401479592	-70.0238341089865	13.6118362749775	-117.01618071432			-51.7806057033691	-98.1557917385778	-16.3132767983515	177.248022629944
144687500	-31.2120400092645	-71.71517344893	13.6875554799681	-121.173841621497			-51.7534162693158	-73.6034761103473	-16.739876468099	171.934645582563
145375000	-31.9228873030465	-79.0580728701249	13.786914691742	-124.583399478159			-53.9757410787896	-99.9385686570048	-16.9377580260533	167.229018752172
146062500	-31.210931014564	-78.6778893655746	13.844236897512	-128.124046143531			-55.1803109905616	-68.6365459364522	-17.4603838019079	160.997143978918
146750000	-31.6838262574947	-80.2618941111218	13.9103809084499	-131.433100854841			-49.4569541219131	-108.756030182091	-17.7899609945324	158.248703187139
147437500	-31.447235456345	-81.4479260352521	13.9743641598674	-135.022159543231			-50.7189472571587	-91.7006592719716	-17.9827939111904	151.321103704417
148125000	-31.5548663900607	-86.7254478719423	14.0223497938471	-138.205922085234			-51.8844225604618	-101.397287460362	-18.2028807408461	147.189417708739
148812500	-31.2369126194389	-85.1094709583865	14.0803435058758	-141.58008115548			-54.3427548107334	-148.885591718763	-18.376788298693	141.53419354985
149500000	-31.2940094627502	-91.3389060862533	14.1164938227162	-144.751995105531			-48.2714002259757	-122.165969874377	-18.9199045931866	136.226780186726
150187500	-31.3323536606394	-89.8216029771078	14.1339003153365	-148.093770086075			-52.8340838190444	-123.547500508296	-18.9043618851675	129.693873271446
150875000	-30.9637606085542	-93.6321015264457	14.1601177060488	-151.029125863594			-48.687095810673	-138.6956864999	-19.3311765662998	124.560834723068
151562500	-30.4174980844236	-96.1842312510635	14.1715342765367	-154.045686732571			-50.6097339098762	-154.489712894374	-19.1880912869801	119.187838969866
152250000	-30.293730687321	-97.8336368253054	14.2244313253345	-156.919331232751			-50.0731970845442	-116.009596561073	-19.625624363584	112.993310045831
152937500	-30.6618979305496	-100.138953342064	14.2578278167949	-159.861624112756			-53.0583959051157	-130.099338360483	-19.4604429546827	107.931068313727
153625000	-30.0133731137466	-103.725815807813	14.232468851762	-162.645677301823			-46.9579556947907	-129.634363749323	-19.6297829723525	101.464305937247
154312500	-30.010612754629	-104.710170828384	14.2621153378385	-165.473134194164			-49.8975720385659	-172.158300013667	-19.4518143225557	96.5042709522419
155000000	-29.4819252131412	-105.89162271273	14.2570725795343	-168.39612643826			-50.6917589102859	-120.382049510579	-19.4642735464482	89.8903562627067
155687500	-29.5345292195441	-105.793791809671	14.2905083768573	-170.75248300777			-49.1528082596647	-159.927506707546	-19.3963247209414	85.6472233038628
156375000	-29.0549880298085	-105.624320267017	14.3357805697211	-173.56622421246			-52.8043461772189	-149.643452644636	-19.3733327096972	78.4857815836682
157062500	-29.6032322165625	-108.789011943991	14.3046375906228	-176.264954756536			-49.0747640690126	-141.764602954877	-19.3396323242594	75.2807915736832
157750000	-28.837258468046	-108.677740499682	14.3710566048778	-178.577955427153			-54.2241825517685	-167.69199936018	-18.9261567045005	69.0699698497534
158437500	-28.8260103515998	-112.015479304855	14.3277924891607	178.735120678668			-47.311380003653	-170.763178497815	-18.7654094808064	64.9083852463629
159125000	-28.4386027267912	-108.322871772758	14.394544664751	176.256183150266			-52.3272604140949	-176.955320955806	-18.5236424421389	59.9299095553318
159812500	-28.6076761082578	-111.560760131225	14.389287528122	173.432516858424			-51.4191677424983	-165.662445116717	-18.5641354805626	54.5524938542399
160500000	-27.96938874997	-108.927878041345	14.438773186494	171.066111115897			-51.2523565634083	171.751088194154	-18.1113178084592	51.3725779178155
161187500	-27.715074186652	-112.229489881226	14.3855432726114	168.589985365538			-49.2855247742441	-164.056722139003	-18.0655365038234	46.6315017076663
161875000	-27.6914863700591	-108.202537002199	14.4679011702195	166.165629276479			-54.3352669477185	167.240353280111	-17.7544146674159	43.6840598667047
162562500	-27.1431918803631	-112.122688471142	14.4556915670978	163.442104557154			-50.1132602627264	-169.685464547273	-17.5703950610055	38.8433948487556
163250000	-27.0085083703125	-111.466666075183	14.4748980708236	161.12261411443			-50.6713633894446	-176.407476870789	-17.2063162362007	36.7832086978462
163937500	-26.6330767102932	-112.777039704397	14.4752321063109	158.674186114455			-53.0200033816409	-144.513915502971	-17.089944705745	32.5321909203616
164625000	-26.8148255732092	-109.071033232499	14.4923029292143	156.324890979901			-51.8306060505453	147.186091849097	-16.7981821761383	29.466312449233
165312500	-26.4076815866655	-114.485064132327	14.4689353377176	153.721113140758			-49.6589210414661	-174.960126581428	-16.6062188480956	25.0795977380047
166000000	-26.73549267703	-109.976499464973	14.5180870759637	151.392242868207			-53.7699515073677	171.254466025932	-16.4431094474308	22.6277028629824
166687500	-25.8660700161611	-110.035065308016	14.4794491167547	149.103830520713			-53.4616064439737	161.967415261976	-16.2995341458534	19.5801773443344
167375000	-26.2615976471849	-110.751788219664	14.5311152295819	146.758987934431			-48.4209960170658	172.407290799016	-16.1726948931628	18.1283103550006
168062500	-25.5769713034678	-110.52680014311	14.4986888605446	144.357914440606			-53.0533940863952	-164.036570404988	-15.7522390235503	13.8887375107387
168750000	-25.9788306418536	-110.043932334957	14.5072179992037	142.210790857573			-46.7250027717872	158.368698209586	-15.9095232191272	11.3031696984374
169437500	-25.5762674744753	-110.010285357593	14.4537855513797	139.748739561466			-52.7987732942793	151.718095965565	-15.541487137153	8.36241628675936
170125000	-25.4749294774675	-107.482794822776	14.4836762840271	137.669850256662			-48.4640791770323	172.249485017122	-15.6953052120076	5.69196212006284
170812500	-25.2516837656764	-107.425443605993	14.4379567014413	135.392225033081			-53.9469913922702	154.269789678958	-15.3811251835391	3.43746778244762
171500000	-25.6079880276679	-107.909148980242	14.4628501429145	133.278790170262			-49.1225445044618	151.745849201063	-15.4744156579414	1.10878709046318
172187500	-24.9938924311999	-107.205196130471	14.4257498931604	131.045039499663			-48.4177935592705	151.847691800114	-15.1651040852382	-1.85358377190461
172875000	-25.4959305978253	-107.084115501184	14.4400988475652	129.249517797822			-47.0774813994068	149.023599658785	-15.2443365124085	-5.01973850210747
173562500	-24.981631442985	-105.854122465067	14.406019709418	126.955195285532			-49.7903058382111	130.67378803962	-15.0958153788041	-7.21310462875939
174250000	-24.8944750585499	-104.567319967086	14.4435836150113	125.088505380693			-48.9175246227942	168.543816159988	-15.0736513391524	-11.0137401536866
174937500	-24.6786163329761	-102.198492643645	14.4232933095059	122.951441095837			-47.2955502891335	146.449723457652	-14.9968604825856	-12.0618040646249
175625000	-24.544750754827	-104.265157359634	14.4416696913849	121.047293316174			-50.1720900403909	159.215142386656	-15.0614762682824	-15.8058882699896
176312500	-24.6317817955353	-100.94282439981	14.4307316926851	118.906015363794			-53.8573146834217	145.057432564088	-14.8356609400543	-17.5858212620135
177000000	-24.5676760073188	-101.413245277634	14.4696722358379	117.252001294615			-52.117230603637	163.072336975697	-14.8375081036412	-21.356412677033
177687500	-24.7243377027643	-98.3906467792354	14.4411784212964	114.997270058103			-48.6567117267333	138.22355967084	-14.8928319684978	-23.1691860775111
178375000	-24.5730157193528	-100.811775684094	14.487961704482	113.115150918153			-54.3371037790332	139.218878314434	-14.8897169900635	-26.5084913913418
179062500	-24.5032906857181	-97.6164316652773	14.4906386671313	110.916664452034			-52.6912781700674	122.477229161563	-14.7690985933216	-28.687426762491
179750000	-24.5007669258918	-98.8261932505769	14.5135148418109	109.233488364421			-51.5952787468528	116.155535883678	-14.7161867309825	-32.0342402095484
180437500	-24.2106889417595	-95.4441878081498	14.5679503314764	106.972054301472			-50.6000058378936	127.016635393846	-14.7324543478192	-34.5989900240942
181125000	-24.1914068940392	-95.4925519836517	14.5795611792459	105.221576256868			-52.9965543505012	109.98989091332	-14.6011723222238	-37.5985625911219
181812500	-24.3312399575409	-94.0628124865609	14.5888187901191	102.991880552149			-44.9868418948778	137.196305654204	-14.8473940726647	-40.5886326530977
182500000	-24.1333735932028	-95.6260139119693	14.6647238206299	101.031476093152			-56.6514609581268	113.234384155516	-14.7156718644365	-43.0379725470628
183187500	-24.2893700281384	-92.7165756812998	14.674968384612	98.755917298369			-49.3667092633906	146.517311782433	-14.6941612357288	-46.6957275908041
183875000	-24.1921539426952	-91.7698023964703	14.702094474959	96.6592102049579			-51.2584055966983	74.3655631601018	-14.6706342826049	-49.2517009536279
184562500	-24.1759501316618	-92.9693661754627	14.6637542412252	94.7465209102758			-47.5167084979005	124.363878915962	-14.7545926911005	-52.20641953348
185250000	-24.0480177514228	-92.6931467364785	14.743047161338	92.6314140624149			-50.597729596478	115.542359966287	-14.71753377317	-54.7765775733299
185937500	-24.3128356217565	-92.6328540954704	14.7323937500043	90.488742344935			-50.0530253573837	111.81422842646	-14.6861619830636	-58.4953340348016
186625000	-24.1523805091716	-92.0799687453521	14.7569838233695	88.2722353438322			-49.3025670756575	94.9198456738773	-14.6999481028088	-60.5157854277583
187312500	-24.5585853870927	-93.4292956643374	14.7676845572582	86.0837910777753			-49.3459497035588	132.254481362983	-14.594574792573	-64.5555162583071
188000000	-24.5630377784447	-91.3488978686971	14.7589947328245	84.0961888219947			-50.4702867524216	106.588429019436	-14.6106832134305	-66.8324850974217
