# Hz S DB R 50
100000000	-31.9178887255008	81.2404012127221	-7.90510468824832	4.01046726783491			-58.4907702528429	49.1184819635797	-3.51078865512129	80.1808126880272
100687500	-32.2547714895866	84.9259420008168	-7.48550842068255	1.8857009591509			-71.9244886444447	-15.9980248336434	-3.44843619973093	77.7062725993762
101375000	-32.4181061599929	77.8408621886587	-7.02094713570511	0.108775060082361			-59.7436306874905	113.782372189715	-3.45887598629833	74.9133770659082
102062500	-32.5549322670979	80.6428619424322	-6.57501719101158	-2.1343179360659			-61.2791969598803	-120.805876122817	-3.49107417728868	72.1953325946498
102750000	-32.0150847948598	77.3302676913427	-6.12151474193799	-3.88755363035164			-57.3179857504591	73.1868122465882	-3.46905469449805	69.7622699000127
103437500	-32.5475518460521	76.6900495112976	-5.77916939497085	-6.45068445066156			-57.2000014167105	-43.2540458300436	-3.44117232478153	66.6920253811802
104125000	-31.824396141594	71.981025012144	-5.36866869281039	-8.68536381116505			-63.2545669566046	91.7627278482652	-3.45153349212751	64.3213092684729
104812500	-32.3601762785054	68.9646252637605	-5.02769120804824	-11.2540107159344			-64.7269686819184	-49.0579809918294	-3.45879806429448	61.205989792741
105500000	-31.9234195071219	68.5788489054604	-4.66607193273198	-13.28674803798			-61.8940290290875	59.2318865979984	-3.42191386979755	58.7859467370557
106187500	-32.6717498772806	69.6838638985001	-4.34988804195914	-16.0925275754153			-54.1249786138288	17.8846894531029	-3.43387157001371	55.744687429589
106875000	-32.1052295824942	67.266414186039	-4.02237849909821	-18.0785803552801			-67.9587179339935	69.6486034521131	-3.47083263861149	53.2134865181102
107562500	-32.3448506522691	57.8619627808575	-3.75570752706886	-21.0016288679323			-59.7681389311583	-19.9916292883421	-3.47067994346298	50.0686551307647
108250000	-31.3385631788812	55.9973880930178	-3.48431130902087	-23.2155115936986			-69.4465807240603	52.3907814638594	-3.5340891096557	47.6250168677084
108937500	-31.9795888904286	53.2206712427298	-3.24636233775789	-25.8752161703908			-52.9086858018232	-25.3615569293735	-3.48238842549759	44.5727924833516
109625000	-31.3743420829645	53.6348933614981	-3.01869423056338	-28.109433195709			-60.0448343274324	113.914083685789	-3.56541481998145	42.0932369428967
110312500	-31.2912162119665	48.2097036735338	-2.86469416030201	-31.129278206781			-61.0513015674791	-94.3044535162021	-3.59731739024445	39.0085239909736
111000000	-31.1612867364614	49.0399795360409	-2.65061295562278	-33.4172643934583			-67.1260754314813	166.249122142764	-3.69529134270853	36.3740169127695
111687500	-31.0909475653015	40.4905524799071	-2.58403816843015	-36.2453356291017			-77.863093319535	-0.89906008698256	-3.63376692939976	33.0762191495148
112375000	-30.365736025164	44.1048561689317	-2.45742252547887	-38.5331033154899			-66.8153582147235	13.3792252652163	-3.77091425817252	30.5822999252333
113062500	-30.6191423589269	34.7860169437229	-2.40551652404508	-41.0787634217783			-59.2718807495102	-47.8154408994106	-3.76488399237764	27.3514430685836
113750000	-29.9756647989091	34.3678702738927	-2.3450441127141	-43.2641350950869			-63.9519954900149	-157.186843446813	-3.86057192355415	24.5247663652505
114437500	-30.290370004305	30.7071715029723	-2.33127490580537	-45.6886365796317			-51.6209566347049	2.94218662497552	-3.85710779244192	21.6365554105175
115125000	-30.2231434117221	31.1129226824567	-2.34904856435368	-47.7466653621479			-61.8545651454576	-45.3945187826654	-3.92929499885716	18.2014729441801
115812500	-29.2532364513579	26.411932358015	-2.40303371993762	-49.8767966057066			-58.1458018337183	59.3880359269561	-3.97170389206415	14.7969347397433
116500000	-29.4153163256213	23.5458262303955	-2.51398920493163	-51.7630330393227			-66.3475749699571	-129.184911078768	-4.02637850007133	11.508029223321
117187500	-29.044378711769	18.8425998385512	-2.69843838265828	-53.1568816992761			-69.132956210987	54.7286246789498	-4.07962972763781	8.2343973580155
117875000	-28.8617457586033	18.902962654126	-2.87382394269454	-54.4993430793447			-59.7679581449082	-105.518054713671	-4.18389830575592	4.76036212216909
118562500	-28.404628288274	14.5964036080271	-3.12113338085206	-55.3657430659928			-67.9321403957124	53.6007651750209	-4.22090280460599	1.31262128558696
119250000	-28.1863649426866	11.3035923707915	-3.41301928433798	-55.3519472571988			-61.2574090397558	-119.343162397075	-4.32331995829393	-2.31975020513962
119937500	-27.9002670000601	9.88280336394575	-3.79419405700668	-55.0014494477726			-77.1296673733962	66.7906034753668	-4.3945620264686	-6.48856673507537
120625000	-28.032232553269	5.78929466072841	-4.14615366357877	-53.5121452260381			-57.7529744915351	-63.2302559277445	-4.44624998363032	-10.2650154850628
121312500	-27.4438781754177	4.12196335970344	-4.54058365555314	-50.9406146975733			-64.2768702155624	108.37746654723	-4.54141223093514	-14.7113933210429
122000000	-27.5648394606367	0.597327360427879	-4.80826420334148	-46.2734852146992			-59.6759253295762	-26.7059483854109	-4.65658442516177	-18.9402531028122
122687500	-27.0682541838878	-1.25279144136274	-4.96114118153504	-40.418467628107			-61.2666754561008	125.00348977984	-4.78557460752425	-23.5689795894942
123375000	-26.7720926060893	-5.93106421644013	-4.73951891834672	-33.2329516273067			-56.5291138441956	-62.5865916031919	-4.87648134588572	-28.0974115563165
124062500	-26.5359848024113	-7.49479119025623	-4.1659006733089	-25.5980039574612			-55.0706503425643	-115.518867679627	-5.07344391943336	-33.0665061588904
124750000	-26.5616761215869	-12.3250059093689	-3.07056913084689	-19.0688124796722			-56.1662229384651	-18.9089816725137	-5.18492839259385	-37.8440886958328
125437500	-26.2927298483414	-13.6021842479299	-1.83670550410793	-14.3750716732732			-61.2316632510361	142.667877635902	-5.38764606345914	-43.5821287335332
126125000	-26.4736403002197	-17.4209175197094	-0.366702845248769	-12.1196266671357			-57.5101054383124	60.88393208639	-5.62097846781052	-48.7217468721251
126812500	-26.5335830502067	-20.4729670983482	1.015332610719	-11.4718703519803			-58.2475502345977	-32.8016432228488	-5.85946754922485	-54.31264095697
127500000	-26.0621469298065	-24.8066086520889	2.43155861005444	-12.5227938413161			-51.5306208536325	32.4129166394642	-6.15623970145427	-59.7329139545482
128187500	-26.3915689866684	-26.323269157502	3.68849469499564	-15.0551555809636			-65.1446538161123	-13.0338412583473	-6.42466480093584	-65.8328587657917
128875000	-25.8955509267862	-28.3602255279419	4.89846415723435	-18.3603269222053			-52.9810720279849	10.340506420424	-6.80543326741739	-71.4915922486485
129562500	-26.349516999107	-31.7973571784785	5.91873926441268	-22.4300901033079			-54.3050862145714	-111.177579304338	-7.10251503170057	-77.5774399929016
130250000	-26.0275914320751	-35.5415108296967	6.93443108901003	-26.8030487018077			-57.0526200917286	6.65238253913368	-7.62324816621502	-83.1212429833487
130937500	-26.4831349027405	-38.1401663683147	7.72459283731236	-31.9088804905504			-55.3186249296769	1.25837606090026	-7.93539081967372	-88.784728545063
131625000	-26.3200808541936	-40.2603616101617	8.50352439741113	-36.7530493069388			-57.8373598077792	-0.886770812917676	-8.46712054342284	-94.3325167292195
132312500	-26.7120689467242	-44.0621083013413	9.13467260830071	-42.1339621502564			-52.463117378822	-32.4056167543384	-8.8484523678368	-100.303186414227
133000000	-26.9439202277185	-45.2069778461358	9.72556652964961	-47.2520733456621			-57.684665944649	-34.2208746442186	-9.46998970680604	-105.564071958886
133687500	-27.0327624521855	-51.3767414642781	10.1898042304091	-52.4925617467668			-55.4085262869734	-46.5229053508586	-9.84173875650806	-111.065777314644
134375000	-27.5150284228904	-48.3318472479056	10.678615883706	-57.3358521531816			-59.1770303925659	-8.38533093012339	-10.4002135826819	-116.422520392929
135062500	-27.5588703829529	-53.5007616436736	11.037328508744	-62.3784651553204			-50.0616257419008	-54.3024201156266	-10.8594312527721	-121.277051002873
135750000	-27.9696910797459	-51.405376867003	11.4228676504609	-67.2103902308866			-56.4441887361186	-26.7101884470813	-11.3872172921082	-126.257609222274
136437500	-27.851641241116	-56.758851249061	11.6786097613464	-72.1845589817828			-50.0863692090017	-71.9101457223875	-11.8427011391728	-131.360792459814
137125000	-28.5436206879845	-56.3265269271038	12.008070969815	-76.4089645150366			-56.5194283478881	-51.1360543460928	-12.4439976927277	-136.135918053964
137812500	-28.7996069257656	-60.4710758849915	12.206043255298	-81.2145761513144			-49.8657790339397	-53.1319159409652	-12.8991704987864	-140.284390110031
138500000	-29.0795918527615	-63.1851404434304	12.4664014205063	-85.4122417706424			-54.501011816772	-69.1144001466821	-13.2569661983752	-146.175438293784
139187500	-28.9820363714799	-62.7832516347324	12.6515625985043	-89.7679700118385			-53.4792069215032	-49.1226204767605	-13.7165175834393	-149.881181286528
139875000	-30.1111875841939	-63.1301873614238	12.859470045601	-93.760340380097			-60.2846544427634	-132.495168008988	-14.1197851786451	-154.709800329927
140562500	-29.8801200982435	-62.8774372525536	13.0026179467925	-98.0827751695314			-50.1282418895531	-39.2527238058793	-14.5697056249309	-159.702379311564
141250000	-30.556760589965	-64.7315567633486	13.1812856820244	-102.001898188168			-52.6556308051593	-80.6311315456959	-14.8848133462208	-164.401271442291
141937500	-30.1466035022256	-65.6306608436252	13.2708823226339	-106.152490306057			-55.4150930963349	-96.5224838463384	-15.3326889007481	-168.909138363809
142625000	-31.3405632084498	-65.7662846887797	13.4299093325774	-109.820155304022			-50.2541737575896	-80.9476828298769	-15.6718687029648	-173.521463939619
143312500	-30.44671025168	-72.6934177147398	13.5306532965071	-113.768319893714			-52.9210503595031	-74.4913717671891	-16.1517524646595	-178.898679004766
144000000	-30.8452556212224	-69.998100403698	13.6655503242232	-117.079220735549			-52.5197429183435	-127.185735153238	-16.3773125472604	177.133302979773
144687500	-30.6131476883141	-73.4164749172581	13.7145795765245	-121.284662710532			-48.8149998286036	-85.4308268219549	-16.8450035745111	171.440564142586
145375000	-31.4687543760086	-76.8612975241447	13.8266152078841	-124.603755695922			-52.6519873045283	-88.6317554051582	-17.0187512812125	166.494711137133
146062500	-30.5436621452691	-73.9401427955558	13.8778178377756	-128.209379627682			-53.7887272810807	-109.18303430953	-17.3668238726675	160.814449179257
146750000	-31.0332151900842	-80.9066022540575	13.9567542809414	-131.586064006622			-47.8789200633551	-108.367743729945	-17.7252538841446	157.824725770974
147437500	-30.6599572966843	-78.5640542412378	14.0043370549058	-134.978656551432			-57.9006087292926	-114.932309423608	-17.9959664807379	150.199163882306
148125000	-31.001906052604	-83.5190715259673	14.0528127687734	-138.260509316641			-48.5433901587369	-113.043726807666	-18.2607250684487	146.325250342682
148812500	-30.9173943149853	-84.6762663851668	14.1085146936836	-141.597438197112			-53.2648817559052	-147.617469913844	-18.3379903848757	140.078431064412
149500000	-30.7740350085046	-88.4517018185576	14.156531758649	-144.673985868199			-49.4296422685037	-110.361064880022	-18.8671438038645	135.083293340393
150187500	-30.7086819613757	-89.6540506694871	14.1569753151358	-148.068976525457			-51.1197704987751	-124.149716707896	-18.855533175229	128.71240863848
150875000	-30.4189614828214	-91.9658230836578	14.2138494704002	-150.996142835553			-51.0420825747356	-114.176455787615	-19.2033481475989	122.701246020002
151562500	-30.7218396582029	-89.5621742917981	14.2098466502186	-154.062803381682			-49.6583989341217	-155.081631431366	-19.070053136837	117.992579920931
152250000	-30.0716081401187	-94.9883002082425	14.2457653406833	-156.927830041264			-48.4795536904354	-104.573556578632	-19.3728654020506	112.131169668219
152937500	-30.6747317993505	-97.8440114537501	14.2709191174734	-159.815413563219			-50.2468974210871	-151.793280679951	-19.2305410658552	106.763594968405
153625000	-29.7199458295944	-98.63403866719	14.2795731926172	-162.630074648883			-50.1816693438924	-131.635491370122	-19.4965788490504	100.19448460162
154312500	-30.0969760598038	-101.712030979412	14.3044163897616	-165.408092951337			-48.2514203591041	-148.182160931887	-19.2276488482117	95.6570034708985
155000000	-29.3455014072931	-104.30937360109	14.323206468179	-168.342270929956			-53.2577699097358	-132.29488460368	-19.2895332278621	88.8553113089485
155687500	-29.25303891446	-104.263571199052	14.2990004000585	-170.769462443906			-49.3971948021958	-153.305161548597	-19.1337256782657	84.1952474345053
156375000	-28.960717119957	-106.574686866415	14.3741757771259	-173.778185860624			-53.1049322010705	-137.928715923165	-19.0921387447464	77.5424961987907
157062500	-29.6389681956431	-108.631130706645	14.3400565714604	-176.378451518104			-48.0673715731254	-147.047909969333	-19.1395079613981	73.9931808446655
157750000	-28.3343006802516	-106.938012846715	14.4025888338345	-178.720594362718			-51.7469517453932	-129.853132517418	-18.6784218197199	68.0204094203891
158437500	-28.7478473521823	-111.060124503482	14.3852829403163	178.594860461456			-49.9196297753057	-165.87731612393	-18.6256610625002	64.3561279745726
159125000	-27.9662897244021	-107.468900129791	14.4353748406003	176.248981916929			-55.7184335289156	-126.72363872301	-18.3048463762929	59.4418189371384
159812500	-28.3452314064662	-109.393420969972	14.4296375015814	173.518452524218			-48.5625314723724	-178.006220109113	-18.2486976875199	55.2836644792988
160500000	-27.6279110653987	-106.952721315675	14.4648998162353	171.087193165765			-52.4943226940592	162.076911478285	-17.8430933591645	51.0418987683599
161187500	-27.5036752819499	-110.676597736815	14.421143617522	168.735321318574			-47.8927560014727	-165.559697469888	-17.891969011008	46.4307926399316
161875000	-27.3236237935201	-106.357519848892	14.5088859989115	166.170686416819			-51.8928030642968	-166.827134770279	-17.4828153404259	43.1103581951408
162562500	-27.1462394640734	-108.275876607602	14.4570872094745	163.407806235123			-50.0490964795972	-176.664141657154	-17.4345275679718	38.6882730908782
163250000	-26.9209186427224	-108.430782713054	14.4967462468642	161.100620917043			-51.4186416545312	-174.822680663672	-17.0390822841182	36.3916882753211
163937500	-26.626654716093	-110.10245118767	14.5056147251428	158.61254369311			-49.852130719342	-169.953855349349	-16.851428439395	31.9794451719253
164625000	-26.5404836215425	-105.995077506028	14.5060938032852	156.21918132164			-48.4154548141688	151.632584338461	-16.6133463204295	29.41932580062
165312500	-26.2810585768821	-110.67872720083	14.4940871835514	153.730817550028			-49.4766893283755	-156.559258457616	-16.4034417502541	25.5423426227679
166000000	-26.3360323030861	-108.094829818617	14.5341612884619	151.548321222462			-48.4809743187254	154.36776877694	-16.2952961851621	23.2447006034168
166687500	-25.7489464085479	-108.109570905999	14.5041490751433	148.890024546206			-53.8602038890711	-158.086307158578	-16.0643888705517	19.8273894179633
167375000	-25.9842029789946	-108.29737478614	14.5509642957917	146.88331024077			-49.1540712441372	176.412972889914	-15.9478816826554	18.1000515836104
168062500	-25.6046316202807	-106.230181636603	14.5021651519407	144.344906031526			-55.5367744779644	175.380491334981	-15.6643160253131	14.3127071433544
168750000	-25.6988854070948	-106.82713984278	14.5420162222045	142.354896380207			-50.9580403407917	156.149095083719	-15.6190106411893	11.754458300979
169437500	-25.3283295268065	-106.167116487276	14.453359239552	139.775806298275			-53.9196278950512	-147.852579827847	-15.3785979037338	8.24759377178746
170125000	-25.3757829181522	-103.727197515851	14.5050344449639	137.720758668987			-46.6001579209995	154.398235730428	-15.4041369335526	7.2941909350929
170812500	-25.2116417733271	-102.926649618182	14.4384691964331	135.301269364805			-50.9988999455721	173.881610792616	-15.162818580029	3.2490162580285
171500000	-25.3511196994519	-103.562502670809	14.4675155177553	133.42005318703			-50.1065782555093	159.337590915451	-15.2408903550705	2.08124193521237
172187500	-24.9381163127487	-103.160488524726	14.4288457434831	131.046064512767			-51.0783188093343	130.160677938716	-14.9463676388632	-1.39083030358974
172875000	-25.2798483010538	-102.541117937417	14.4621762613213	129.331438364489			-49.6782170786808	173.335686197344	-15.0834036241019	-4.01095769662907
173562500	-24.6369049715241	-99.206905130989	14.4060047013903	127.002193937271			-54.0961731418537	136.886449889561	-14.8203713054925	-6.40240393387046
174250000	-24.8696983850433	-100.079678270931	14.4741747741934	125.038929913278			-47.2067989719086	171.589524223578	-14.8334900569343	-9.84180189523557
174937500	-24.822208610591	-96.9735909167697	14.4458272570791	122.915568596744			-52.5193554793211	131.130105019919	-14.7135267119705	-11.6255594775621
175625000	-24.8501593762102	-98.9843917021563	14.4591719598222	121.137505769429			-49.0023948784361	160.006952223107	-14.7505308668686	-15.1396060708338
176312500	-24.572728922954	-96.1956186601591	14.4391563600573	119.073704108262			-51.1997705109415	117.151831702231	-14.6318318056044	-16.9830330398223
177000000	-24.7402598734751	-96.5421147347687	14.488100331345	117.310132776321			-49.942134947944	160.025486587396	-14.6040567354927	-20.6011513095562
177687500	-24.8640929997154	-92.3393618440747	14.4650133800081	115.111618852382			-50.3530066435939	129.093997177589	-14.560031027506	-22.4819361966486
178375000	-24.7711397430867	-94.925092297845	14.5097950427001	113.155963840385			-50.709889759006	173.127020402805	-14.6565176161843	-25.550188796494
179062500	-24.6595127446858	-90.9701538219412	14.5188005138602	110.978519316119			-50.7532426397829	112.906628813213	-14.6046039604881	-27.7559260967269
179750000	-24.4537123789736	-91.7993178862956	14.5330493750038	109.157806016664			-54.7872375851284	165.23737360366	-14.5109677819345	-31.2046123094113
180437500	-24.5688043450338	-89.419240808226	14.5949596718563	107.044431814069			-50.5405978538799	106.284108656986	-14.5420664246871	-33.6985987363092
181125000	-24.4555094883616	-91.0431293716538	14.6063666865645	105.190281379451			-51.5485411195492	133.048504005884	-14.4975403783393	-37.2409614193886
181812500	-24.6471152227375	-88.402095421864	14.6305768780391	102.942963279729			-45.6064408681905	116.315115111377	-14.5797214662098	-38.8187330304454
182500000	-24.3324799920338	-88.848304788472	14.6692932602954	101.271155276218			-54.1101144527668	113.181046061547	-14.5688648841198	-41.9534242760607
183187500	-24.6092910702966	-86.1221467657731	14.6936425697087	98.8835025088106			-48.8619989055069	135.713710405982	-14.5574137187394	-45.2586506395641
183875000	-24.5365172405225	-87.12833249752	14.7341824282327	96.9409237793565			-55.9221571303494	97.5626677096036	-14.5526570431061	-47.4357512468909
184562500	-24.5302621672444	-87.1385215760196	14.7086568812221	94.9156302938438			-51.2630065250014	150.019355294911	-14.6257239977255	-51.702587983335
185250000	-24.4783693456466	-85.4910708412074	14.765433824681	92.7699722593765			-51.2040838213162	125.806021132031	-14.5207491925532	-53.8108352960133
185937500	-24.7240914577113	-86.7799370728127	14.7482704565667	90.4543208654977			-52.5861604944145	141.928372561365	-14.6076274783134	-57.159136093656
186625000	-24.6570771613503	-86.9630709116744	14.789759817686	88.3218714510317			-52.2443524905936	96.564735765399	-14.5272881967573	-58.9766391413587
187312500	-24.7514003237322	-87.3549265894791	14.7733136927397	86.0974421870916			-52.8695843077765	136.022747407302	-14.6204210320998	-63.55250472599
188000000	-24.4546057418097	-84.7496764553744	14.7928381223075	84.1559725768405			-51.6243653032315	69.7524338315637	-14.5550088213058	-65.3893041604903
