# Hz S DB R 50
100000000	-18.7153667670254	135.998005600401	0.135554916829958	-6.74867252791905			-61.1633951671786	91.5860017712093	-3.46077033704322	70.7547354902562
100687500	-18.619206126435	132.722456814251	0.646772823903315	-8.61235940634769			-53.4413236352481	-26.1113023388196	-3.40454400208998	68.3573350090766
101375000	-18.6246917301135	129.4555397622	1.07540206153007	-10.7105020041992			-62.0135738149687	65.7143233744296	-3.4424852200613	65.4220442800725
102062500	-18.5159201540265	126.02252745833	1.49545799488689	-12.8899523073153			-66.1830881652025	-17.1449284883841	-3.43172201122779	62.865937479986
102750000	-18.5151168060274	122.966601839381	1.8953634077968	-15.2769691094604			-70.0548603252845	-5.7319178059867	-3.4623480410785	60.0993051711362
103437500	-18.3430031440426	120.190983872601	2.25867166786462	-17.4776446246526			-58.2718714328579	-30.9110329151406	-3.38774506200662	57.5219453499478
104125000	-18.3129529445778	116.305333144479	2.61620355162911	-19.9125944318902			-64.4497498986739	-86.5507217886339	-3.45845116004757	54.5690610107327
104812500	-18.1903253129883	113.609121900612	2.9517499346518	-22.3823453557505			-55.9479703590008	28.4184165531115	-3.42561431291025	51.9103310074647
105500000	-18.1687521682606	110.433288397336	3.30275443669572	-24.893821280789			-57.5442270722331	-23.0882920081551	-3.45351281585934	49.061138062812
106187500	-18.0107653501341	107.073809238812	3.63901316598657	-27.4452332418982			-56.958430587595	31.6494476399992	-3.41504485316488	46.3467518820417
106875000	-17.9878953189743	104.622209399162	3.88922612970876	-29.9279173353994			-58.3035050453068	-58.5644980039389	-3.50029234268211	43.6168656066477
107562500	-17.8635517677217	100.104999876555	4.18769103432865	-32.5739891891647			-57.5305436702203	2.62070142467529	-3.42068066292605	40.5604460077113
108250000	-17.8144310890308	96.9050162493305	4.40752250208859	-35.2770152980618			-56.8366671185207	-70.9475323749307	-3.53012068349919	37.8752877430664
108937500	-17.7380584208471	93.7571518664314	4.58809698882437	-37.7844803462812			-55.8250939236183	49.4695226727963	-3.48245017768247	35.1930927390027
109625000	-17.6821734308079	91.0182346194327	4.82473114499604	-40.3599239607688			-67.7069570669322	94.3320024216713	-3.5954259883853	32.1289758036711
110312500	-17.5673891429275	87.1641244658856	4.99643423935785	-43.032410909483			-60.6014191295354	71.9006971108928	-3.54838869411187	29.3772105830794
111000000	-17.5517395188094	83.487506327611	5.15672356765478	-45.6186528433346			-58.0953339782651	-60.271154832221	-3.69053548041409	26.3794305035436
111687500	-17.4342533081214	80.5851720978971	5.20712601644693	-48.1803667941238			-63.1420659017012	62.4556514085365	-3.65843690074641	23.2461129636086
112375000	-17.3492532094017	76.8414155327295	5.29153382443569	-50.6071422982171			-57.2548240844689	-25.2765359535327	-3.75755646521781	20.4013628079706
113062500	-17.3502625751071	73.4970576959428	5.29769522245458	-53.2036250303467			-55.5728572317062	-1.88093545092407	-3.72996836710185	17.3783307598727
113750000	-17.3124881466853	70.1401940422045	5.31095431654356	-55.3548217307872			-56.2853169247423	-36.3047050991921	-3.85378164546975	14.1215677259524
114437500	-17.3378504453704	66.487998692238	5.2943633820539	-57.7676675291529			-61.1251065481455	-63.8810786877689	-3.8319289472827	11.2604954173698
115125000	-17.2087178806577	63.1396042356827	5.20499480820047	-59.6544048428795			-55.521151785734	-20.8308047457206	-3.94618598093798	7.54239262166497
115812500	-17.1013402192141	59.0356566603301	5.12243440330573	-61.5616182011264			-64.4674466315705	-157.3224488766	-3.9953090060237	4.21544606158351
116500000	-17.2118246600096	55.6275005074996	4.90959595557792	-63.0345473086821			-55.2760261140714	-44.735762567496	-4.04754912832039	0.553767568825863
117187500	-17.1327800520644	51.6645145253137	4.68838448969246	-64.509924189518			-67.8715988388597	-123.768665883322	-4.09934886399464	-2.65833170850206
117875000	-17.1171563232152	47.5239521247546	4.41553657001922	-65.3378265769182			-59.2899710247016	6.13698440269499	-4.17749232872883	-6.5151056256942
118562500	-16.9812097613952	42.7526207187158	4.11700659807304	-65.6171347277701			-56.6771299763504	165.679780137147	-4.24507794276132	-10.399958076093
119250000	-17.1073654660047	38.0638381207575	3.75333756527071	-64.7658842963951			-57.5454011356902	-8.93799302877548	-4.34526708032754	-14.5555617634175
119937500	-17.0909688115833	33.8347083135698	3.35569843290525	-63.0946018466529			-83.1634689231459	-91.2724760391433	-4.40913148097892	-18.7052538795338
120625000	-17.1391103603955	29.7966334096074	2.95555081770637	-59.824915401805			-55.9873147707427	-32.2884274335105	-4.53371369991708	-23.019750525626
121312500	-17.127379041116	24.4179825095708	2.64105870134505	-55.0769122518608			-66.2320726378761	-61.9230045139882	-4.62402320649474	-27.8021962119334
122000000	-17.1451255263637	19.4368519786215	2.59243261559104	-48.460802122908			-64.4516953720837	-3.41499422198939	-4.75673872006962	-32.4711481979588
122687500	-17.1665344373351	14.6417309091986	2.94196313203188	-40.6822727066265			-58.6966556966866	-71.0339537733364	-4.8989503494194	-37.4061985088881
123375000	-17.3668853633008	9.03321047991331	3.70082566234161	-33.1691789470202			-70.9261094989107	101.38121462754	-5.02673697734844	-42.6522433153199
124062500	-17.4077359642114	3.18997873742595	4.81813335783726	-26.8949637213605			-58.6074120694508	-1.91980715972808	-5.18329337607265	-47.9101977850982
124750000	-17.6522727237731	-2.13138384587107	6.24165247889482	-23.0030095190717			-62.0713085214705	68.7056056172029	-5.3932509052354	-53.3434102608743
125437500	-17.6122625088512	-8.45193418788748	7.69131926968956	-21.3041258487674			-57.3441869850182	-33.5382460460081	-5.56994811853988	-59.49401357675
126125000	-18.0076964018685	-14.444548282307	9.15797529628063	-21.8744394583378			-57.0145201059105	-4.33583695546806	-5.88716934729714	-64.6134354830311
126812500	-17.9432504810346	-20.7033935588289	10.5327988254728	-23.4723432478818			-55.683828759079	-3.81582340602699	-6.13320664027085	-70.6377958966751
127500000	-18.3377736057595	-27.0364644342276	11.7686890735438	-26.5288820747302			-55.7429265725499	11.3623360655206	-6.4506993263811	-76.6266507303364
128187500	-18.4836324347193	-33.2051896785398	12.9415970718029	-30.2772637557328			-51.7095582703903	6.22891672840341	-6.75191971702081	-82.4717037412506
128875000	-18.887353723598	-39.6429508465521	13.9616803519974	-34.6631286997531			-55.6657961411468	-8.40591043989884	-7.19692234663131	-88.4894279589604
129562500	-19.2228296348022	-45.8496134210924	14.8775619585299	-39.4445213388353			-51.2324464225119	-15.2921267875799	-7.47889188540887	-94.3807662862269
130250000	-19.5571528763181	-52.2795507074169	15.7293694189602	-44.6100291202295			-56.0851733979125	-5.58110556136837	-8.04448248666276	-100.241865468774
130937500	-20.019469273831	-58.3325555025269	16.4206877449926	-49.851035986412			-48.0243323265695	-14.7244731151773	-8.32252732041018	-105.894325188585
131625000	-20.3580556005394	-65.3194403376014	17.0365383135686	-55.1876468593729			-50.7786113275093	-11.5882527758048	-8.91294698798083	-111.598330363476
132312500	-20.9020354684202	-70.3504827097399	17.5725327410808	-60.3522654324728			-47.9563595421042	-36.0544751866373	-9.24530347999722	-116.472128360713
133000000	-21.4591592587683	-76.7684911008201	18.0313664921647	-65.7832850215727			-50.9453746015683	-33.0058757437616	-9.82954014999945	-121.944217441687
133687500	-21.8421116394934	-84.099535753617	18.4307483198155	-70.948052666428			-48.35700755862	-45.4856746050577	-10.2383620568667	-126.698120813214
134375000	-22.5552040818347	-89.1820464391549	18.7959308473439	-75.8794079422123			-45.7670350196226	-40.3405081458735	-10.6942641290228	-132.063071815628
135062500	-22.9569503057706	-94.2470427098269	19.102211550539	-80.5141156768691			-46.8813914315909	-41.0985335409419	-11.1436685321771	-136.531741931783
135750000	-23.8800788864745	-97.0919437209559	19.4051939378664	-85.4175177092125			-46.7608743863993	-62.3401392147406	-11.6375843952955	-140.937706306778
136437500	-24.2861648396876	-103.435055814104	19.6627464285125	-90.2202901940033			-47.5169286637728	-47.6706267434426	-12.040893524229	-145.557857365495
137125000	-25.1698737046836	-108.535600545696	19.9144188340912	-94.4885402437991			-46.126905577905	-74.5075146803289	-12.464323226852	-149.790297676388
137812500	-25.9810779035029	-113.360016045226	20.1169515032087	-98.6970527876972			-45.6496013075181	-65.6418172860334	-12.9359748672645	-154.197997505159
138500000	-26.4653206842903	-117.103860342482	20.298744249258	-102.964319935525			-45.4954670230927	-87.769101411494	-13.2500778924513	-159.246745655276
139187500	-27.4038990639997	-119.160864123724	20.4745470077253	-107.251647845311			-46.377961768702	-73.9629198803533	-13.7661311359162	-163.468205372523
139875000	-28.3521261655917	-124.939749240737	20.6415018607178	-111.26457086123			-43.8529148399099	-80.6277479002759	-14.1263445980891	-167.609766810719
140562500	-29.3136712495603	-127.632968561788	20.7841685936626	-115.293126746237			-46.4731947661188	-104.890798666261	-14.5654962702009	-172.239703163345
141250000	-29.8216588647654	-130.151357378067	20.9580839130547	-119.180338228359			-44.9239349315561	-100.433853461759	-14.9105558234834	-176.200587070689
141937500	-31.3601350947581	-134.371616319194	21.016213069082	-123.111121610964			-44.768397772155	-104.739419264005	-15.2925970384231	178.781373131518
142625000	-32.4795816958979	-133.864366820776	21.1534718559205	-126.834405143531			-44.2023161867193	-88.2801281673977	-15.813174313691	175.028293913137
143312500	-31.9527214768406	-138.658261493005	21.2833983252278	-130.71756302521			-45.4907051562346	-103.312079921745	-16.2856536529188	169.641288297726
144000000	-34.0835452861191	-131.3783847897	21.3579079601259	-134.04377537009			-43.4382462883669	-101.836181372456	-16.5587893306111	165.673859803633
144687500	-34.7254824184662	-134.367248437793	21.4310334986712	-138.106239099161			-45.9445760719998	-120.257614210753	-16.9806354649339	159.82285134368
145375000	-35.804323206479	-136.406936032862	21.4847098196153	-141.444069630626			-43.8808359793513	-109.923542376114	-17.5803664540471	154.566182200647
146062500	-36.0831362411286	-130.85887624149	21.5629387346497	-145.196234539638			-43.417676356305	-121.775636731029	-18.0050174812425	149.15568500602
146750000	-36.7283060671514	-129.083199248092	21.6043857006895	-148.382227170659			-44.3036686449885	-115.464971504682	-18.7130852738952	144.709182629639
147437500	-36.8452006633329	-125.155318445189	21.6559564219273	-151.871846618147			-43.3406216618686	-136.973867856539	-18.9004081257358	138.234664065171
148125000	-37.1876567513493	-128.105275332307	21.6776762580089	-155.0146607503			-44.2615438957148	-128.88398131095	-19.3142000418369	133.361047910599
148812500	-37.7592760343575	-135.620257710749	21.7409706404544	-158.363198087896			-42.8727396205479	-123.484748780888	-19.6511250236049	126.231266676257
149500000	-38.134685294348	-133.055141847881	21.7613554519919	-161.467912340246			-44.7305937417323	-128.949021479356	-20.2394339341403	119.308910857728
150187500	-38.1243804169479	-134.720450112328	21.8162561110876	-164.645954250808			-43.0643191208875	-135.453316529688	-20.4019596931539	114.416628418308
150875000	-38.8565836059616	-135.420277266675	21.8314762874249	-167.577856978884			-47.4569458840259	-134.444327899493	-20.6484301710989	105.107427133191
151562500	-38.7767215037459	-137.046469191036	21.8353666661672	-170.607934685348			-41.1749160596393	-139.888288957967	-20.7265175408063	99.754384160807
152250000	-38.5853711076186	-149.010433127891	21.8325452018501	-173.645461633407			-44.974262513518	-153.964241010259	-20.8157398568558	91.2829953898228
152937500	-39.7175463620106	-150.507596845436	21.8868189384537	-176.301402698514			-44.8301291850577	-146.179388309723	-20.8807702770659	86.088380873012
153625000	-39.6305699054404	-164.20909169724	21.8681639878604	-179.12761116122			-44.7931847742879	-163.765831470393	-20.8006227813711	78.1107933663203
154312500	-40.1265990297476	-160.956103731228	21.9168532651812	178.107777903116			-42.8908711924227	-153.994713708044	-20.5186296784671	71.9605651787177
155000000	-40.8608487747835	-170.49364419476	21.9051076291584	175.186023294776			-44.6164703568833	-161.19528236431	-20.2256283563359	65.6225840129707
155687500	-41.9374293375241	-176.235818946408	21.9176463267283	172.732913998862			-43.6841971597152	-155.606424808095	-20.2013185843701	58.320969834857
156375000	-41.2879642091993	175.712897122674	21.9555369626221	169.900360139473			-45.4121354075033	-175.556170862194	-19.7587827957888	53.0150772217568
157062500	-41.197975020412	159.777928197238	21.961951656781	167.278725344935			-42.6311362173479	-159.155409910691	-19.5115399004444	46.9425731890615
157750000	-43.9853855667367	165.091604851688	21.9863117716792	164.722428035589			-42.6891571193282	-169.512085316412	-19.1794353349378	42.4137300289449
158437500	-42.391172887558	157.348213053075	21.9756320700667	162.203879985826			-42.9739640110835	-172.037841992537	-18.779164761769	38.2889629287321
159125000	-44.7714150214501	161.133307426959	22.0311201613788	159.633228806467			-41.8301642945833	169.021279062257	-18.2413287070063	33.7989969217732
159812500	-42.1750275041502	127.163077396653	22.0623759426119	156.980560207555			-44.4224675957883	-155.458667871775	-18.0083088226254	28.6004682661148
160500000	-44.1194698828879	144.986176381486	22.0607146453238	154.338853042657			-42.3396138135517	-178.207415962239	-17.6658143861569	26.2250430220936
161187500	-45.4932461299451	144.101393587901	22.0525841974305	152.050656307964			-43.8925807927081	175.88513962071	-17.2180955627173	21.4469855499411
161875000	-47.321923856839	136.28729765343	22.0899997196126	149.249553636341			-43.3290766690601	172.246744448691	-17.1703984303658	19.5738395949986
162562500	-50.3215860497097	140.476768182743	22.0827252981713	146.557709672717			-45.5842389125969	178.451766700512	-16.6683241800821	14.191239205194
163250000	-45.9606626869197	128.599312226798	22.0775416398606	144.272586480712			-44.7225002500086	168.754272524326	-16.4096802432775	12.5091039806186
163937500	-45.2530378833891	137.181646562545	22.1004228376267	141.831782839581			-45.8517361971142	164.526538720308	-16.0930222312325	9.02339167243245
164625000	-44.9564227685495	107.210553104868	22.0993603961625	139.289051528786			-42.8187711883938	178.02314988727	-15.9669572033377	6.63755402960107
165312500	-41.1896752987214	111.935024251581	22.1040745507416	136.891634101492			-44.4094530316204	164.53457963238	-15.6299138442476	4.10699142543085
166000000	-42.2400977947469	94.2886547446573	22.0891358088394	134.433670969265			-45.330270680745	168.64774407737	-15.3866179906131	0.923993039467681
166687500	-41.4261655500516	86.8731944318633	22.0960907988784	132.044107069705			-45.0607116223005	152.311339686258	-15.1937771911726	-1.05372460799126
167375000	-41.7703092718008	95.722287592929	22.0762638447967	129.906691058038			-42.9766006364259	164.534355679886	-15.1249633530074	-3.387960033802
168062500	-41.0750992639994	84.6415250826144	22.1096850824128	127.445114636102			-43.2673916101595	151.958676832063	-14.7694393934976	-5.79358963497011
168750000	-41.5131904556567	71.9989797275997	22.0689684507395	125.273685088729			-42.7050033333389	162.455027982233	-14.822136589503	-8.46032465444734
169437500	-38.6363149036942	74.5801646180718	22.0399474060052	122.864855694128			-42.8665729091383	140.134955340417	-14.5500573329451	-10.1906828028757
170125000	-39.2457586618886	71.6149611780661	22.0232904101077	120.677137213636			-43.7519674373671	153.667428085645	-14.5575992357138	-13.0845870214929
170812500	-37.0585470997517	63.1423474448898	22.0180675006898	118.655282314271			-42.166368971683	141.146701677594	-14.3190272203667	-14.584465469338
171500000	-36.5898201375534	57.9414086203366	22.0460664682201	116.359400468723			-42.7960657748956	143.676145974738	-14.3988132577684	-17.0956965841697
172187500	-36.8439283353491	53.167974857489	21.9858804864268	114.104516809468			-44.1152207102254	139.786327291931	-14.190148989171	-18.7962279165993
172875000	-34.8455868858527	53.0786738186658	22.0234400820447	112.247349184238			-44.7794923774847	154.177672856175	-14.1686421467612	-22.2453800108398
173562500	-34.0771099068908	44.016038351364	21.9782994068269	110.075334677529			-42.8782851549036	136.109008341084	-14.1267939743316	-23.6582752526305
174250000	-34.1635165006708	39.0969268851662	22.0006317403758	108.051133309872			-42.8802979509675	129.356284010453	-13.9961083665076	-26.7339170912915
174937500	-32.9705271101648	32.6339246450933	22.0189623727527	105.988448580657			-43.2623131378897	137.503562126323	-14.0120111369389	-28.2573169694934
175625000	-33.2260626999884	30.8045393238291	22.0088852237921	104.040965985781			-46.4133769824669	124.704254678904	-13.9913006309752	-30.7586608790434
176312500	-32.1812738663178	31.3820548536126	22.0254554414383	102.002059289612			-42.5668555814213	137.401079512323	-13.9024857310932	-33.0849344826268
177000000	-31.5727021504757	25.3267532353967	22.0286175778649	100.018323297496			-45.0391683603986	124.835139695121	-13.8914270722986	-36.1482051308111
177687500	-30.7147920259046	25.9661677202257	22.059623852538	97.9844982620601			-42.2811605779818	133.773973105711	-13.944145477403	-38.6032079297172
178375000	-31.5190798311261	22.6915989373052	22.0825309347162	95.98785529326			-44.3961227727013	121.648132637504	-13.8977776039167	-41.2563718709786
179062500	-30.5282416352108	15.0641373699254	22.1263352719191	93.9124410713811			-42.3778566918123	127.602580049162	-13.958365207082	-44.4353816482873
179750000	-30.412931713932	17.341147646001	22.1062638024136	91.9063379397315			-43.7874339948922	118.413791250341	-13.8312500295699	-46.6979770056655
180437500	-30.0795895993388	12.421276372118	22.1816247037778	89.9619000183537			-43.7637080939351	118.426897219079	-13.8988181547618	-50.1886732768977
181125000	-30.0706081235894	10.3928525260339	22.1851070801625	87.8466562818842			-43.4754583442448	110.225140309155	-13.8818106380223	-52.9155141656678
181812500	-29.6952794645631	7.53255015445879	22.2292900802286	85.754735879381			-42.438241038631	121.713567059978	-13.9586153209252	-56.3791250849695
182500000	-30.6078556338075	6.59506250006063	22.2484712545181	83.5472063188767			-42.6417303488472	105.976331200587	-13.9539394744373	-59.3668388471668
183187500	-29.6227106751229	3.61614598226943	22.3039199238044	81.2614428780312			-42.615340057023	100.26715704042	-13.9401091109288	-63.1038485564756
183875000	-29.8499825185098	4.82227364312941	22.3196822774936	79.2042778805788			-44.5803907415574	93.2821809558533	-14.0854869624443	-65.5482987608557
184562500	-30.2742384934171	2.62003846547901	22.3237620905505	77.2632273669369			-45.6101353033441	95.1213887766733	-14.0120415573411	-69.428958325123
185250000	-30.795966229512	3.36149475281607	22.3597632044798	74.8384371470491			-41.6179135398698	89.8224854922118	-14.0833269167851	-72.7133579668774
185937500	-30.7028274450949	1.08498160824411	22.3771919179798	72.7980395398431			-44.9965852045512	113.920715265812	-14.0587706309304	-76.417836501523
186625000	-31.4262320706071	0.589795881925988	22.3530186208743	70.3244807339499			-42.2806155863183	107.551443063421	-14.1524911217315	-79.3949832116767
187312500	-31.8888572509429	2.44107138045223	22.3613901656122	68.4204717597153			-44.7324450621716	96.4546098141582	-14.0208901923326	-83.5291656538015
188000000	-32.0041164789754	0.198419116707768	22.366250386766	66.1771775326038			-41.81051880759	101.901935777964	-14.2054601135103	-86.4490689907683
188687500	-31.9433427110563	0.789391888897032	22.3721105660525	63.7800573554188			-45.2099027899823	83.8358777375382	-14.0494001864954	-89.6916761856942
