# Hz S DB R 50
100000000	-16.4447152363024	145.903796491926	1.45446647717097	-9.49281052477163			-69.7580414784477	-118.41580378129	-3.43165117735018	70.7025416617816
100687500	-16.3216159119901	142.653947943717	1.84146528107578	-11.4571679462452			-60.3472025240519	104.281554493057	-3.40389336714493	68.3021783650598
101375000	-16.4406989621671	139.595948602228	2.33149108878777	-13.8046950113109			-58.590195488616	19.9033941572319	-3.41260877013762	65.1950149914521
102062500	-16.3577313314665	136.338739962351	2.70202413610433	-16.1653865601907			-58.1484328886448	138.4790792647	-3.41662594359189	62.714062134479
102750000	-16.4186370099359	132.846310519095	3.13802378810764	-18.5639798907136			-56.67670581877	-52.5365993244433	-3.41290430921086	59.6890112040334
103437500	-16.2860940704387	129.810394596046	3.43641344037641	-20.8886610045239			-64.32579918516	120.17512767864	-3.41404897091953	57.2288030916199
104125000	-16.3144579915988	125.846200501809	3.86444552385447	-23.5587805131956			-56.9398357365926	-5.78235767591722	-3.41562368960281	54.2173533301949
104812500	-16.2921794128102	123.362411754724	4.14349216530327	-26.0992995311443			-64.6306987170726	-91.5624665351087	-3.47160003719046	51.4135961732867
105500000	-16.28467490149	119.160879127805	4.53356563420767	-28.7623347682863			-57.9569599221693	17.0059694913994	-3.41417081870487	48.5086350693218
106187500	-16.2092389831239	117.007179617964	4.76494947832381	-31.2937220590842			-56.098414619492	21.1892148043274	-3.47028823580867	45.7874219925839
106875000	-16.2926263791439	113.276906469986	5.07859066694707	-34.057319775112			-56.1078550008449	35.1553051041219	-3.47049046187552	42.9529438010459
107562500	-16.232219918777	110.118250495852	5.30892261402596	-36.6762599059323			-86.8002608435069	-76.2791466703585	-3.48173733574589	39.9090631985113
108250000	-16.2006383816822	105.367259167843	5.55948842021067	-39.5345813183089			-51.7165017712802	8.41200464217797	-3.52069700784596	37.2507670938556
108937500	-16.2293571160255	103.048143891905	5.69956053647016	-42.1213253638061			-63.6211351514937	-32.8286999914795	-3.51683755644865	34.4061159553244
109625000	-16.1723589541571	97.9763162338999	5.90016381136782	-44.6605593626977			-53.661931009707	15.7975156561949	-3.56097629148259	31.593285605272
110312500	-16.3050736804885	94.0292364973625	5.96947480409968	-47.6126858240566			-58.9313963256537	-79.6959255356283	-3.63264422326357	28.4914388270965
111000000	-16.2424899574967	89.9923664796075	6.12948282614882	-50.119231504166			-54.7953537749909	13.5914415598397	-3.63540117682182	25.3940404932078
111687500	-16.4022975147621	86.7517849745264	6.12731496511863	-52.87201739828			-58.9924842111526	-83.0731740566918	-3.70002642657279	22.2090119768649
112375000	-16.1284951927626	82.2925424968287	6.23181174020139	-55.4389303425502			-55.8908972153337	-23.544026820309	-3.74397410130759	19.2853196051546
113062500	-16.3323151148833	79.0902759858095	6.1942087123155	-58.2302219211327			-52.8920484262796	-32.2188308947082	-3.77112344358443	16.2209554822593
113750000	-16.1305703836886	75.3838401339789	6.19621981895272	-60.3372387540403			-60.5897292914169	64.1855115385626	-3.82645774258368	13.2407041699502
114437500	-16.3998287923851	71.4666139072736	6.11609931465618	-62.8521491138001			-55.114278362586	-55.0798061017799	-3.86259694341663	10.0737974927869
115125000	-16.2994410955279	68.1043177011283	6.05036318787044	-64.9600438894632			-58.9175081130903	39.9791294558241	-3.9168335704928	6.23932992679053
115812500	-16.2388531376426	63.4071954640499	5.90034436837764	-66.96019017219			-66.5293539474908	33.4253975600458	-3.97199326079262	2.7077505662858
116500000	-16.2808461901916	60.6366368756851	5.73752413218229	-68.7242974877857			-57.4188942704611	42.4131944297048	-4.03034413418836	-0.85249480386452
117187500	-16.2957038444052	55.6370687884696	5.45533785889314	-70.4549767712128			-58.8300077739139	-22.8083673070044	-4.06874999756794	-4.29581261973017
117875000	-16.3098427165293	52.4668231987174	5.2056990617657	-71.6586798000641			-55.0732945925533	-49.4976506186673	-4.12646202543202	-8.17961343639483
118562500	-16.2590644370937	46.5376324349308	4.82652301558017	-71.8792173500955			-57.8663981262121	-65.886897003094	-4.20315247833409	-12.0299418069788
119250000	-16.5159458665313	43.3747692820289	4.42783365620251	-71.2375777392087			-59.8720674084315	-74.5520321939224	-4.30995115113696	-16.3016898463356
119937500	-16.5407028738606	37.8032974539028	3.92644517863185	-69.3580817387087			-58.1422526018448	-27.9215027818181	-4.35167765475503	-20.7088125168016
120625000	-16.6448956503116	33.8447016271524	3.49106056201129	-65.9086234527574			-57.8164977770297	-79.7539832150576	-4.45216154591742	-25.1202294720268
121312500	-16.6257636900108	28.2385782408188	3.13951459473078	-60.4864194910452			-62.7843085819137	131.414742361318	-4.50104816061897	-29.8534511462952
122000000	-16.9913253692893	23.5921278809825	3.09509243372679	-53.4200812254376			-63.7619159406089	-70.611508738242	-4.63995348160777	-34.8419780376502
122687500	-17.026336603239	18.2133008872741	3.42537753388259	-44.9495053794176			-61.2466284114089	6.71443089464427	-4.7426865542439	-39.7728607399998
123375000	-17.2875036024399	11.5637283249602	4.29334215238097	-37.2563317295055			-54.9511219431187	-84.6383181956948	-4.85675466195807	-45.1229844884411
124062500	-17.3894736603482	5.65956673213666	5.44446282640706	-30.8163158768225			-53.4125742189681	17.1512071183907	-5.03417425336287	-50.6400405936291
124750000	-17.7407872315497	-0.834076674143327	6.97380300057591	-27.2197180777868			-63.2296702101902	-27.4905155030729	-5.15118708503961	-56.2863557330117
125437500	-17.7788386065176	-5.75822197277704	8.44142566152815	-25.6129534679187			-54.2273530550825	16.5976462440321	-5.36259507713468	-62.2134104538593
126125000	-18.3106113686841	-13.0040817103351	9.91294615363899	-26.4861117934462			-55.2888877297449	2.61443707985337	-5.58225619885712	-67.9968287920772
126812500	-18.4807334559537	-18.6053865854398	11.2727651934416	-28.6604770458954			-50.6137018182806	44.4362369235132	-5.86817059919572	-74.0258424443586
127500000	-18.9970210517539	-26.1569230938754	12.5666380985	-32.0095899440826			-52.1926343133107	-11.6506681841	-6.09347081373295	-79.86192500537
128187500	-19.4014715662709	-31.210626908346	13.6738788647937	-36.0929078367569			-53.9987427072085	57.8845985797903	-6.42052483189664	-85.9669727008727
128875000	-19.8034048209476	-39.3196123018418	14.7054343942981	-40.8278202441955			-51.4179484813678	-4.26977926046443	-6.75624868015041	-92.1695333764852
129562500	-20.5176208222611	-44.18189582371	15.542605564476	-45.4942203934455			-51.5552487823053	12.307586417374	-7.05988804606354	-98.2816503846977
130250000	-20.7726520330589	-51.9448983309314	16.3748951278505	-50.6952790424522			-48.0853462805168	-15.1189194949469	-7.49730369597229	-104.169476645595
130937500	-21.6768282693647	-59.354910527765	17.0163867777005	-55.8805633994274			-49.2642626511878	-17.6864067111543	-7.77759748200031	-109.903930948713
131625000	-21.8082660467684	-65.8693729013103	17.6196741411551	-61.0747600528556			-49.2145362004047	-20.2827808703133	-8.24745434610402	-115.418941052478
132312500	-22.6546267333511	-73.3428274039953	18.123700501036	-66.1376130092367			-49.5340283278444	-29.7356675136353	-8.58485228893461	-121.256749006718
133000000	-23.131776929171	-78.3563230423797	18.5885770386786	-71.5380516248369			-45.244560287074	-25.9087162230935	-9.00371137744711	-126.474343453279
133687500	-23.7208568033248	-88.4032151774662	18.9456372522082	-76.3083943259301			-47.9282057672627	-44.7556092206535	-9.34955951215388	-131.807677754349
134375000	-24.3314088408931	-92.3800383215897	19.349828188218	-81.0916847208936			-46.4995441214843	-39.4455525430449	-9.80544355432852	-137.272776519285
135062500	-25.1105541786674	-100.178861221706	19.6150998671305	-85.808959750179			-48.3197293831376	-76.9480148331402	-10.1042186197932	-142.265956966231
135750000	-25.8207096406385	-103.169189108619	19.9407349214247	-90.5771284100237			-45.9766991878049	-51.6802182100903	-10.5157306048323	-147.447746841402
136437500	-26.41892199454	-112.620715498311	20.1575415704184	-94.9034901856928			-45.6108248527822	-79.9593436896333	-10.8359723794865	-152.285039502828
137125000	-27.4242454332581	-116.404268000904	20.4467720484906	-99.2847550315398			-46.7890604257834	-53.3578976575373	-11.2689120040938	-157.08666876976
137812500	-27.5837598727957	-124.782849176164	20.6032925377939	-103.394736069005			-45.4154895455436	-75.8563343193117	-11.6003870618356	-161.681942192844
138500000	-29.0612854532274	-130.323893829508	20.8449698732065	-107.753304572709			-45.7786328024916	-61.7136096165655	-11.8797792177108	-167.605376643464
139187500	-29.2554370637668	-135.208185435159	20.9740059760417	-111.806324812493			-45.1390136723001	-81.8937325394542	-12.398189894226	-171.730211497511
139875000	-31.3404814228582	-145.763343593964	21.1960649795265	-115.797717071199			-46.3529449047212	-75.3902612419361	-12.6836899626322	-176.630388919763
140562500	-31.6417567474358	-148.260824692771	21.3027483396725	-119.65740428736			-43.8933709149416	-81.2803791323539	-13.0769417076999	178.337182495787
141250000	-33.3141136632869	-155.140623848569	21.5099130823201	-123.569627554914			-45.5007753167666	-82.2636400548679	-13.412816957403	173.499857319851
141937500	-33.533392247031	-162.136696323678	21.5416616692683	-127.602565806544			-42.856219886328	-94.4088614260242	-13.8538180657187	168.272527428962
142625000	-35.5271698280258	-172.146505574815	21.7124217287225	-131.254780003755			-45.3419024334401	-93.2075127588917	-14.2290362789851	163.957361356784
143312500	-35.8701509344754	-164.763133734744	21.777573152975	-134.908877317224			-44.154773795263	-92.8962567123583	-14.6372333183748	158.281036731901
144000000	-37.8285403233657	177.649582482155	21.9480241713784	-138.336407266044			-44.7795158788675	-102.035644928366	-14.8588199540952	154.483502178697
144687500	-39.1224483078369	-177.457849126918	21.966625430902	-142.324275507743			-44.7420215162391	-94.4057394471917	-15.4391195692201	148.578402494937
145375000	-38.8207073838408	164.49714932403	22.0946250371813	-145.703365173583			-44.257323065061	-121.868093259459	-15.775950505848	143.201813173938
146062500	-42.7996038424425	171.116836132118	22.1318039410051	-149.414342719641			-42.6604255617072	-104.474741533006	-16.2670719511928	137.216157237049
146750000	-42.9243302670969	152.969994570098	22.2139209110484	-152.78001033169			-43.2828624789884	-131.38126557051	-16.6293650155034	132.98184033558
147437500	-46.0684977063838	163.397231190859	22.2341373271417	-156.244512451616			-44.8283882392139	-105.34019508742	-17.0875293405133	125.622238284159
148125000	-42.9303966377319	165.47593735095	22.2852611121203	-159.667068604843			-43.4009690251688	-118.815791697409	-17.4406282051474	120.478324157639
148812500	-45.7058364732146	151.603989964782	22.2866001746227	-162.696762708396			-44.6006843767734	-119.009468900065	-17.6476667441383	113.575490145697
149500000	-44.7625148691531	152.825263584944	22.3478704400907	-165.838272805409			-43.722825585281	-133.782978403206	-18.0453155839704	107.900338587522
150187500	-44.2477555998993	137.030443641127	22.3316618447951	-168.975005907193			-44.8535784287474	-127.750150538036	-18.2283445802181	101.366208792186
150875000	-44.0450936126879	146.041317044598	22.3948960814808	-172.004166796738			-42.060274161911	-135.607454765663	-18.5809269729316	95.1964987124856
151562500	-45.3630951174559	149.510532355323	22.3639112524465	-174.855436355907			-44.9527861483351	-141.632332618092	-18.480662987184	88.6311077142473
152250000	-40.7933480448307	144.233851811081	22.4041003522646	-177.844720327821			-41.6915015718673	-147.087587565801	-18.807015046462	82.0032711056552
152937500	-41.1109350239342	120.700633321548	22.4166661258223	179.551358961177			-43.6644749129237	-152.368692237798	-18.5290065795447	75.4179178821643
153625000	-40.3769983706437	127.572929017049	22.4184158334732	176.56287840272			-42.4366882005769	-146.554760366425	-18.6948087176912	69.7464488065854
154312500	-39.38257978196	113.553315403146	22.4214830277319	173.935666702106			-43.8742243081028	-160.347353685807	-18.4027532949334	63.9751778690921
155000000	-41.0975251033223	125.222984126445	22.4397186654132	170.951861784829			-41.9488329140204	-153.982418106437	-18.379143459344	57.4485735112328
155687500	-39.9292450136876	104.907788476773	22.4176119631614	168.60959838196			-44.659178980932	-167.362984414633	-18.082665566864	51.9186503812582
156375000	-39.592934686628	112.929397802393	22.4820141120428	165.650723208063			-44.4736829896338	-147.088735397565	-17.8676644177042	46.2073095650908
157062500	-36.5961050803849	97.9298474168159	22.4619875819644	163.141510577788			-43.1233092120228	-169.206380170086	-17.7359759087817	41.8075247466274
157750000	-39.9311944635678	106.526731306885	22.5538455410663	160.591217226544			-41.9512527749944	-163.486686504563	-17.4790573627171	37.0975029783129
158437500	-36.277826993272	90.8065076328942	22.490171953935	158.012621990708			-42.8125640304507	-177.551515795075	-17.0983238103447	33.690780617089
159125000	-40.2626038008266	88.2618581033798	22.5829062751628	155.408577843794			-43.4992068150772	-166.810906919969	-16.7394925663023	28.2332981317146
159812500	-36.1673192026981	89.4241791070574	22.5514615319021	152.883882724719			-42.694898456154	-176.02561353974	-16.610984744685	24.003843847516
160500000	-39.0781993764803	79.8885480577898	22.5962907870347	150.127461351455			-45.0017895720164	-165.854404429858	-16.3185686265265	20.4784865646541
161187500	-37.1578333674437	80.6444422760333	22.5296219329849	147.97592264331			-42.9426064017099	-172.390273197728	-16.129849994874	16.9633095632281
161875000	-37.6992611260979	67.97286626683	22.6398054890742	145.333782843042			-44.27475752484	-178.509259394679	-15.798832261355	13.8966384266874
162562500	-36.3836611807721	78.7772322892502	22.5526585673635	142.615233604541			-41.8589041361421	177.724261851585	-15.6604873389123	9.56102847410596
163250000	-36.8380144713659	67.4331654016449	22.602873231626	140.273128951498			-42.9987949868361	174.502763995399	-15.3175807929602	7.02003497319883
163937500	-35.8785069751289	78.2965197617521	22.5551706527209	137.950056928834			-41.0977825495637	169.471761786061	-15.281081284852	4.24333052788854
164625000	-35.7934974969554	65.7971762020171	22.587301105348	135.365918046311			-44.8940675055995	-177.846823077355	-14.9852088380434	1.82033287067114
165312500	-34.1587074840022	78.2320667341534	22.5560774541416	133.179525733975			-44.331307071238	164.855290645665	-14.9480640334464	-1.12219736336766
166000000	-33.0782449228991	61.470938167466	22.6479160732829	130.729097424932			-45.6942870475017	170.41360250831	-14.6447540863279	-3.78903029201871
166687500	-33.5966280559819	58.4834434191146	22.588497305383	128.177136743827			-42.7869901962996	167.662766647992	-14.5708917936305	-6.85363971620669
167375000	-33.5993564287166	51.007803237698	22.637341866012	125.935659744225			-44.9024879490576	151.262741189383	-14.4217045570232	-8.02265005037188
168062500	-35.3538417656077	55.2528996191511	22.5868963296827	123.524641483325			-42.3413044959971	169.507669351958	-14.3016919610243	-11.0250041856967
168750000	-34.0490084183865	53.1683175355745	22.5827067421138	121.262891732412			-44.1132410582465	153.031583037316	-14.205578885144	-13.3457367804266
169437500	-34.1810922559529	61.4924168846375	22.4918113308613	119.052747065077			-43.1744140953808	163.383972157336	-14.005148001507	-16.2864655639804
170125000	-33.1668766539142	55.6102566696819	22.5522222959548	116.855525086753			-43.4357825985481	151.97589731509	-14.0637023293735	-17.7327482212267
170812500	-32.910222620938	49.1122775784604	22.4874273679323	114.778648918183			-45.3549374703722	156.698384300668	-13.8911142757801	-20.7592128209476
171500000	-31.3426865103994	54.4369806649353	22.5219778904202	112.664192483797			-42.6269712425418	153.090150387815	-14.0375840963693	-22.4024645507157
172187500	-32.1202456235262	46.5171122781097	22.45811568176	110.60447202765			-44.4929254045909	152.382898074366	-13.780144829234	-24.8906720133981
172875000	-30.5678001122652	50.5627149192903	22.5132150710584	108.569597105879			-42.497889741516	144.37180416465	-13.8034486732523	-27.3481151767402
173562500	-30.9105351507838	40.5640588369275	22.4482817258841	106.437795700338			-44.2129095191344	141.483980238079	-13.7347264682313	-29.794768150631
174250000	-29.7861922208921	40.7963564175859	22.5150102035113	104.492026744995			-41.5608088242682	139.535502910256	-13.7388930279222	-32.4973384763448
174937500	-29.7441545191153	34.5978235603218	22.4749506924679	102.608006610516			-44.8841406009181	139.605370502177	-13.7236901274712	-33.9435785478754
175625000	-29.5727061546508	34.9384941139959	22.5091549692385	100.52842809803			-42.5216421611031	139.171867972313	-13.7434371240942	-37.7665748744703
176312500	-28.9420757237793	28.3213979024744	22.4865762965415	98.599921101603			-43.9838329334706	136.476654935153	-13.6964999411094	-39.4087642252102
177000000	-28.8376330722892	30.9187453126841	22.5723351455409	96.5987495203418			-42.4776914027107	129.744673218504	-13.7082126986272	-43.0590379769548
177687500	-27.9808055408132	24.070195911831	22.5249778609674	94.560597760865			-43.5644733199512	126.382106969701	-13.749287095106	-45.1526048255392
178375000	-28.2597141223265	24.560644359653	22.612595458209	92.4706673721935			-42.8661154079434	129.09529090996	-13.798249388716	-48.3459111871986
179062500	-27.6975933302659	18.9591715714505	22.5771498041875	90.3560425239346			-43.0569650274537	124.157302860135	-13.7853953125298	-50.9838264679155
179750000	-27.8011523170146	19.1363189725303	22.6631742478123	88.329142074765			-44.0262451385776	134.186501290266	-13.692040133026	-54.3160315967067
180437500	-27.0358312348171	11.7854522905052	22.6279410959279	86.3466699448152			-42.4220639982835	110.547709637095	-13.8342161804568	-56.9075349380811
181125000	-27.5741290875158	11.5284504965738	22.6755478795672	84.0498085553876			-43.5152989006193	116.753329328014	-13.7934526281315	-60.2726049037305
181812500	-26.9534625057058	10.1028077190596	22.6779656822204	82.1962198357217			-43.6871452964328	107.282956942667	-13.9055456608149	-63.2034851817119
182500000	-27.9626837923563	10.3067108810574	22.7777252681585	79.8367827373795			-44.5170819484905	122.137211888026	-13.8484364588623	-66.7228389589145
183187500	-27.2558640747306	8.08199091511781	22.7884760270642	77.7789296634499			-42.4132772332941	105.080779673832	-13.8564936570653	-70.3787410485743
183875000	-27.7839158358205	2.49403396074422	22.8396878171458	75.5478836433999			-44.5190395009063	104.395986451781	-13.894699241229	-73.6486710770205
184562500	-27.8858049521456	2.53165272191211	22.7762477231985	73.6547503583199			-43.6651680246796	102.741145997736	-14.012299801735	-77.6448398002048
185250000	-28.4808642666409	2.6120219967444	22.8545839017072	71.3100785998336			-43.6625696292353	118.924778425368	-13.8688586014233	-80.7758197727059
185937500	-28.1868239518696	5.76165288613518	22.8161917025823	69.1744721618352			-42.7764209570912	103.074880563164	-14.0771332582558	-84.8421040905318
186625000	-29.3285611022846	0.769403565077068	22.8551649682154	66.9528950290031			-44.1056378002938	111.956529171399	-14.0377596219267	-88.230011541234
187312500	-29.0271448234614	5.76377515340252	22.8507333731176	64.9129442030794			-41.8275802076862	104.054039350032	-13.8857922925389	-91.8645409253985
188000000	-29.3739920415331	2.56886706972751	22.8635577759719	62.6203212954209			-44.8480908628559	100.99778280443	-13.9475572527809	-94.9006437591075
188687500	-29.3570188529731	5.87561399141952	22.8323476744922	60.5526992412229			-41.387847892855	93.6018560009399	-13.9632515072668	-98.2650219802012
