# Hz S RI R 50
100000000	4.70678215160018E-02	-1.40445615560495E-03	3.30133107412081E-02	1.90443816097285E-03			4.5420132347052E-04	-2.82228350953075E-04	0.221378100726981	0.631550083557491
100687500	0.044279605756502	-1.10659455009033E-03	3.45071696429588E-02	1.85129382264933E-03			-2.42801248924187E-04	1.09061241220445E-04	0.249452608900105	0.624089235055503
101375000	4.75780528478293E-02	-1.42352014030871E-03	3.68606974909516E-02	4.7046430157434E-04			9.18462360430585E-04	-3.91170495605899E-04	0.281287519429567	0.612055447321181
102062500	4.57128459777806E-02	-4.25650904011601E-04	3.69441643516012E-02	-5.29534632957167E-04			-1.89413220337328E-03	1.20994661423212E-03	0.307829950469174	0.595733305081334
102750000	0.047652026088196	-2.07093119677343E-03	3.93815465545094E-02	-3.0709410511762E-03			1.32819881287445E-03	-9.37420042672887E-04	0.337757165172535	0.583843209323952
103437500	4.39512239356173E-02	-2.40283042566037E-03	4.12845903482322E-02	-4.15249169913152E-03			-9.53760188588383E-04	-1.34639696375565E-04	0.363432688995911	0.566726711193703
104125000	4.71780924720346E-02	-2.28517552832858E-03	4.36239198333255E-02	-6.74599974178203E-03			8.74494753545499E-04	-1.01733757459005E-03	0.39109674744602	0.547736896024866
104812500	4.46980698768107E-02	-2.78204477675881E-03	4.42791049106128E-02	-8.12161127241368E-03			-8.56947924903338E-04	-1.47268994351419E-04	0.41591423494814	0.525193427022582
105500000	4.65024526429877E-02	-3.4442020388753E-03	0.046315019942504	-1.07323441797561E-02			1.14304710154162E-03	-1.16422418977797E-04	0.442259063265028	0.509134315100115
106187500	4.39900027819862E-02	-3.67457471718211E-03	4.71596008175725E-02	-1.33453867844689E-02			-1.67190274077638E-03	-1.06224088741846E-03	0.463463549898261	0.486427755621779
106875000	4.54221366307459E-02	-4.80935146607771E-03	4.83984139533706E-02	-1.48481593621946E-02			-8.502304620561E-06	-4.6697073713989E-04	0.486691247747552	0.460759371131447
107562500	4.28121182825569E-02	-5.7440710972158E-03	4.80343282097902E-02	-1.78064262242555E-02			1.08340927725872E-03	-1.19483682275459E-03	0.507604732264151	0.435096382880711
108250000	4.69750900025582E-02	-5.47700758714921E-03	4.99149939651295E-02	-2.04021304430175E-02			1.04884791148378E-03	7.02847749198578E-05	0.527081482396922	0.411249377423884
108937500	4.28702241528734E-02	-8.83288670400543E-03	4.81746413199176E-02	-2.41577350102002E-02			-3.74252777163107E-04	4.04331986517678E-04	0.544824573977043	0.384797422101149
109625000	4.42340150589594E-02	-6.28291585331377E-03	5.03459848867504E-02	-2.66179334188629E-02			2.05329340542564E-03	-1.0077322388568E-04	0.559302675302427	0.353378801130691
110312500	4.36456185168652E-02	-8.5828984355958E-03	4.86633107940261E-02	-2.92540675872587E-02			8.49596558842041E-04	-3.04112934523888E-04	0.573800009015199	0.323302712049411
111000000	4.16869649662329E-02	-7.79276295228296E-03	4.89143266637993E-02	-3.09159747318614E-02			4.03703159925012E-04	3.03919282393835E-04	0.586387898772916	0.292661411455179
111687500	4.25458105174278E-02	-9.33641626237063E-03	4.73763654611617E-02	-3.45743767681453E-02			2.26052978786212E-04	-7.27671376050951E-04	0.600962042091567	0.260775431713128
112375000	4.25941753024349E-02	-6.8295591013094E-03	4.76556127303415E-02	-3.55615686150821E-02			9.28042069381999E-04	6.69490009585934E-04	0.608830194328163	0.230292186015029
113062500	4.10879506949313E-02	-1.09211773908933E-02	4.52681387644968E-02	-3.81300916047902E-02			4.9273748758947E-04	-7.93186195392498E-04	0.618712263122533	0.19681930459372
113750000	4.16805717119345E-02	-9.38760119807298E-03	4.38087721147349E-02	-3.95579794247904E-02			6.79799266022767E-05	1.05782206087276E-03	0.622817852574665	0.160450878373396
114437500	4.02097174469018E-02	-1.35700633785218E-02	4.23792326729114E-02	-4.26794865235433E-02			-1.90516888668035E-04	1.47471970910811E-04	0.627243602099024	0.125680223698635
115125000	3.96467075596838E-02	-1.12157000176969E-02	4.13538233285737E-02	-4.14638660808941E-02			-4.18849055939125E-04	1.83120152997366E-04	0.628923721635218	8.93251942393288E-02
115812500	4.17705133105195E-02	-1.23536434535353E-02	3.86405141316347E-02	-4.25759415230043E-02			4.69084633167117E-04	-1.25528105380218E-03	0.628809671708712	4.87738437350371E-02
116500000	3.96285980591739E-02	-1.22770811571602E-02	3.61459842171811E-02	-4.27719553949402E-02			1.1312204812054E-05	-1.7897652006844E-04	0.62628704020233	1.09491805681434E-02
117187500	3.94462967462853E-02	-1.48046753308552E-02	3.49883320857218E-02	-4.36687398398183E-02			3.25803304085388E-04	-1.82691369677909E-04	0.623004896210547	-2.79464373929235E-02
117875000	3.72123864293782E-02	-1.20853191169092E-02	3.35508419778887E-02	-4.13872551340562E-02			-1.04049102944317E-03	1.53045844885356E-04	0.613823450383127	-6.76663704383853E-02
118562500	4.02013187983321E-02	-1.49265763563425E-02	3.25702848684703E-02	-4.11104423522725E-02			5.22728973244841E-04	-7.56384935934906E-04	0.600936671681115	-0.10433333624269
119250000	3.73263053010379E-02	-1.69161542350769E-02	3.16815824564885E-02	-0.03867377746779			5.02564239293813E-04	3.83048011589138E-05	0.585609670523429	-0.14502647277496
119937500	3.84903741585214E-02	-1.80580901027142E-02	3.25232943557182E-02	-3.66695515227585E-02			4.75456948752445E-04	-1.34327276462787E-04	0.568879009577735	-0.186990683827462
120625000	3.44442864745268E-02	-0.018050008138153	0.030755530217603	-3.27780455680688E-02			-2.02743923083966E-05	1.36524772546487E-04	0.546012503977303	-0.227578847705396
121312500	3.82470290720286E-02	-1.89717911518024E-02	3.47756797484943E-02	-2.84203556193022E-02			-2.48343512256098E-04	-9.20067528509798E-05	0.520549891248336	-0.265884712503478
122000000	3.37856250469573E-02	-1.86671025786754E-02	3.47724288572142E-02	-2.53868528246531E-02			1.20693577178439E-04	5.03705588912882E-04	0.487853417859776	-0.304813267796461
122687500	3.44887746659594E-02	-1.85596455504134E-02	4.13987837036491E-02	-1.99733434146899E-02			-8.37006390192746E-05	-8.80414369342966E-04	0.452959865403276	-0.338667485755688
123375000	3.25354267240412E-02	-2.14710003272016E-02	4.69046110936752E-02	-1.68147650202289E-02			-7.33457133755798E-04	-9.88770363325315E-04	0.413687284844947	-0.372624513466776
124062500	3.57642467961826E-02	-2.05006910712709E-02	5.53491244946339E-02	-1.07517377216779E-02			3.22692818721148E-05	1.67189058490335E-03	0.371041472457911	-0.397836634383728
124750000	3.26537954300391E-02	-2.26161975990966E-02	0.065829430624017	-1.09975544367037E-02			3.60783197964161E-04	-1.14645859328272E-03	0.32587833732838	-0.424880908104673
125437500	3.49116776475737E-02	-2.20548997309224E-02	7.84143031366001E-02	-9.34225920545412E-03			5.77224547383598E-04	2.04689650727469E-04	0.269974041846626	-0.441134578990761
126125000	0.032413253329795	-2.32935122117378E-02	9.07671314295488E-02	-1.28374194841577E-02			-5.54677516412356E-04	-4.57299168209409E-04	0.221382435532095	-0.451553629785566
126812500	3.20185128889623E-02	-2.37953745536387E-02	0.107285903072632	-1.55680343761734E-02			-8.97346484830962E-04	1.07887637489183E-03	0.167347759522993	-0.454771259606304
127500000	3.17955301333466E-02	-2.61652463783437E-02	0.123566228542904	-2.56659803839455E-02			3.20385280239157E-04	-1.39024098210145E-03	0.116283251770611	-0.453152766327703
128187500	0.031768609379071	-2.37136073011443E-02	0.13818094814971	-0.03652575739234			5.02377232802225E-04	1.42640612758661E-03	6.53000955546922E-02	-0.442410806171352
128875000	3.19062175888618E-02	-2.89585587375587E-02	0.152712289726268	-0.055442129013763			6.99550335148643E-04	-9.75589214911417E-04	1.86929934511754E-02	-0.427385436469725
129562500	3.04272364733375E-02	-2.59110649777979E-02	0.163705634986321	-7.19775095942561E-02			-1.81481854611811E-05	1.75568688220928E-03	-2.41159548313066E-02	-0.407819871696145
130250000	3.04826423664895E-02	-2.97493874374295E-02	0.173881549070663	-9.68679277947411E-02			4.33908415015877E-04	-3.27249692533269E-04	-6.19860207955059E-02	-0.379925969934617
130937500	2.95168742512474E-02	-2.82225738421682E-02	0.176753399537278	-0.119719609138921			-6.79673304961746E-04	4.90875822152123E-04	-9.50538769931847E-02	-0.3564687414777
131625000	2.98133468230141E-02	-3.14060712313091E-02	0.179674397444446	-0.146546591666305			6.28031385025749E-04	3.63713435045855E-05	-0.118079360693903	-0.323230719484711
132312500	2.70541834013638E-02	-2.98077892418089E-02	0.175182141161364	-0.170988546297714			-1.25297022392151E-03	2.95281005616257E-04	-0.143140224775705	-0.296484115293643
133000000	0.028903969291281	-3.14387631498208E-02	0.169403662394725	-0.198909358980318			7.06739017369794E-04	-5.30113857196819E-04	-0.157723219617054	-0.264058003183916
133687500	2.53483679474878E-02	-3.36414629844107E-02	0.157519347422211	-0.221352964488042			-4.08774847727548E-04	8.72188779415914E-04	-0.171469844548818	-0.23734672296041
134375000	2.75119750976009E-02	-3.30740207104888E-02	0.146381800582198	-0.247783195420033			3.09870691707721E-04	-5.79170861290833E-04	-0.178357330884629	-0.206653667206999
135062500	2.52609945049018E-02	-3.47314745780328E-02	0.127693137448976	-0.266835971159284			-1.50077027961419E-04	-7.54300121839213E-04	-0.184857065570414	-0.182286314422166
135750000	2.81068859745683E-02	-3.49127063035657E-02	0.109366789803823	-0.287957095300267			2.08260108280289E-03	2.06991166341421E-04	-0.185708536848221	-0.159098767357749
136437500	2.38506247469678E-02	-3.65369086001316E-02	8.69766624499535E-02	-0.303448093480712			-2.58551642777252E-04	-1.07738776770706E-03	-0.187790861881734	-0.134965779118401
137125000	2.62178452869954E-02	-3.53358799154127E-02	0.066930457591188	-0.318316878948649			8.90529189122561E-04	6.14165090184934E-04	-0.184261596233776	-0.114426899079758
137812500	2.28991264845423E-02	-0.037730194567477	4.22006983829756E-02	-0.331308899285377			7.63354202193421E-05	-2.1745270392487E-04	-0.182530024886905	-9.57822988121537E-02
138500000	2.41154330483248E-02	-3.83218370026781E-02	2.03104837267378E-02	-0.341028650958773			2.47436551635938E-04	9.64170085223743E-04	-0.181524929484374	-7.55902124432923E-02
139187500	2.25266425160622E-02	-4.06366081685595E-02	-5.76106876999026E-03	-0.349530055557316			-1.60166141204286E-03	-1.41127443939462E-03	-0.174234071839031	-6.17660017253511E-02
139875000	0.023857127328214	-3.68645020450779E-02	-0.030296914238198	-0.353613745044352			3.18815601017124E-04	2.23194078977796E-04	-0.169586299999842	-4.80352736076328E-02
140562500	2.12918316601748E-02	-4.09985212729596E-02	-5.62227321008386E-02	-0.356791003719146			7.0515865479419E-04	-0.001190559220825	-0.162427936895588	-3.34764745097003E-02
141250000	2.16755005586486E-02	-3.85636376348905E-02	-8.24008298289587E-02	-0.35809875924194			7.24387934629466E-04	-2.78892450706278E-04	-0.157030722924312	-2.11011561908549E-02
141937500	2.02336200092283E-02	-4.10785364117508E-02	-0.107012623467642	-0.355413161616644			7.33141044845133E-04	-1.49722283495473E-03	-0.148712695448187	-8.82669083236419E-03
142625000	0.022236366888077	-4.01897907263493E-02	-0.131060338206747	-0.35264569249304			-1.07338030430729E-03	4.79349931162035E-05	-0.14218439692735	1.09246978699289E-03
143312500	1.81290857395284E-02	-4.36334207115846E-02	-0.156064645632	-0.347078987808859			-2.99094530660773E-04	-1.2249101928806E-04	-0.133358194237341	1.20441384558649E-02
144000000	1.79981328738586E-02	-4.07628908883945E-02	-0.17876331192656	-0.340856993534222			1.65199488193592E-04	-7.67697840670841E-04	-0.126451288961196	1.89815483222886E-02
144687500	1.74105069983317E-02	-4.40799095443131E-02	-0.199645115956332	-0.330302096522977			1.37433685054797E-03	1.90682798227184E-04	-0.117078916723099	2.98063729233304E-02
145375000	1.54971195328007E-02	-4.03992268955968E-02	-0.225059970015121	-0.320832757757985			-8.65364931189015E-05	5.85355434834919E-04	-0.110350096911564	3.61861467460213E-02
146062500	1.78082995125498E-02	-4.59201217916745E-02	-0.242923569138172	-0.312000137221044			0.002289698767024	-4.61551956879563E-04	-9.77323809846937E-02	4.27374626863637E-02
146750000	1.52348213293261E-02	-4.35295402540651E-02	-0.264430122124388	-0.298196699774591			-1.17840392681201E-03	-4.00849105729987E-04	-9.18853568381943E-02	4.62869526107213E-02
147437500	1.55138411853222E-02	-4.55226377249507E-02	-0.279894418858359	-0.28300312655989			-5.7711991956784E-04	-8.27609743924523E-04	-0.078861965808576	5.48543840442816E-02
148125000	1.23229082172657E-02	-4.46718664948586E-02	-0.301400073740123	-0.267945916286097			-9.87105805056406E-04	-3.60233163310088E-05	-7.12382820498411E-02	5.75402739875221E-02
148812500	1.40257506436686E-02	-4.48032282113788E-02	-0.314276480335283	-0.252734799111669			1.06806522669849E-03	-8.21587811944179E-04	-5.91503010431645E-02	6.35141526465628E-02
149500000	1.15944111576493E-02	-0.044471622099798	-0.331062093241683	-0.236937276051939			-2.3711817328336E-04	-5.30857099367316E-04	-5.01337555887413E-02	6.45222206580186E-02
150187500	0.013028586312712	-4.47426821062771E-02	-0.341953347835048	-0.220285548125913			7.25876739726622E-04	-7.02451292050304E-04	-3.83250756248702E-02	6.93212383265973E-02
150875000	1.19562589941595E-02	-4.61222646388899E-02	-0.356467966662987	-0.202906915374976			-1.06185847109827E-03	-1.58295394319005E-03	-0.028132709118416	6.93190609527975E-02
151562500	1.25757144606308E-02	-4.59245422131298E-02	-0.362331432614264	-0.182366241641568			-3.11202653786463E-04	-8.82156555278615E-04	-1.92182343736444E-02	7.31326647026641E-02
152250000	9.16948535274846E-03	-4.55978154643265E-02	-0.377500082257931	-0.165659041913459			-1.46622203725022E-03	1.92878407270643E-05	-9.25575172618174E-03	7.12341862258392E-02
152937500	9.59675455548408E-03	-4.47353994434394E-02	-0.382942815971341	-0.147203289077802			1.02379758322974E-04	-4.38818002554493E-05	1.8428322924837E-03	7.34731020273312E-02
153625000	6.86924989841684E-03	-4.50240502216325E-02	-0.391669687662352	-0.129129641806998			-0.001545808718238	-2.00742850674385E-03	1.27159998486757E-02	7.18921296915232E-02
154312500	8.68212773974519E-03	-4.46493943893811E-02	-0.395917882167413	-0.111096930462551			9.6111217538995E-04	8.85739333111211E-04	2.21739900273472E-02	0.073568033099209
155000000	5.74568633223039E-03	-4.71961341663192E-02	-0.403931777443725	-9.35292449943901E-02			2.15065449979775E-04	-4.73575545218098E-04	3.28038830251018E-02	7.12544035627818E-02
155687500	6.33857258429122E-03	-4.45372651693602E-02	-0.40634304801533	-7.34839193711453E-02			3.35942946570882E-04	1.14009210382783E-03	4.08515321391636E-02	6.85989939044158E-02
156375000	5.26597839313639E-03	-4.66026823748418E-02	-0.412863033526149	-5.48070979666377E-02			6.29767689805042E-05	4.69174292382655E-04	5.18662664498174E-02	6.54934051188894E-02
157062500	5.09184470991411E-03	-4.28867015386485E-02	-0.411863909022987	-3.64255017834918E-02			4.91348570807647E-04	8.18722635871476E-04	6.02573167408193E-02	0.063214359289387
157750000	3.80705870635277E-03	-4.78440810290707E-02	-0.421212623434935	-0.019229311237309			4.76099739495593E-04	-5.32425660081623E-04	7.00009371032152E-02	6.09324214603162E-02
158437500	2.69144092588295E-03	-4.23697819224131E-02	-0.416729472634938	1.62310111790331E-03			-7.1378455338062E-04	7.35127790199475E-04	7.54073977221042E-02	5.97841186203013E-02
159125000	2.72695645960552E-03	-4.83261268679421E-02	-0.420017157323842	1.85355496951852E-02			6.99513707369159E-04	-9.71900056566206E-04	8.78047000885138E-02	5.57987831294652E-02
159812500	9.63847449518371E-04	-4.14224840641064E-02	-0.418599714633448	3.58695546080534E-02			-1.5396922096358E-03	5.85189970579271E-04	9.37642117166556E-02	4.84083358423346E-02
160500000	1.5214185875392E-03	-0.045947042775305	-0.418906341907899	5.54108000984265E-02			-1.95212937647559E-04	-9.76351383259563E-04	0.102912949624416	4.69897429841751E-02
161187500	5.07678875819319E-04	-4.57574332631946E-02	-0.41308977396357	7.26162967441918E-02			-1.48029032422356E-03	-2.28489072731453E-04	0.108505093040561	4.14638906052446E-02
161875000	1.14511375841796E-03	-4.46080809951068E-02	-0.413675100788907	9.06764317207583E-02			1.58803255956307E-03	8.19501103635879E-04	0.116189283906015	3.97726512881204E-02
162562500	-1.82536763373353E-03	-4.34742860686493E-02	-0.406665097003583	0.108327273150642			-8.84769584826409E-04	3.75841600460109E-04	0.122686982581461	3.05710404575351E-02
163250000	-3.51762375972127E-04	-4.54139816599043E-02	-0.404239216362683	0.126235397866664			9.76676298259644E-04	2.60845441287689E-04	0.131444796800675	2.93784776174603E-02
163937500	-3.34252078645165E-03	-4.43446644042541E-02	-0.398314728691159	0.142602839513346			-1.08549244013138E-03	-2.36617210735272E-04	0.133470376917132	2.16791410456913E-02
164625000	-8.55169868631111E-04	-4.60624053797649E-02	-0.392912605870272	0.161185489545969			2.15702104364512E-04	5.32230503084165E-04	0.142781716148216	1.62065665769888E-02
165312500	-4.73807925618287E-03	-4.39952971700451E-02	-0.386044881737968	0.175486242280215			-1.78105633282465E-03	-1.95255052102228E-04	0.145862593749472	9.16590828555267E-03
166000000	-2.29197338738131E-03	-4.48011606434222E-02	-0.376636177424907	0.19188309520276			4.29728364018647E-04	4.90507371014811E-04	0.153913727415403	4.59788633151484E-03
166687500	-5.68332228693954E-03	-4.41245872871882E-02	-0.36982896175686	0.207641547877928			-1.2002834037624E-03	-1.05177551878142E-03	0.154396891291748	-3.98250134986224E-03
167375000	-4.08912297873906E-03	-4.43452999614073E-02	-0.36067864077127	0.220707170153861			2.61008907068272E-04	1.78318834648757E-03	0.159599377008337	-7.88786480340911E-03
168062500	-6.82368472994056E-03	-4.55193026782411E-02	-0.352422451214562	0.234524166938401			-1.12106747490045E-03	-9.326704847683E-04	0.162137007875601	-1.63033265783263E-02
168750000	-4.2588497356301E-03	-4.47699239584439E-02	-0.342703282374552	0.249369839826873			-7.85932929462196E-04	1.69097381117066E-03	0.164052977226704	-2.11542156776719E-02
169437500	-9.08113285403376E-03	-4.38977159965236E-02	-0.333256111071588	0.260316560298002			-1.55440911730855E-04	-1.1266663068022E-03	0.16904756942596	-3.15922704430375E-02
170125000	-4.81093503784834E-03	-4.40830532212967E-02	-0.324426938024135	0.275281973917962			1.11397290070257E-04	5.97458402719126E-04	0.166798867271676	-3.51365177282596E-02
170812500	-6.85391210089119E-03	-4.46182721456051E-02	-0.312278487480682	0.284689685298631			-6.34147011957079E-04	-9.66596020036804E-04	0.168942679230295	-4.55949991011743E-02
171500000	-7.60821010020743E-03	-4.09145978158356E-02	-0.30092822505464	0.297071046108908			1.21630781554552E-03	1.44843709321658E-03	0.16712817799744	-4.89485900897764E-02
172187500	-8.28982164827441E-03	-0.045579277872132	-0.288532407609703	0.304207968103112			-2.12932149959642E-05	-4.34885093064058E-04	0.168526880178048	-0.059469750213182
172875000	-8.11760506441533E-03	-4.09465392305472E-02	-0.28071329945304	0.317212698040428			-3.81618468665797E-05	7.91338591948633E-04	0.163114891537542	-6.33690663152411E-02
173562500	-9.05286453195209E-03	-4.56266438103404E-02	-0.266358569703583	0.324512737737495			4.38997684715054E-04	-4.07332041258792E-04	0.164721617278274	-7.22761225172481E-02
174250000	-9.68809843189903E-03	-4.24766069180028E-02	-0.259497088644801	0.338897778226832			-9.80504744374778E-04	6.84494392723225E-04	0.161621052684866	-7.77806083877252E-02
174937500	-8.33318439119491E-03	-4.51712386101176E-02	-0.243832443073454	0.343285999452992			7.62333632809278E-04	-1.06644247195812E-03	0.160897938252795	-8.44861833383067E-02
175625000	-1.17148387980717E-02	-4.32927520055054E-02	-0.235555761434485	0.355195859524337			-1.1028061782029E-03	1.49360716182202E-03	0.155173092669781	-9.31922922414871E-02
176312500	-1.03239786511221E-02	-4.31306174160704E-02	-0.220956788064392	0.359873648168315			-1.63780567449441E-04	5.1855949608208E-05	0.154942692712759	-0.09862771280032
