# Hz S DB R 50
100000000	-27.5634831603112	-15.582902113596	-28.5225360679311	-0.44330497918858			-74.5794462485011	-125.858525493999	-3.44591871010094	70.8858183653886
100687500	-28.0902671511481	-15.2750395607479	-28.2125361745712	-0.552901070852906			-61.4175599643902	133.944119929121	-3.42886308132821	68.4256813861988
101375000	-27.5362620882678	-15.980271312734	-27.7085772737631	-4.25617542389787			-59.5511883257569	-29.1380469899851	-3.41486361710202	65.3228106523151
102062500	-28.044749306078	-16.2261932134053	-27.7394013587266	-5.81905297936155			-65.2842276695513	67.8318545957997	-3.42280336758741	62.8736586798006
102750000	-27.6908142607079	-16.9521074456177	-26.7565923012001	-8.74831620593569			-65.8598488506681	84.1903278493937	-3.40099587132936	59.8270550076949
103437500	-28.172814592621	-16.9243721392957	-26.717907310748	-11.5136546070588			-59.0005474935901	159.736242803148	-3.37607977179198	57.1939386389374
104125000	-27.5581582768125	-16.4620382461643	-26.0154697821409	-12.8129584927789			-59.2251346262079	-17.2774953400853	-3.40824100584796	53.9980593040497
104812500	-28.1766031543943	-17.5858779591827	-25.9805612843052	-15.2103919487431			-55.4998854777345	179.75214912189	-3.44868229219705	51.6100421348231
105500000	-27.9165410177976	-16.9080702945265	-25.5158490631382	-17.745272744714			-60.084249313782	-22.821950590929	-3.40275969788272	48.7404695936365
106187500	-28.4073438659194	-20.2942495941166	-25.2073768586531	-20.6178271091096			-60.2778026542779	-69.1275404315302	-3.45948415007315	45.9521240523076
106875000	-27.6552170312828	-20.8917714727626	-24.8693722428753	-23.4759024841664			-61.010275723409	54.3187467149389	-3.4535814907675	43.1267439699249
107562500	-28.0389592517898	-22.4372518648007	-24.7774053527169	-26.2180206051123			-59.8091619953062	-173.342379696638	-3.47144552579015	40.1469689957069
108250000	-27.647410766854	-19.3840996598617	-24.5256692787724	-28.3479711674294			-53.5391819971797	20.8846024609814	-3.48392187447713	37.2799531344521
108937500	-28.376910556121	-23.5551145551718	-24.3285983724123	-31.9235220100763			-66.4389455455364	-105.562448651259	-3.55797767610608	34.3120954165284
109625000	-28.273684775093	-21.141553291365	-24.0286929209491	-33.6312824441732			-60.6324650216105	67.7633024872628	-3.5526440385901	31.4676448020463
110312500	-28.1136484379492	-24.0658770418921	-23.9770358188903	-37.3509154509185			-58.9528967518359	-85.1731248533338	-3.62308200158219	28.6490380779431
111000000	-28.3200321236067	-24.1110786923164	-23.7188148571535	-39.6250199146193			-62.2429695013708	55.0179160476061	-3.67830851134813	25.3834182999211
111687500	-28.419487393523	-26.7429154660291	-23.793759269711	-42.9076699187556			-61.720743407934	-139.560508047822	-3.69350138685633	22.4236518397426
112375000	-28.3468392841919	-24.778205447838	-23.6616192562101	-43.8344832822524			-56.1883900549503	93.220221162189	-3.74040986905243	19.4499769659815
113062500	-28.2821891994495	-28.22491614734	-23.6720344991544	-48.2791381262855			-67.0865131321452	-116.665005828584	-3.73556655600551	16.2406113999357
113750000	-28.5699290049899	-26.1979749917612	-23.8586145294383	-48.7077955614254			-57.9885167591991	125.135589778178	-3.82878385965614	13.143936943768
114437500	-28.3187156345647	-31.8234372211256	-23.6952761833947	-51.3012758289734			-63.1084638581911	45.669976663803	-3.85032673705091	9.80578003801927
115125000	-28.7356328736894	-29.3848987916705	-24.0634201422033	-53.0097332741782			-71.1948793128107	110.735298855936	-3.91895886485283	6.32294277239434
115812500	-28.2611574918673	-31.2305159586604	-23.7504506485882	-55.1831637031523			-60.3231776189556	-11.187565696679	-3.97863484968025	2.84479085867504
116500000	-28.6998798693705	-31.1376590131244	-24.2900754276425	-57.1388873718075			-65.9735673471867	179.972722794745	-4.03439872565099	-0.827041851576246
117187500	-28.20454240474	-35.9773727553933	-24.4124085580219	-58.3327148431448			-59.1161843043547	-10.2070265043527	-4.08591644825969	-4.24233552117391
117875000	-28.6786629237037	-33.2739125066059	-24.9423115407239	-58.7151768969585			-59.2941734038876	-147.093768154201	-4.1475356469615	-8.07092220440487
118562500	-28.2309519408918	-34.8374233075466	-25.1410809123688	-57.9510389017713			-63.4835498723264	-61.837639532884	-4.19001614548223	-11.9561346227713
119250000	-28.6979355944553	-38.2439131023892	-25.6914059864934	-59.0525009316022			-56.1614080531813	-141.356224671162	-4.29728072552801	-16.3299964502759
119937500	-28.3883128448949	-37.9386856502861	-25.8812458067796	-54.9414589309668			-59.5849571197236	9.54245163684033	-4.34724924920187	-20.7490064056626
120625000	-28.9597642887759	-41.3762665792968	-26.6279362246215	-53.3164081685209			-55.6297052324343	-165.986250051222	-4.41633759190594	-25.1855283456512
121312500	-28.0972415549881	-42.695062143998	-26.9568185165408	-48.4340321289339			-56.8422819761729	-33.8395393385378	-4.51371875727332	-29.9625159013333
122000000	-28.8081941443727	-44.4668209690385	-27.2731951443592	-41.1787355952182			-66.7226056125447	-97.7275553896709	-4.61988494422093	-34.8072443269716
122687500	-28.876770889314	-44.6754709870881	-26.6280272044499	-30.8098802642475			-56.1844167217194	48.8727747663389	-4.75766315444357	-39.7120718693256
123375000	-28.829499329128	-48.6558068424943	-25.7223495326531	-22.8518173035267			-59.2863034056143	-150.48705074567	-4.84577414401538	-45.2514762689248
124062500	-28.5612445819407	-45.6571154734762	-24.4140241877126	-15.4475547811965			-59.7416933915749	65.5094635359238	-5.05375984704631	-50.5271281902682
124750000	-28.4629470617571	-50.4478220908355	-23.0503684671792	-13.371167754163			-63.7015516951117	-59.7946289600744	-5.17994900530686	-56.2653271378687
125437500	-28.2896554021404	-45.60743857815	-21.5566847561484	-11.4291918035369			-67.1903975773326	84.6901079537619	-5.38062178329002	-62.2102622646287
126125000	-28.6127073248325	-52.5701387843898	-20.1188317075513	-12.6279816795793			-72.4344646025996	-142.524597884188	-5.61285898439999	-67.7846487207878
126812500	-28.7273181345787	-50.2506238760194	-18.8348351618284	-12.9688360236729			-63.3518975596339	96.2504645978385	-5.87007883707784	-73.8200920197667
127500000	-28.0264124471066	-54.7933758458862	-17.4917600549509	-16.7577218256599			-68.3341459718548	-12.3689699482223	-6.12992541856685	-80.0492002096865
128187500	-28.5029683044397	-52.646976191353	-16.3303342798196	-20.0124805497059			-54.1919097466581	125.746665091781	-6.48692670776879	-86.1357874722749
128875000	-27.9102446800065	-57.8282250181831	-15.3222860171163	-24.8132829755055			-59.0587642303451	-31.086082487475	-6.80212433861872	-92.3355482023404
129562500	-28.2856596591959	-57.7829286329503	-14.4845724659591	-28.8587048143168			-57.6565874765663	-166.029800123315	-7.1414700865381	-98.4803216503683
130250000	-27.5434859811337	-57.6601324527645	-13.5941214860547	-34.2869454745465			-64.1357663418599	-153.377773308614	-7.57423901193019	-104.488716368214
130937500	-28.230513177782	-59.4110766810731	-12.9895588222731	-39.291251995514			-58.5637553637496	160.976998897691	-7.91543000062001	-110.302829386818
131625000	-27.3925304908486	-60.0637906484796	-12.2952160996502	-44.5090920465589			-71.5138888835551	-121.504349056011	-8.4332275550982	-115.830021299324
132312500	-27.9017300702322	-63.395886033676	-11.8135376313152	-49.6568142683323			-57.3850019579433	140.660479882726	-8.75290042884832	-121.627463678171
133000000	-27.5449267240207	-60.0519093369212	-11.2624919048526	-54.8923132694192			-56.3638456812209	19.7617348123963	-9.28380765744623	-127.182384688952
133687500	-27.7206109621742	-65.5186190966879	-10.9969353988349	-59.9059364996251			-59.7709923303765	162.846378334574	-9.65799379046095	-132.318387120839
134375000	-27.4794337471781	-64.124448178417	-10.4852418847786	-64.5014562739744			-59.5269145665766	6.96714687411103	-10.1378518270318	-137.601421711778
135062500	-27.5797876291973	-68.9439037931663	-10.2457830764742	-69.1248525280922			-55.0700738880536	-140.317319699656	-10.5274709807425	-142.595746455899
135750000	-27.1384899235644	-63.5026394152614	-9.86319169991749	-73.614203970611			-56.6634518383269	58.4364023186805	-11.0005918341981	-147.212159708724
136437500	-26.8652387728225	-69.4880060782771	-9.60867587696648	-78.4372317077048			-57.3011548698444	133.879265272393	-11.4144310313287	-152.106448788915
137125000	-26.972280562145	-69.1359913604919	-9.35546364188315	-82.3252538995957			-58.977453256995	-28.4571100576078	-11.8987600442261	-156.792826976828
137812500	-26.860800248589	-70.698048895134	-9.16995333632576	-86.9225135953789			-61.9962704504681	-168.320039147904	-12.2763034282541	-160.947259649732
138500000	-26.9910776567759	-68.892046221146	-8.97921421424972	-90.9692040740174			-63.7097647779158	43.9918604873506	-12.668134572905	-166.323599417716
139187500	-26.625186482002	-74.4711433391404	-8.79081297315115	-95.3174660012652			-60.6394274587366	-136.465936482866	-13.1919503611577	-170.475727999381
139875000	-27.104396928427	-69.8318892047706	-8.65044614878834	-99.3112643313722			-69.5006800088575	-18.2115424767054	-13.5091340854438	-175.218128542777
140562500	-26.7312182408003	-74.2663885552002	-8.47252006232286	-102.955191661787			-60.6308706372939	-14.8376266639346	-14.0522546577315	-179.241142641806
141250000	-27.0731545241597	-74.0193139106761	-8.3071308141871	-107.041340907285			-56.9539616280116	76.6989651721443	-14.363510581719	176.090795470742
141937500	-26.727588578885	-76.4927881554151	-8.24860001211364	-110.854281529834			-53.0307394761603	-89.4117455819079	-14.8679942730391	171.257968193686
142625000	-26.9424694030515	-73.5731226937697	-8.10047802811438	-114.551990128836			-53.5760384212509	41.3430516059722	-15.1776813053095	167.777929680962
143312500	-26.3521891439401	-79.6650280777965	-7.99358932875321	-118.299513367275			-55.2045001944148	-113.162284581985	-15.71606151907	162.749753346828
144000000	-26.7812324340322	-77.7180417159191	-7.91137522696375	-121.451637131302			-62.6874270617203	-60.7394579498514	-16.0774480751384	158.540065084178
144687500	-26.3767051641062	-77.7004328711618	-7.84486814123629	-125.470530208198			-59.9700311383346	-89.0102566227349	-16.5992553310905	154.112117621669
145375000	-27.0353851620791	-80.3512814291347	-7.77213494544318	-129.012496909132			-59.657191719942	149.822352127067	-16.9058062565693	149.069574035215
146062500	-26.4089009825129	-80.1501270130048	-7.67883767798262	-132.341782707035			-57.2562922993016	-42.7348204168762	-17.4395230155202	143.298295347372
146750000	-26.8775898530076	-80.3051081791881	-7.60481156816942	-135.906144902567			-59.4097580703063	135.21238900009	-17.7763261903915	139.035953118651
147437500	-26.3980415464	-80.5296454399565	-7.62106781633788	-138.744643413075			-59.3142141991092	-160.907516301693	-18.1795562206085	132.557663243977
148125000	-27.0314909804617	-83.8169511398579	-7.56761377251944	-142.502254416402			-93.7479823080074	-150.029278844155	-18.4708354445103	127.93634895158
148812500	-26.4663535788411	-81.1259555587515	-7.51106210987187	-145.085477970633			-63.2949590444106	-59.1364049600728	-18.8984580926023	120.617334672313
149500000	-27.0215476468521	-84.7601419875105	-7.45992157654282	-148.349353772135			-58.8951014527459	-128.249668873903	-19.2168034509345	114.358310942654
150187500	-26.5348904058033	-84.125744698934	-7.46152254007199	-151.485372601186			-69.8626804456201	118.840436036624	-19.5487453797537	107.406909597251
150875000	-26.77405547775	-84.2846927322419	-7.37840707526077	-154.502537930688			-58.9224538631333	-169.156223891519	-19.8579156997517	100.956740258566
151562500	-26.6324510272249	-85.8800418558396	-7.45170283546546	-157.127035027154			-59.9350812194625	-37.9543420468776	-19.8604235579526	95.0332072558631
152250000	-26.577867474312	-88.759157683145	-7.33704354548561	-160.327651478805			-57.7492263551312	-132.767629167758	-20.1911498868953	88.033123882119
152937500	-27.2283529191438	-85.4077731736186	-7.36998856772335	-162.817371699483			-67.5548883385224	-111.255143348538	-20.0528640573591	81.6121142225783
153625000	-26.6772263375085	-91.1991517477675	-7.32686957006934	-165.70068662201			-54.7260778059412	-111.469989259143	-20.3313951078054	74.1210689323709
154312500	-27.0697541823635	-89.4679365822773	-7.35023807282857	-168.416787462122			-57.9850854090757	35.8421894347092	-19.9198817824849	68.8962445282989
155000000	-26.612188882132	-92.7645992752317	-7.29262912245479	-171.052271422525			-55.2709839748103	-100.078367171991	-19.7778798124816	61.631721033043
155687500	-27.1970824931271	-91.5226909708276	-7.30997140067175	-173.6623424117			-54.8427371078477	48.6829661504271	-19.599641160804	54.7109803955192
156375000	-26.812969867727	-92.3536186076034	-7.20318809225617	-176.232552453268			-63.6882233508186	-146.402778835809	-19.5122340016215	49.2254558369539
157062500	-27.3424214435318	-94.9561964344435	-7.27102567907034	-178.902350495217			-67.9744955315265	55.9181142302329	-19.1983782950622	43.9699309997812
157750000	-26.6504359867637	-95.4879147953207	-7.18541847386115	178.401992906245			-58.4974142799547	-87.1754806466225	-18.8885966595494	39.8895459898125
158437500	-27.4869600704586	-95.3275861170014	-7.28471656399696	176.154720191527			-53.9742862235906	119.946311116086	-18.7493527283674	35.31570645814
159125000	-26.6259067051801	-96.1821127092593	-7.17032464109878	173.69243107433			-57.281958730492	-100.498362148349	-18.3388325064497	30.0874653916429
159812500	-27.4926201381783	-97.777294618779	-7.19529685659293	170.907134290381			-66.691571913042	81.4940263118781	-18.0037125381669	26.6216442240518
160500000	-26.6607840241298	-96.653293337964	-7.13557446198735	168.502155428089			-59.4634602690874	-52.6318284766763	-17.6840352212761	22.9416667237267
161187500	-27.0918070356581	-99.8760885068729	-7.19173037006918	166.345338269672			-60.5102626223604	172.608140431461	-17.5840253541582	18.5438096299658
161875000	-27.0491852862879	-96.4719556321707	-7.11169097852905	163.696185703082			-56.6369778752521	-52.1667688448963	-17.1792719475374	15.624837130241
162562500	-27.1963437629192	-102.832689865101	-7.19728992967446	161.138641080164			-52.3582773022729	159.603284045933	-17.035521154149	11.9598727181116
163250000	-27.2332061619917	-98.1036008477257	-7.12065131033635	158.727237300011			-53.7609129067685	-33.0308021701634	-16.6296312308449	9.48577053378372
163937500	-27.2049228230371	-104.520559896628	-7.10467253169262	156.462415442981			-55.5496501124829	171.385223325003	-16.5424505251254	6.84108564907173
164625000	-27.0219988783093	-98.0296175723349	-7.15162204864152	153.944058831138			-64.7987956198415	93.6403987143696	-16.1329927068739	3.5710704658596
165312500	-27.2892765053404	-105.30495624389	-7.12169590951877	151.863509002581			-57.8654889870463	-90.2445064588996	-16.0047892519842	0.517967466116888
166000000	-27.2836468514331	-101.902998693294	-7.10015349997123	149.276140523395			-53.0522346265441	66.5134107597058	-15.7786939065622	-1.56508672202276
166687500	-27.2268338118724	-104.490615550009	-7.15691795642686	147.201376632476			-61.4684411299792	-45.9237451949628	-15.7210546888339	-4.46611687266536
167375000	-27.3262943139658	-106.656670179241	-7.10438183441511	144.820247264493			-57.1983687526552	40.4043747700319	-15.4364903858327	-6.34318883227636
168062500	-27.0993647315577	-108.304066048267	-7.11897219983788	142.795460868473			-60.5066016966774	150.937606683627	-15.2748426986322	-9.40996674162597
168750000	-27.4180180681337	-105.951415939784	-7.09109008095449	140.490254259012			-64.6985913806074	-51.3948943972533	-15.2561971186442	-11.3726311246252
169437500	-27.2368200314742	-110.273618040146	-7.20220164048858	138.495976462588			-62.7346078641502	-157.614424149059	-15.0817135021037	-14.5559617392914
170125000	-27.4009435515413	-105.883190006778	-7.0826153927387	136.256810267307			-54.3883948137017	176.159787263489	-15.0487938728587	-16.3607047127208
170812500	-27.1383969231104	-106.579085162255	-7.21463696557728	134.220980231138			-60.0981640686933	175.165566529503	-14.8013435422888	-18.9829837024419
171500000	-27.6239063824791	-108.800213763391	-7.12586112113957	132.207044713967			-57.0960489455314	130.742452653625	-14.8919029890613	-20.8551735372743
172187500	-26.8978942956543	-109.331877165635	-7.20676886026498	129.968905140077			-58.2810052683022	-3.15898525150482	-14.7678391949151	-23.8972658456937
172875000	-27.9828428386026	-110.653000141915	-7.10679670050901	128.059611272285			-56.0455958848183	104.963012915465	-14.7746153357715	-25.9264811314626
173562500	-26.8447004789844	-110.297717521097	-7.20077318902761	125.965319953744			-64.8815954568743	-147.8797176731	-14.6685125230659	-29.0012932454702
174250000	-27.2986947126673	-112.958238785893	-7.07856532752383	124.067621454189			-58.0448987706481	121.312358459996	-14.7294183554961	-31.2350173472609
174937500	-27.1288201104143	-109.247262135619	-7.16926551392629	122.203570502458			-55.4796788218416	29.7376445556426	-14.7271141197988	-33.5779424970578
175625000	-27.2860210953706	-113.449768829462	-7.08683980049297	120.112277555828			-64.0773305495712	154.142626240742	-14.7989357402638	-36.3771669550035
176312500	-27.4349057895199	-112.673750143547	-7.15478790933538	118.224463022364			-68.7419820625422	19.0516075128131	-14.7469962624148	-38.4549981268057
177000000	-27.6363437252544	-114.618654555015	-7.05967671417584	116.250565129568			-56.5743447075372	-170.967441883743	-14.8237102687585	-42.0324965209083
177687500	-27.275233562797	-110.094163543522	-7.10422603584383	114.390167224754			-57.7026545388319	7.99240088271601	-14.8388325140611	-43.4945732819837
178375000	-27.7385299711854	-117.483605657164	-7.00068911045936	112.475876973515			-60.3594948351675	-178.83636780655	-14.9001380237816	-46.8860636600741
179062500	-27.6165225447751	-112.33112865264	-7.01113892328424	110.382407930432			-56.9441298917489	42.4654856063162	-14.8726328054522	-49.1455258678893
179750000	-27.7331722843615	-118.168218605273	-6.96062929059596	108.577318665482			-57.468764160612	-174.481052302696	-14.8298817072029	-52.7301382468397
180437500	-27.8449594219129	-115.451384927635	-6.95133345507764	106.422061568014			-56.5888113520029	110.756074456434	-14.9924959454468	-55.1351040374289
181125000	-27.7831223471973	-118.886376789674	-6.89029764005809	104.361857978632			-65.4519873912385	157.413765736958	-14.9443108910247	-58.3672095590988
181812500	-28.339480725647	-117.162576211008	-6.9377223132863	102.044249726558			-61.7478113080189	15.3436523105805	-15.1069265129534	-61.5707186492929
182500000	-27.9366331732606	-121.360552090404	-6.83216801895411	100.283834643912			-63.7891354766602	-121.626829626055	-15.0264096228825	-64.3812133084976
183187500	-28.628152769075	-118.381469904259	-6.83003313891989	97.9937306838111			-59.8257900858219	96.2637919210922	-15.0441334587932	-68.0923375878603
183875000	-28.2492153132761	-124.05061412349	-6.78007547706118	96.0476750530176			-56.177100227843	-97.0974813923365	-15.1431729104082	-70.8577283062364
184562500	-28.6260429865622	-121.662473426674	-6.79954413667035	94.0580739376561			-54.8220315664365	75.5735339112193	-15.2834217430344	-74.2162421154804
185250000	-28.5281671002822	-124.223163794566	-6.79719487940566	91.8951177003611			-56.4512038047103	166.664843020573	-15.1264762592191	-77.8870114852486
185937500	-28.9402244955052	-125.16049501872	-6.77777012047761	89.6219535471307			-58.2828016351866	126.340942623916	-15.2439465571602	-81.2619101383606
186625000	-28.3291206940874	-128.851596632258	-6.74528255647094	87.5127252820111			-66.1695873686472	165.659324676137	-15.174131299228	-84.3306719292842
187312500	-29.0039207627967	-135.101673958819	-6.75031577730053	85.2831053466223			-79.3462616898358	53.4051555059116	-15.1194980587552	-87.5383738039689
188000000	-28.6695627167229	-132.076226781561	-6.76359358351531	83.3896020046717			-62.4402869591498	179.163553227135	-15.181274563926	-90.5926893498031
