# Hz S DB R 50
100000000	-29.5167866757889	-31.1224850801703	-21.3676025412927	-6.87091384030382			-61.5722390112775	-179.291671466038	-3.46674645896911	70.7849320199766
100687500	-29.7406356109947	-28.8494786658029	-20.8389527473347	-8.08382249616352			-56.251309520994	62.2819781873881	-3.40973703537264	68.5526846233976
101375000	-29.5751785827956	-32.0916974246621	-20.4458635542888	-10.6909840630977			-65.2398603875201	-133.522795461008	-3.45406938296596	65.2797255434925
102062500	-29.9367672627581	-28.365049565144	-19.8429645453912	-12.1737744124444			-69.6414546146481	114.180625292361	-3.43127415928084	62.8930178446506
102750000	-29.8111139769261	-32.7437850512425	-19.5641081921319	-15.9943327452484			-55.6692343616148	-148.011244276817	-3.44764378562158	59.6960898647491
103437500	-30.303426681153	-29.5945366212342	-19.1850012592708	-16.2695472396921			-61.5777346350618	45.072329334204	-3.40678234139378	57.4413146795065
104125000	-29.9863080022486	-30.9746707958565	-18.8130505245567	-20.1592008165253			-57.5387763485064	-72.2103062679267	-3.45703031917912	54.1373507836789
104812500	-30.3529501331645	-31.3841094070643	-18.5322836762949	-21.5727804271711			-61.7911829266898	25.3546669600891	-3.42896946319375	51.6631047547954
105500000	-29.8250272365516	-32.3859675882511	-18.0569927782656	-24.9702141602064			-72.1508720304439	103.304017752079	-3.45559041251205	48.5145517565702
106187500	-30.7453831367223	-31.8901886516503	-17.8875819466534	-27.8568373992954			-55.7522305205595	90.3955604068761	-3.43635878791911	46.0457318234076
106875000	-30.3775243842032	-37.1050819556337	-17.5453972300986	-30.0094182820859			-67.2241571641608	110.902617749692	-3.48967360611418	42.8817925621786
107562500	-30.2698912381467	-32.3927131810171	-17.3992039213286	-32.6738640993963			-63.2917181338032	-177.931712751695	-3.45941154025468	40.2756567516864
108250000	-29.5676783864099	-34.2320040939248	-17.0879906336762	-36.3541304567689			-62.3239351894213	-49.3074614536935	-3.51539377788565	37.0903203712965
108937500	-30.6342637673184	-37.6496697416867	-16.9155027091636	-37.9850538188116			-59.255553329648	34.6052760115709	-3.52309614889761	34.5062632438812
109625000	-30.5101624544431	-35.1634697111182	-16.5736042201723	-40.5212823602097			-60.4575673102742	50.9214977635112	-3.55080650319047	31.3320930941289
110312500	-30.7440255962214	-36.4562182769851	-16.62910441555	-43.2908151737007			-72.269412143287	-96.2379834384966	-3.6143715034235	28.6342211586369
111000000	-30.4872339945839	-35.6372191204387	-16.3906856444304	-45.7547532522611			-61.0336240298569	-16.0790030855621	-3.69187442426715	25.3061035029091
111687500	-31.0144598694667	-40.8613692976186	-16.4434918322599	-48.9583890939885			-60.15761690872	112.397929057481	-3.66692087729183	22.5006666467462
112375000	-30.7165512103664	-34.8639554491244	-16.2834331897047	-50.9454641475466			-56.058352664138	-1.97981397801021	-3.74621749352593	19.1976306171726
113062500	-30.7655902871547	-39.2478733806256	-16.4129710490176	-54.1549239623287			-60.6307779722136	-97.569200431377	-3.7513614588156	16.4436626827995
113750000	-30.995513148676	-37.9516718958695	-16.3381519264586	-55.9133214624976			-63.8176736962949	96.8907670554773	-3.83077635220231	13.107725484813
114437500	-31.1033750498855	-43.8951426641804	-16.4698752217496	-58.2358452183673			-61.9648512637009	-140.665249561241	-3.86069050510859	9.96485829036051
115125000	-30.825307844105	-43.1704912861521	-16.5736732547879	-60.4783624581927			-57.1433893778047	45.4889222573687	-3.95172667806586	6.37244925710433
115812500	-30.8062024794621	-43.3213274044701	-16.6605303834243	-62.4652188543217			-67.9097666019686	6.21097135976281	-3.99569562755836	2.83679257898043
116500000	-31.3147734792841	-44.8005803183241	-16.9723466539049	-63.8711734091383			-63.6274028130915	-8.71136628593467	-3.99904638397197	-0.818682565367252
117187500	-30.7822860131388	-48.4239102467222	-17.0940414587578	-65.6097089806204			-57.7849552457512	-53.472525165746	-4.09693321501502	-4.24882836320561
117875000	-31.6136938498479	-44.2751621795043	-17.5140170570461	-65.9513029475515			-62.06306200946	119.446293814059	-4.15307022034313	-8.308574192739
118562500	-30.8172142496172	-47.7500032514931	-17.8761530357556	-66.1997283063486			-58.864980583525	-111.247896741165	-4.19434355577855	-11.9301044383708
119250000	-31.5643199741932	-50.1805121316265	-18.3519907177753	-65.150626383368			-70.9242671233692	172.767594179139	-4.28424037326385	-16.2993620227147
119937500	-30.8542749715296	-51.8992314291968	-18.717490482157	-63.2454297741069			-75.1852807713911	-124.158818062427	-4.36996453403887	-20.7063899195424
120625000	-31.7500365614297	-52.2804843947317	-19.2291820339324	-59.4285930331289			-58.7065345800616	112.86757056443	-4.44845739106772	-25.2712644117554
121312500	-30.703814111941	-54.7529882209603	-19.5037448341364	-54.9397939438843			-56.5662539339266	-61.0852481312188	-4.5079956071517	-29.948606827199
122000000	-31.8025320704498	-54.9400056761879	-19.7816367771695	-47.0318858425759			-56.7876534399678	113.791695529587	-4.62808351853464	-34.5890982067899
122687500	-31.2456989743324	-59.7579127685342	-19.2261153752726	-38.9647242881029			-62.2844627397741	-62.2706402594414	-4.72042954157515	-39.797474626012
123375000	-31.3949173425503	-61.1122150340641	-18.4463787358255	-30.9516702627714			-54.3537786907384	83.8863442894146	-4.87226983485455	-45.1617993626993
124062500	-30.7519465409967	-59.7231402761554	-17.1639456427497	-24.4718918961626			-55.7846213576844	-51.4423994654655	-5.0040207798295	-50.3261747182956
124750000	-31.2662215181677	-62.9704627179206	-15.7669215780149	-20.6268460531641			-56.5359518094416	142.88993471142	-5.2165534398183	-56.1709988647633
125437500	-30.721503018516	-59.5885446212461	-14.1663392335373	-18.6489663143641			-58.1625336004891	4.71213928846243	-5.38167552193341	-62.0269079570631
126125000	-31.2773236691679	-67.4061803589754	-12.8073490423598	-19.8131277647288			-59.0993244112079	-115.254848723598	-5.63146178532913	-67.9756304347416
126812500	-30.6556249225596	-66.608808803669	-11.3735792454943	-21.3809803690127			-62.6466796236137	-47.1471995334589	-5.86202671778303	-73.7528751569767
127500000	-30.3733426021816	-67.8802327661048	-10.1665809488309	-24.459594812825			-56.1725121917532	-134.932618030372	-6.1792286888776	-80.1210362637853
128187500	-30.8629784692807	-69.4302373122044	-9.04956645051249	-28.1164102846735			-54.1314162083318	29.8660001672523	-6.46420838073233	-85.9514740286411
128875000	-30.2561397248201	-71.2812055386174	-8.00849440114808	-32.9876953755343			-60.9693526382975	-79.5543596021569	-6.82105884290072	-92.4724362300984
129562500	-30.7740592988939	-69.3984403510008	-7.13863487314415	-37.0621745661019			-63.0260098428027	53.7030296481536	-7.17056077911187	-98.2236214891575
130250000	-29.9295172644442	-73.2153770560976	-6.29860324019806	-42.4834872215498			-61.4185923251007	-160.352763735122	-7.60113908876191	-104.649365773716
130937500	-30.1315339055653	-72.3326754741411	-5.63975007219023	-47.3659284154988			-56.2855510614033	59.8828393562941	-7.92247761475047	-110.107003234285
131625000	-29.8189564769038	-77.223963771091	-4.98469891231494	-52.7223376349531			-55.9263315985122	-114.587193333042	-8.42486900029401	-116.034835029496
132312500	-30.3528250005982	-78.4504650640644	-4.46123989317701	-57.62340895468			-66.0789202437605	-15.951897991516	-8.80851147020798	-121.433786428965
133000000	-29.7436562111672	-80.0557631874068	-3.95660845822027	-63.1547704367477			-63.6065004494941	151.202473038132	-9.29337953722969	-127.227740793029
133687500	-29.8706860959787	-79.0433261032036	-3.58487067484177	-67.7811985456266			-55.1942793442183	76.4609486684583	-9.71953657994518	-132.214300571066
134375000	-29.5550492201444	-78.0256338816403	-3.17228538995955	-72.9749835680192			-63.395984284523	-57.008984819072	-10.1184629263432	-137.596479418515
135062500	-29.5930446246404	-81.1328215116506	-2.90146078842624	-77.3944620866742			-59.1849916082668	-57.544843014626	-10.5437700071933	-142.669523190876
135750000	-29.1023725467238	-77.4686439412647	-2.55406346285455	-82.2719396491076			-65.613975865727	-15.9248843187662	-10.9872389143286	-147.379582103855
136437500	-29.4442718292055	-82.7238181299329	-2.34052208507636	-86.869315142771			-60.05522182884	-106.56722288689	-11.3907025843143	-152.148234013035
137125000	-29.3422333130232	-80.5658407459181	-2.06657795743237	-91.1842867570806			-57.5641105348198	-79.3633075992962	-11.93189719164	-156.484309953223
137812500	-29.2459271401506	-81.7832449271563	-1.88824789639084	-95.4824886923413			-58.5510510298608	151.105304637452	-12.2704222839641	-160.930814690141
138500000	-28.9471222328683	-86.060669361736	-1.66311634893312	-99.8175306009705			-58.4340506084888	-75.2377930228599	-12.6497707267348	-166.24392682909
139187500	-28.9417450141535	-87.9364359412143	-1.51441421811669	-103.861692690508			-59.4556231252172	157.69410114838	-13.1358030835454	-170.300904070002
139875000	-29.4538632993754	-84.7260006045727	-1.30510016593462	-108.051203045057			-59.2806569163995	-16.3617037069358	-13.5375723142771	-174.732030015529
140562500	-29.1645250848828	-85.2897579834651	-1.17867015488128	-111.88271839189			-58.3329837568961	-111.746363943469	-13.9865571261788	-178.945300848119
141250000	-29.1877991644284	-84.4894354802316	-1.02172547909899	-115.851849088786			-58.8783590750822	-32.2690482141606	-14.4104683708473	176.513444088373
141937500	-29.1938716116993	-89.3967297140005	-0.954667922143977	-119.813972284497			-62.9339433249661	151.170808836875	-14.7755477138848	172.217844147592
142625000	-29.3572423288238	-83.8960058313606	-0.817802094066253	-123.59786225782			-54.9140655735819	-34.250879401206	-15.2478571807952	167.873987522313
143312500	-28.8172827597715	-91.0918282346158	-0.688508497940771	-127.311927216934			-50.9559499734206	-161.001653891753	-15.6887489235454	163.415165917543
144000000	-29.1557233730953	-86.0977293287899	-0.592647372414816	-130.685631200822			-67.0985939598466	1.36720782919997	-16.1005946106736	158.237788419045
144687500	-28.8346240380752	-91.7826905899215	-0.548756748468866	-134.538298538259			-58.3473238646618	-173.30222832314	-16.4699876942224	154.044260201688
145375000	-29.5691026931419	-90.959135803512	-0.49890253942874	-137.953446546885			-66.0951064628453	-2.92053359884715	-16.9133302596878	148.401445726802
146062500	-28.7172340425477	-90.8194883338093	-0.396084693725442	-141.231495841621			-62.8275917223999	-76.7041039104082	-17.3331659268335	143.21145594017
146750000	-29.6764821293264	-89.8955952708238	-0.354137967166652	-144.912583432372			-63.3166357952926	5.71664315978819	-17.9341032507051	138.398267166374
147437500	-29.1458522828843	-91.8787685488739	-0.31125637704736	-148.013722380948			-55.3752783982096	-131.568965918764	-18.1598796309256	132.571850899176
148125000	-28.9958840735478	-93.9028419759015	-0.267927535740539	-151.38653395251			-57.875119669019	58.7870294167981	-18.574059823665	126.750387540587
148812500	-29.1567602189986	-93.8252827861272	-0.204029330039546	-154.534401624026			-54.0827825532536	-92.8155998319679	-18.9405190629227	120.621378130001
149500000	-29.2395128397122	-95.524694510682	-0.179657157855739	-157.764308276717			-55.5209813646388	-176.826503999352	-19.2984104010905	113.834496087513
150187500	-29.1109510185608	-94.1796581709717	-0.156219729453524	-160.559735338216			-51.9485760021339	-126.332492645436	-19.5929142415238	107.573364578586
150875000	-29.7087384204507	-95.9776234900678	-0.144394427745393	-163.74312811568			-58.9065188671322	-164.334812675626	-19.8022824273448	100.573525872858
151562500	-29.0075442142237	-95.1039139118672	-0.143523445759089	-166.458097751096			-55.3513474214246	-77.5251882937131	-20.0057729666121	93.8327705230974
152250000	-29.8206993806438	-100.038611078671	-0.14283121359018	-169.576103741308			-56.4338669597086	-175.298572045283	-20.1760619920944	87.1937344250553
152937500	-29.6626618457492	-98.0800779021903	-8.44969021883344E-02	-172.043749930398			-63.9770158875996	-171.970592174378	-20.1058942035719	80.9571801321834
153625000	-29.4787369179991	-102.758495891756	-7.34267018955122E-02	-175.186488640406			-55.9957723852742	158.766025275809	-20.1819940653129	74.0785925023574
154312500	-29.6855879512546	-99.1409284713728	-7.76088989011425E-02	-177.49282071365			-58.4518275351661	-132.210865494976	-19.960225483711	67.2915358606212
155000000	-29.1583038181512	-103.734802086677	-6.25655787065464E-02	179.220245800651			-58.4446561767156	-103.195993532876	-19.9265972665746	61.4295501644399
155687500	-29.8251896932475	-101.382844546099	-0.089034744002815	176.951173627144			-67.0129727891366	-32.5953269538888	-19.6755593718324	55.1200542773268
156375000	-29.9236716136075	-104.107540530198	-7.58462001218604E-03	174.067095072705			-55.708107197829	-147.209891658184	-19.4377610317542	49.4230279608143
157062500	-30.3005291578899	-103.095165139697	-4.10837375350453E-02	171.638919802166			-59.8239696522156	53.2103558277307	-19.2017956633223	43.9693060797532
157750000	-29.6498235317887	-104.970301175784	3.01130152264615E-02	168.891622506391			-55.9905601851767	-127.29146107792	-18.9574541804904	39.7251147385627
158437500	-30.4566100886763	-105.644869994871	9.12101897480617E-03	166.406448595322			-53.3267126206512	9.21105632505631	-18.5425179281651	35.5627757465573
159125000	-29.5368662039466	-106.587290803993	6.64332149081806E-02	163.784847940833			-60.383212762969	177.609902643265	-18.3104814267036	30.7934603889014
159812500	-30.5970144892855	-107.383211676927	4.28071300920669E-02	161.430756165009			-55.9008868579926	68.6221492485482	-18.0385664533442	26.0690079961389
160500000	-29.4183801534757	-108.896030146695	8.74462033502365E-02	158.66387488308			-52.7459940879657	-178.31134027076	-17.7735485292245	23.3211497569986
161187500	-30.3454975712827	-106.575148109562	4.06304075385246E-02	156.445510144362			-60.3987248186604	44.0736303003595	-17.3979458824308	19.2327129752686
161875000	-30.0024961627201	-107.690515302717	0.132770034945253	153.801376914886			-69.9373200380647	175.895172483431	-17.2255038033146	16.6187384711093
162562500	-30.4048584631328	-108.546682326486	9.84413477372498E-02	151.270972303196			-55.525051541807	106.676892960612	-16.9073568209203	12.4817878038579
163250000	-29.7537090313663	-109.67435567403	0.10952021372406	148.743686317			-70.9112058317439	174.221395167931	-16.647582642398	10.003949789114
163937500	-30.1533735868094	-111.129663990253	0.111682063403018	146.404021691538			-56.9435295553793	85.5016371470599	-16.4507479466009	7.26767896185847
164625000	-29.880573955238	-105.944582204286	0.104827000140409	143.764800124763			-55.7437500670691	-107.584353393452	-16.1931688945509	3.24563906115318
165312500	-30.3146578103111	-113.750383022365	0.086239910560197	141.60412831884			-60.3398417876781	128.966839468971	-15.9632624432896	1.45641196028637
166000000	-30.1255000862002	-108.128558080692	9.58948098329366E-02	139.27356734005			-63.2827914542573	-81.3016639458726	-15.8545737288553	-1.99637763726303
166687500	-30.0377580714059	-116.1028748793	6.88130990974757E-02	136.928994257039			-58.1224508236428	100.444506847958	-15.5833106517343	-4.20590519752249
167375000	-30.2008711780071	-112.909946324926	9.32114755113939E-02	134.535916791769			-58.943278551271	-148.30470719766	-15.4219035318647	-6.67987115967006
168062500	-30.1129589301216	-118.368877058257	0.110998113118485	132.613969033698			-52.4569644157646	154.889952085327	-15.1802595004887	-8.81405327152928
168750000	-30.4444618598257	-114.863114271381	8.98283633256126E-02	130.180593165855			-63.0871492427428	152.113336450833	-15.1598803230028	-11.6496870884974
169437500	-30.2653221179308	-117.699668630626	4.46187791328136E-02	127.893040504732			-53.7546320638213	135.038141751919	-15.0295467744618	-13.5355297412054
170125000	-30.222338945261	-112.535647296753	7.26825344692281E-02	125.602781230759			-53.0484880151757	-28.0809893818956	-14.9148907333321	-16.2678150950289
170812500	-30.3914708141859	-114.656957747378	2.80444759928559E-02	123.656465601637			-60.7982723607227	-168.506678000727	-14.8483344628222	-18.4110545443903
171500000	-30.856851366438	-116.320404947076	4.49881360523022E-02	121.193407849761			-55.9007854239472	100.554646707117	-14.9124114847092	-20.32227897959
172187500	-30.2363809566341	-118.225965826372	2.59378960636739E-02	119.43885879597			-59.6417312469733	-119.813770287811	-14.7444256487979	-23.229851343953
172875000	-31.4136816850536	-116.748297578892	4.17556036751251E-02	117.30046107366			-66.8987770428126	149.568579647838	-14.7509671735704	-26.1446601782331
173562500	-30.2857035533074	-117.38923712489	1.81591096477474E-02	115.398028863265			-55.3921244207771	-177.526264257193	-14.7046475172698	-27.7993204297078
174250000	-30.8069883153504	-116.748596054196	4.51621708671645E-02	113.08652393933			-62.395744746047	-169.59322232564	-14.6795450676896	-31.2948076697521
174937500	-30.8695251323367	-115.224241512226	2.70381119299555E-02	111.354747947097			-56.6656159520918	162.789057391673	-14.6974925738927	-32.7862538204433
175625000	-30.5123452717262	-118.748825393461	6.33736527729345E-02	109.126616030353			-57.0237850666854	117.679770084798	-14.6721801694356	-35.3532890186565
176312500	-30.7891693220404	-119.030780017262	0.072159602757209	107.336581539071			-55.9749795503488	-120.976523846626	-14.6715970902409	-38.355210430332
177000000	-32.0111596049617	-120.257574692212	9.54434555331436E-02	105.454472514929			-52.0620397453358	98.6456083121478	-14.6863138750839	-41.3748665155086
177687500	-30.9128521441889	-120.004722801405	7.38111452870493E-02	103.347307220193			-58.784265995564	175.725795650584	-14.6973458646411	-43.8913348501944
178375000	-31.4708261445209	-121.941182654236	0.154524967868783	101.120197028268			-54.3851082726892	95.1732489041986	-14.8557303669309	-46.4108878171674
179062500	-31.2597985785387	-120.777223922	0.149038853234315	99.2581856547864			-67.3062462481813	3.51911420919295	-14.8137536520259	-49.2215805412458
179750000	-31.902546168969	-123.804395092399	0.153591167325118	97.0273577212434			-54.8691011505172	107.884704814816	-14.9247393647655	-52.2870635958836
180437500	-31.4207995065024	-120.836978275798	0.212777787898826	95.1445068323278			-57.0141691304946	-115.029235440896	-14.9269884646158	-55.2239333181711
181125000	-32.072945335839	-125.091554242361	0.228687252723487	92.8829417506614			-58.6397695989758	103.262570177693	-14.958774939155	-57.9544527546504
181812500	-32.397186217444	-121.990543067922	0.227208163655633	91.2057489580848			-67.5979685958752	34.502742502351	-15.0703868637706	-61.4991145880349
182500000	-32.1914341983181	-132.63238897508	0.319936923324798	89.0745596695862			-73.8958784049023	120.250180069908	-15.129084432588	-64.2503234911789
183187500	-32.8191540573612	-127.816712007368	0.311508735128732	86.8705520061682			-60.3122294528535	29.5349653908301	-15.0279448343304	-68.1192098035279
183875000	-33.2492831423389	-134.460679620217	0.339885388580909	84.5724696726353			-55.5691803654558	139.563411551907	-15.2181679626525	-70.3528123331284
184562500	-33.2311423180885	-128.861326792444	0.313424025526408	82.7721119675992			-58.6246695838539	-50.9100378590076	-15.1789388725781	-74.4102071739569
185250000	-33.1625338775372	-141.061042303429	0.380522551018783	80.5044497593509			-58.4395624413762	165.33206114868	-15.1854815728078	-78.7729925109418
185937500	-34.1270096035269	-136.052085841512	0.332681811021678	78.4071846388012			-56.2521534151456	79.6818618566962	-15.258463427705	-81.1743045527204
186625000	-32.5705576524553	-145.198131916179	0.368290479750821	76.2528875919456			-60.2694425788963	-147.511609736811	-15.2982955336372	-84.5522690027999
187312500	-33.6269067638628	-144.958711828666	0.378873393043121	74.1578979588158			-61.742400782954	32.8942311174221	-15.1180272172027	-87.5153553476445
