# Hz S DB R 50
100000000	-30.495799918164	-18.5743389213654	-14.3000802913385	-8.43708168171173			-58.2798375749328	-145.799198989491	-3.45744666455858	70.7909647727418
100687500	-30.7125116393754	-15.1242318768713	-13.7566949121849	-9.92807144210281			-60.9476598662503	-21.3253873526287	-3.38875327925034	68.5317245948066
101375000	-30.0849837098371	-17.4417851561075	-13.3972799354858	-12.5325188861986			-60.4136481115743	-146.021916281569	-3.41793440246221	65.3677297885875
102062500	-30.6229914368296	-15.134728886177	-12.9495980001205	-14.3071301203274			-55.2954338752154	37.6709035791059	-3.41005933879609	62.9159391829891
102750000	-30.2481177494443	-18.8417126332418	-12.5903315912934	-17.3242535901612			-58.7306772378801	-140.379397709937	-3.45086979520271	59.6906832740206
103437500	-30.6310477764839	-15.5365074310022	-12.2349230829534	-18.8083665944216			-65.6705103848832	-53.3172902102938	-3.38677317438242	57.279127849346
104125000	-29.9396337515158	-18.1756162093208	-11.8240032236894	-21.8664210980067			-61.1618085686146	-68.5640622137832	-3.43498648227591	54.2528793692849
104812500	-30.6568631608728	-16.8299913503774	-11.5389876288677	-24.1348581704715			-55.5478249832158	68.8457674390373	-3.45077769964186	51.6819574518882
105500000	-30.440632372193	-18.5457186383972	-11.1517901698686	-27.0008529849048			-54.8134660390316	-62.6155511943935	-3.43473180959396	48.8751649467014
106187500	-30.7504145193408	-17.5824003969431	-10.8584920274346	-28.9865162672866			-69.4758043662198	27.580562588731	-3.43218740288183	46.2247175301032
106875000	-30.1850860426127	-18.3227578401704	-10.5443668645048	-31.7401655922314			-58.797765267857	11.169323873931	-3.46398926648925	43.1711636565775
107562500	-30.4980431204654	-17.102534716551	-10.3509736273387	-34.1580456179831			-63.6058986020947	151.645906896286	-3.43378516995446	40.5751218048401
108250000	-29.6124022703618	-17.5286606444834	-10.0373464166437	-37.4883507045087			-61.418670207762	-15.5944675098862	-3.51572215550126	37.2969302118335
108937500	-30.5673674094664	-20.2010685633888	-9.9186820515686	-39.5297688199572			-59.8351933139735	113.610108707485	-3.50219249201441	34.7938831979703
109625000	-30.4971513124123	-17.9639230476867	-9.6363512713729	-42.5110325342161			-58.6194549981953	-47.401393454468	-3.56714774743749	31.5158633345204
110312500	-30.7215174104486	-17.6490202861503	-9.61770805330239	-45.0164116622907			-60.6347303293638	146.63553745852	-3.58770218989552	29.0243308701853
111000000	-30.3062872468829	-17.8689750580119	-9.41737849956732	-47.7469015260494			-67.6281667469295	-33.0523208354898	-3.65155634831747	25.5757930868013
111687500	-30.4674392016897	-22.3811272842583	-9.37962310293911	-50.446787239763			-75.0518040860389	12.1908639622646	-3.68768792590229	22.8309492549484
112375000	-30.4641498205722	-17.3291482274839	-9.27628245957908	-52.7598983411395			-54.7627641205165	-23.8225454157133	-3.75452218923897	19.7343731516845
113062500	-30.8001071243411	-22.8306253631883	-9.29074121002911	-55.3827932330204			-61.8052223496144	151.827678588434	-3.76030149840075	16.8938440589169
113750000	-30.4879207190374	-18.1642160636121	-9.22334925378085	-57.4907362454038			-68.5501933758595	-89.9763926479526	-3.85220099760742	13.4598606081971
114437500	-30.7075183869493	-23.6394549371967	-9.36245828684864	-59.9015221123949			-59.8462230605216	-162.939095748473	-3.86128589176332	10.2064855497408
115125000	-30.6618964258222	-22.1957995200094	-9.45625901482748	-61.9576395740991			-60.6509508203958	-122.82790521257	-3.94341197097737	6.99147511015601
115812500	-30.3606047839305	-25.094656956045	-9.51830475643248	-63.9179735061529			-58.2397885973763	-70.6646268289317	-4.00039235256442	3.2863982715959
116500000	-31.0361754571477	-23.9935115663093	-9.78763804002026	-65.3848253058731			-57.4987756986315	86.4714473126186	-4.00646235237702	-0.606416044730595
117187500	-30.6231976005384	-29.6013518862277	-10.0178135177054	-66.8596129659054			-60.6235265244424	-91.6048649541695	-4.09275567374122	-3.83317364703521
117875000	-30.9251844800487	-26.1776344539664	-10.3374635523287	-67.3776509289693			-63.9853731811421	-89.6091614263855	-4.17725073351738	-7.7817881020557
118562500	-30.4999925128531	-28.5827924528642	-10.6584989830579	-67.6653516648768			-61.8933227981508	-68.1371951631826	-4.23235127589787	-11.6529505581674
119250000	-31.1405858730281	-28.8100203737326	-11.0889307118052	-66.9823361829451			-62.4603047531432	166.00548914485	-4.30923209538564	-15.7433855149825
119937500	-30.1476445064842	-34.1900658626401	-11.5126619109603	-64.6750986253658			-59.5539996491008	-33.7730130690687	-4.37726696348916	-20.2416542636024
120625000	-30.7727279877394	-32.3915782411164	-12.0003811367434	-61.3885636487055			-71.8949521542309	-61.0912734271759	-4.47528644111648	-24.6600549699012
121312500	-30.2117065297915	-38.463122463207	-12.2812015129156	-56.4355059003019			-54.6763061221544	-72.2530533775239	-4.55335485917361	-29.2783394005859
122000000	-30.594158679197	-38.6182603437876	-12.373540769966	-49.3032293808181			-55.7148162702171	163.469865805487	-4.6670942605267	-34.0527203909237
122687500	-30.8059519251518	-39.4502298630875	-11.9916569898484	-40.7823276512561			-59.4500228154739	-80.9848725137473	-4.80453479836823	-38.978542406046
123375000	-30.5967946459043	-41.9047230478995	-11.2300424933958	-32.952217660404			-54.7392136955045	116.127710603081	-4.9416531194398	-44.335427942134
124062500	-30.0941564732431	-41.2230485037698	-10.0499638128798	-26.5648031354124			-59.2523437060716	-29.6149300660712	-5.08530650005841	-49.6712090083557
124750000	-30.5303765955998	-46.6782202681705	-8.55703863446191	-22.5403132572138			-69.8925296709269	170.919090382191	-5.26961720562805	-55.5561075479056
125437500	-29.9080556669165	-44.1903117645816	-7.07864818395939	-20.859128421969			-59.62640929044	61.7390718543191	-5.44139388068356	-61.297551782991
126125000	-30.8707122647783	-50.8483559713162	-5.63996482356659	-21.6214270164235			-71.8343338998433	111.71893040798	-5.74767679875282	-67.2378253156751
126812500	-29.8922971540393	-49.6951206852312	-4.25179916638907	-23.2136637626719			-60.9230553224576	-17.7008886471906	-5.95507217364442	-73.0802216506656
127500000	-29.7859241275994	-54.3304347152045	-2.96111562717896	-25.9995226606252			-59.7886369155803	-145.399208546647	-6.27066143932514	-79.3018530532276
128187500	-30.1556028476881	-53.1845345506334	-1.83224874507101	-29.6290250476681			-57.2258456410016	12.0321963567082	-6.56412702123272	-85.0112909068255
128875000	-30.0930439795315	-58.8821314073973	-0.805462171168847	-34.3500733369605			-57.7478884236331	153.934426315391	-6.97466103104535	-91.5732734270884
129562500	-29.8407484618452	-56.9919857578767	8.95511603027446E-02	-38.8434270811032			-67.67321117954	-123.586489146828	-7.29975210405013	-97.3005253085638
130250000	-29.5331671971335	-63.6142099747957	0.941477099894357	-44.1276805460735			-59.8698457003829	-85.8048317619127	-7.76730867818005	-103.52642721333
130937500	-29.9174563568754	-63.2626324406754	1.6145209453433	-49.1163068691725			-54.2618833308435	45.562194041586	-8.12553242787966	-108.998038659516
131625000	-29.398869392536	-66.2068535118391	2.25378368163362	-54.795389442201			-60.8850676975572	-98.4728050140334	-8.61473870264636	-114.727457536652
132312500	-29.7992662214704	-66.2022154155691	2.79257755163983	-59.6807636853734			-65.534172441448	38.4692339239243	-9.02906401828028	-120.155713937052
133000000	-29.4899154969982	-68.6300362143182	3.27703096209355	-65.1987114487577			-62.48545722445	-14.6300868286812	-9.54989502675004	-125.589776454917
133687500	-29.4010975514708	-72.056528206684	3.65944447751923	-70.0208540464918			-62.9503801898819	85.7365080522481	-9.97343163296595	-130.751176452342
134375000	-29.259745031282	-70.413541272025	4.07602832964465	-75.1528955311778			-57.5041022518964	-35.8968594480457	-10.4169867417933	-136.31362824672
135062500	-29.7186059036331	-75.6094327495394	4.3669069034988	-79.8259538923256			-60.8137174315308	12.5618453480296	-10.9225034924828	-140.685658253723
135750000	-29.3579576295129	-71.9935843631685	4.66737739977492	-84.8751992238526			-57.344420422199	-40.2461347486674	-11.3545921827283	-145.180089021714
136437500	-29.6801437656397	-74.5639745943528	4.93350932385062	-89.2970051474473			-62.5990821696346	-15.8465006867229	-11.801371054004	-149.95930397723
137125000	-28.9734713963687	-73.3146117526326	5.17924498834763	-93.6634715640416			-58.9803238194851	-85.3165446279791	-12.2898762950983	-154.284093793284
137812500	-29.5760372990982	-77.3337502305096	5.36529192305456	-98.0857632585611			-64.8455340468617	-33.1505268762139	-12.6626493497418	-158.523399281959
138500000	-28.9559943107757	-77.4980696973918	5.59835677875327	-102.442116460385			-55.188075571433	-36.603600051546	-13.0822005612689	-163.574025733341
139187500	-28.8568504909005	-77.8003741535836	5.73891385277451	-106.495923385705			-67.5479818773247	154.441114414194	-13.5841767408131	-167.250534546059
139875000	-29.3963089737412	-76.0127603427919	5.93755903683024	-110.854462297899			-53.9339289346739	-39.821834010494	-13.9726819537916	-171.907911930398
140562500	-29.4427077387627	-77.7353309640982	6.07685695827181	-114.499514154315			-59.3965031583036	-162.971610515775	-14.3758394092841	-176.41420199913
141250000	-29.0668537783497	-78.1668399635094	6.23216765688306	-118.671861751748			-52.355239708678	-8.09234297067569	-14.7441823317684	179.938179807869
141937500	-29.1664571228274	-80.5964019403779	6.31324688807428	-122.507485725			-54.4518240762585	-96.2537555822268	-15.2156041103528	174.693534783142
142625000	-29.2477753873951	-77.9265565599094	6.44738706715401	-126.318806156944			-62.371043744528	-42.9721568785226	-15.7311423175788	170.623564789745
143312500	-28.8287849465131	-84.0999727393737	6.53374799713919	-130.04945470706			-54.1905031480438	-147.034794259766	-16.1131795061726	166.230668143233
144000000	-29.1341728584144	-78.8406002506794	6.63385152542516	-133.604754267037			-60.6291747852392	-56.654592750146	-16.4465558580844	162.101519845614
144687500	-29.127720627227	-84.9722597427506	6.71186924902305	-137.302594412576			-52.5021879799696	-120.802707774518	-16.9696083489132	157.114219113305
145375000	-29.6086257869365	-82.899921726225	6.80174467800806	-141.089406984872			-70.274377998246	12.6220508687453	-17.370294755876	151.23996877067
146062500	-28.8755154441657	-84.1669321631777	6.85728074704771	-144.156946265357			-52.4364319519192	-113.517849589728	-17.8778593905301	146.436099206556
146750000	-29.7326543666596	-79.9626018320456	6.91077191202204	-147.770511968427			-69.8916223302551	35.501867601263	-18.2231420526845	142.281988326588
147437500	-28.550987089733	-81.078095622575	6.95907123559006	-150.868670404481			-54.5039014627739	-93.2244732658217	-18.6900003334249	135.789174637491
148125000	-29.3224528346238	-83.7168973168161	6.98508008495555	-154.647253479306			-61.0230500832462	-154.868753286366	-19.0377031601907	130.688323774967
148812500	-29.1354232743935	-85.6582644643694	7.05574060474764	-157.475815632474			-55.6619886247881	-157.593368368512	-19.3718943309407	123.767278962095
149500000	-29.3191017070849	-85.0827240143483	7.07308966996369	-160.708945435886			-59.4764024618662	-141.188626673277	-19.8340010019746	116.423529533984
150187500	-29.2241125512754	-83.206058798361	7.07394819218772	-163.793644580758			-52.537931992654	-125.68099943796	-20.1237905533972	111.80913916021
150875000	-29.859768635514	-85.8364097359061	7.11805236423072	-167.030483311833			-67.1751459095017	125.455987054955	-20.3536756176546	104.08877154566
151562500	-28.741131118987	-86.1937266822072	7.1026378326344	-169.721000634087			-59.4246621162665	-117.171220935918	-20.4854283025639	97.321295104225
152250000	-29.7065728457436	-91.1185991489244	7.13804782265698	-172.854634569509			-57.3601925297529	-134.186665378569	-20.6475055836131	91.3668708010996
152937500	-29.8818711525198	-86.8111776751142	7.17915996409586	-175.501515282231			-53.1692355919522	-123.08826351027	-20.6045126607664	84.5982535673995
153625000	-29.8942700959443	-93.8101789283237	7.16557117410938	-178.443332270069			-54.7974426438338	154.127065702843	-20.6462394664866	77.142754839231
154312500	-29.5456937335159	-92.6936028411296	7.18247581146187	179.149669977757			-56.3684560824154	-124.254584608416	-20.6179360790472	70.6452071615597
155000000	-29.6201635044818	-96.1879109943313	7.20420882645013	175.928753004569			-53.9888087798018	170.908007636084	-20.3276347703015	64.0434171444063
155687500	-29.6997058061228	-92.5966289904767	7.16499904921157	173.833188518527			-59.4820821322663	158.974497279168	-20.1195828764684	57.4979128246807
156375000	-30.0025262994705	-96.655816456823	7.23979552004968	170.637162990885			-59.0540415278239	154.665816068637	-19.9235014823295	50.9816476729964
157062500	-30.5218682386621	-92.111365673738	7.21719810072987	168.382418662527			-53.7847068854157	161.811519282135	-19.6395863825492	46.3510699661167
157750000	-29.5979729265582	-99.3435776028319	7.28683792347932	165.560004303239			-53.4562312246795	-172.646954206735	-19.351049505383	41.7405774259879
158437500	-30.5943077386723	-100.565984290061	7.25487282078397	163.189370347959			-65.9404288644259	178.443077529526	-18.9404723564083	37.1690403432331
159125000	-29.9628516651813	-100.779361263028	7.31754978189891	160.53047721377			-53.5614359351442	-170.708349594655	-18.6230246845326	32.6713511630181
159812500	-30.5124085904439	-100.843983924347	7.30604077758303	158.006883605142			-54.2130336715475	157.43311625957	-18.3422168037875	28.4162194553414
160500000	-30.1430406115762	-102.972622649539	7.33427404888832	155.279165266831			-50.8643847623922	-156.376673781439	-18.004870639798	25.1108306111104
161187500	-30.2942463837107	-102.929226491527	7.28453141883671	153.073365060445			-55.9957458818115	85.8177489547875	-17.6798313112029	20.8580861313416
161875000	-30.068624006775	-102.10049497739	7.37331969790372	150.283294952857			-55.8181517784974	-161.030372433639	-17.5172518704912	18.0002868802697
162562500	-30.2613871201392	-104.549787730682	7.32439218505974	147.841230086007			-53.8230691202697	149.295254346379	-17.1183876829397	14.4770595453534
163250000	-29.3918554277332	-105.815989473847	7.35478117600376	145.255524670266			-58.8985174951097	-133.566473097124	-16.8433256346651	11.5062527475745
163937500	-30.0002352579821	-107.720614463685	7.36693021503058	142.928648072267			-51.6571709074091	172.585266571287	-16.7194025908573	8.82185473933234
164625000	-29.9494586494611	-103.336330313804	7.35738503013885	140.340457573137			-54.6286448458051	-176.059126790487	-16.3191396352387	5.35660866451818
165312500	-30.4204276025745	-111.805474078841	7.37925993823363	138.139056966638			-52.8832299405154	173.4137564937	-16.1442271981363	3.56611688333885
166000000	-29.8583814951927	-105.786336705824	7.36158307712169	135.656978425847			-61.8435072919564	-158.947291117038	-15.9410810544526	8.86668796931764E-02
166687500	-30.3016454765078	-110.754124998309	7.33091102281433	133.37398137949			-53.8805951050996	136.105899121332	-15.7876467338028	-1.56248726583367
167375000	-30.1700378991652	-110.102549610395	7.36856368833656	131.12472397795			-68.6920515009837	-142.539703221029	-15.531679154868	-4.46638092767476
168062500	-30.1803798089919	-111.648720955524	7.34579580461133	128.889461258861			-53.0109338912016	171.490141530591	-15.3829459901943	-6.21288917111658
168750000	-29.8833267509137	-107.535167562985	7.33339634262774	126.471440435853			-58.3283937149665	-177.860580745881	-15.3214760493489	-8.98126468207968
169437500	-30.3018212622597	-114.115250444956	7.29510588871068	124.2765144361			-52.8084880831397	140.351226722377	-15.1448372168031	-11.2210597344495
170125000	-29.8740888624864	-106.75786578807	7.30987709319364	121.794628055565			-61.6374450426604	-10.5279188354726	-15.0645379101486	-13.7919928848857
170812500	-29.9715976803218	-111.817463131161	7.27480190749807	119.782787856444			-53.0819465825875	148.855063183254	-15.0276861640779	-15.6861734105759
171500000	-30.8351623680421	-108.282963185175	7.30312616957008	117.432350304031			-56.2342462925897	158.376216192369	-14.9684648758586	-17.9592340921205
172187500	-29.9494252498275	-113.612048249461	7.27021359058812	115.571961006402			-55.481728864688	161.588587731466	-14.8660240829948	-20.8422047529253
172875000	-30.6008527505244	-109.323250931559	7.29135088528563	113.316818831485			-53.9609750243972	61.5597862192616	-14.7766467931759	-23.1798100334543
173562500	-29.9526628210777	-110.909252779533	7.26743470764326	111.432702423641			-53.5853700906013	169.447593974839	-14.742271097895	-25.7130202132781
174250000	-30.5201791289391	-111.958971940747	7.30889556696704	109.183588950371			-54.0039502017923	104.311685509531	-14.6949680959251	-28.5483584234897
174937500	-30.4652037008049	-108.851977016096	7.31260430346375	107.287170717761			-51.5241125128809	116.464990007179	-14.706029044658	-29.8677288664969
175625000	-30.2026748201035	-112.671040753508	7.3252473579669	105.150681961602			-54.9595616974617	126.43751128974	-14.8048775829614	-33.1880161471916
176312500	-30.6784656477387	-112.630631281778	7.31459650938869	103.362533762134			-57.0386505196987	173.450203937423	-14.7421216327872	-35.469467540447
177000000	-31.2105931464663	-112.292678763392	7.35589174409729	101.142872214796			-49.8670336387566	78.7143977113392	-14.7470339517618	-38.7186401527083
177687500	-30.9371204179589	-108.476556659781	7.34731693412585	99.2370406046822			-57.2026858681142	129.396166561696	-14.7448263210382	-40.8860126011911
178375000	-31.3044193587125	-115.662238136837	7.394572713247	97.2200536977095			-50.6195840576021	115.440770417857	-14.8101282846286	-44.0259864779987
179062500	-31.1140379650326	-110.891843807569	7.39782009868641	95.20313599815			-63.5579920591927	-149.188927888968	-14.8461913168701	-46.4755563184708
179750000	-31.3408935203086	-116.536861447977	7.41905524660572	92.9953083035149			-54.5860758066666	135.142100330435	-14.8917184036295	-49.9899577292661
180437500	-31.0259903589816	-112.350239370855	7.45848495374831	90.9577078312337			-71.5729845034516	-106.46425382088	-14.9662210140836	-52.7608526375616
181125000	-31.858367047573	-116.541464567214	7.4766542874919	88.7353571851749			-52.642861319568	126.610270765422	-15.0052987990651	-55.7228639863185
181812500	-32.6441881496309	-115.895342651689	7.4955840617727	86.8645173688951			-59.8033479124567	53.3689869908483	-15.0340114030434	-58.8802759792736
182500000	-32.4071448814805	-121.981168241968	7.55016497877409	84.7250497727937			-48.3032777621048	122.441455881533	-15.0541965058858	-62.3495020035159
183187500	-32.6155402905601	-115.72283097584	7.58210549701719	82.6064218609875			-68.1412287354156	129.502532116808	-15.0225614826767	-65.5462739636349
183875000	-33.0607177506803	-122.449744651307	7.59301182695271	80.3199390848353			-48.6676568945838	130.771792666514	-15.2020775846434	-68.0429013990693
184562500	-32.8312568358362	-119.242444408009	7.57327861510781	78.5051810752774			-60.8122344489989	50.5148420504249	-15.1446462398677	-71.7538410469067
185250000	-33.1505809526758	-128.854924275836	7.63597436181903	76.0235129033112			-54.3676463304465	105.972617140052	-15.1529306078508	-75.6354997872552
185937500	-33.6898824101637	-126.255371957815	7.60803318762825	73.9922178716107			-54.4889153904668	70.1839167391945	-15.1844277648377	-78.7741122930071
186625000	-32.946415523404	-135.405857283466	7.62335697284381	71.7206789987527			-61.527473784994	100.340613340217	-15.1713383830091	-81.6386348453288
187312500	-33.6447089242049	-138.436109579589	7.62491522764837	69.6537150916522			-58.8979589467825	58.3862619337788	-15.1394026317535	-85.1126860053796
188000000	-32.7854588515724	-141.504681759202	7.61586245199212	67.4233223092349			-55.2738259739362	151.325133457014	-15.1550231386076	-88.8284554494682
