# Hz S DB R 50
100000000	-26.3654160274903	-1.92316101141457	-29.5844793491273	4.05596678460523			-60.1125424473117	-62.8389418815038	-3.46332678962906	70.8462840039292
100687500	-27.1211333395085	0.857927670809169	-29.8843196149046	5.138801092804			-60.7339592827446	-64.7268758085119	-3.45659363398022	68.4006542652137
101375000	-26.4761425747997	-4.0314955718564	-28.6696791041352	1.75286532846357			-57.0721705904126	0.520336837909103	-3.4448454993652	65.5154631204357
102062500	-26.784322314672	-1.43913642162586	-28.581194467462	0.483095271155463			-57.2139997803207	115.592638121595	-3.44217745961112	63.0466760292401
102750000	-26.5868059134366	-3.8021637040656	-27.8768480363698	-3.45216624048928			-58.6963159710488	7.39621314199846	-3.43242765253323	60.1262128640017
103437500	-26.9026933337811	-3.23277452011401	-27.9376620146082	-6.2402313533088			-62.2282549625181	-160.663763501409	-3.42815936897627	57.6622632910614
104125000	-26.3913017725768	-4.10135896048428	-27.0554503595853	-8.10697541839212			-55.994084993244	25.2595080616678	-3.41851552176134	54.6596666557969
104812500	-26.931504181433	-4.89798151139758	-27.1944905731867	-10.1446617171281			-61.3864110674748	-128.796745810998	-3.43948337117649	51.9214418200214
105500000	-26.6093576943753	-3.9535056069008	-26.2465937509132	-12.4605184364455			-60.3576631441691	4.40339997606751	-3.41548229443453	49.2591238587753
106187500	-27.3870664527341	-6.08278746782928	-26.242676638037	-15.9835013948287			-57.1558463167243	116.763318922001	-3.48995331746409	46.5862214744653
106875000	-26.7362255592805	-5.39075531183816	-25.8111923448046	-16.4143372570546			-61.2059951897823	52.7197052523103	-3.46041849369362	43.7831544795794
107562500	-27.029673707524	-8.15201234579523	-25.8121790532694	-20.3641370274197			-61.1627579013006	-140.106850208058	-3.45821755059912	40.8278546461528
108250000	-26.3877905575526	-7.63772918857906	-25.311292026741	-21.864963991205			-58.0432070768865	-12.7346060643444	-3.51002058320563	38.0682813411081
108937500	-26.8665120081069	-9.89016752073434	-25.4819197275065	-26.7251401128009			-58.620039884755	-173.803617988424	-3.53399958111175	35.2226227531377
109625000	-27.1331364955181	-6.23615255773323	-24.9500595655325	-26.1822885698356			-64.9328081291739	15.7425184898633	-3.56965345351194	32.5601564536538
110312500	-26.8361834975639	-9.93514635783235	-25.025500911975	-30.2073972415637			-53.2552466571714	-93.1171158869078	-3.60968841315629	29.546656327888
111000000	-26.9674298644043	-10.0827983511188	-24.6797529320292	-31.2566778158386			-64.4915996111664	-10.1972052085928	-3.66492284497335	26.720097352019
111687500	-27.0879604070364	-14.4992132027341	-24.6321501575547	-36.1332508074034			-60.1859152212162	-88.2200795845012	-3.69358976112925	23.6289414979504
112375000	-26.9559395651548	-10.0607447256779	-24.7229737784676	-36.6482412854333			-56.0616153398759	119.855025900277	-3.76016980247257	20.7255359162112
113062500	-27.1440477278669	-13.9218682450426	-24.498989253403	-40.4016005175826			-59.1982191780759	-78.9062880497588	-3.77892908415381	17.5809216128965
113750000	-27.3753928967742	-11.2031716054627	-24.453470609363	-41.179401813703			-62.052408950545	155.553627210968	-3.83662851671185	14.5453835736499
114437500	-27.6723014590581	-17.3768825909435	-24.4783837713019	-44.4846761367252			-57.4652183678898	-104.17671782429	-3.87674400144994	11.4336743242767
115125000	-27.510448322507	-14.5483648741857	-24.711667415381	-45.3104552379533			-60.0845254607403	-173.097964146619	-3.93496621974302	8.11883829331373
115812500	-27.2067020465886	-16.8847281757776	-24.6764099361098	-47.1886580223139			-57.3996594124071	5.40903226617653	-4.01649689654294	4.35772860978962
116500000	-27.6731849991849	-17.2042674512466	-25.111300685839	-48.437143979953			-64.8942226527786	131.937474796207	-4.06372460281829	0.900327376978439
117187500	-27.4458225874282	-20.33211303024	-24.9067310730857	-50.0785443347492			-62.4637719257755	3.411814083484	-4.13048747372431	-2.45324803599362
117875000	-27.589651256438	-18.2181090892728	-25.5088432242019	-51.6028937474732			-61.7782746043934	175.646455069897	-4.20585305789642	-6.09972818571625
118562500	-27.3285824083812	-20.2715641914163	-25.6677716418763	-50.8408084544348			-53.3471235912516	-17.3141377869003	-4.29086439104241	-9.99514711755989
119250000	-27.7664863421604	-22.4096274804864	-26.1078672461875	-50.9565441255251			-53.6348665012327	-85.5716599412223	-4.39434298348612	-13.9861974189841
119937500	-27.3043709457656	-23.1725359727039	-26.1567911252162	-49.7483708803214			-59.3768575698956	29.0266147231173	-4.4429602251174	-18.4150488906228
120625000	-28.0954026821087	-25.9517309309389	-26.8574326160497	-46.306036357909			-57.7995460638987	-175.45686343761	-4.5593185122356	-22.6631580837791
121312500	-27.3699663966886	-25.2992428796342	-26.9449344704532	-40.492422635767			-57.8852750584755	-11.1454590311296	-4.63946786553358	-27.2225504495798
122000000	-28.2496699751384	-26.4286921855957	-27.2702101771177	-34.8020581590241			-57.0869440316738	-156.651695006896	-4.76865868087609	-31.8804177421044
122687500	-28.0261528955829	-26.1687991862696	-26.7997338280405	-26.2636267682915			-61.2844027727825	174.268620146571	-4.95560377164392	-36.8913622094902
123375000	-27.9432334717175	-33.0315905374237	-26.1417051429574	-18.9774233138061			-77.5391385377819	-91.2563754951207	-5.06605232816708	-41.9606950668769
124062500	-27.9603345547249	-29.228843182527	-24.8459330828954	-11.9030891904245			-62.7939288755481	101.972327417199	-5.29164550238686	-47.0670514806402
124750000	-27.9422529786973	-32.7873106226972	-23.5845424016315	-8.53162211305035			-58.3086712510915	-51.8354152916446	-5.44031132259756	-52.7457338955346
125437500	-27.6376493795442	-31.7318431157196	-21.9542838080123	-6.30720029056249			-67.1556051319134	164.97946837522	-5.69367915084084	-58.5979728745862
126125000	-28.4317348937781	-36.9066524622249	-20.7361556119047	-7.39166266524017			-61.0973163383181	-56.9610077425969	-5.94060637540111	-64.1348268413591
126812500	-27.8422996994395	-36.2501699235656	-19.350982840831	-7.77962868051257			-59.5689310033829	86.0060354437984	-6.25651486556757	-70.0074081931456
127500000	-27.9750642258798	-40.7986314322308	-17.9419232473399	-11.2091848413108			-56.7373362361	-42.5336401089574	-6.5516458529236	-75.7438471674141
128187500	-28.1944826876185	-38.2673693202102	-16.9012014610042	-14.4257632186163			-57.0956771718583	122.350645530508	-6.90973577526549	-81.8409468603502
128875000	-27.5559469895531	-39.9582440602527	-15.7869697360748	-19.3161362209244			-60.7405328488746	77.2041404307226	-7.33631647999571	-87.822623072678
129562500	-27.7524528799168	-41.0971635186972	-14.9418404850253	-23.4176648519059			-64.0191496086605	152.715538189259	-7.6986729113832	-93.9052247174975
130250000	-27.1437899114533	-44.4998833824963	-13.9986381035537	-28.8993683442862			-58.5557420406529	-42.2671401469524	-8.2056551566602	-99.6006068523777
130937500	-27.9748719976102	-42.918692755983	-13.4015073067535	-34.0731963978727			-61.4906602875917	161.84102324278	-8.60650796235103	-105.265130721431
131625000	-27.2790158252767	-46.079360876216	-12.6396352237242	-38.8928071928202			-56.5917140393444	-56.8586614101297	-9.1558435670848	-110.47495533177
132312500	-27.7408815592633	-46.7550679156248	-12.2121655660275	-44.3091250690609			-54.3859749594481	-177.876062581333	-9.58265988310494	-115.968471499487
133000000	-27.3924761142753	-48.4191667101882	-11.6664594285185	-49.3660551730584			-54.7081174152715	-23.3502189499705	-10.1389296159302	-120.950068663151
133687500	-27.7731729757317	-51.5860924509904	-11.3362131758762	-54.3977607780593			-63.3153259050398	174.418415134855	-10.6004728434032	-126.043058222133
134375000	-27.2791606824939	-50.5124727515501	-10.8229367539266	-59.3191856700945			-57.7578455742193	83.0132119242738	-11.1104725659178	-131.095178446627
135062500	-27.3415860339218	-53.33607331634	-10.5833795495195	-64.2454927396792			-65.1352348482409	177.825969423242	-11.5928967320612	-135.717964194869
135750000	-26.8306567736821	-49.204973616802	-10.2351263561676	-69.0965306638684			-58.3551834522267	-96.1128364832378	-12.115381655838	-140.008844384883
136437500	-27.0554434134671	-56.9119222115434	-10.0019740313589	-73.933174523716			-67.9728458230652	-56.7123653404745	-12.6568231206724	-144.415180771452
137125000	-27.1056466640511	-54.6296228365229	-9.70471351170869	-77.9438042057137			-56.0508576742761	56.692154313764	-13.1689978060358	-148.329796351504
137812500	-26.8530843922821	-58.7125405899625	-9.54517884006209	-82.6482670171042			-63.292089625897	-136.135181623285	-13.5886012732977	-152.219534426517
138500000	-26.8894025728749	-59.1181041111117	-9.33143187857265	-86.3369860415585			-58.8258398098252	110.028095695259	-14.0348443881517	-156.94977114629
139187500	-26.38220753829	-60.8637360583556	-9.14350115376049	-90.8887375231155			-61.531007247162	-80.1862808665221	-14.5607095959363	-160.248216296752
139875000	-26.83638472107	-58.7941859886318	-8.9876259699071	-94.8568176353952			-52.7777573717612	39.8456946909455	-14.9435098658033	-164.731549193331
140562500	-26.7410224765881	-61.5795953394074	-8.86072790890872	-98.9554475082306			-57.248022272786	-91.5841605414064	-15.4514042655641	-168.465336151137
141250000	-26.7325792865541	-59.5921211998754	-8.72290965297695	-102.604901410883			-70.2985788426614	80.2478205385539	-15.8265151619977	-172.647602775689
141937500	-26.5135093669107	-64.0567177261709	-8.61095413290884	-106.626336625108			-57.1547632816889	-73.1006628389545	-16.4055131722647	-176.512029353344
142625000	-26.4993999461514	-60.6395522957793	-8.45259710549127	-110.375905676709			-56.6070102008678	118.530091617674	-16.7115846426783	179.821273011974
143312500	-26.1536031376659	-67.4102716045545	-8.37146974487751	-113.956182832917			-62.7088965165209	-75.4897244913793	-17.3190094429866	175.580122888409
144000000	-26.8076661545859	-65.6863518703807	-8.31429750777856	-117.564268324645			-60.3450697117663	108.732554647819	-17.7075043395247	171.628568636445
144687500	-26.183828741639	-68.1419573803362	-8.24323562671901	-121.129481233211			-55.2181509238917	-15.9409296445614	-18.1985103576681	166.478272537965
145375000	-26.8158941313521	-69.57753574401	-8.10886825804574	-124.780481531447			-55.8287830094339	172.209646311801	-18.5944976409977	161.917442331037
146062500	-26.1211758019212	-67.9198104426679	-8.11719254198155	-127.853863107877			-68.4370626669319	-24.3120164588773	-19.2451923905008	156.167149290377
146750000	-26.6320788008044	-68.8243312528431	-7.9994496115069	-131.67847211667			-53.9464364784171	135.362568332408	-19.6950069989887	152.657428109404
147437500	-26.1449038507592	-68.3369811594086	-8.01826071309143	-134.608123592806			-57.2861591532712	-57.2055387623537	-20.1858347522638	145.923214007704
148125000	-26.58117308959	-71.219607825115	-7.93594353447994	-138.25218141437			-59.4411759946707	170.219991636706	-20.4038160335536	142.3290253712
148812500	-26.4343635209116	-70.8773229594967	-7.91012871448738	-140.917033202275			-59.6871960543149	-42.9335460820919	-20.9741818256625	133.735500845967
149500000	-26.5571712417619	-73.7398657530972	-7.79932142380671	-144.3324639524			-56.3782430373851	-150.620344091247	-21.5828677597353	127.81902330498
150187500	-26.7113257896065	-71.616900919627	-7.84751485933586	-147.564855214755			-59.0476867525764	2.77638589547214	-21.8182132010382	119.084989378947
150875000	-26.6416177752493	-74.3923439923176	-7.75342081404456	-150.327940504423			-62.3759008948247	-172.410719736644	-22.196382872332	112.363863315291
151562500	-26.6044935157144	-74.1232397213883	-7.80306292222146	-153.020513096492			-56.0606605749161	25.2575793750867	-22.2521898641138	104.674898293669
152250000	-26.5228417424842	-76.7014139933681	-7.72146137039068	-156.116006486092			-78.8676061371848	-103.179413961042	-22.6999309342202	96.8430807132822
152937500	-26.9300161317891	-74.1683593641221	-7.78481594171413	-158.862581303921			-56.1707682697209	78.3182241117209	-22.451986533709	88.539689208148
153625000	-26.5541659614801	-80.1049730107187	-7.65936263873017	-161.629245201352			-54.7517868695158	-69.3281580973548	-22.651253355647	81.1717884492073
154312500	-26.8888892278346	-78.9816131227431	-7.71775078063782	-163.900971047227			-65.1506908853937	119.072380354271	-21.9830621074256	74.3198174101796
155000000	-26.414178291324	-81.1361503825055	-7.65408219970351	-167.053143233712			-57.4621148522388	-94.1932537948084	-21.9987249298965	66.4724465077346
155687500	-27.0289880194632	-80.0420135127794	-7.70980727445605	-169.647686347035			-60.9265977893621	71.4804920809618	-21.7228742157116	59.2302798717717
156375000	-26.7075963122083	-82.7223647237718	-7.60466603662173	-172.487025239882			-61.6192919062897	-162.531915846243	-21.5173649845675	51.9608650693665
157062500	-27.3865014800974	-81.2215381324391	-7.63829538638157	-174.850577847223			-69.4295615866918	-138.804599652204	-20.9518656706959	47.3005813866979
157750000	-26.4627114672744	-83.4325545472885	-7.56058139841851	-177.20400487267			-54.7837257080221	-149.945453615167	-20.4414317671793	42.0547470493994
158437500	-27.2624213841834	-84.7462694608155	-7.6104734045196	-179.996180187076			-58.4115854071211	110.239842896041	-20.0714962731689	38.0418664303536
159125000	-26.5260746040457	-85.5283298834849	-7.54798740379099	177.622126887862			-61.5274493096059	5.31456374410356	-19.4894371436322	32.0817352288593
159812500	-27.4894336954528	-85.8500403094507	-7.56746455112652	174.989430719484			-69.8759388975736	160.325792113864	-19.2540903661428	28.7343532197492
160500000	-26.6383550077154	-85.3651028468894	-7.50888970731246	172.677644498843			-60.7702433637128	70.303059690459	-18.6416155654709	24.7283646512143
161187500	-27.2511873596029	-89.0990224012234	-7.54991314835515	170.110895592841			-68.7424018945482	175.12764602504	-18.5113498316751	21.577076347737
161875000	-26.6356702514444	-87.2634940342022	-7.47845767014369	167.555200516202			-59.4142970629683	-29.0315013687703	-17.9998328575925	18.0305144323324
162562500	-27.2732154284506	-90.9502105534971	-7.49413480978701	165.052727884893			-59.0520792713863	74.9170515348934	-17.73771395087	14.5425715727693
163250000	-26.7686947516514	-89.5246618879633	-7.47777729415725	162.574730195417			-68.1803708875522	59.4549567685562	-17.2229048930007	12.3649909831272
163937500	-27.0880632484242	-93.5583025468903	-7.49023215493297	160.580799650878			-55.798270689594	-146.244131513895	-17.0905000864955	9.36014450803045
164625000	-26.6414526225533	-89.154550706132	-7.50880866834934	157.839508317849			-59.5806005135471	-15.1948899666719	-16.6906195166351	6.60915552795653
165312500	-26.9843507869715	-94.4757458951177	-7.45751436554708	155.657991204184			-61.592132044208	-57.0149841380648	-16.5170661742088	3.53496040549588
166000000	-26.9305436668177	-92.2288715437228	-7.47304947131237	152.977810296573			-63.9903136756303	109.093350686594	-16.1532894884736	1.52675869339859
166687500	-26.8617642217305	-96.6974047787251	-7.4984464298395	151.106559340644			-58.4640800200309	-122.587737237138	-15.9980570338959	-1.39516918530073
167375000	-27.0300432781438	-94.2596039470691	-7.46513613822174	148.681519082358			-60.653582795171	62.9624262701404	-15.8192889354464	-2.74273716671508
168062500	-26.6462697041575	-98.7241253394832	-7.49479098509003	146.667629353201			-58.5872633935372	-44.5723734306116	-15.5567566857212	-5.00910972724495
168750000	-26.9739460064017	-95.8164567907968	-7.45375502696533	144.14626419953			-54.2945034638597	95.523502738332	-15.4189028700799	-7.35623525374224
169437500	-26.7766761086927	-99.397358174481	-7.56304338976701	142.05882949448			-62.8975000182045	110.378472172228	-15.2562685143721	-9.95250230160368
170125000	-26.9269645355596	-94.8207921181707	-7.45733468632713	139.864547758531			-57.7829884328303	74.6905427986444	-15.1563551435154	-11.8156292743599
170812500	-26.641884032642	-98.4244635191137	-7.56987297506931	137.94042256448			-58.2363329791406	-138.474625526772	-15.0303596652598	-14.2909209576449
171500000	-27.4586334105727	-97.4055231054043	-7.43126617710798	135.192171894228			-59.8357672659005	152.239542573157	-14.9813857878743	-15.8352928849707
172187500	-26.5405399453437	-98.5704446068903	-7.53914084918571	133.718585353927			-62.7993943021419	-138.401469698677	-14.7798557335817	-18.7682757162306
172875000	-27.3706637721927	-98.56306759255	-7.44628789786194	131.661078749047			-53.3337831241667	109.194275643698	-14.8194026092813	-20.9953164749761
173562500	-26.4536890209527	-99.2441750483092	-7.52760251734837	129.702925854955			-65.3487417351285	-33.5722941305641	-14.614798095583	-22.9357060764533
174250000	-27.1482906639341	-100.570868475916	-7.48250477044597	127.362083354421			-56.6287995488079	89.1998376989765	-14.6808054366959	-25.7955982905485
174937500	-26.7279270351547	-97.817917987821	-7.52432357059569	125.678520269694			-59.5076970445533	-40.9921330861759	-14.5362209893625	-27.4178328641456
175625000	-26.9912520735423	-102.630499189118	-7.47030187228494	123.461780934097			-60.9942955454251	101.201470980944	-14.6505603487313	-30.3572812773326
176312500	-26.8935902187629	-100.580450527988	-7.47646762456039	121.790796630309			-57.4750432030719	13.7631277589839	-14.5678776738535	-32.6071621492059
177000000	-27.1331633174316	-104.1207663981	-7.42055689737308	119.936447648165			-57.3566573349286	-159.28130089007	-14.5951798720359	-36.043914283601
177687500	-27.2028639095062	-100.720796335135	-7.49582862759776	117.915909204903			-72.1327976311758	-5.35564780129545	-14.5969379382254	-37.3494586298191
178375000	-27.1630036790695	-106.057773366826	-7.33919351051214	115.68716840651			-57.9566631518155	119.677644279217	-14.683612450572	-41.0027595699555
179062500	-27.2190398752285	-102.349427405564	-7.43690558399689	113.428171635579			-71.3441897094949	107.146241413808	-14.702131359052	-42.7698096587993
179750000	-27.3950185859375	-105.566435234655	-7.33627537659499	111.837952933235			-57.3720756989409	150.041527957137	-14.5695510589322	-46.2294848235984
180437500	-27.2343996962313	-102.467239359711	-7.3261387343353	109.828378689688			-56.2453705756539	-166.986590441209	-14.6840466816721	-48.6863266677119
181125000	-27.2342872920877	-106.940864386096	-7.25484674812409	107.879457104837			-63.5192117276103	-94.0183853619822	-14.6557580435383	-52.1964795959596
181812500	-27.7793983266066	-102.176263592201	-7.31658348319929	105.514599397841			-62.8972075605986	-161.193738397979	-14.8110148722192	-54.9072113721703
182500000	-27.5391634537224	-110.657917490439	-7.20249665591445	103.780548470045			-57.7426902381912	-142.507221811137	-14.7319691603791	-57.7203464760646
183187500	-28.0738256703833	-104.717975726003	-7.19190655335029	101.257326977605			-61.0047258313877	95.7703400240772	-14.7670142547181	-61.0420003035203
183875000	-27.9865519815143	-110.094692377495	-7.16369352085957	99.4537378930582			-56.2367480635595	161.94119729799	-14.8138376566297	-63.337394005307
184562500	-27.9986796736547	-110.628514389623	-7.1682716186884	97.4893605805555			-56.047279280175	111.544299420243	-14.9632899032401	-67.0189811497709
185250000	-28.1680690298476	-112.46119694757	-7.09633058149096	95.2053039218267			-76.9855409719648	-3.03053336069459	-14.872117111659	-70.0197669658808
185937500	-28.8843755245639	-112.69315194029	-7.09401565579488	92.9344682696499			-56.016977393392	67.8217983533195	-14.9558142331786	-73.4260046085481
186625000	-27.9970950435344	-117.684934390758	-7.07890488981585	91.1214978271733			-61.5214138563899	-22.5531663879151	-14.9290814379628	-75.9462396422361
187312500	-28.560547856008	-119.444620524976	-7.0908869622761	88.8525283225726			-58.0763898090407	-178.631655676042	-14.8423877386981	-79.5744375681849
188000000	-28.1588474563063	-118.796789826902	-7.09978890547242	86.8838216969178			-70.4769794756166	2.15450676534607	-14.8599234082993	-82.2361815932494
