# Hz S DB R 50
100000000	-31.5336629152776	-31.5681949250457	-13.4995948031548	-9.2896287618103			-67.0684777878947	97.2360895612151	-3.43543542227209	70.9345921448128
100687500	-31.8763510875453	-29.4869802184667	-12.9620684378463	-11.7131035529525			-62.2249187657367	-55.0697623513908	-3.40811917437823	68.5202726959605
101375000	-31.0963170107845	-32.1280549297862	-12.5752465010323	-13.9666401836551			-58.2617966133823	159.906021820701	-3.41757659432741	65.1913641844148
102062500	-31.6854554791281	-27.8887350834766	-12.0905746313758	-16.4239850178127			-65.274987775306	-16.9165790667609	-3.37587621831619	62.7073459110009
102750000	-31.3651188784594	-31.021522965266	-11.8022778756242	-18.5874885271745			-62.042831555132	-121.440372244129	-3.40428357310574	59.8862816479245
103437500	-31.6952237364039	-28.9859740756522	-11.3531521080217	-20.9902151696947			-78.4255888913315	29.8136442952809	-3.36954963114215	56.9376525823944
104125000	-31.7959786123009	-29.7848283581132	-11.0027670924712	-23.5038443519619			-63.4152903904978	147.902992112106	-3.44615103177532	54.3282316673782
104812500	-31.7220753395837	-30.6240385515679	-10.5859775175257	-26.3613826393225			-56.3430741591558	4.37635347716298	-3.39526610141937	51.3421258093861
105500000	-32.1621974361347	-28.0013515642297	-10.324565274726	-29.0516948345521			-63.4213204186318	178.003005524503	-3.44351680044074	48.6679450274874
106187500	-32.3264247244786	-31.2894225730195	-10.0157419865359	-31.6399046189362			-58.5639063686055	77.0801298681217	-3.42721238384995	45.8103195593976
106875000	-32.2154841821173	-30.006658269622	-9.83456076820397	-34.1656510010428			-61.5045382920691	-112.201432052276	-3.47223982016216	42.9653036993476
107562500	-31.7921528827101	-32.6321478853789	-9.53382149679131	-36.4074232970834			-71.0123287109076	87.3336243251905	-3.43050499535926	40.0467470047102
108250000	-31.1974758198474	-30.9126257595049	-9.34258573905526	-39.4794099893847			-57.482735666536	-86.6483523233377	-3.55008282798514	37.1295171202593
108937500	-31.6962195511167	-32.2201791552692	-9.12813852815732	-41.944984090727			-60.8502664555517	13.3211788194998	-3.49672311379489	34.2394869792405
109625000	-31.9246922895161	-30.2486093099843	-8.96983990628517	-44.9416775219315			-58.2911732029815	-70.1503553012653	-3.59701157900298	31.1818170671203
110312500	-31.8284415462115	-27.441198525767	-8.78653534588825	-47.6403823553831			-66.0241000009348	10.6692016668171	-3.56939906922338	28.6334880008592
111000000	-32.0129221999562	-32.1507402954988	-8.66696986170325	-50.7921074216585			-62.6173117818918	-86.9233870898462	-3.68215718929667	25.2897017380959
111687500	-31.7249861850183	-33.3017409119511	-8.63589230803843	-53.1500859029324			-69.807455700797	174.976762837154	-3.63778563579691	22.4275153757123
112375000	-32.3208120439905	-33.4948303913075	-8.58888418086865	-55.635396355266			-59.6124492958255	-60.8505060857876	-3.76248873790575	19.1444508414157
113062500	-31.8257858638165	-35.6015263908934	-8.5986714250139	-58.3247107664343			-59.7449780960078	105.45883164414	-3.74739003084813	16.2064902289615
113750000	-32.2173923246654	-32.4648620938549	-8.58460264002744	-60.65334476917			-63.2082700574874	179.545547326209	-3.82594839605892	12.7638012906795
114437500	-32.1836262104964	-38.912841876736	-8.65006072462083	-63.1204167638317			-60.336682726354	-170.275205749893	-3.81748056445435	9.67642048644791
115125000	-32.1376507195996	-38.7517670331231	-8.74981006049328	-65.3422734058465			-68.6621848836727	-69.3134714686273	-3.92482576258753	5.87201341525826
115812500	-32.0448413295623	-37.1006231404931	-8.89322423414947	-67.364786278898			-60.8970269932742	159.774856372536	-3.97323090041577	2.72446560266242
116500000	-31.5152626670009	-40.0660933945209	-9.14113314931453	-68.9222586639118			-57.7098798443534	-2.66786600791699	-4.02590299173417	-1.13722460916559
117187500	-31.6837227961938	-42.7548020871294	-9.43346803558229	-70.5293947593203			-60.4421802267657	-143.739457111799	-4.05147005998123	-4.72244346134246
117875000	-31.8225278948787	-39.7984508645881	-9.77947080085305	-71.322187631356			-56.5152588829377	-44.9418790025447	-4.11700723018475	-8.72917659611728
118562500	-31.8497723755961	-44.0734969836715	-10.1571195922639	-71.5689426600467			-82.0915677364827	47.4508404512454	-4.18506145849195	-12.4472608894535
119250000	-31.2206056445894	-47.1120240660712	-10.6117243427462	-70.6736694538515			-57.8596431014636	-86.1852159861362	-4.27969568592987	-16.5837424411452
119937500	-31.0513170420667	-49.7743283332275	-11.1153912922567	-68.6593355759423			-60.7555769943819	-80.5201244397407	-4.31525919984016	-21.2491425043368
120625000	-31.7600653079797	-50.4479680772408	-11.6046153026105	-64.9089372514819			-59.2353742210471	-39.4646126261303	-4.41930959948667	-25.7382382816254
121312500	-30.722684935782	-51.7514039536133	-11.9750455869345	-59.6360452986689			-56.4610986431736	176.649019379424	-4.4785225175399	-30.3487849156483
122000000	-31.0980808975124	-52.4165629696567	-12.0146632811846	-51.4819024298113			-58.6903155796208	-9.22487857059155	-4.56598923159912	-35.1487019076676
122687500	-30.8007581957968	-56.4162881980375	-11.6741375662466	-43.2943544709573			-57.4763257126542	175.519354377315	-4.67696797724829	-40.494470063762
123375000	-30.5180524437551	-57.4309032157886	-10.7526346986711	-35.3834243738158			-57.1610008804844	24.5324973613457	-4.81628908844384	-45.5092181131145
124062500	-30.5794468891147	-58.1313673412088	-9.54576532021489	-28.8667887877348			-55.440311337659	-153.175433792484	-4.94230606687947	-51.1699541002211
124750000	-30.4164724201927	-62.9075983846623	-8.00910084277224	-24.9734291985396			-61.3269191611365	27.9395130060393	-5.14425266779163	-57.0673828656403
125437500	-29.8089161059297	-61.0060931710844	-6.50482037233183	-23.5903789395373			-68.3264154003934	-13.0731437500436	-5.26998916960959	-63.0314280278116
126125000	-30.5122067493978	-65.1683734677323	-5.03927936912081	-24.4603919935527			-57.3093848952351	-86.3333123560906	-5.56975167251979	-68.559070924509
126812500	-29.7947538065228	-69.0023204469588	-3.6705879654238	-26.3256004064274			-59.2985367787464	-73.0341087911029	-5.75560321065479	-74.7091170961478
127500000	-29.4554397690367	-66.7957389310594	-2.45856485161786	-29.595041843903			-62.1420792822104	27.7793879162755	-6.08249026218154	-80.7983190039912
128187500	-29.7987954649154	-69.6291084223852	-1.31858982084842	-33.3067435336531			-54.8122824903263	-15.0043320760611	-6.31324577661275	-86.9392184488327
128875000	-29.4762926845334	-69.4323644773238	-0.299842200596157	-37.7767916382742			-59.6278709350632	97.1773143350059	-6.71358594847383	-93.4817644029105
129562500	-29.5696532411432	-71.4766689275654	0.570456530388961	-42.5001237131958			-54.6527612605282	-34.6173733013864	-6.96517688677118	-99.2468564781351
130250000	-29.3706098903368	-73.1393369384388	1.37181975365465	-47.5870104446689			-63.4641634522828	77.1899829836204	-7.44628134246219	-105.682113242039
130937500	-29.2800423542564	-75.7179285241049	2.07029064236081	-52.8630639341825			-55.8737361053979	-26.5185405999503	-7.73959660587797	-110.967334783213
131625000	-29.074046478303	-76.8700098393849	2.6392153317638	-57.936111800983			-65.9004719975855	-163.954528214427	-8.27576499961327	-117.181961882013
132312500	-29.2373828292513	-78.3328983092256	3.19477085711666	-63.0859006286956			-58.2006445938323	-51.4837820641015	-8.57603614722435	-122.531198590203
133000000	-29.310431195354	-79.8412304470715	3.63959827237498	-68.3309203479011			-81.0294202510914	-70.4824692554157	-9.02575309591967	-128.342403562324
133687500	-28.6309993691935	-81.6280863298498	4.04631320462595	-73.1769010677104			-59.8031247920243	34.5668824231169	-9.38094483344232	-133.438746966271
134375000	-29.2047407094134	-82.95628556943	4.42247327439622	-78.0001320805888			-61.870002790002	-93.147868334526	-9.82952459175756	-139.354760879181
135062500	-28.8264530001636	-81.9850653259424	4.72907296896824	-82.4975827013004			-56.0763672088974	36.2979811002378	-10.2756521492202	-144.282634873027
135750000	-28.9626416931534	-80.8073078481521	5.0171158165074	-87.3812056420492			-57.2855816566718	-80.26095153097	-10.7068473360315	-149.193797033228
136437500	-28.6931170242514	-84.1007211949455	5.2872218347311	-91.7025614774677			-59.2505118576871	-33.2975509589736	-11.0922544126916	-154.151869504348
137125000	-28.4974297160949	-86.0913919063653	5.54519049908568	-96.0815542442941			-55.318872021881	-104.2468984041	-11.5044510422863	-158.822147738152
137812500	-28.7663034754551	-85.2008204272235	5.74667152879157	-100.643798197028			-61.3667871811575	-26.5295849131233	-11.928339462966	-163.526698754446
138500000	-28.3865730757908	-89.1702509715259	5.93778209343273	-104.912996671323			-55.2491194932831	-74.112925966129	-12.2559885633121	-168.749276018904
139187500	-28.6717032953122	-87.5746362513441	6.11612198914348	-109.034218187338			-62.5215152663392	-53.9480730861236	-12.7173411954988	-172.278823482336
139875000	-28.7566800860716	-91.0856223377388	6.32139764069218	-112.998409509731			-56.425979442735	-23.5118984127815	-13.1051709404038	-176.820329169762
140562500	-28.9682592670344	-90.9507344920973	6.44133532578479	-117.0497785112			-60.8932443525185	-45.6159815770881	-13.5311846518245	177.872150573556
141250000	-28.6576000163116	-89.8647671255406	6.60230161600892	-120.887058546563			-51.5600671916491	-95.3662486132146	-13.9069681240392	174.282824976079
141937500	-28.9725871230196	-91.0337231571308	6.6781838036212	-124.916535769699			-54.2368044247213	-67.6285403424174	-14.3517754195984	168.521008073657
142625000	-28.9397859670062	-90.0460514558465	6.79587764349808	-128.3506294246			-57.7614332301601	-101.002790654443	-14.743142055632	165.080641181037
143312500	-28.553393722951	-95.5210856757478	6.89744078399538	-132.244447727904			-56.112418046683	-115.484510277393	-15.166807029017	159.641541398806
144000000	-28.4706491686154	-92.3771173250011	7.01543540115239	-135.590528294423			-52.0937804609643	-98.7931290191675	-15.534947380028	155.841499072582
144687500	-28.6901232776208	-95.728783844774	7.06958348120491	-139.51194618609			-62.7190117461259	-163.960755255838	-15.9400015463063	150.367631631108
145375000	-29.2350827347899	-97.2697858859258	7.15778667343793	-143.011111974267			-53.9659498009866	-92.473042193416	-16.4552720669234	145.860228375969
146062500	-28.678573370816	-92.7000251758371	7.22619978037009	-146.474089360525			-53.8725357995635	-153.889103680816	-16.7865417141837	140.848878380775
146750000	-28.9579216187425	-94.5044497719857	7.2489181783115	-149.798048521946			-52.1601884834185	-77.4252291322816	-17.3353447655031	136.099769666765
147437500	-28.3751051717008	-94.8313020165119	7.30980199690661	-153.219709133095			-55.0783939825441	-158.328392223028	-17.5539340962893	129.151192343512
148125000	-28.5384911436301	-96.7900715875216	7.33197514949336	-156.616788002011			-59.839651828941	-128.856043213115	-17.9824647248977	124.316710311358
148812500	-28.5420362223191	-99.0562994901766	7.40709563374478	-159.807580406878			-56.869013268441	-163.52525401555	-18.1767402487325	118.204666077735
149500000	-28.9127757275642	-99.0227867386821	7.3961043610892	-162.840240183935			-64.501921946188	137.782186749098	-18.6612653128117	111.043069552421
150187500	-28.7215776157924	-98.4790925694956	7.43971092382108	-166.068169888675			-51.2358908886813	-134.499459930585	-18.793948109504	105.183924573655
150875000	-29.0082185315607	-97.0445583329184	7.45162529774537	-169.009189246023			-51.5161613981172	-96.2368958838652	-19.1902999592289	98.4482807084888
151562500	-28.394699222691	-99.5235063615988	7.47067937987974	-171.803332428402			-67.5566940165046	-167.705060873969	-19.1627697563162	93.6151708113009
152250000	-28.9512847660023	-102.834105265964	7.46810226332602	-174.800302319753			-64.8068128052205	169.264593594261	-19.4293590920382	86.7036297981711
152937500	-28.9138163881887	-104.145230843937	7.50319094659138	-177.562775954434			-61.2717400557574	-134.257983863488	-19.3842790874343	80.4783157812025
153625000	-28.9065975403862	-105.562557686982	7.49305404323408	179.420947616247			-58.1272869869992	-177.607802480901	-19.5177097918815	73.6914337625085
154312500	-28.6456060412913	-106.403712680655	7.54083356799917	176.699588510504			-53.4940459073855	-125.414508002028	-19.4053796236496	67.7594495880316
155000000	-28.4627200565174	-104.481116648274	7.53751726488039	174.062616069287			-55.5618283042473	105.281671663872	-19.168835333739	60.861661484611
155687500	-28.6549701172632	-105.376816541271	7.54605756537378	171.754877066317			-53.1095827671441	-134.34990679239	-19.1041731948241	54.5730260017457
156375000	-29.1427351482605	-107.513210264314	7.58196380607638	168.602478461101			-56.5026607151027	159.570424862317	-18.8649563890804	49.3466784249886
157062500	-29.3017566715993	-108.672475285857	7.54428211163467	166.148977229573			-57.8105282166615	-108.232582835661	-18.7622083099308	43.373968068606
157750000	-28.8745786237582	-110.326667360624	7.60395126639397	163.607067217151			-56.4528650098328	120.656456736591	-18.4817518321051	40.1350109267783
158437500	-29.0981790507685	-110.193695520164	7.58467072857266	160.933316369256			-59.6465339958031	-99.1225695371673	-18.1563831707962	34.8235174775543
159125000	-28.9220290457125	-110.477255079265	7.63437919959895	158.216602146081			-57.5542867600645	165.489566234173	-17.7975419105395	30.3851723019875
159812500	-29.5586680749682	-109.822066407868	7.64418301710118	155.654631905795			-57.0794479587573	-102.551106025016	-17.6180318767445	25.6866791492298
160500000	-29.1274166230582	-110.21972505428	7.66479318477144	153.189517814991			-51.4007299643091	148.192543728007	-17.3355157690233	22.8387236938991
161187500	-28.8665331335495	-110.028219992315	7.63863201083174	150.907108179132			-59.8400396366422	-116.154358496524	-17.107075835315	18.1628826257339
161875000	-28.9636965979287	-110.18760591753	7.69545541072097	148.278136553784			-54.9824131222809	175.35285598366	-16.8799387408477	15.7666236991916
162562500	-29.0130944076404	-112.158160930452	7.66890633394291	145.686422910023			-58.7512915573842	115.373523232829	-16.4939715222463	11.930438685277
163250000	-28.981028901722	-114.527034823068	7.66104039921254	143.16896148024			-51.3621135738831	138.789188329364	-16.4117143979187	9.70518521360899
163937500	-29.0702793222114	-113.484479458449	7.69519384687794	140.775875653605			-63.2830970262592	-87.5257269509208	-16.1006843183749	6.57790609602997
164625000	-29.2208474557378	-112.183721981985	7.66659568739579	138.386461840837			-53.6009587046792	154.37076637829	-15.9758419203146	3.55572746721872
165312500	-29.0385873674937	-116.658120952107	7.67618135562154	135.835581928319			-66.0248465552824	56.5838711109567	-15.6274005675605	0.88921050353013
166000000	-29.4823743071638	-114.039629129626	7.67262420141831	133.554808256131			-55.2721795684642	153.770107521305	-15.681562395506	-1.966740719735
166687500	-29.1614377279508	-118.316131564479	7.65466491991671	131.144712299163			-57.0135238728826	179.585265429149	-15.3416008777242	-4.17255133503624
167375000	-29.1411018424207	-117.673421349414	7.67215664325732	129.155439461739			-56.2178745688045	158.408410302769	-15.2600093959434	-7.0164912161315
168062500	-29.2127521686614	-117.811325434945	7.66738565386651	126.746714522308			-61.2470264696825	133.33480492825	-15.0790352202087	-9.53190348592889
168750000	-29.0889387638649	-117.159195670031	7.65187183655346	124.608424335078			-61.6909985030833	-176.268039861323	-15.0461151329433	-13.1234383783191
169437500	-28.9727267703496	-119.415583284231	7.62063589890915	122.306003849688			-54.8525562603406	80.6539033416392	-14.821134943689	-14.7727913740033
170125000	-29.4641805121503	-116.503315815402	7.63410888429544	120.117877457449			-65.6640801605069	-161.014953825198	-14.8990649640426	-17.4188004422477
170812500	-29.7069296009333	-117.642609769243	7.60033219634887	117.929854735807			-50.7891945159093	126.200091839839	-14.7007396409886	-19.2946255278682
171500000	-30.0291443859229	-120.251855369455	7.61035793688338	115.833714326877			-56.8929197523783	114.18908067803	-14.8351445221721	-21.9339339661478
172187500	-29.6925466938971	-120.157273689832	7.58541713956785	113.747752481384			-51.9535408447112	115.591246786924	-14.6849530676167	-23.7756130789034
172875000	-29.9004100092691	-120.208421531833	7.60496868250814	111.861498892214			-56.7781728253196	161.061037199532	-14.652941741181	-26.7575005221814
173562500	-29.7111242162171	-121.551902150458	7.59053241433628	109.6876969903			-52.2775584924867	132.140996372476	-14.5791426598328	-29.1273211958717
174250000	-29.6799545279786	-120.723053640052	7.62056677866199	107.603609596409			-61.8942050612807	-147.062886494002	-14.5607969891569	-32.50443170753
174937500	-30.2446114808632	-121.410407884369	7.62611857611367	105.529645538982			-51.7338649548901	119.691094375315	-14.6297844580516	-33.7750122469004
175625000	-29.5012641243554	-122.20134049222	7.62293150570092	103.623314877153			-61.3722904481205	-153.610602453144	-14.5766750794799	-37.2058589716746
176312500	-29.9976703412067	-126.067119203838	7.66752116919016	101.501449927348			-50.3039046892373	115.332011884523	-14.6566879817583	-38.7568128123666
177000000	-29.9940686019765	-125.457167259244	7.65291287580177	99.6675793305051			-57.1694922212963	116.848756649699	-14.7372842932974	-42.8218838295633
177687500	-30.4015612064924	-122.74966401769	7.67047770143607	97.6365205064705			-56.7044466373335	144.937594396563	-14.6975510496998	-44.7488212512527
178375000	-30.297462500604	-127.174056804588	7.68672260636955	95.5763564564529			-64.4180692739744	105.018957169397	-14.7899569609766	-48.1446652313061
179062500	-30.0419221241908	-125.129322479573	7.73084084218844	93.5253994649508			-50.2840834153332	153.54389738244	-14.8980744297895	-51.2402755712452
179750000	-29.9353118641385	-127.197111033139	7.7320287411152	91.4700345104178			-60.9221617510478	52.2152575903962	-14.8115545259142	-53.561285689593
180437500	-30.2868391668771	-127.83622796604	7.78444777578063	89.5574286753707			-54.8231670327806	134.34196315387	-14.872940678401	-57.4006520233181
181125000	-30.489790105762	-128.293140111896	7.79222806447055	87.1636760659816			-56.0135435005729	59.2318559373387	-14.9579851144341	-60.0999770707408
181812500	-30.7309890325734	-129.092172983064	7.82183226604127	85.208418994773			-54.647688338916	167.853917660407	-15.0235897991489	-63.6985650305797
182500000	-30.477158977319	-129.927498641397	7.86836644164632	83.1834036472896			-54.8384712316212	136.657135021938	-15.06573127953	-66.1551439289324
183187500	-30.8478313158831	-131.431062140402	7.90937077626674	80.8607373111135			-58.9546827130191	109.977048554227	-15.0910341605854	-69.8385182615218
183875000	-31.105862371288	-133.437359191051	7.90543312053186	78.73547307731			-55.6034347478289	82.6471952396993	-15.1682456521628	-72.2134196022198
184562500	-30.8974641555859	-135.219840545047	7.91436508214785	76.6898314328356			-67.104654719088	77.3759686745603	-15.1241777927547	-77.1339508868007
185250000	-31.4306551100958	-141.54012979481	7.95614524591787	74.5177967813623			-52.5251549455282	112.39903687794	-15.2012719240255	-80.0392971528844
185937500	-31.3156514571287	-139.829832804318	7.9326824199038	72.3831842143528			-57.2078529515121	161.516240921642	-15.1412201405401	-84.0559480019042
186625000	-31.0560440214907	-142.790980401878	7.93501348122726	69.9572028616203			-54.5922628486249	130.011013283721	-15.2200285217873	-86.7297657954362
187312500	-30.8412616669775	-145.856986243538	7.93733657739949	67.9998483605658			-73.1954961767692	109.237824479974	-15.0360582144323	-90.5346115348831
188000000	-30.9636851103567	-148.872445212407	7.90766023790294	65.7497611137786			-53.1580677407671	86.4897840105614	-15.1648407177509	-93.0471993890414
