# Hz S DB R 50
100000000	-30.4600073553384	-20.468322110491	-13.8067490186942	-8.40826812022076			-74.9765762669039	19.4949141052017	-3.45938427406361	71.0145105012596
100687500	-30.8258102788749	-23.0087504302972	-13.3562094020055	-11.0771624948585			-58.6391222042137	-12.0343589578872	-3.38381261433688	68.2966782075548
101375000	-30.1450030911904	-21.7038597200577	-12.9619374619908	-13.093445697925			-59.9537163148764	105.056998969239	-3.44824137685685	65.3888964113719
102062500	-30.4246830976673	-22.7962842441926	-12.5053473841623	-15.6731765661489			-56.9135070952305	-24.4563454001031	-3.40489076262326	62.422769173973
102750000	-30.2897064223186	-22.7197107867167	-12.1606556412611	-17.8121573666766			-56.5652163684543	168.139658570266	-3.44120773168216	59.9125310932458
103437500	-30.5385239827678	-19.49126648116	-11.743285867371	-20.2589691523776			-56.995787849944	27.922198084351	-3.37387048127805	57.1175919673954
104125000	-30.2321124097925	-20.4334429505764	-11.419922885591	-22.7958788537979			-56.8371974300898	171.507274710094	-3.45830439965013	54.3018628097706
104812500	-30.6060151855294	-22.6661778705056	-11.0545418344676	-25.3096042770753			-56.3278127336757	-14.0227004142421	-3.41091621141253	51.3852825984389
105500000	-30.5342995219505	-21.5599242604655	-10.7590350471763	-27.9145891566184			-59.3129956146824	-122.239323791643	-3.45845065351705	48.5695103715497
106187500	-30.6622096712222	-20.57272376244	-10.4252191750745	-30.2572009502146			-58.2558928136198	21.1222092317176	-3.4366209986351	45.8860003108843
106875000	-30.9023246302161	-23.1490985699511	-10.1605920033981	-33.2411522934789			-63.7102518210167	-155.408880178818	-3.49314152964359	43.0278419672349
107562500	-30.4871228672094	-21.7164113986584	-9.87888203170127	-35.6731535457343			-61.4945501922106	30.4069671767578	-3.44251198160881	40.0806939808384
108250000	-30.045527913398	-21.8641913530904	-9.64335008930271	-38.648661206873			-60.9579241317361	-155.276052497889	-3.52197359074011	37.3119036724843
108937500	-30.3512982350225	-21.1428973141642	-9.45047460561139	-40.8615611209766			-57.8150267480174	44.6744172390306	-3.49709175353865	34.2661280552667
109625000	-30.8207448654663	-22.6671552134589	-9.25176269622176	-43.828930700844			-57.993751237035	-121.51664693515	-3.59630506150422	31.3653923787178
110312500	-30.5433369656493	-21.8500160548311	-9.135126168362	-46.4414620951403			-62.4966373573669	135.306110060151	-3.58701462992205	28.6035518918219
111000000	-30.7313869512261	-25.5255888966641	-9.01741318132214	-49.3774714292576			-65.3038761170711	-72.3237419587165	-3.69590259129028	25.3719708222855
111687500	-30.9320059237008	-26.766871732747	-8.99449924305019	-51.6537384976082			-69.8866986924361	-77.1663517335339	-3.64501523910358	22.4615602044092
112375000	-31.0746955413581	-22.7234330895122	-8.92202738967267	-54.5319438416426			-57.3463262531991	-58.7589911595165	-3.7530819899766	19.3739917976382
113062500	-30.3312995461712	-25.6471849909651	-8.92975263752479	-57.0259146879146			-54.351103246277	92.9158951365874	-3.73329568502492	16.3314499637464
113750000	-30.4643526628622	-25.2803367574794	-8.88703167967289	-59.4414257522741			-54.3129365450526	-106.831133242148	-3.85649461376612	13.1690354584981
114437500	-30.714722631326	-26.937339079521	-8.97346392555717	-61.5688283885702			-60.1445154968282	50.2889025324576	-3.84972387094071	9.90975356425075
115125000	-30.8785781871065	-27.1251264143613	-9.04451938023916	-64.00810907984			-59.1765994635588	-91.8095213872216	-3.92222517992624	6.27172781651478
115812500	-30.6746284800836	-27.6133831483499	-9.2047616806203	-65.8303940115004			-61.636422153336	130.345280530545	-3.95866943516766	2.83926090216405
116500000	-30.4092205085784	-30.8327292299535	-9.38384773645106	-67.3960001215131			-53.4160370749013	-68.5109185704931	-4.03233983302675	-0.999489553496952
117187500	-30.6801463301976	-32.5608661174161	-9.68588390909763	-69.0298678549069			-65.44962769856	-89.4810902535957	-4.07420058653606	-4.29226879342183
117875000	-30.5618209056651	-32.083548718791	-10.0163729500513	-69.8667132653149			-66.2122321224631	-67.2902246418382	-4.14002802934786	-8.18833273112354
118562500	-30.5345046422125	-33.3155008640875	-10.3904877574351	-69.8727483129297			-67.3843839478774	139.288424461538	-4.21746575521906	-11.9557465915744
119250000	-30.3155515799819	-33.3493482842498	-10.8305265266126	-69.0652648634038			-72.5389538369203	72.4461425456086	-4.30625022411124	-16.1540582268275
119937500	-30.5130742140631	-36.9851419536885	-11.2962534911876	-67.0967320785815			-60.365168637674	143.813542499775	-4.34801454694134	-20.839800740627
120625000	-30.473110544161	-39.3792603510292	-11.7602127669241	-63.4804281587948			-66.0466789286715	-92.1608120814663	-4.41367431404623	-25.0039963566393
121312500	-30.2571163405822	-41.8339711588404	-12.1331312186921	-58.4970418384153			-56.437938718921	-173.930244711476	-4.51801698905184	-29.9704764164017
122000000	-30.6545482667599	-44.57076516022	-12.2252479108333	-50.7176755752538			-69.7740064490548	-57.5926604165398	-4.64369342407177	-34.7953745329623
122687500	-30.3212446260933	-45.3164772873536	-11.8256079103886	-42.1915907824595			-66.1440786728944	-112.710944957861	-4.74001034640406	-39.8442278859197
123375000	-30.1476404427499	-47.1860572259298	-10.9636620826416	-34.1632862263927			-59.4878367159821	74.7807490876675	-4.90023849941901	-45.0453075147373
124062500	-29.7574564974948	-49.6889753435838	-9.79277155845369	-28.0039809895569			-66.8582738550022	-86.9541591604252	-5.01145928841844	-50.3763025744606
124750000	-29.7475213190397	-49.3064210830215	-8.30052106032867	-23.6047018307638			-73.0571443177903	-142.321629586019	-5.22388275773217	-56.196564877141
125437500	-29.3525244160506	-50.7098030439851	-6.79492101868471	-22.3824631498774			-57.9370367571112	-81.6894775890572	-5.37134283961647	-62.1139683177997
126125000	-29.6689683774554	-54.0350310284277	-5.33824393047508	-22.9982445130777			-59.0657530460526	67.420011016921	-5.66637568265394	-68.0343260656181
126812500	-29.7139892092042	-57.4407992629906	-3.95948324397803	-24.823916051866			-59.2490541856628	-169.864282391733	-5.82749473663935	-74.3550441267458
127500000	-29.67934807699	-57.8731540995689	-2.7376776806482	-27.6425441164048			-56.3291655405951	70.9811443162816	-6.18647970498417	-79.9942268940117
128187500	-29.6005440442004	-58.6575192884942	-1.57307891109549	-31.6207992206489			-61.2826843222803	-105.538241368569	-6.40629962089964	-86.1831794149914
128875000	-29.3185041930885	-62.0439173846087	-0.563537318610499	-35.892354098546			-57.2965624295419	118.871890194772	-6.83991623240864	-92.5447130884572
129562500	-29.3191688042174	-61.3630684350908	0.341432510243942	-40.860626054426			-59.4469316066975	-10.1267137398651	-7.11974182977493	-98.5465901726986
130250000	-28.8533667321101	-63.9105726443484	1.15569898560353	-45.7535868963533			-67.461953627046	129.685412919834	-7.61975917948266	-104.666538850533
130937500	-29.2238029470183	-65.3940954653202	1.83471335389357	-50.9740576401139			-55.9074508384132	22.8049160801728	-7.89027117243628	-110.022428531445
131625000	-29.0354254511116	-66.0238916773369	2.43858315327713	-56.1719266479909			-62.1668095003825	-0.813275178967482	-8.44732012961149	-116.344008625576
132312500	-29.270710330267	-69.8564891619514	3.00232922781681	-61.3144083592415			-55.2592611926219	17.8304484885781	-8.80887965553439	-121.400414275446
133000000	-29.1116624971519	-72.258603519727	3.43470259006162	-66.5910459067601			-66.2467098102337	-179.765756969718	-9.31968485463829	-127.330785802963
133687500	-28.9284951241385	-70.5030855946794	3.84922403371453	-71.5593978334812			-63.1082546677184	-45.9511170625407	-9.65371376007002	-132.095680956262
134375000	-29.2149286004921	-74.0402154446	4.24439260610331	-76.4681684707155			-73.4272583688302	-103.377385581387	-10.1450384884138	-137.792411453621
135062500	-28.9906872964114	-73.7731780678385	4.53361074938991	-81.0317253473652			-54.3177969324876	-24.3237048839019	-10.5405260297813	-142.476328713791
135750000	-28.9596442847599	-72.3834057342987	4.8644792376923	-86.0212173091027			-56.6169570802192	-109.60802191969	-10.9834428194304	-147.142536210464
136437500	-28.8825641611128	-75.4673764954507	5.09931475606673	-90.6699662198154			-55.1343582351558	-5.17558713258926	-11.3814624314573	-151.943557100124
137125000	-28.6737370861189	-74.7878536989975	5.36133101256912	-94.8463379789048			-53.6621762291045	-115.095678679565	-11.846322040659	-156.572856262613
137812500	-28.8971930258935	-76.4652069070123	5.576444277548	-99.514847182279			-58.2866839553605	-53.9382773879955	-12.2942930160877	-160.844546415068
138500000	-28.7300755502579	-81.8243219981236	5.80719316551159	-103.629181438024			-68.6918003865165	-101.007345043321	-12.6191984301852	-165.868349291871
139187500	-28.7947604273946	-79.3944735809531	5.95823537742467	-107.803472230196			-58.6256584107118	-25.0058678187516	-13.1555235434479	-170.407427721964
139875000	-29.2398191901906	-77.8630578118542	6.12415550523658	-111.705219428102			-54.29355288277	-95.2972991802385	-13.5135652595993	-174.277400071308
140562500	-28.9057691454001	-79.7031087929122	6.26479202976865	-115.75737151867			-61.540409352495	-64.9561581910659	-13.9600027308343	-179.12105177039
141250000	-28.8540644478352	-79.83543634187	6.42127945620763	-119.738039054972			-50.0743462166158	-53.4584749519023	-14.3138558068112	177.044907094292
141937500	-28.8127470810701	-82.3689042587011	6.51309938715622	-123.79223661639			-55.7561502773729	3.96449962420938	-14.7183529046881	171.753472167197
142625000	-28.956306262691	-80.4684073966106	6.65515821280564	-127.486441314234			-49.4249211165014	-73.804901853794	-15.2123996266954	168.056576036599
143312500	-29.2275012213493	-85.3720095455714	6.7572757691701	-131.337761253641			-65.4466975918699	-96.6223648888497	-15.5530965929577	162.916432221145
144000000	-29.0619814093162	-80.6779041424597	6.83671690216372	-134.788886113728			-52.3028765326681	-91.5061169131086	-16.0500768974415	159.130680527922
144687500	-28.9043147662392	-84.0824590556745	6.91135331210407	-138.765366744544			-67.8183978744334	-169.643015053226	-16.423481696535	153.636913857852
145375000	-29.1156757727585	-84.9209755968368	6.96151128624682	-142.024162294913			-55.9952929298732	-88.727203265487	-16.8920175968127	148.90093488053
146062500	-28.6918684220249	-83.5597820447385	7.02349419579034	-145.50325517085			-66.5787426346206	-126.589073298411	-17.2590205824904	143.141112481247
146750000	-29.0598788530342	-82.6695760012441	7.08594645909114	-148.650539342717			-55.070853486409	-87.0773747110925	-17.8376586508166	139.037377163465
147437500	-28.851018294139	-86.0226790832362	7.16289161420646	-152.164424848882			-51.714808733261	-125.117556555189	-18.0827346825876	132.767703621739
148125000	-29.1211138420266	-87.0726961803182	7.1663941486101	-155.452836055907			-55.490024587377	-77.2788201889811	-18.5237960182798	127.196461460986
148812500	-29.1503755749924	-88.0451411040637	7.22583748207631	-158.739733348951			-57.3434353244717	-163.139116867414	-18.8505187337513	121.297893157285
149500000	-28.9603973066497	-86.7588020346581	7.23646714831983	-161.866667830906			-65.0418778086043	-20.8261593818306	-19.3458581919644	114.449350211098
150187500	-29.2138327402319	-89.3154018670468	7.27566152209361	-165.043945044639			-53.894455945072	-158.846402754299	-19.5608045101074	108.755912967581
150875000	-29.1948360577678	-88.6534660612195	7.29115813294231	-168.13381101028			-70.2197529944537	-114.728888371218	-19.8952014002795	101.047809118969
151562500	-28.6115851164908	-91.4258613818284	7.3251942315063	-170.959169097077			-57.2672545648032	-145.145408510644	-19.9635376899874	95.3240743286251
152250000	-29.2896631276146	-91.8022319182173	7.28520130709099	-173.852699543503			-63.5202869160408	50.1254277565975	-20.0933272982796	86.8939608775841
152937500	-29.5797004392325	-92.7776895368797	7.34465793499681	-176.574813618952			-52.1104122052024	-159.081012140778	-20.1633822365312	81.3650509098399
153625000	-29.6599133144482	-95.4478360558294	7.34058633760567	-179.604877357759			-59.6382590643018	174.623697625781	-20.0372870113776	73.3957786029187
154312500	-29.4846979340092	-94.9197765805672	7.37454163527894	177.834628033108			-54.319447415886	-123.072037270578	-19.920125357631	67.2258778062836
155000000	-29.4087766820741	-95.2276605031446	7.35171750429432	174.798061578897			-87.1119298477157	156.642125458764	-19.6498374038514	60.7513346739928
155687500	-29.4141471681718	-96.7673783179121	7.38673210750496	172.402198107954			-54.9152831334978	-142.088876682528	-19.7844908927033	55.0254787239629
156375000	-29.719531338437	-97.5134435828714	7.42326277810164	169.571058444355			-59.8905676684459	160.868744868321	-19.3406755159759	49.3065532204516
157062500	-30.2550040422539	-98.489972926078	7.40324323300524	166.984511211518			-55.5869790119139	-132.936459469356	-19.3027829093114	43.8405839639229
157750000	-29.3899381994986	-100.021613629677	7.46285098091684	164.414486741873			-56.4362994941054	146.366353194734	-18.8470419595977	40.2673214828579
158437500	-30.000812791486	-101.595329453645	7.44768054493019	161.90789159243			-53.0601293577627	-112.71753042964	-18.5584608843064	34.2563358025506
159125000	-29.4033658641662	-101.554323295722	7.47828620955523	159.307626452779			-57.8801733259681	146.125360351427	-18.2046650773018	30.4370521281624
159812500	-30.3409772186373	-100.3812777451	7.49097420676151	156.927187410824			-63.2717727718418	-174.714943160905	-17.8733201226385	24.9571857903888
160500000	-30.2673478536118	-102.891774076247	7.50945661983805	154.238524843839			-55.7217759280311	147.392496719073	-17.6838071499631	22.6047701394726
161187500	-29.639668851714	-102.504267083069	7.47538896961486	151.863149675489			-67.1521812412397	-138.621488297908	-17.2825876066765	18.2899184102472
161875000	-29.487461207548	-103.189391355386	7.54625775083581	149.406649908205			-57.7870349715522	-149.519042392289	-17.1350195026009	15.9328426589188
162562500	-29.7907692829058	-103.906867465691	7.49422785980457	146.837061369342			-58.2493706606503	-131.889254711018	-16.6973112616885	11.1408418458974
163250000	-29.8935086968792	-104.633262888467	7.52252781040094	144.232402758481			-53.440125513773	175.055267248416	-16.5515455542557	9.47907178333228
163937500	-30.0116835219237	-107.626364739024	7.54358151379329	141.915552560733			-56.5664742929984	147.479213621071	-16.2831274081337	6.28650712817964
164625000	-30.0715085455066	-104.150510478236	7.53281327655427	139.424989304631			-56.1072961127517	-163.372752655669	-16.0741928732175	3.23311198603219
165312500	-30.1476965582152	-108.459605446249	7.51319852405402	136.956328406741			-59.4757498047131	124.104425930403	-15.8054615531266	0.431114983499029
166000000	-30.0274121221245	-106.331335125224	7.54365590580565	134.446270572344			-53.8214729021024	-168.261394044033	-15.6914318466899	-2.43360178257958
166687500	-30.115658473925	-107.142679416925	7.49954131850246	132.398851392134			-52.7560060997934	129.535355210619	-15.4555852248745	-4.36639461371876
167375000	-29.7374526546344	-109.290255470033	7.52789909485282	130.194329800918			-55.6412142388642	-165.297931915918	-15.4047865445768	-6.57489494708407
168062500	-30.1262158789041	-111.001575471032	7.52070599635324	127.796288604019			-56.5096089421981	115.210834339273	-15.0850043164204	-8.97358036242384
168750000	-29.9561527551844	-109.02952304452	7.51888372507545	125.66657564823			-62.9638300357648	-107.982056419378	-15.0719000891484	-12.1217311120658
169437500	-30.3253796892717	-112.878835544017	7.48752554546524	123.09831183071			-53.2720119653979	103.813462947037	-14.8893435614734	-13.7027114814653
170125000	-29.8519765930161	-108.094541305948	7.50518477887955	120.992548841606			-55.00598558795	-176.089831997724	-14.9541337928771	-16.5120151773205
170812500	-30.1935745769448	-108.720987913506	7.45918642210829	118.627173464981			-50.13074091645	108.664710737825	-14.739094664799	-18.1280353973258
171500000	-30.7298013653657	-111.799016120191	7.46140712121018	116.718822303926			-56.1603926262325	166.217320013676	-14.7988224427413	-20.3752082340344
172187500	-30.0915160319658	-112.963439881982	7.44568304057404	114.333463520218			-61.9262108229754	97.5541972690907	-14.6399800753898	-22.199104905619
172875000	-30.9826710747822	-110.6816018523	7.45422664451681	112.682849084124			-55.1447313769186	119.342582619678	-14.6673618650583	-25.5583116758172
173562500	-30.5217515679553	-111.378895413574	7.44043972876414	110.376959870346			-52.7738659078647	-172.260227693688	-14.623318417864	-27.2596519211521
174250000	-30.3670285549932	-111.481019817965	7.4566840024479	108.361377737414			-62.986531264173	8.18910114122678	-14.5689189251553	-30.5231673446995
174937500	-30.5655832507842	-110.080657901544	7.46758598279795	106.433536544906			-51.4018934008436	119.221088899022	-14.5927267033332	-31.7048409371781
175625000	-30.3596341869789	-113.391998810739	7.45341078630409	104.486756937584			-57.0839685524008	112.839839823053	-14.5715083953108	-35.2583511159694
176312500	-30.8220116345298	-114.514295475549	7.51634507131834	102.50104542729			-50.7820531561268	94.1632390952629	-14.6696361085079	-37.1431264581785
177000000	-30.9970354207006	-112.829390734418	7.49988398315424	100.554458006987			-75.2534466408535	-153.210257720943	-14.658331800176	-40.6058683938151
177687500	-31.3870401231851	-111.654748053378	7.5176864275872	98.287705561273			-57.6603110917287	144.76957602179	-14.6484705859943	-42.912901502286
178375000	-31.3631449315512	-117.527068787322	7.56167571973364	96.2717057684828			-60.3128182276301	115.319177880145	-14.732382524152	-45.3799837964903
179062500	-31.0935069809908	-114.587271380228	7.59989800409424	94.1206827827603			-54.7512281539266	149.353526586434	-14.8910836294597	-48.9287479090231
179750000	-31.4187368736666	-115.897652495259	7.60628862225281	92.0012070197964			-59.1478506531054	97.4195548510332	-14.7787718406407	-51.9796652440515
180437500	-31.526780377797	-115.514966644668	7.64424809360869	90.1807336797627			-71.527633237962	140.45876898872	-14.8586288610968	-55.0537960292694
181125000	-31.8298872005973	-117.432818173155	7.64138332626802	87.9491219497651			-55.0996380956738	46.5204252465323	-14.826890882526	-57.7503766379671
181812500	-32.1149746077777	-118.594569801512	7.65781426903373	86.054029549251			-60.4899137813381	126.297245984664	-14.941245603634	-61.6536763612075
182500000	-32.0701853267171	-120.700210508673	7.72478799604998	83.8502594627979			-64.1084855478902	28.7786673191843	-15.0509552688665	-63.6075734134486
183187500	-32.8901199413927	-120.914175974571	7.74973852014446	81.631439469976			-53.3134821379832	-175.754846700485	-15.0039906404581	-68.2068031924176
183875000	-32.5011101664903	-124.190866959435	7.76395637566184	79.4582870990687			-52.5302294410974	95.304563210692	-15.1433612923485	-70.1165969169598
184562500	-32.1020371609779	-126.696094338566	7.75527880659906	77.5882312361916			-55.9722660288357	142.178742800985	-15.1076437395206	-74.5040048005557
185250000	-32.9131459140674	-128.02059613901	7.78781809328824	75.2402926979259			-53.3050458907521	96.2770377288397	-15.1895639628992	-77.4587502569291
185937500	-33.3312118638967	-126.824290534427	7.77815285094733	73.0570708625341			-66.7587978667083	109.718215809396	-15.1047799426425	-81.1137241974894
186625000	-32.8265611549767	-137.460627855333	7.79158147327766	70.7630152142183			-57.864217233844	131.250415807604	-15.2583145987369	-83.8722861438626
187312500	-32.3667520212993	-139.850122403096	7.79214877714383	68.6720044347797			-64.0846752255712	-104.791467646412	-15.0632465463055	-87.9419402224664
188000000	-32.6936864456498	-141.52555451026	7.76741968668852	66.6934037064934			-54.2228646365057	119.78451452138	-15.1444401572008	-90.9094308202027
