# Hz S DB R 50
100000000	-29.4223992687321	-18.9041082701434	-22.2497520142683	-1.91070521418395			-60.18756288413	-65.1530207595838	-3.44327870451489	70.9000102003149
100687500	-29.359322859077	-17.6520018877366	-21.7023642955956	-3.39877304053585			-70.1074360512184	24.2414232520605	-3.43416842049027	68.4586448388577
101375000	-29.3896397699713	-19.3569568379996	-21.4177014651799	-6.31533575789121			-56.602112679429	-93.835236903107	-3.4420862733402	65.3622970117529
102062500	-29.5356089140028	-17.4580349097546	-20.9099751325816	-8.13098930319429			-78.5771676010967	-50.9412937416878	-3.43484901616791	62.9852408773102
102750000	-29.3205888100928	-19.807240568573	-20.5508133310153	-10.5808828605535			-64.4978984385703	-127.500145721749	-3.43138863006963	60.0590463967213
103437500	-29.6595023632493	-18.7757516128948	-20.1130610764762	-12.4781245998144			-59.7000429582622	69.6696417315318	-3.38191653708036	57.4564275648823
104125000	-29.0145024684692	-18.5832849149473	-19.797327231925	-15.3241889066848			-65.2281450569679	75.0626382654122	-3.46060851975972	54.6033093843626
104812500	-29.6659079765011	-18.4722063341596	-19.4783426285646	-16.7794122263516			-58.1074611603152	35.0637331902074	-3.43780124830077	52.0588687858342
105500000	-29.349234544999	-19.8538148159165	-19.0820179394646	-20.0581055966809			-58.4233413467709	-45.5972127626464	-3.44169037227769	48.9192624184871
106187500	-30.031965614246	-20.3092812347072	-18.8213671530161	-21.600400571551			-59.9897540184266	70.0182057746377	-3.43494867201437	46.6860413573243
106875000	-29.6674851024246	-21.5576205291009	-18.4417357140543	-25.1508701685054			-57.2661632691202	-123.843648105915	-3.45831976465139	43.4683147759589
107562500	-29.6270966793499	-23.0510610697101	-18.3353491452474	-27.4664609948864			-71.8315350607857	139.812328441532	-3.43152833578779	40.7537681260084
108250000	-29.3026339018215	-22.2808008551363	-17.9598797672936	-30.086312729742			-56.4882001598783	-78.9980739821566	-3.48176110170019	37.6113430938235
108937500	-30.1307602403797	-23.4632609322257	-17.8540131091218	-32.3234126668112			-62.1702292622753	-133.823219967596	-3.50934811884928	35.1750499076677
109625000	-29.7276685058723	-18.2682611302997	-17.5713188607342	-35.2829378254766			-59.0038644603937	-69.0550588276264	-3.5556564754221	31.9974753354625
110312500	-29.8800926922322	-22.5888364524976	-17.4579002418393	-37.9054788029525			-60.977466387027	-108.669336046569	-3.55489794456767	29.3887098455368
111000000	-29.87638672053	-23.4513950835207	-17.2160567396134	-40.4581055125283			-56.8634872811587	24.6139585760837	-3.61991244957126	26.1362508957761
111687500	-30.1214916115123	-24.9833833891953	-17.2723390498406	-42.9822703567238			-56.509394889133	-78.922848184664	-3.67818417751681	23.2851709428446
112375000	-30.1676456306435	-18.5010831025167	-17.1347653320751	-45.0662444858151			-55.9245026828243	-16.4147110657392	-3.73930743181073	20.2030231929876
113062500	-30.4129895910919	-28.1373735110855	-17.1414582884388	-47.6782504479311			-52.6354588824041	-150.590680479009	-3.75167671861828	17.6510736430144
113750000	-29.9734894623368	-22.8295813068813	-17.0838773745512	-49.3407545547247			-60.5274418580754	33.9688317164813	-3.82058402157112	14.1246430810078
114437500	-30.5979491385376	-26.4293958118114	-17.1406964117719	-52.3280690412136			-60.0199846366433	117.237556926465	-3.85741849966692	11.035973380476
115125000	-30.337296053166	-26.4283268667016	-17.232833094812	-53.5554023243527			-58.5253820006668	-34.6476920250596	-3.93473269010903	7.63841211935154
115812500	-30.5711912672091	-27.0315995036385	-17.3638110811072	-55.9261456605848			-65.6808615663345	-93.2192400873344	-3.97302498366211	4.16420087617436
116500000	-30.5538609476606	-28.9401711453043	-17.4131937918651	-56.9536115692164			-64.2346365286253	54.579946135413	-4.01674371374661	0.47586151457855
117187500	-30.7423911576679	-32.1259286163023	-17.6897150881983	-58.6199915792447			-58.1403017234852	-138.045063224368	-4.11525236090666	-2.68238863061756
117875000	-31.3107201658263	-29.8287688257415	-18.0564216215433	-59.1140211433757			-64.4979243031921	80.3751590033246	-4.17707146211171	-6.50128078200218
118562500	-30.6113199486415	-32.142778539825	-18.2616714423282	-59.4874833402526			-53.0200179359591	-118.333488534109	-4.2126392978387	-10.4075554767464
119250000	-31.1795817618507	-32.0494868386344	-18.7310844372882	-58.3662848033908			-57.9981899168766	119.688161985627	-4.34827503501513	-14.5695022342466
119937500	-30.5206451915222	-34.7795684698175	-19.0181530310144	-56.9646238691909			-60.7975318674564	-87.0827761585391	-4.43846225375641	-18.8471019019562
120625000	-31.9810276235982	-37.0530595765542	-19.5211914898294	-54.1183661798288			-58.8288224042145	-10.4514619418819	-4.51885400050999	-22.9500668414231
121312500	-30.8364785393661	-38.635500170417	-19.7364564035077	-49.2565642118592			-58.3813792207983	-56.5410502277495	-4.58944179996433	-27.6065403622844
122000000	-31.7529347529813	-43.5726759853833	-19.9059940370052	-42.0925892746369			-57.5856207268143	145.721403308617	-4.73798215650008	-32.2602924879808
122687500	-31.5560150470939	-41.9707349164565	-19.5302887305687	-34.5826165663425			-76.8799151697743	-133.31326677078	-4.86398058077986	-37.4326334562008
123375000	-32.0183868582627	-47.4609236054327	-18.7744896485944	-26.275142302864			-63.1860796440085	-58.7473701410141	-5.00273117611417	-42.6382118371861
124062500	-31.1583677428268	-45.4555790258489	-17.5600906498116	-20.378563181562			-63.4092061299502	-95.6233335681461	-5.18458516549256	-47.6528471894336
124750000	-31.5688441014893	-48.0015323687657	-16.2209160086794	-16.4634991823573			-62.2492123119141	4.04779181043687	-5.38628980632056	-53.5868776314672
125437500	-31.3292644772515	-46.5010404214203	-14.7099854850777	-14.5227755214187			-59.7103943191783	41.6510490508202	-5.61807242070587	-59.1269854447038
126125000	-31.9054184516013	-53.2831648725421	-13.2919164178491	-15.0330029346827			-60.1446665881449	90.9240902710075	-5.90049148484329	-64.9647789289887
126812500	-30.8684619231436	-51.1075580399307	-11.8783529721238	-16.2373228907411			-60.1493971584109	3.03435413683765	-6.14500224226969	-70.7851124973119
127500000	-31.1335112331571	-56.2334313944782	-10.6316946553182	-19.3756453310692			-73.891909960777	-114.774742166437	-6.49066885932367	-76.6901063196352
128187500	-31.0977357558121	-54.3162265906403	-9.43935274568465	-22.992095611644			-52.1440812474902	77.183743579885	-6.82651463579623	-82.5191967758287
128875000	-30.8289177103823	-59.8443354782483	-8.42393488648964	-27.431626930747			-55.5176879477508	-100.23417635185	-7.22506863878912	-89.0158257094045
129562500	-30.6727654101632	-55.9974096193354	-7.5264065932191	-31.9417775178466			-57.7891121015832	80.7742407380033	-7.56977995091002	-94.6487617955573
130250000	-30.3633952386376	-61.5163293070015	-6.69776531529965	-37.1563345847598			-56.4539896652218	-90.9248092201626	-8.06662797220438	-100.740621816043
130937500	-30.6856195455607	-60.6415017902224	-5.97786490660011	-42.1241326441497			-71.60656277734	61.4638676808667	-8.45053073957611	-105.86353209187
131625000	-29.9610873542061	-63.7811092233611	-5.35340628788278	-47.8162235970891			-55.6578291533875	-131.168966096725	-8.99931476208172	-111.726031247216
132312500	-30.823163748669	-65.5011293622362	-4.77956924578709	-52.6821107724582			-75.7859831189363	-147.843939249705	-9.39619089022641	-116.981899873169
133000000	-30.1915994082146	-65.6278387328873	-4.29448709399522	-58.3712138467884			-57.5274871677682	-113.206138141056	-9.95309736338697	-122.309773754197
133687500	-30.1310855252412	-68.7997457297127	-3.88844060772723	-63.0196369855667			-57.3767468562619	85.310479503456	-10.4181553796586	-126.8712386553
134375000	-30.0944532976899	-69.2422785335216	-3.45937841807213	-68.2903045955135			-56.8019526229746	-50.0150712581557	-10.8902657469353	-132.423443868974
135062500	-30.0755754808251	-70.136694638132	-3.19051208977098	-72.8207776125403			-72.2296252152457	32.0028784041742	-11.3562977079225	-136.798228837637
135750000	-29.3379667456182	-66.8755137433258	-2.86367484679758	-78.0690638067734			-59.769790482829	-75.4823902282088	-11.9184354077371	-141.168279566994
136437500	-29.8251198626553	-70.391042159677	-2.65569600964221	-82.4512942763487			-87.4684894396109	25.0048156195797	-12.3949981840756	-145.90803251731
137125000	-29.4118472721566	-71.0721060445829	-2.33930777890895	-86.9818584928106			-57.4516168853623	-62.279852507907	-12.9136045956156	-149.938876924253
137812500	-29.6143905038976	-71.8882761208282	-2.21640164796316	-91.3115061625487			-58.841535766494	133.443357393534	-13.2760340927711	-153.813179744778
138500000	-29.1605924856094	-74.3276945523619	-1.987069011682	-95.5850098571288			-58.9095605061426	0.214074269757435	-13.724450853046	-158.563243537323
139187500	-29.4148288866212	-73.9604414384566	-1.82789660780712	-99.882802392429			-61.4356239073441	0.919947905553116	-14.18403302188	-162.150033956119
139875000	-29.3304697050516	-72.1725430920316	-1.61937324857444	-103.920676195539			-55.1168768087759	-21.4225206087017	-14.6240270821273	-166.013244833377
140562500	-29.3495935214197	-73.8836753679747	-1.50604071288039	-107.800603547108			-72.0323416965379	-5.95095654874595	-15.1146143360666	-169.928771852315
141250000	-29.2312926612105	-72.6563867714442	-1.32444799386065	-111.921775036117			-55.5517417986186	-33.4318014378148	-15.4783607500422	-173.482386091686
141937500	-29.4795047374255	-77.8683187021942	-1.26872611975507	-115.826962668646			-53.0536526963259	-114.226917576047	-15.9691681427245	-178.257053727383
142625000	-29.5405703611672	-73.7034380881217	-1.13203492631888	-119.665931836815			-60.1959388336946	-36.3410790441684	-16.4736667261031	177.748286565446
143312500	-29.0155927977905	-80.5081765772297	-1.02472074833279	-123.31181502413			-62.1004479724268	-118.841009976582	-16.935607873578	173.746349969907
144000000	-29.5294794647416	-72.780304101185	-0.931507887519088	-126.79048695648			-68.1862038530084	-120.243814886975	-17.3503525770123	169.413715968639
144687500	-29.1368941362912	-79.4843714149894	-0.876755770150764	-130.482370526045			-56.0127088424225	-91.5844822863143	-17.7358413463017	165.426591723889
145375000	-29.8218551441859	-75.60446896463	-0.810733636652518	-134.133450760266			-66.8563708533565	-143.112006378031	-18.2146589321705	159.36024516365
146062500	-29.1045348938162	-78.4802004156762	-0.724774159656262	-137.309425754654			-57.2929132124992	-129.224498713363	-18.788942207957	154.335382331337
146750000	-29.4664890114285	-79.3672371736454	-0.663976058870672	-140.900036112819			-58.7239602327308	18.47439119053	-19.2380959966374	150.062237970779
147437500	-29.0014248222306	-79.7226872299453	-0.636367917718319	-144.109461280302			-64.9717055839624	-124.389664238153	-19.6971596681184	144.836245210147
148125000	-29.848845899354	-79.99296941701	-0.603928451081245	-147.556127847511			-63.6320164161938	-28.3503883379284	-20.0075331368298	138.441310551812
148812500	-29.5078197039708	-81.0987041353578	-0.516268821916989	-150.669929518172			-56.308682432229	-117.356425157544	-20.4357586049482	132.792314105136
149500000	-30.2122378547118	-81.0897463519471	-0.528608656667926	-153.905735588965			-61.2526261713191	65.5596016808751	-20.8846870939188	124.667534993083
150187500	-29.4919474439686	-82.028897387492	-0.474952515067581	-156.855903478567			-60.8144241004732	-118.957212417961	-21.2647511286741	118.879168167991
150875000	-30.2201744793213	-83.5539039695121	-0.440839446337563	-159.936244454127			-56.7124977416331	124.036268470272	-21.6137595597561	111.155853070205
151562500	-29.6462471885752	-84.0445194884658	-0.480331538362658	-162.950410027469			-53.9041601367809	-88.9737363870178	-21.7539586297934	104.705798115007
152250000	-30.2031345759203	-87.8392505507712	-0.421989603523706	-166.134829081887			-54.9823466720437	-170.082545131078	-21.977682834691	97.2736475436747
152937500	-29.9959958337946	-84.3587711952136	-0.411520101150536	-168.431153477514			-57.0374084315827	-17.5418881279727	-21.8688986443127	88.691749130589
153625000	-30.2676524401787	-91.3692943363593	-0.394482270039201	-171.690072771825			-57.8933963634174	135.077364420842	-21.903760815581	82.1896665928872
154312500	-30.0883770175488	-87.3291067611843	-0.383147490029893	-174.072698320365			-59.5329335625151	-161.051874533752	-21.5439603474744	73.9226570706882
155000000	-29.6330611520599	-95.0182888655237	-0.360226720522589	-177.138867867243			-54.6052468997505	167.821221813461	-21.5228440612484	67.7896337988795
155687500	-30.1129699198651	-89.6062976256007	-0.368010986286893	-179.38842118581			-61.8394398781734	-103.79419700866	-21.1505553925128	60.4236016223286
156375000	-30.0381196943852	-97.4000823332534	-0.326187603979124	177.493685504395			-56.4878853662558	152.928705813859	-20.8565669513717	54.2778789351837
157062500	-31.1459345744289	-93.7669885153049	-0.345265235239154	175.054492031677			-74.6433921454829	32.4543538894313	-20.6004193887825	48.8769420373631
157750000	-29.4851240153734	-98.7524361521735	-0.256731724855191	172.43192931461			-56.1207839440739	-135.354892139016	-20.0510995760543	44.1754838432922
158437500	-30.6493696394177	-96.9962421535697	-0.327164401834215	170.135091029319			-58.584485133776	-106.833277963727	-19.6737038690042	38.0845822470597
159125000	-29.6931473746976	-99.4748344340561	-0.25195762226388	167.269741461623			-58.1771236069223	-160.450904451925	-19.3513240205217	34.6797683920107
159812500	-31.3365515409976	-99.3872762914734	-0.252622206918963	164.810208545912			-59.4458712162588	2.04746788556122	-18.9375041750366	29.340192966302
160500000	-29.8530949145858	-102.259399759916	-0.214623927496957	162.174479872952			-66.396960766408	112.907030805663	-18.6085060999756	26.1078718092171
161187500	-30.1817497712384	-101.825786967964	-0.275603259091961	160.103465107391			-61.0156614213062	56.3926508656987	-18.2775756142794	22.910836415271
161875000	-30.0322872717579	-100.495588704903	-0.190763444709798	157.28091992722			-56.7138614926183	-37.0931221179181	-17.8560301263723	19.685641685973
162562500	-30.0160045048173	-103.326214527619	-0.226848938456401	154.802793349046			-64.7417533354091	-147.580850008745	-17.5645647830898	15.881827815051
163250000	-29.8267803083143	-104.236437057364	-0.220107713494274	152.19841866663			-54.135954282869	-162.7548103837	-17.1402791479199	13.2551471808114
163937500	-30.0630447936738	-105.513327903031	-0.195646246098511	149.95035499559			-53.4781283077869	95.7726565762721	-16.8761960991946	10.6376747317817
164625000	-29.5644949082258	-101.297292761868	-0.179833883600715	147.299698064335			-67.3644984871691	-129.793225687497	-16.565320157108	7.56506001934959
165312500	-30.3341680058039	-106.916530518471	-0.216273647667705	145.040423815702			-65.1264357463345	131.989165162186	-16.3510302450075	5.25480783294934
166000000	-29.7865370031168	-101.543096873849	-0.192659780271352	142.63895171133			-55.9764430494052	-136.617914551045	-16.0333807714712	2.0834664132888
166687500	-29.8000956056942	-108.468745691626	-0.206965727140571	140.355856191733			-55.9847575097428	143.920608995221	-15.8845719242165	-0.161253328982765
167375000	-29.7291689805556	-105.247375369845	-0.200848287184759	137.967601667987			-64.8183307886356	-145.965079596499	-15.7476530136105	-2.45044897389174
168062500	-29.8449302438576	-108.03065010304	-0.221967759652643	135.776623678962			-54.0288437872538	124.156975004816	-15.5072632844619	-4.2192981681483
168750000	-29.4894073312966	-102.832432017567	-0.19378400696456	133.548753628161			-58.1630795850764	-115.665814465774	-15.4063986112492	-7.39496152319689
169437500	-30.0790351863978	-109.365475400941	-0.251823733823499	131.185807216433			-55.7887689806906	140.862975000593	-15.257446395136	-9.9490484713082
170125000	-29.7052655805221	-103.956118296598	-0.239207879114304	128.969893990488			-65.2028758908505	23.3954324307274	-15.1254712991966	-11.5574734372747
170812500	-29.7846542588283	-105.040064756964	-0.241455760229008	126.843949696994			-58.066588038751	-165.242358187034	-14.9720016860878	-13.9544345169905
171500000	-30.4291205504727	-107.045990554721	-0.244001024633516	124.5940995286			-56.6033394498874	106.175495033268	-14.944372840155	-15.6526827921236
172187500	-29.6957708089608	-108.084705789412	-0.267139105267644	122.640804316118			-60.3143930935695	112.471775804631	-14.7825221278367	-18.1644219662184
172875000	-30.374783852575	-109.561187519392	-0.246457047142714	120.473791237983			-57.9532696896434	89.7913473897103	-14.7562254718285	-20.7182201131805
173562500	-30.077717350292	-104.614354161828	-0.267277181735653	118.671153947523			-65.5889781973003	-147.810070624031	-14.6679273479637	-23.3948935766175
174250000	-30.17758104817	-104.882747505232	-0.255775359388223	116.394276319919			-66.3498723819061	-27.2807373045902	-14.5719800222706	-25.8215699902826
174937500	-30.2681033995507	-103.227339018031	-0.267593832778477	114.554048772095			-58.7659100980735	-145.753574581617	-14.6260720227426	-27.1637136790116
175625000	-30.2736197154443	-108.305960674175	-0.272390157265204	112.472601372274			-58.3092365620293	91.2760062788112	-14.6492979213799	-30.213740975411
176312500	-30.7623921531083	-106.555960964305	-0.238080517880122	110.581477742934			-57.0009306389362	-128.352657642586	-14.5687544227689	-32.9705015041091
177000000	-30.9315317610723	-105.985953924534	-0.190088317990986	108.598150957085			-55.7594705856149	102.796972130717	-14.5938578507481	-35.9500278477508
177687500	-30.5564720741709	-105.2155640823	-0.23829684319096	106.652799626852			-55.6085294591549	-130.470559382873	-14.6155688755605	-37.7579314481209
178375000	-31.3810913041253	-111.268264603686	-0.161761097002454	104.373541806744			-53.4341054731345	136.752707074006	-14.6182353716769	-40.5694222730894
179062500	-30.6596709133118	-107.561799006055	-0.186200032526751	102.400982023748			-58.1719442781537	-84.2897664747185	-14.6291321924251	-42.8779913529854
179750000	-31.7164607895982	-113.226299273801	-0.147265570426521	100.350932700501			-60.096213940283	105.011092934762	-14.6022695025432	-46.0805974300592
180437500	-31.3155457021331	-108.551810255542	-0.105551359220643	98.3958641879571			-65.4462755787326	55.9532734708222	-14.804300617105	-49.1284052152036
181125000	-31.8309572787685	-112.043452336384	-7.63950797176432E-02	96.215526234795			-56.8109997778343	122.351575895174	-14.7341648179053	-51.8553932671488
181812500	-32.1134681169555	-109.073638166684	-0.06073958852349	94.427958172188			-59.463487534559	-32.861036773294	-14.7735195157438	-54.3926321576501
182500000	-32.311927497002	-117.203829701337	-4.51906158670709E-03	92.0720404662576			-58.7043047643415	136.37549623849	-14.7965689780241	-57.8127162340357
183187500	-32.3469482709714	-110.764280611369	2.17224271076098E-02	89.9918190302592			-62.9607108820308	-97.7381478175509	-14.7998310044286	-60.9305098852484
183875000	-32.8625766109442	-119.201567437413	3.19310755968768E-02	87.8348341784062			-61.8193725058483	126.886141112089	-14.9430893926705	-63.5837210557048
184562500	-32.8556240520822	-118.18198345481	2.90430681752283E-02	85.8510317914712			-68.9796426402157	1.49665002296469	-14.8854252955359	-67.1749026331866
185250000	-33.0874664598149	-122.807536084905	8.34069069777592E-02	83.5859608646179			-58.4739369780852	170.679327690348	-14.9936144519701	-70.3070049761781
185937500	-33.9652863810079	-124.01619200278	5.95282414849757E-02	81.371897425213			-58.9421696395361	22.6464257865488	-15.0372436154082	-73.3832935417017
186625000	-33.0959225282213	-131.687791317793	6.76107526442025E-02	79.1338387378228			-69.2217501376931	21.0707273546979	-15.0398314365491	-76.7166448191309
187312500	-33.6058213725864	-138.905143422062	8.52361928342203E-02	77.2024003361402			-60.7105668975252	-3.16423648325973	-15.0004655080865	-80.3811345365265
