# Hz S DB R 50
100000000	-33.7866976486183	37.9908755717975	-15.3900732454773	4.68256953105416			-64.4330877873652	149.801493826194	-3.56650260628055	80.1965110889968
100687500	-33.7123217487414	39.0226582030283	-14.8761002569079	2.96107541227525			-65.7869336486724	64.9914381064476	-3.47006732844479	78.0061065563627
101375000	-33.5820571788634	30.3285580186568	-14.4789500765001	0.81518255915262			-59.125216228009	-114.864335167687	-3.51456157215136	74.9393149709431
102062500	-33.8875560172651	33.9762173468646	-14.0035418520042	-1.22478436198866			-57.2566048369078	0.883140612779026	-3.49894300497949	72.5758653558097
102750000	-33.955857241887	26.0838101348516	-13.5947146738038	-3.78362740764174			-65.5699404122787	-25.4941839942258	-3.50576809044439	69.66454524555
103437500	-34.495134600955	27.1501042750093	-13.1965040703447	-5.65204104945344			-61.143952400776	86.0219699365886	-3.45515146610028	67.0829101415504
104125000	-34.6428507504984	21.4608663526058	-12.8073493722061	-8.36308635003869			-59.4224723929456	8.24819900771698	-3.47821418479326	64.1307864900501
104812500	-34.1047622076704	23.6310557791997	-12.4065165055962	-10.0896510624282			-61.5000545138888	-22.0616970947045	-3.47481568412775	61.4741850534542
105500000	-34.2278926799321	15.6877213524468	-12.1351379748259	-13.1802329367006			-67.004075626323	-63.5500536662932	-3.4707371519299	58.5649867477771
106187500	-34.9665697059241	19.6463602162194	-11.784229051612	-14.7905296002779			-58.5013859775797	53.4379464462733	-3.45461255613431	56.1726112177144
106875000	-34.6331100298923	10.2910201863435	-11.4913793059682	-17.7652710241646			-60.2801109271636	-32.6812499659313	-3.50126197480583	53.071473161227
107562500	-34.1751893954595	12.9252437297744	-11.172466390328	-20.035758003048			-58.4142425428234	172.925969586394	-3.47972679342953	50.3486758101912
108250000	-33.6735638585479	6.58070718796669	-10.8733762651604	-22.7341418916776			-56.227739773948	-26.7611075578756	-3.53520742868811	47.4227227077536
108937500	-34.2219916966271	4.60548804154341	-10.7018745977582	-24.9384631659644			-55.9202856399374	151.367471511544	-3.55250246075517	44.8527571574205
109625000	-33.862441984371	4.88001380669778	-10.4183251353577	-27.5359618197162			-59.1264095993096	-4.53896549178888	-3.60377190599002	41.822037629205
110312500	-33.8021244724118	1.7293647618165	-10.3342222991052	-30.1640448009014			-57.3879261054445	-175.71294367471	-3.60561453867526	39.2939625341993
111000000	-33.3664677068455	-0.983216339191322	-10.0407654646778	-32.841748030803			-62.252214137375	-19.5647694494064	-3.68767733683524	36.1150443823295
111687500	-33.8588563544929	-4.30316638471576	-10.0442808938688	-35.2713392076101			-62.6611101214362	-169.992762078766	-3.70559093123574	33.3279057862343
112375000	-32.8811381718651	-1.82169167069372	-9.87673014304663	-37.8303905230177			-67.5335348633695	-19.9337539193411	-3.74940800638854	30.4619962893896
113062500	-33.3797504505834	-10.4189193754825	-9.8819250903747	-40.2258279478348			-62.9111490217166	0.287521918444029	-3.79096197033339	27.6038231804229
113750000	-32.428020831986	-5.40212544207521	-9.78831251563505	-42.2011690724988			-59.6119145818157	11.4063736510547	-3.85062260913139	24.5390951860658
114437500	-33.2881475728397	-13.6378130855596	-9.82330040692438	-44.7219391280476			-63.1307186300914	-75.5894336340267	-3.86586527467035	21.4235914791575
115125000	-32.5375449101432	-8.57511427503382	-9.79551031179927	-46.9136201054548			-55.1816124737565	31.076150645754	-3.94535583537468	18.2340505881093
115812500	-32.1089680797022	-15.0211552251154	-9.85324227054537	-48.9303970396008			-59.2056434563698	173.824328426258	-3.99728615129286	15.0043298008217
116500000	-32.0460997195498	-14.5266515828435	-9.97496745636419	-50.3822060761308			-70.0659496473355	-115.039478282479	-4.04808532341787	11.3893450427075
117187500	-32.026856212927	-19.8969452896841	-10.1501319568261	-52.5159321224521			-61.0973491400554	-95.3639919330656	-4.09688115876664	8.55171449226604
117875000	-31.809017077598	-15.287395782368	-10.3835578528632	-53.5255392258776			-68.2144954450021	123.420177211296	-4.17998538478604	4.82879122845515
118562500	-31.3035868994662	-16.8222745708546	-10.5657605201279	-54.3371820923854			-59.7903333727237	-147.520029899193	-4.23453001493593	1.35204205964746
119250000	-31.1984974316356	-20.1209262165671	-10.9391890249597	-54.6190424705534			-60.3417214775776	10.439402652987	-4.35430353417279	-2.40422612989884
119937500	-30.6257773601786	-22.8664196837779	-11.2344665789675	-54.0797715138602			-60.6365809023869	-54.2228150476799	-4.40996090652869	-6.46853909323919
120625000	-31.4124017204724	-20.5125146818217	-11.6415991245224	-52.4971985915491			-57.7898925944831	76.5404764676431	-4.48386213007864	-10.5240922603202
121312500	-30.4026309398706	-26.1080067534192	-11.9749572413939	-49.8017677053649			-58.4177012727786	-88.6334017448269	-4.57057975288524	-14.4563924493462
122000000	-30.7051941131239	-22.5255611919252	-12.3492532907153	-45.5158045632257			-60.2197880828593	-144.489368736084	-4.67819556644555	-18.9009808658945
122687500	-30.0976106695961	-23.9332517090342	-12.4082782953666	-39.2949752617054			-58.5313161722411	-112.737178434903	-4.78848885378867	-23.2282273085866
123375000	-30.3147601462419	-26.3710566998133	-12.2428488562911	-32.2420057100824			-54.9970199818077	127.852056771731	-4.93308216789299	-28.0206518822987
124062500	-29.858664767841	-25.5873394417216	-11.6408786469658	-24.5732349190926			-60.2755161261991	-37.2136977162999	-5.0645420166882	-32.7549544480356
124750000	-30.2192100551617	-28.7355575752001	-10.6281306319953	-18.0688441803429			-55.0902146980117	152.482319799503	-5.2515486256176	-37.9697990046474
125437500	-29.4592293098691	-28.2754671884426	-9.34521335223083	-13.1944276943604			-58.9921034063645	54.474442512801	-5.40611466462977	-43.3579336240192
126125000	-29.9506249280063	-28.2014211239075	-7.91348792127685	-11.0257988413751			-60.6286959967502	-110.942625228212	-5.68806424820589	-48.5256758401885
126812500	-29.2936810362216	-29.9484532913628	-6.47616493731314	-10.5440427298966			-56.2362232463318	8.5755275997926	-5.89090731820754	-53.9614577067319
127500000	-29.858884967794	-36.3752727415752	-5.14684492945708	-11.7114575966711			-58.0380842029525	-127.435386917437	-6.1684643833391	-59.8545529278025
128187500	-29.765968541026	-30.1247830307108	-3.82847150067166	-13.6998000051347			-59.3363548599943	5.09055993557323	-6.46859196470628	-65.4827584499821
128875000	-29.3433073646049	-35.8589275659351	-2.65496117174125	-17.3812386211396			-60.8729709192296	171.508429335016	-6.82669141255285	-71.7744318430453
129562500	-29.8205770967887	-32.7584417945315	-1.59270152935155	-20.8611451359729			-60.0989250027584	9.92458261521916	-7.15648347091968	-77.1729302512503
130250000	-29.4106816113644	-38.0540835869323	-0.628171782621791	-25.6693801297618			-66.4931638661431	-119.287805197544	-7.65504040606408	-83.312971285333
130937500	-29.5822181224975	-33.0162351043494	0.208870128508669	-30.2719593171869			-61.0595943873181	60.3470268826302	-7.99978544453132	-88.694346628044
131625000	-29.5276780567396	-40.3192126919332	0.93826994667957	-35.483553095511			-54.9004746052128	-108.966033315887	-8.5002743515256	-94.8093758271208
132312500	-30.1117772699065	-39.5013983859353	1.612608491195	-40.3939080826147			-57.2620329795317	53.4304765593629	-8.97668155641687	-100.313469516891
133000000	-30.0097139828216	-43.340016808558	2.19902850667056	-45.8432413407296			-55.5347747553156	-97.0028841288393	-9.47174489040891	-105.977459880211
133687500	-30.2285592324313	-43.3112805645027	2.66649782408768	-50.6200021981428			-55.9419856587886	55.832599112774	-10.0077133229037	-111.174598793057
134375000	-30.0302598588614	-44.5571419044416	3.1789240077289	-56.1030053605233			-56.888522197879	-43.5306261600831	-10.497193804143	-116.817853519475
135062500	-30.1685138924031	-46.0828764360713	3.53242375966007	-60.4754118114477			-68.1977911246641	46.8009520481767	-10.991538820573	-121.850918217324
135750000	-29.9492699349619	-44.1118599489322	3.91730375482208	-65.6629240352768			-56.8842431774072	-23.704345479503	-11.489076575538	-126.682389032841
136437500	-31.1669366789146	-49.5243379724793	4.19164297696475	-70.2333773563545			-75.2886942881523	81.6431178046811	-12.0207118065197	-131.930207776793
137125000	-30.6317072712103	-48.6273821871896	4.51390104355091	-74.7872416005047			-63.147020446518	-18.0233047168224	-12.5158853161583	-136.131361959129
137812500	-30.9662256749712	-50.8526989282562	4.69937676006343	-79.3599234297594			-61.0883187839207	142.937509846623	-12.9669389110544	-141.435228481012
138500000	-31.0964338772893	-51.905211024845	4.97797090930663	-83.7174053542034			-55.0243855341386	-63.6324696912039	-13.3904162738448	-146.435498050946
139187500	-31.1095592752869	-55.6213741548946	5.15519712572839	-87.9596100380516			-58.4103625189305	-175.530007830284	-13.9198077286384	-151.180215718988
139875000	-31.5826736331008	-54.2789554249118	5.36795522748569	-92.0527076668447			-57.18783883289	-43.4794171535699	-14.3202075257179	-155.621621448175
140562500	-31.4819261876994	-60.3389004362078	5.51192147694977	-96.3245979379408			-57.5830427460928	-122.779557132472	-14.7580503596519	-160.275265400782
141250000	-31.4427897645958	-57.3877876042348	5.69982040552252	-100.375363038262			-73.3274984174113	-142.844786131072	-15.1282769716738	-164.881069488631
141937500	-31.8255452967391	-67.3344171402961	5.80111729164929	-104.297437746075			-58.3430806477749	-115.976946891046	-15.5741502556351	-169.353409854431
142625000	-32.4331177790832	-61.0704387061841	5.96816214556795	-108.075954290298			-60.5899820808873	85.9297458928348	-15.9118502267551	-174.526547661488
143312500	-31.7644922590342	-71.6629270473943	6.07095320873312	-111.994249439211			-55.7818812275364	-158.183694572238	-16.327504349007	-178.935495954121
144000000	-31.9914931088929	-66.5180370570677	6.18858643651487	-115.420832008261			-56.6195378744615	-45.1647369557716	-16.5962459793556	175.957453859761
144687500	-31.9864005814802	-76.0096783991269	6.24646288308164	-119.235520408321			-58.0960244381352	-53.5745712212753	-16.9318384469672	171.813701685422
145375000	-32.4891153074234	-75.9182477584454	6.33025063360368	-122.995562911501			-61.1943261369585	-95.2284342844909	-17.2613958850917	166.535687827799
146062500	-31.2407533017136	-78.0049644179314	6.43369101116512	-126.28703605455			-54.9160384337635	-161.758503457567	-17.6892599770115	162.100433449741
146750000	-32.0223258768839	-77.4543099054887	6.49659128394303	-129.777537658674			-66.7832674784974	-93.3747962493751	-17.996875245469	157.478486128184
147437500	-30.9675966528369	-83.9452822050508	6.50975113827418	-133.295158509136			-55.2282589703154	-116.550262391149	-18.3545829681686	151.849541823557
148125000	-31.835678088683	-84.0886545865366	6.58390983441778	-136.604265842056			-69.5019423604466	-100.894235861711	-18.5063775004485	146.949269060478
148812500	-30.9707014576973	-87.0689036766601	6.64605242552018	-139.744285990814			-51.1997892209718	-93.5090194733204	-18.7037069562189	141.231949933652
149500000	-31.7010623496364	-90.7752961817097	6.67652377597076	-143.014856875495			-64.1969316694433	138.706451906732	-19.083467069853	135.736066257778
150187500	-31.088183749074	-88.7902343002445	6.70790355723161	-145.933360262383			-62.4689173408852	-92.8946004075398	-19.3237052046691	130.026696725877
150875000	-31.2271415461743	-93.7777488063028	6.73195596252795	-149.362135324856			-55.9238712374645	-136.651242242051	-19.6287780542206	124.587845229643
151562500	-30.4012083700218	-94.0990599892175	6.76065571889247	-152.162533717866			-57.9987485317812	-144.290612780238	-19.6348913030234	119.186768109024
152250000	-31.0392882716909	-101.406653384486	6.75057310870691	-155.304295587472			-55.9131159494466	-170.855333837602	-19.8454833299941	112.880552590728
152937500	-30.5517428697643	-98.665494611839	6.80434469761692	-157.91896101114			-56.1156099968157	-130.014462913123	-19.7249025448485	107.159514384683
153625000	-30.2888472761792	-106.064746403141	6.77978735203369	-160.985062272672			-59.3253727730328	-144.935876280006	-20.0201923470045	101.751526870288
154312500	-30.0201946385884	-101.874092351214	6.83469173944433	-163.367799680399			-59.6901552810867	-56.9649962627427	-19.7399489823866	95.8419586014237
155000000	-29.4006800820425	-108.315981796006	6.84633435589956	-166.499266740082			-59.7217827995269	175.867251795584	-19.8047773831115	90.8185459381582
155687500	-29.4649523204599	-103.317263563781	6.8462256538276	-168.69968491297			-57.621547669461	-55.0038667037661	-19.7062581258234	84.3635658561071
156375000	-28.7106561114994	-108.522457253717	6.90909522298238	-171.753968935989			-60.2524824974284	-140.665565591015	-19.7344195002582	79.2494340804148
157062500	-29.4632207732605	-106.394248407728	6.87999248323617	-174.249304831877			-61.7348908064842	-167.518626032959	-19.7018044386703	73.8700303781884
157750000	-28.1516404942536	-109.193335815824	6.95161959042454	-176.958289385781			-53.04518689795	-165.502995543123	-19.3703675351272	69.5910919369196
158437500	-28.8060658083321	-110.173955872691	6.91914595742648	-179.269028036553			-58.1550234746637	-165.550703830065	-19.211025920583	64.5203994993624
159125000	-27.7420482510587	-110.179152552667	6.97110628348569	178.039685017744			-49.5907102325697	-175.658529166213	-19.0242736107609	59.040315591143
159812500	-28.4323067020689	-112.226301862867	6.98993270548879	175.523258365759			-68.3012717123966	-157.608034992514	-18.8464286132096	54.3773978509537
160500000	-27.5209874957782	-109.984587424581	7.01442470952219	172.858758543675			-58.467502905197	-74.4474026549881	-18.4372727598934	50.7649179792863
161187500	-27.5928232052001	-110.951912795718	6.95103819362581	170.735253553942			-54.7030336530208	160.393080407451	-18.3344682683393	46.5069748154475
161875000	-27.1861629882826	-110.176719090819	7.06191854668871	167.865410438707			-55.9713801301439	-173.869419383158	-18.1297195363772	42.4091306012644
162562500	-27.1497720952826	-111.604325138891	7.00986463491566	165.427154594829			-60.1537615585814	155.566831759686	-17.9978170036895	38.5843233143707
163250000	-26.635388114334	-110.901940778899	7.03718989535537	162.786880215755			-52.75747824833	-153.064165619032	-17.6400277194468	35.2022959094878
163937500	-26.671125833407	-111.460329051732	7.05370092176634	160.70403067798			-49.8554021632512	160.179402589668	-17.4910601863622	32.5333691822623
164625000	-26.2825684769749	-108.430318930327	7.05007722861649	158.103135266634			-59.1212540764687	176.573898127724	-17.2758488312632	28.0701446975766
165312500	-26.4970789810259	-112.177234423143	7.04523240757595	155.801880841757			-54.2398301957562	152.32011350882	-16.9297740425021	24.9606917855325
166000000	-26.1200399933312	-109.174602213692	7.06358663664869	153.30271948008			-53.2875883891156	-115.039454689677	-16.7146882095421	21.3567618913323
166687500	-25.9807742378669	-111.18411923488	7.06170473752638	151.125692133105			-50.8808724430788	119.061030216027	-16.4440746862596	19.4372261950229
167375000	-25.6901362510696	-110.357695772574	7.07650952893835	148.733864004227			-56.1698383335	-156.175382085413	-16.3847347675124	16.5727634217293
168062500	-25.491836042861	-111.836527510894	7.0689927994023	146.443840178741			-61.3949442778419	137.440152811226	-16.1788620524037	13.8904272027681
168750000	-25.3312770628866	-108.577216740184	7.05684729066023	144.056047626466			-56.4404760199184	-153.903229224328	-16.094791131005	9.92957232498512
169437500	-25.1478352471999	-110.974347750043	7.03503329337865	141.930065310777			-58.9947016239675	168.965487188354	-15.9228623208513	7.32394380330613
170125000	-25.1975921644833	-107.331019793526	7.04737015140769	139.53032917026			-59.0963513662495	171.635680828244	-15.8919945050508	5.50508909191045
170812500	-25.1469465438254	-107.469049391504	7.01554935126265	137.476597281292			-51.4679443012716	167.896335973767	-15.6996544854	2.38897818066459
171500000	-25.2309741284792	-107.959512294008	7.02105794521551	135.290616223713			-61.97288767464	68.038729637937	-15.6336983290196	0.486311012531346
172187500	-24.6127062545938	-108.797295876304	7.00176977198498	133.347788810515			-52.5731652074107	179.625271142621	-15.4927475467156	-2.85211629437834
172875000	-25.0529869380441	-107.251417528814	7.01172369397262	131.191261987024			-53.5325239230946	144.941697472031	-15.3443272490283	-5.25112189500891
173562500	-24.4135187477992	-105.717187848406	6.98390138769151	129.230738691928			-53.6620209903134	-170.393671125743	-15.3756238379862	-8.13004563008225
174250000	-24.5676185386041	-105.155756526242	6.99834279948977	126.967941491684			-60.2095886222064	148.756758191177	-15.2410208397641	-11.2483811926933
174937500	-24.3303854495282	-103.448213619422	6.98685448924239	124.974350347575			-62.5344571365178	-86.5637398264117	-15.1641776831274	-12.7661866998172
175625000	-24.3785182006287	-103.826646653403	7.00862240068721	122.991386239479			-64.9780478333139	131.833333463537	-15.1440256581746	-16.3196473101603
176312500	-24.3393253486897	-102.309287613089	7.015854649284	121.194426744449			-59.3564219251195	120.46520093182	-15.0365164970864	-18.5231256403658
177000000	-24.5108299629043	-103.299535990971	7.05991958954659	119.23850909753			-63.5502498007461	116.450295257334	-15.0352197778485	-21.3221474813309
177687500	-24.1578768806473	-100.90321387639	7.02519052747194	117.335525649318			-65.3725892062015	-54.2369890361905	-14.9694229941707	-23.5522581327758
178375000	-24.4162791130981	-102.179241838363	7.08027612916674	114.993896470551			-53.0107110324322	123.469931557427	-15.0451386502512	-26.5235981492662
179062500	-24.0799586476838	-99.750817171008	7.08298153178599	113.243956454779			-57.9381161563273	156.097724707055	-14.9827500443653	-29.6187848955543
179750000	-24.2568508382045	-101.5251438755	7.0894149469328	111.120332985905			-63.2647818627987	73.554904790098	-14.9303284209422	-32.8310678262162
180437500	-23.9911326075175	-98.5295210088777	7.14798291318816	109.306898953406			-66.0980637059235	124.770824854302	-14.9268494989452	-35.780146632707
181125000	-24.0745769258963	-99.7399999110241	7.15673116862269	106.993411899453			-51.8835758394575	107.324176169748	-14.8799545861473	-38.1109876977609
181812500	-24.0849507624729	-96.1979764920001	7.17018563504592	105.169226295937			-61.0250330253934	-134.511870180058	-14.969498349391	-40.6288020428569
182500000	-24.2752706437939	-99.3986625787628	7.21291277863007	102.943367126282			-52.1585287425078	118.050611973579	-14.9634827424515	-43.3972315491479
183187500	-24.1612972382732	-95.658409468391	7.24806705349919	100.892448349317			-57.4872964675525	152.866554650105	-14.8825041543406	-46.7318970173323
183875000	-24.0690416102442	-97.3590650541339	7.27261541904278	98.6526222939321			-56.9923851990265	156.705590913377	-15.0125666729863	-49.2365041172062
184562500	-23.9872265821567	-95.1675141648431	7.27037666367435	97.0518623696966			-64.2273686704069	14.9892825733955	-14.9179432001294	-52.3541674476702
185250000	-24.2363667743433	-97.984157671738	7.2989074539103	94.6554635377089			-54.474790614876	136.383561734877	-14.8899655132212	-55.6920079927673
185937500	-24.44694323823	-94.3068037118654	7.29557199010002	92.5730353858219			-55.6336462708781	116.924340895082	-14.9642102678833	-58.4676205921324
186625000	-24.4097517201124	-97.7951855395429	7.3233616452463	90.3719184570268			-54.8632997424347	142.3106019083	-14.9611110964523	-61.0343432160703
187312500	-24.7546235935706	-95.0591048777739	7.3351391707096	88.3748714405095			-66.9954939568529	69.3544112989256	-14.8673662091208	-64.0322060474288
188000000	-24.3720868333184	-96.7292284206858	7.34092442956977	86.2067636492627			-54.6944259182585	165.61657541842	-14.892929955097	-67.114826598923
