# Hz S RI R 50
100000000	3.52986546043671E-02	-9.53844278090365E-03	7.64866187731688E-02	-2.35928733629591E-03			1.05059267102033E-03	-7.04672718073609E-04	0.221618860003878	0.632061540313045
100687500	3.27828318099493E-02	-7.63901919704188E-03	8.02153485811989E-02	-4.33665447850271E-03			-7.26181294298754E-05	-1.209160071027E-04	0.248562766929208	0.624518837467138
101375000	3.42112848782716E-02	-9.33248206590172E-03	0.084236394274414	-7.89237029290772E-03			8.46762956124288E-04	-3.92732736556131E-04	0.281471056056806	0.610587677170753
102062500	3.35165528710721E-02	-7.78040783482937E-03	8.73769032476595E-02	-1.12653355829551E-02			-1.17963897741395E-03	6.86891473797499E-04	0.307129308509013	0.596267641211028
102750000	3.43233975747919E-02	-8.12616156168615E-03	9.28051629671395E-02	-1.62649951663136E-02			9.07850880717471E-04	-4.41569845718818E-04	0.337107487883701	0.58309203702842
103437500	3.17536348235936E-02	-8.29102678338866E-03	9.44891074375553E-02	-2.01101847289576E-02			-2.46718178877399E-04	-3.78394864259437E-04	0.36404365335623	0.56931565434041
104125000	3.42231435416685E-02	-9.60407601192713E-03	9.94458779656354E-02	-2.65036452154703E-02			8.26448637932088E-04	-3.47052965779099E-04	0.390754937571346	0.548979046898985
104812500	3.06137196924076E-02	-9.37313697261742E-03	9.99473966737258E-02	-3.02249234654749E-02			-8.42165152742222E-04	-9.84953910450389E-05	0.414812990846663	0.528149798186396
105500000	0.033857750744654	-8.44198755265659E-03	0.104487574509716	-3.55301667839395E-02			3.41990221522635E-05	4.75200798405859E-04	0.443735237744329	0.511670058782557
106187500	3.01124527009391E-02	-8.56109058974463E-03	0.104385068867122	-4.21264581522439E-02			-1.21856166467875E-03	-5.62184579951272E-04	0.459674561610899	0.484549994823745
106875000	3.25559754518855E-02	-9.63614684387104E-03	0.109154498824504	-4.76455282832386E-02			6.36182121402931E-04	6.40778360682335E-04	0.484614112389021	0.462495005167426
107562500	3.02535481237691E-02	-1.03637628950442E-02	0.106784462455901	-0.054435135617618			2.43022847421658E-04	-8.42649614891356E-04	0.507701060946792	0.436484375676754
108250000	3.36381832799237E-02	-1.01798945689309E-02	0.109596156197326	-6.02328598643713E-02			4.74667519755557E-04	1.10456609500713E-03	0.525360403217916	0.411127768364625
108937500	2.94049934268546E-02	-1.11820322949186E-02	0.107580297616488	-6.69543603679615E-02			1.55792818896346E-04	-7.76898420465243E-04	0.544902150206544	0.384556408148738
109625000	3.04267293923908E-02	-8.68011209735544E-03	0.108900910463251	-7.31071845917622E-02			3.96615102310898E-04	1.20644505071143E-03	0.561439880365222	0.355979445619691
110312500	0.02980580612429	-1.11969766232847E-02	0.104794864912923	-0.080084000173572			-5.4495722543827E-06	-1.38290344910503E-03	0.573247672886506	0.324138488402473
111000000	2.99622399573427E-02	-9.74326427776301E-03	0.104941984596194	-8.54069726406399E-02			-2.02418589709478E-04	8.24637566063898E-04	0.587444354528589	0.293300350590774
111687500	2.77659487846765E-02	-1.25204579095302E-02	0.100529216405104	-9.29127503333885E-02			-4.11975701821129E-05	-1.27983433338298E-03	0.598686206203235	0.25966894937107
112375000	2.92230342711031E-02	-8.71796018483183E-03	9.94153951222283E-02	-9.52938897220428E-02			1.68647816467475E-03	-8.02331866807362E-05	0.60693973315567	0.231184103367684
113062500	2.83016271058162E-02	-1.29188191839353E-02	9.47119408083225E-02	-0.102399122619255			1.39877342308529E-03	-2.03967541634582E-03	0.61697865634646	0.196506065878788
113750000	2.81450241687814E-02	-1.02823668302814E-02	9.07149689758989E-02	-0.10347146693593			-3.28666821283763E-04	3.84179495527384E-04	0.621955579347093	0.161286437170326
114437500	2.65674514446806E-02	-1.35920403724927E-02	8.62146153140922E-02	-0.107862271890115			4.25154563635222E-04	-8.44039102740231E-04	0.629464070597863	0.124203980861021
115125000	2.62867731726335E-02	-1.19869954887405E-02	8.10500476008987E-02	-0.10945691899547			-5.87509991535198E-04	6.25901095727326E-04	0.628809820502731	8.86608514943343E-02
115812500	2.71199619361152E-02	-1.35907502226784E-02	7.73545543719538E-02	-0.112050784507931			4.5210953723744E-04	-9.25434420947722E-04	0.628135709224928	4.98040759976355E-02
116500000	2.50145059058169E-02	-1.27173937556359E-02	7.27855537401792E-02	-0.110111575785788			-1.6800740653551E-03	-2.98394476945534E-04	0.628369146135755	9.92065474044562E-03
117187500	2.69244062395159E-02	-1.47742508208676E-02	6.98444074261519E-02	-0.109237994712692			1.80424087889804E-03	-1.93440996832328E-03	0.620809635781996	-2.68713107049491E-02
117875000	2.37262960233992E-02	-1.24159001614377E-02	6.45573967321406E-02	-0.106972543696993			1.74117309524979E-05	1.64193155786321E-04	0.612744839574669	-6.62675329447571E-02
118562500	2.58139900872732E-02	-1.45348854171992E-02	6.33954256909921E-02	-0.103406896718316			1.15730732521944E-03	-7.91803161214157E-04	0.601341117716238	-0.105282223330047
119250000	2.31276738899596E-02	-1.52242352297131E-02	6.06645637602627E-02	-9.82066026334549E-02			-4.64586372483547E-04	-7.53084323422884E-04	0.585876475462199	-0.147235671856554
119937500	2.46273918269268E-02	-1.78948137429987E-02	6.20296838953994E-02	-9.28335422055512E-02			2.74681921568915E-04	-6.97331663032096E-04	0.570063077055091	-0.188827963994917
120625000	2.16309868963582E-02	-1.64418901691111E-02	6.34295510092811E-02	-8.53231162178477E-02			-1.11605152062553E-03	-2.44796499384757E-04	0.544827714980385	-0.227324633689856
121312500	2.43407703443145E-02	-1.71744453894618E-02	7.01602902665987E-02	-7.64674056865693E-02			-3.28437621072281E-05	6.82730877310049E-04	0.518638685946579	-0.266572865344928
122000000	1.96520648509332E-02	-1.82482253296358E-02	7.65132829154074E-02	-6.89718706370663E-02			1.85234963946042E-04	-5.6444246435548E-04	0.488026536393655	-0.303468845703883
122687500	2.08582969369355E-02	-1.75307921440907E-02	8.79278218325956E-02	-5.91662645805743E-02			1.08229232330978E-05	5.14439546970854E-04	0.453055319323391	-0.337833202556646
123375000	2.00790919983302E-02	-2.06295171455732E-02	0.103733031422838	-5.36980713719113E-02			3.60744424082847E-04	-1.0457282276728E-03	0.414761421632905	-0.369449477285292
124062500	2.22376785206827E-02	-1.91646643901227E-02	0.124430568973763	-0.045664323391611			2.76284594955068E-04	2.70115407144259E-04	0.370299835157557	-0.399705145857195
124750000	0.018762563829648	-2.06664724843663E-02	0.147704147016442	-4.41889655425205E-02			-5.97358424861072E-04	-1.70844534476119E-04	0.32315290128815	-0.425081096805393
125437500	2.28992907520723E-02	-2.01403969295564E-02	0.177262257143287	-4.59057843587109E-02			1.3104462731597E-04	6.45486083023927E-04	0.270386422753775	-0.440796203356342
126125000	1.70674285933959E-02	-2.12450994726932E-02	0.208932450722907	-5.67206989152633E-02			1.87478168714551E-04	6.35780945618931E-04	0.220076906242889	-0.451150670596248
126812500	1.90818869786167E-02	-2.13897772984808E-02	0.242020599238319	-7.15935128766135E-02			5.77390394732787E-04	1.08129012534251E-03	0.167683897986288	-0.455305782991588
127500000	1.69016308209692E-02	-2.37211135360223E-02	0.274896223962569	-9.74811905969344E-02			1.41119272578165E-03	-1.48673540964318E-04	0.117059544351071	-0.451646763841571
128187500	1.71342973062288E-02	-0.021303338331866	0.306448990378804	-0.127648104335999			-1.01124994337927E-03	4.22901190024992E-04	6.62329115014871E-02	-0.443275789799005
128875000	1.87621881660815E-02	-0.024433696850423	0.334177105762998	-0.173313699806788			1.8167084171363E-03	-7.52265204510545E-04	1.89538960885893E-02	-0.426750341351186
129562500	1.69403174252357E-02	-2.27319599746191E-02	0.350801000689636	-0.219642977163636			7.35764245086473E-04	1.28437724145341E-03	-2.44918481203225E-02	-0.407318972913287
130250000	1.73592394098197E-02	-2.52375311161375E-02	0.367311977335102	-0.275844117888387			1.38533287871135E-03	-7.14661349504998E-04	-6.07946014953296E-02	-0.382516207110215
130937500	1.56297011525446E-02	-2.43751069954929E-02	0.368926499546827	-0.331432760613613			-4.07578193139944E-04	-1.90035700187824E-04	-9.35675456707295E-02	-0.35760661704569
131625000	1.62620512656442E-02	-2.66498958191597E-02	0.362183537326142	-0.393354972224741			2.23020686258079E-04	4.27468971362366E-04	-0.119343099943902	-0.324885068619233
132312500	1.43595977812193E-02	-2.52895441497894E-02	0.346292378665295	-0.451383394686832			6.41918225015335E-04	-1.55153383161493E-03	-0.142753728434293	-0.296648631576531
133000000	1.49585106720704E-02	-2.70966719113515E-02	0.321157412350599	-0.510431200411498			9.83654386100095E-04	4.70409361537627E-04	-0.157075025522123	-0.266393800696909
133687500	1.32936922253052E-02	-2.78032609898938E-02	0.286589861022213	-0.560423358379097			2.35518515193102E-04	-1.14683702219202E-03	-0.17105819092178	-0.23726938959467
134375000	1.54765124172498E-02	-2.78536396891723E-02	0.251331726577232	-0.612266916114063			1.89617944824107E-03	2.38971709313746E-04	-0.178402517515848	-0.208165474674707
135062500	0.010216408802961	-2.88419857335503E-02	0.205126509004001	-0.651901008104374			-1.44634452180648E-04	-7.66763032483617E-05	-0.18426252164139	-0.182862894835658
135750000	1.56825324895082E-02	-2.72066774609897E-02	0.155324013781381	-0.694586248119381			1.98214697091158E-03	-6.71573051463012E-04	-0.185502035193542	-0.157779609613364
136437500	1.04488138794351E-02	-3.01058179317471E-02	0.099183108109754	-0.723027696306649			-6.78063150685437E-04	-2.33357522243509E-03	-0.186622835932686	-0.135571814038676
137125000	1.35810666194709E-02	-2.84742319109784E-02	4.64965013303803E-02	-0.752683645011074			-3.83477354067942E-04	8.36990481168467E-05	-0.18429601898486	-0.114691786438185
137812500	1.17346543192931E-02	-2.99413629672174E-02	-1.61832331679457E-02	-0.767977124136756			1.50147872507679E-04	-1.70837156946136E-03	-0.182393383865894	-9.62334257990739E-02
138500000	1.13490520914909E-02	-3.12765067301969E-02	-7.25143656712514E-02	-0.787966261476331			1.70606989612511E-03	-3.37923096768857E-04	-0.180307986649875	-7.55377655764847E-02
139187500	9.50789611145646E-03	-3.16581990334345E-02	-0.132061068317947	-0.791344052274167			3.91237232420437E-04	-8.40431296268049E-04	-0.173320823745934	-6.24074497106089E-02
139875000	1.10045281380684E-02	-3.03641472846178E-02	-0.19116230502207	-0.799663328180564			8.80261022518089E-04	-1.17385835973159E-04	-0.16919008583834	-4.83892366275197E-02
140562500	8.39005791000128E-03	-3.21008658494673E-02	-0.250022744692722	-0.793065716379729			-7.71130355683426E-04	-1.7237035600132E-03	-0.161481054869789	-3.49643268048683E-02
141250000	9.36413288890406E-03	-3.09631212294791E-02	-0.307819748465365	-0.789683511875918			1.30259377834472E-03	9.98150726864462E-04	-0.156438346706535	-1.91755593894732E-02
141937500	8.53749792249256E-03	-3.21009521997907E-02	-0.36698396339776	-0.772922583323266			9.56468906399999E-04	-1.83413877014696E-03	-0.149170798537287	-7.53978444406653E-03
142625000	8.83308890651129E-03	-2.97558321463591E-02	-0.42468816561434	-0.759978372826572			-6.13146313606186E-04	-4.0571275734794E-05	-0.142425334958396	7.29511833132621E-04
143312500	6.87435254901271E-03	-3.46102636742313E-02	-0.474767753707059	-0.737763368440855			-2.84916378799875E-04	-5.96532522375895E-04	-0.133536599286504	1.15647138502066E-02
144000000	7.44974299516567E-03	-3.12125976681889E-02	-0.52640306235096	-0.714386574014058			-6.05950255215053E-04	3.42049359575992E-04	-0.127545530787618	0.020584639860351
144687500	5.84302733432638E-03	-3.46843555208056E-02	-0.575056900873019	-0.683784775645081			1.31470057819455E-03	-9.33999912631847E-04	-0.11611394365611	2.76446983796035E-02
145375000	4.12225468520162E-03	-3.20511864473308E-02	-0.623205306121361	-0.65276562543509			-1.19413054056957E-03	-8.35108713272517E-04	-0.108784612154554	3.57481168459127E-02
146062500	6.71394661745139E-03	-3.41092616090685E-02	-0.663537517207544	-0.618417978640311			7.92591557995449E-04	-1.90051156729336E-03	-9.64514505761351E-02	4.35632366746946E-02
146750000	6.1734374545578E-03	-3.14526770975426E-02	-0.709442759330605	-0.584960719115477			-2.92090228594917E-04	-6.07883367873527E-04	-8.96471281101951E-02	4.77361615542252E-02
147437500	6.61882294093792E-03	-3.51989673370993E-02	-0.739124461771706	-0.544153521048532			3.20635895939055E-04	-1.22718546811822E-03	-7.77790279043357E-02	5.50766872151314E-02
148125000	0.002255149116561	-3.34433056656397E-02	-0.77895274132299	-0.502630419983832			-5.11397827153985E-04	-1.22061525140291E-04	-7.13103757416748E-02	5.82010224032183E-02
148812500	5.67527942147612E-03	-3.33398704815443E-02	-0.803359814884508	-0.462620390331016			-1.24477495018796E-04	-4.83337674179406E-04	-5.92451539182808E-02	6.29847313495336E-02
149500000	2.41256176479551E-03	-3.29938264761186E-02	-0.834953562259686	-0.418359436044116			-1.88797778827411E-03	-1.08604965881012E-04	-4.95244616958667E-02	6.53212039926578E-02
150187500	4.45727012072194E-03	-3.20558873232309E-02	-0.855837438771813	-0.373187837753468			5.19999810613391E-05	3.91661832552311E-05	-3.83934536231144E-02	6.92064799633539E-02
150875000	2.17021932643162E-03	-3.29545158526925E-02	-0.882935655654395	-0.32826725929432			-1.52580325816344E-03	-8.900232853118E-04	-2.78460284435631E-02	6.99820363480538E-02
151562500	0.004084536851668	-3.45234994532808E-02	-0.894405211282037	-0.282932145743078			-9.08669561019659E-04	-1.16047150816148E-03	-1.84729346331678E-02	7.39949238218273E-02
152250000	8.39002147519172E-05	-3.45535027975672E-02	-0.913890713361006	-0.237106263716467			-1.3136057501197E-03	-3.9830079751456E-04	-7.9563574182008E-03	7.15399048068047E-02
152937500	2.6689968024079E-03	-3.10842881218755E-02	-0.92673039967471	-0.19452818114182			9.58273741099157E-04	-1.0281843192797E-03	2.37388855377734E-03	7.38104402697469E-02
153625000	-8.12498751239833E-04	-3.35286248176762E-02	-0.93785524778723	-0.148082816451369			-1.06620137970405E-03	-1.4573194885113E-03	1.18846612113593E-02	7.17391604250434E-02
154312500	1.43629968050501E-03	-3.10462874894338E-02	-0.942484163008655	-0.102711019907343			1.76305796173702E-03	8.03125210508246E-04	2.17613296815692E-02	0.074383306371282
155000000	-6.1349978803169E-04	-3.50953008292463E-02	-0.950463793223327	-5.75330102071832E-02			-5.80089854662321E-04	-1.50994817716608E-03	3.11980426288182E-02	0.071595162358749
155687500	-9.18341869797661E-04	-3.21286170297464E-02	-0.947811880757623	-1.51701500828813E-02			3.58916405730005E-04	2.06508570159549E-03	4.19811249415886E-02	6.94287438582612E-02
156375000	-1.38960548319534E-03	-3.40127585663496E-02	-0.957491653410126	3.05235799410493E-02			-5.29269650987098E-04	-3.28358976670017E-04	0.05035944788628	6.59913913927747E-02
157062500	-2.24626909056707E-04	-2.98905811351747E-02	-0.948125496646852	7.48928207584725E-02			-6.05339782806812E-04	1.37570478762305E-03	5.89588513657496E-02	6.44626373384536E-02
157750000	-2.97439413492773E-03	-3.35395991366312E-02	-0.95438693070366	0.117257719912178			-4.36446962857892E-04	-8.6853934430388E-05	6.90660035568072E-02	6.33270654197774E-02
158437500	-2.4262677577261E-03	-3.05606407428828E-02	-0.942760903070904	0.158706502102391			-9.24668681966951E-04	1.31398251839553E-04	7.71336481921467E-02	5.96706952746782E-02
159125000	-1.51412547508809E-03	-3.35655786985449E-02	-0.94209648855112	0.202011432653312			-8.13048519025193E-04	-4.33914411887929E-04	8.78087465168182E-02	5.64010256201038E-02
159812500	-2.94241369013907E-03	-2.91529311882783E-02	-0.931206855794702	0.245863342975425			-2.36478563027206E-04	3.22973302817778E-04	9.42118695088785E-02	5.17888484154864E-02
160500000	-3.19013709113978E-03	-3.32364004212262E-02	-0.923978827699399	0.287689617923006			5.91014221665253E-04	-9.90571996144042E-04	0.104027264532038	4.77048966087449E-02
161187500	-4.47256525474249E-03	-3.07410448760383E-02	-0.905918559103732	0.321008682451611			-2.22163789435455E-03	-4.05591465336859E-04	0.109545178587702	4.23771292367955E-02
161875000	-3.51707915916145E-03	-0.033526128160607	-0.899340065287999	0.366330586450789			1.69660917800555E-05	-8.58241297551484E-04	0.117778951956248	3.97447170259812E-02
162562500	-5.71842658246925E-03	-3.15586835046364E-02	-0.875035937099464	0.404157230448268			-2.04718989999567E-03	6.06133266500672E-04	0.123426210290363	3.24387628555638E-02
163250000	-4.43323157676975E-03	-3.26411685446501E-02	-0.859973715935921	0.442776794926611			4.50476057720723E-04	1.65890401996372E-03	0.131530965404165	2.89880681475393E-02
163937500	-6.86760008714023E-03	-3.09483562749689E-02	-0.843301872630865	0.477703494238419			-9.08562281372647E-04	-8.16349279474627E-04	0.135144074848522	2.15340929658748E-02
164625000	-2.91279115239354E-03	-3.17739138126174E-02	-0.822749798971866	0.517000613799588			-1.22241818474367E-04	-6.60902620152159E-04	0.143159863067156	1.59913814249721E-02
165312500	-8.24162619533024E-03	-2.94081388969873E-02	-0.797717548173137	0.545030222788022			-8.16626509721219E-04	9.11592467581482E-04	0.147815048535829	9.73891718623257E-03
166000000	-4.12284037540064E-03	-3.07671912832693E-02	-0.774474916938451	0.582841814686928			3.4967169196505E-04	1.25503148983785E-03	0.153936086113453	4.51556627591014E-03
166687500	-8.3741228188853E-03	-3.04691547152091E-02	-0.751455635388322	0.607851781159717			-9.08043548097439E-04	-3.06096408290268E-04	0.155891427935482	-3.42820602379611E-03
167375000	-7.39448682664359E-03	-2.96775016591044E-02	-0.729379548336691	0.643122623196975			-1.22812813090028E-03	8.6634822641012E-05	0.160328984009996	-9.21808486855892E-03
168062500	-8.92096808861228E-03	-3.11325878550785E-02	-0.697761179522387	0.669117601668647			-3.02722719126119E-04	-5.46476452714662E-04	0.163357713258716	-1.75882188812811E-02
168750000	-6.88884064367264E-03	-2.93963155667966E-02	-0.672323033442324	0.700557654385566			4.02739419955857E-05	7.64489985408869E-04	0.16300587541099	-2.32031373522177E-02
169437500	-9.21240590070649E-03	-3.09690657500105E-02	-0.642262993891987	0.719839153984238			-1.17508733455117E-03	2.06942783496235E-05	0.167680662270152	-3.06966231109431E-02
170125000	-7.76629406832637E-03	-3.05834578106063E-02	-0.615589573810268	0.74812800460477			-5.80099423136615E-04	3.96156261362746E-04	0.165943037568039	-3.62459025883004E-02
170812500	-8.61655629820125E-03	-3.12070820288511E-02	-0.583029898895135	0.764160562920548			1.49872205991673E-04	-6.83751352821479E-04	0.16918429137005	-4.53423645623967E-02
171500000	-7.83386887933166E-03	-2.82219214394116E-02	-0.555752254766609	0.79027726939825			-3.84259367856551E-04	6.52147332038946E-04	0.166647268510025	-4.87047231462301E-02
172187500	-9.63308448125413E-03	-3.11459078306497E-02	-0.522732027975304	0.805207544920568			-1.19992607978558E-03	-1.14355775137042E-03	0.166393060584812	-5.82220010493546E-02
172875000	-8.58497439635718E-03	-2.86682261499964E-02	-0.497386259413392	0.825124293473526			-4.19709519933458E-04	9.59121909094412E-04	0.165228248309581	-6.53155822920871E-02
173562500	-8.33598516765571E-03	-3.03648867097561E-02	-0.466117265009411	0.836808873513399			3.45698259835223E-04	-1.87013415200427E-04	0.163933099204164	-7.22672156105193E-02
174250000	-1.04419983120364E-02	-2.78931099240878E-02	-0.43770875440028	0.86354011434512			-1.23986023436438E-03	1.01829229943541E-03	0.160542535617201	-8.04442160224745E-02
174937500	-9.35566583560269E-03	-2.88977582145158E-02	-0.404855588049822	0.869739785432199			-6.00487042824119E-05	-4.1131851824465E-04	0.160485469190347	-8.35259427401689E-02
175625000	-1.12277480981959E-02	-0.028721578329122	-0.375834633458052	0.890844255047541			-2.22334725283292E-03	3.4251446142536E-04	0.154313316851298	-9.22269027881004E-02
176312500	-9.22552613993508E-03	-3.02466982268104E-02	-0.344417868622461	0.901022668896407			-1.9613551354577E-04	-3.04847935363382E-04	0.154943883297664	-9.96958065200411E-02
177000000	-1.08436304818153E-02	-2.70193287750265E-02	-0.318885511525406	0.920735169038877			-8.0919501102574E-04	1.5006474662775E-05	0.146102373390413	-0.108728515897191
