# Hz S DB R 50
100000000	-29.6194423420492	-26.796982474686	-21.8767850563957	-6.27003698090449			-60.2091592757139	-131.284988400902	-3.45018588843068	70.7994218670358
100687500	-30.1473604356703	-22.5417320805128	-21.2704787853024	-6.41960031218772			-62.8028830399063	35.3039430447893	-3.40922781606715	68.4538393602668
101375000	-29.6763424031186	-25.8134132290868	-20.8953624762619	-10.2735823648697			-57.1225672527676	-134.09617483705	-3.42458591675637	65.2947445214985
102062500	-29.9490979065709	-23.5291539460358	-20.4509790639959	-11.6337248930366			-67.1468931241918	32.9239170946373	-3.40182360516548	62.9853150946601
102750000	-29.4921096096408	-25.9265403748794	-20.0580689921449	-14.4153509497476			-57.0776283274855	-57.0262230539236	-3.43864135279367	59.8485288652087
103437500	-30.2167323947358	-26.4601406534831	-19.7149328565321	-16.3689017686431			-56.5055310025027	126.378410394165	-3.39125154396733	57.3916018248935
104125000	-29.6265622345857	-26.989635629267	-19.307054490163	-18.7035667332884			-55.250059633437	-74.5880370937297	-3.44261797933712	54.2598427952729
104812500	-30.1113381362564	-24.9861981627948	-19.0413197133135	-20.8968884491846			-55.0968587770561	53.8238330816624	-3.44460565752839	51.7729862688519
105500000	-29.7723338022804	-27.0701142117996	-18.6975568760301	-23.7000419936518			-58.7386430428242	-77.3200577718902	-3.44672309361695	48.6563255157488
106187500	-30.5124371850597	-29.6482032062807	-18.4398801968898	-25.9239920202092			-56.2226355393194	92.1542650385349	-3.44256041882424	46.0708482163039
106875000	-30.0011761816368	-28.2107319897672	-18.0989804433408	-28.8383410100622			-61.5946006655426	109.710199682882	-3.48432931319149	43.00664680072
107562500	-30.4172007961426	-29.8732899035434	-17.9352527858254	-30.7476821817378			-59.6915592749679	94.8119156884518	-3.4504963056681	40.400088041529
108250000	-29.5202955296057	-28.2023333830918	-17.4846724600941	-33.6449546142489			-51.8159613406639	-51.8589596146191	-3.52425244953661	37.1822728987666
108937500	-30.4693526166374	-27.9834098510893	-17.4276567134598	-35.7812668227355			-63.348647333257	49.0338895045922	-3.50610545388008	34.7752286134673
109625000	-30.1040376445917	-30.3780240701503	-17.1856810193518	-38.8913018646449			-64.4064943879438	-18.6315693231953	-3.54475836853247	31.5307252719106
110312500	-30.3339702428177	-29.6887732262771	-17.1245390768996	-41.869037682689			-61.931680696836	-144.44397966376	-3.59020447258038	28.973298113371
111000000	-30.2240146397423	-29.6372950564355	-16.7993865267332	-43.9763660939992			-60.0565675991696	-45.2000876566243	-3.66470148420392	25.829054889906
111687500	-30.8713836389312	-35.3310526968251	-16.8824990275313	-46.9266042568933			-60.7188140242392	100.243262716899	-3.65983319791265	22.7703922324154
112375000	-30.8670374129962	-30.3309308285476	-16.8022376302317	-48.9760781044313			-56.4979875957559	25.1884224835516	-3.7516369710415	19.6410510882998
113062500	-30.6834526880482	-33.5172419266604	-16.7941900402354	-51.93065878769			-57.6003258398255	160.303010457631	-3.75602975804408	16.5569254346497
113750000	-30.597223745459	-31.9334429339991	-16.7635231519782	-53.9226390031985			-62.3669613759543	42.7745859835091	-3.83047042737339	13.4843202171303
114437500	-30.9790929553831	-40.0680312909523	-16.8597844986733	-56.5432598991301			-55.9478591203534	-107.984121470077	-3.84158682123578	10.3125942851872
115125000	-31.2919824627864	-35.2012882963507	-16.8768926959345	-58.4118485279613			-60.1306487002448	61.3978014808467	-3.91018164915768	6.72409103900752
115812500	-31.0316659278696	-35.3551985092717	-17.040190112149	-60.2858614317932			-60.0729456449914	-93.5082364606221	-3.99552788563958	3.15514162451992
116500000	-31.1540915937509	-39.727315183652	-17.2232617135813	-61.4658883432819			-57.532670051569	97.2139453370985	-4.0259672146146	-0.556054416986043
117187500	-31.0026043481835	-42.4452112185672	-17.4528026581593	-63.2711648514824			-55.4459268111395	-105.495901675563	-4.11453943243156	-3.91245715751397
117875000	-31.627800352741	-39.7521885161317	-17.8218036930645	-64.0767759318304			-55.6698968744831	22.4370730825764	-4.16612479902062	-7.6532491507118
118562500	-30.9463895206554	-42.0418961856709	-18.0191237261726	-64.4755315631954			-57.0606363321887	-72.7727393993181	-4.23973947568561	-11.7119425778516
119250000	-31.4902421303289	-41.7362695664944	-18.6801404126392	-63.4303644129558			-60.96855319812	93.8477328390667	-4.33974994840705	-15.7543695558499
119937500	-31.1582351932137	-48.003918082402	-18.9621904741939	-61.4537410254239			-55.4433215379187	-57.6780779071939	-4.37849594082819	-20.1958397266768
120625000	-32.2554103276137	-47.821315813654	-19.4237552837952	-58.3906400719342			-55.4019958813689	163.927217823102	-4.48587172995602	-24.8144645560296
121312500	-31.1318976901251	-47.4124217274138	-19.7324136506711	-52.8535632532907			-58.3940298490876	-55.3269153215782	-4.57155637749875	-29.3453226113914
122000000	-32.3299892935651	-50.1736700171898	-19.8855911643448	-45.2691861121047			-58.3118055456145	73.009225481501	-4.67714947713129	-34.1911740905043
122687500	-32.0569503634784	-50.2123937617838	-19.4590857033598	-37.2109607078265			-60.5402898137956	-108.440301884219	-4.799691589608	-39.1643705968648
123375000	-32.095825140355	-55.4620761894988	-18.7566552137379	-29.3412052553132			-60.8186675271687	167.474970158282	-4.9360493074498	-44.3062721920332
124062500	-31.3819244059333	-51.2997127782942	-17.4222953635474	-22.5737613239588			-64.9608068632977	102.777073600341	-5.08233430566617	-49.7149981083601
124750000	-31.7949188167037	-55.501004069615	-16.0841840280584	-19.1422137053722			-54.5253923348577	143.332344650223	-5.27575976872081	-55.6401264962179
125437500	-31.2875133795147	-55.7531517846157	-14.5186872485024	-17.1419872101349			-55.2020262408166	27.2054905718647	-5.46572166055749	-61.4497967636697
126125000	-31.9580813484961	-62.0841364227086	-13.089197345286	-17.8306976529387			-54.1365458763814	108.309387573187	-5.75421801523311	-67.1773756222086
126812500	-31.1028495650834	-58.78095749272	-11.6768961961159	-19.4318708466561			-58.5176065974717	1.00256311807872	-5.96268669223941	-72.9949881121125
127500000	-31.1765214251648	-66.6607680844801	-10.4696627476656	-22.7142838774573			-56.7232221062572	-171.938835521432	-6.28697173260002	-79.2528056232572
128187500	-31.2307078756133	-59.840166049777	-9.24741534186766	-25.9865170877386			-62.0552787354278	22.502997093918	-6.56135938121799	-84.9842744568821
128875000	-30.9407860721815	-69.9613990360419	-8.26035246572525	-30.7851648721202			-58.2366990662978	99.037803388583	-7.00442652828324	-91.3860749029993
129562500	-31.3820896236242	-64.5841916973825	-7.32573679694594	-35.1137559954242			-58.9668543924168	53.2748218645271	-7.33960838695346	-97.4136518106709
130250000	-30.5931238153314	-68.9592862324795	-6.5196168746197	-40.6098468018143			-56.7016741368373	-163.654310379715	-7.7894993370436	-103.373984506821
130937500	-31.1800629790646	-70.3489975516368	-5.82406684417498	-45.434199860569			-58.841555723243	53.6941799554724	-8.13265624295047	-109.000701141897
131625000	-30.4178083428412	-70.5198532261402	-5.22035733605079	-51.1263388087842			-59.2875099734873	-69.2785499872039	-8.62930876841765	-114.988506047695
132312500	-30.6538591182147	-71.3379908180995	-4.65195092867202	-55.8684572238857			-56.9358078303508	70.2790996078096	-9.02266799399399	-120.271149109843
133000000	-30.3945668765498	-76.3685345016469	-4.16422451325371	-61.3484305286285			-66.9653421646765	-99.2994297888404	-9.55216426353866	-125.745207032127
133687500	-30.4979221060844	-75.6778484097053	-3.78012972789771	-66.0125378849448			-59.3416618080584	100.7677523702	-9.98537859488252	-130.99015713185
134375000	-29.9870443502645	-75.5689673232501	-3.35727856576046	-71.3849969617743			-62.0765721421636	38.3242456819242	-10.4569301663775	-136.445297094536
135062500	-30.3274842862541	-79.5693161367935	-3.09267069242076	-75.7727092524401			-65.0779570871978	149.815071483237	-10.9055835493114	-141.146690164947
135750000	-30.2334152933551	-74.1643232013869	-2.76794909929641	-80.8351616258522			-58.4539866092959	-63.3330767824965	-11.3988924648941	-145.430397643312
136437500	-29.9865787949869	-79.1087899769661	-2.52647005090953	-85.303190665941			-59.5051682438525	101.274190517474	-11.8279337484539	-150.428902307044
137125000	-29.876196577762	-78.8441481052306	-2.25183489652761	-89.5711994592676			-61.151983628093	-99.4656892085353	-12.2798903431168	-154.670803233624
137812500	-30.124776159656	-79.7195102879844	-2.05430063414023	-94.0396448356862			-61.490995978322	41.6443219966958	-12.7062355710428	-158.957965623474
138500000	-29.3470235175523	-81.0906496993673	-1.84658063425799	-98.1361238733751			-56.3265627408167	-13.8506740723384	-13.1171919138201	-164.162144873937
139187500	-29.4865907683859	-83.4515236365758	-1.67802059169133	-102.475867499106			-56.5106664139383	-141.013685747364	-13.5896594835506	-168.024788098514
139875000	-29.8997950428428	-79.3413836290035	-1.49647260828276	-106.519273168369			-58.3311159696882	-46.6611250987421	-14.0189177159858	-171.828737636426
140562500	-29.4406127268855	-85.7781033581784	-1.37873374024271	-110.432319836271			-68.3077656058263	-164.608077358395	-14.4254734070596	-176.665155639968
141250000	-29.5231717127245	-82.3836542023446	-1.20250608230416	-114.541990348902			-55.0802991091111	-42.1735496646054	-14.8573539793354	179.567527264216
141937500	-29.7756994304248	-85.790116970726	-1.13485899036825	-118.432599926873			-61.0955335862759	-128.47624079235	-15.2397676529895	174.88382515646
142625000	-29.8051417036429	-79.0820374921444	-0.991501699902417	-122.226831579979			-61.1108235305874	5.13658236816069	-15.6947464229519	171.32392663457
143312500	-29.1822774399002	-87.7100893267493	-0.871282172268937	-125.785346977022			-54.4900498825932	153.518481122321	-16.1366787668748	166.571101947183
144000000	-29.4132212298038	-82.4790295149305	-0.785032060810202	-129.27792406301			-55.375737307793	4.02534874193561	-16.6336113885823	162.190926279913
144687500	-29.1806541335166	-87.8433973104753	-0.719626656291598	-132.984673036617			-63.2231917610576	-166.29145150965	-17.0146125117779	157.953936777891
145375000	-29.8999565366653	-85.687816320668	-0.647259384086073	-136.567238882321			-55.2473847210003	98.786260093055	-17.4591032548348	152.277195026264
146062500	-29.0932334383169	-86.0502271900286	-0.596065204877072	-139.848555138048			-72.3833012915048	155.309334660675	-17.8961430089233	147.546198372592
146750000	-29.8686599853761	-85.2428932281727	-0.539438132786766	-143.406630921123			-60.6426206257048	-148.421116803909	-18.3121673104829	143.041608517789
147437500	-29.0792007236447	-86.7409469254952	-0.499393163841738	-146.522616468253			-58.208729067602	-123.121796117373	-18.7551972830632	136.503193024392
148125000	-29.8614614498469	-87.6229068884222	-0.475302877476811	-150.170030561647			-74.9183679610672	89.7524650470748	-19.035543519413	131.559096403232
148812500	-29.5661825972277	-92.3136950430435	-0.410177485950149	-153.161136427158			-56.6103439766639	-133.829989345436	-19.4936732238296	125.802884754679
149500000	-29.9473496563439	-90.6909449132849	-0.364257283447206	-156.390853034888			-55.8039979718551	108.93620768183	-19.8348935104676	118.79428274587
150187500	-29.8769209237516	-90.4031438390501	-0.353622545802288	-159.357350003189			-61.4441969409208	-113.080919974334	-20.2481776084361	112.915408558573
150875000	-30.5795500605636	-91.2679598033583	-0.309859804093959	-162.508005878538			-58.697581719107	132.26682078659	-20.4816881418088	105.60701838251
151562500	-29.6722647350746	-90.4398114860203	-0.309766032539187	-165.316222129186			-55.7897550379817	-80.7729103883917	-20.6412245672382	99.0639566348247
152250000	-30.1397133579343	-95.662395938076	-0.301715046378635	-168.416063990856			-55.4146442927014	108.998045321872	-20.8184916497712	92.5673422694594
152937500	-30.134854143687	-92.0304101123501	-0.253730465500855	-170.854205351972			-60.1700954051137	-27.467360526074	-20.8333232951887	85.5393343160167
153625000	-30.0817240773452	-98.441058599763	-0.259628209738646	-174.084377650565			-54.7050223247662	102.924652186142	-20.8947182012912	77.9190154390338
154312500	-30.1420635771328	-95.7702636947961	-0.242224126304906	-176.494124127041			-55.999387594671	-18.8356140298403	-20.5955067867137	71.3190424362804
155000000	-30.2084929652479	-99.6026566845963	-0.234270544345849	-179.623861604628			-54.9616558720885	-160.094125242283	-20.443991042449	65.3917957528892
155687500	-30.3176527496054	-96.1370838462042	-0.237210803296522	178.228989655048			-60.7581584401025	-105.915733833514	-20.3574127842484	57.5033759583814
156375000	-30.1247078894873	-103.903644745662	-0.17685291103873	175.015490656469			-64.011269665023	-173.488769459398	-20.0535693486485	51.5499305504665
157062500	-31.169278736396	-100.80890806358	-0.21325741730218	172.835145370767			-64.1104439749365	-30.5149321414279	-19.8139273513124	47.1572646133088
157750000	-30.2187751268367	-104.781672793422	-0.120402313251202	170.185457058213			-68.3938648808545	-153.167879751794	-19.4979683891489	42.5936925407897
158437500	-30.983833570241	-104.749236727547	-0.17296585410692	167.703207077658			-55.8810471105677	62.6670080130971	-19.0827735353037	37.9259072366318
159125000	-29.815711002226	-103.256956274176	-0.108427372280946	164.949080629132			-66.4023735211221	-123.542301310883	-18.818551905447	32.5520653953038
159812500	-31.3024392379464	-105.466104420208	-0.107745419674443	162.525080941763			-59.5340650784291	124.166190947661	-18.5301556063011	28.4636807527567
160500000	-30.0981277253137	-106.919916327868	-8.37059156283125E-02	159.829306945973			-62.1635758050859	-141.805238972876	-18.1302807506932	24.8106712704696
161187500	-30.5908320539309	-106.05024469433	-0.143266955718729	157.469889219501			-62.4922341544863	126.417003302276	-17.8069780895414	20.7896084700217
161875000	-30.2688852963179	-104.855833332457	-3.83859061196521E-02	154.773962660091			-61.6611217106926	-109.617889524726	-17.6868693868662	17.5378223947513
162562500	-30.996431454021	-110.099833715542	-8.96132949357131E-02	152.359968498826			-57.1300852941074	134.204610326435	-17.1767471836281	14.6591589487165
163250000	-30.14286185361	-109.535580615236	-7.43377953172072E-02	149.809569179396			-55.6133911657472	-148.758589272191	-16.8744048529766	11.2971728616823
163937500	-30.4796522328227	-112.247472740712	-7.92791886382135E-02	147.588400011931			-75.9397997724278	-70.435740267995	-16.6708028508481	8.60260604587194
164625000	-30.3405084643739	-106.487425812387	-7.64153367429169E-02	144.931767819889			-55.2309662433436	-53.3935015094179	-16.3965512330422	4.80954699040743
165312500	-31.0279787188986	-115.86480616204	-7.44396677168277E-02	142.693993109156			-54.4976625321757	115.78486285885	-16.2216093400849	2.9834440574561
166000000	-30.7274903733571	-107.581864765856	-6.53411795642757E-02	140.1832420574			-57.1420302354275	-114.654421119182	-15.9558254832387	-0.108797985100242
166687500	-30.7187720769155	-116.094627252998	-7.49065418335436E-02	138.002080325271			-69.1654850246258	16.57202801253	-15.8238738295855	-1.93982335971456
167375000	-30.4692262245527	-112.169998780619	-4.29084358886291E-02	135.72643304694			-63.1223490577726	-86.1023631473767	-15.5245580177427	-3.97432899179258
168062500	-30.5748406156713	-116.332980013141	-7.84638394612125E-02	133.516136755853			-65.2294704801964	168.072880996428	-15.5034426629204	-6.07222592256788
168750000	-30.6493034554948	-111.059285610342	-6.89237525638832E-02	131.097109263068			-69.0233116044456	-50.6455891335917	-15.3621511217022	-9.64822559782085
169437500	-30.5275117287024	-116.915756438322	-0.114074130144736	128.884813771952			-54.4673221685642	161.585100277105	-15.2024823387317	-11.1707493838824
170125000	-30.2032218566812	-111.653809609256	-0.111162729587326	126.755530009462			-70.4656155655335	175.166779488701	-15.0966004391847	-13.8664128495433
170812500	-30.4462540388492	-116.442219568958	-0.13980099594547	124.625435393189			-54.9375842278152	168.181571196799	-14.9933027473357	-15.7610872552738
171500000	-31.3317627781904	-114.834823712045	-0.113995262111559	122.361890261031			-60.640362024292	48.113225092543	-15.0098007452665	-18.2357901849092
172187500	-30.3212989924837	-116.219265377916	-0.144813814873238	120.491893530907			-58.203795380067	167.182067733701	-14.890897924007	-20.6987331206389
172875000	-31.7210128466382	-115.218040723093	-0.119988197303792	118.373170655877			-61.1761612148507	-31.4065713946192	-14.834147706352	-23.1924366876122
173562500	-30.2761360816386	-114.598133082861	-0.162720494900163	116.360819323856			-52.0734701635348	-135.11801423966	-14.8250278083454	-25.587173545256
174250000	-31.1814154552157	-117.965835057244	-9.11663553843491E-02	114.121717856834			-58.2508806563705	112.443655678698	-14.7983363812301	-28.4034177198732
174937500	-30.8185144825747	-111.588510684346	-0.133592739636625	112.466232872491			-59.1989324303057	-162.152579918418	-14.804123576938	-30.2526019911407
175625000	-30.7848484901972	-115.62440219995	-0.124336159605365	110.134948587747			-56.6536449936955	112.752724587101	-14.7755290063266	-33.0831060737986
176312500	-30.9015121181706	-116.140868043164	-8.43434537839903E-02	108.419934633376			-56.8672784269772	-164.198817023561	-14.7503495863488	-35.5918193212981
177000000	-31.4851831827072	-113.710545351038	-5.79583106343918E-02	106.286469346516			-58.2238658322761	23.8365365789171	-14.8404353374514	-38.6236189137581
177687500	-31.4675830717169	-112.564082849521	-7.18205559580631E-02	104.451981792307			-73.2557530917691	-2.77457939963122	-14.8641694776863	-40.3659654073383
178375000	-31.8227624443131	-120.313430683112	-1.52699873511921E-02	102.22729516619			-54.7849115847604	117.587211118507	-14.8635097293956	-43.3052170282899
179062500	-31.8504335142996	-117.130471996391	-3.79589368380433E-02	100.302861789583			-61.3232865346723	-73.0597658654571	-14.9545582986501	-46.3959822749999
179750000	-32.2151312331801	-123.092170043492	-1.01421888488231E-02	98.1876491894117			-63.1536422351355	106.098984824557	-14.9069181994008	-49.600032024281
180437500	-32.1264007180006	-117.488104671252	3.66759402222317E-02	96.2211852391818			-57.1517704905845	103.283145241119	-14.9295401133966	-52.1388214624988
181125000	-32.6343444026986	-123.929016602701	4.96468364344518E-02	94.0433857913366			-60.3578757457427	103.919612206881	-15.0455218654757	-55.6853192076614
181812500	-33.2387586117818	-119.485742489175	7.43602659224786E-02	92.0674048461125			-63.165177253896	9.5377642577271	-15.1622126778016	-57.9976054799803
182500000	-32.4623205847969	-126.779848371824	0.124460864514224	89.9766832898495			-64.0126575294037	119.871081966984	-15.1766501047585	-61.4060357378996
183187500	-33.514347155883	-122.669635789611	0.172553698074019	87.8635253723157			-57.3274281138114	-57.179550216498	-15.0883277075041	-64.7396926255649
183875000	-33.4532566072642	-131.757778319015	0.185054712055529	85.5971847087563			-50.7495653194895	137.042226005395	-15.2859711078374	-67.6606418894208
184562500	-33.6259566804267	-128.00754559362	0.159438130321269	83.9215596421813			-64.342509459452	-70.6019337105989	-15.2222763575201	-71.1588779804003
185250000	-33.9165014353461	-136.592669419724	0.194255045517024	81.4290159097647			-63.1579850885578	157.994270058094	-15.3183329963551	-74.9700342551158
185937500	-34.4655060619634	-137.454380048148	0.17339903493066	79.1834239965651			-60.003976242695	44.1212277791604	-15.2979215431606	-77.670696843834
186625000	-33.9636086148251	-145.467898202475	0.193777892003287	77.0037103869102			-51.0874741231752	179.848256672277	-15.3754731687525	-81.3075877997126
187312500	-34.8075525475734	-150.291030488257	0.218483879050838	74.9117657385148			-58.965960916616	36.6644823186328	-15.204985597801	-84.2804816244653
