# Hz S DB R 50
100000000	-39.1027763311762	28.22263645994	-6.31783928751933	-9.58002355505067			-58.3449978536005	61.0084481892042	-3.4448761824775	70.8636862654644
100687500	-39.0096024901179	41.2735105337472	-5.91749156217933	-12.0081943874629			-61.537943711974	-99.6700662401124	-3.42164589162455	68.3502543438025
101375000	-37.5128770298921	32.2541434773077	-5.46851200176774	-14.0647616606858			-62.7833238392137	147.970960169084	-3.43694918974932	65.3064635382317
102062500	-36.9921004834927	36.1904566846051	-5.09617955292558	-16.6019314908533			-57.5166385850869	-115.784297290995	-3.41893024013911	62.7530655972574
102750000	-35.6567209988346	28.7929530826262	-4.64471698025559	-18.5762834542975			-55.2457984463102	111.494608791931	-3.41436284765192	59.9720489558779
103437500	-36.6260341798424	40.8931600091347	-4.31220462739493	-21.2404116783935			-55.5097386973437	-75.8287711020052	-3.37617964456561	57.0659227074369
104125000	-34.5900621223422	37.9989542164289	-3.94623110453091	-23.5970245263119			-53.4339598399123	79.7606716653278	-3.39470289029305	54.2472506482219
104812500	-34.6849828906924	33.8729879645428	-3.57985764522012	-26.3240311223064			-57.3658855720647	-61.1122451901658	-3.42264289626466	51.2887609465636
105500000	-33.318496676025	39.0115611697418	-3.24685124833562	-28.7810132064598			-63.5829738457451	13.0426269565645	-3.40923305406338	48.7048865228953
106187500	-33.9037955919651	35.787880401846	-2.9674008562148	-31.595389670997			-57.559472155222	65.2827206161452	-3.40432036446321	45.8223899129357
106875000	-33.2447635593374	37.2061427283586	-2.66169798657831	-34.0293399965383			-71.4719659227185	13.660551766738	-3.47226116583458	43.1574384954309
107562500	-33.0070518052486	31.1202072057072	-2.40841499268593	-36.6394317368497			-57.8636504785893	6.30216990258129	-3.48128869656502	39.7202048727352
108250000	-31.7150343372314	29.9400059747953	-2.16620121197709	-39.2417793100252			-63.9804405178998	108.364457649696	-3.52263054373765	37.2352445197888
108937500	-32.285170142402	27.4909745912265	-1.96320174861466	-42.026370083664			-54.6222860613584	-33.8432173866788	-3.53051567900218	34.1339601606152
109625000	-31.3973853389798	32.2608443350085	-1.75527165577307	-44.5335716980332			-62.9131948805412	59.9220708281817	-3.57726292257343	31.4206267401594
110312500	-30.8508777290729	29.4503955117832	-1.60445147840316	-47.5715673640375			-55.388220814341	-2.20847556326553	-3.59242089607935	28.3372895815816
111000000	-30.9297682687736	28.4317657123409	-1.47162195712683	-50.1499666263036			-66.141633616363	-171.744861026536	-3.67057019051959	25.5547110855969
111687500	-30.6199494261042	24.1674730981714	-1.41465970562351	-53.1593234888979			-60.6785000475794	-34.5137352637334	-3.676241140637	22.134577298394
112375000	-29.9091025785369	27.1267071204215	-1.3285825526669	-55.6241703438976			-63.3949465484864	113.772770247886	-3.75718915583274	19.5008684768817
113062500	-29.8585968217438	21.2581114354846	-1.34201607846322	-58.2475851958176			-61.0104998609853	0.113198405258722	-3.72370124419032	16.348828801717
113750000	-29.7932194160708	22.5873558869546	-1.38155782923942	-60.564161057156			-55.7382358793374	-143.289427287374	-3.87003979940202	12.9830624147128
114437500	-29.9200081337229	17.8045065018876	-1.42863070533465	-63.0033663262668			-59.8892303959823	36.6825918868922	-3.82333644965274	9.90177303658253
115125000	-29.7168138794762	15.7271058990633	-1.50089685903755	-65.0152096968083			-58.4360542974869	-122.455797557327	-3.92755432328517	6.4364761863088
115812500	-28.8363515549173	14.0428858419317	-1.65826356087744	-67.0503071182268			-55.7400931676519	6.73759996302102	-3.97876253814965	2.81538866956356
116500000	-29.2237752017668	10.8261785238133	-1.85723827372096	-68.689364482198			-57.9300378790897	-62.4586804793255	-4.02732553615188	-0.828547148619736
117187500	-28.6072474398539	6.75112947400033	-2.15200837808843	-70.3817324594764			-58.5688556376699	-23.8437768962471	-4.0852808307389	-4.25090655915286
117875000	-28.7016821507549	7.23574554663312	-2.45390627055099	-71.0156648073136			-56.1535013995881	-109.421267571373	-4.16325586208284	-8.24469789861392
118562500	-27.9804330070109	4.53082017820415	-2.83011939519269	-71.139757418112			-73.5145558623022	-73.9048808502349	-4.19889478688226	-12.0057100267578
119250000	-28.3316868427875	-0.763715992393856	-3.25865273624448	-70.360410430994			-54.8686878445031	-114.275960394617	-4.27937714701541	-16.2793760302529
119937500	-27.6999767875732	-3.78418162653736	-3.71988667131888	-68.6162693149036			-57.6751054572288	58.5670677980971	-4.33014044797618	-20.8788244067295
120625000	-28.1102057806795	-7.21476961972583	-4.18327220879207	-65.1227788886935			-54.819755341867	-81.6366598513322	-4.42435893861377	-25.1681879817097
121312500	-27.4255222724022	-9.33808495288455	-4.5673172296576	-59.7804172591514			-64.1102039817209	67.8709332424954	-4.5295276347365	-29.8089900834501
122000000	-27.7344837989206	-15.8823038990693	-4.629020336933	-52.2316287696787			-60.4630898630688	-53.6524274069592	-4.61670767511204	-34.6521242102583
122687500	-27.5616195142243	-16.2846502608282	-4.29218497675235	-43.9309021103969			-62.1964370788369	34.8286526425322	-4.75961148751396	-39.8048561943005
123375000	-27.0118305231912	-23.1192813568578	-3.41239081007084	-35.8117942685183			-53.0069281580557	-42.8346943759633	-4.85340774007815	-44.8621301676335
124062500	-26.8772911756151	-24.8986019281323	-2.23504622735248	-29.6049495390202			-68.7067758816209	-67.3543380568156	-5.03544252411892	-50.6848420837806
124750000	-27.1417052414323	-29.7730162060353	-0.709811575415541	-25.9255726085891			-56.9128415530862	-15.7014296738426	-5.18571012547996	-56.0043238093792
125437500	-26.8658574575667	-32.3994875010415	0.730788518567917	-24.4365738305178			-60.5294353908145	99.8141119699232	-5.37737611401938	-62.3667756854048
126125000	-27.0132378024011	-39.6957667708428	2.23338667056578	-24.9928751062126			-57.265180970054	5.06577606518689	-5.63314307324395	-67.8204830949444
126812500	-26.8874826800971	-39.9853437432598	3.57169778692049	-26.9882744733405			-72.0738064023328	-6.02678897682386	-5.85742204170321	-74.2177118363171
127500000	-26.5248315131578	-45.5264607192873	4.85495814124187	-30.0024273932114			-58.1244199881618	-3.83817956591949	-6.15461268052642	-79.6797750227712
128187500	-27.0102315237628	-49.8705766054396	5.94673656734526	-33.7695168666916			-61.3240948773909	-49.4774318386837	-6.41033356874622	-86.1820466042745
128875000	-26.7062019899034	-53.7183932223562	6.97907899193537	-38.1733766188034			-50.2082099471794	-3.30013410031817	-6.8282648795051	-92.1020330111049
129562500	-26.9326179195115	-57.318848616711	7.84328729150431	-43.0195878390359			-58.9260252017576	-44.7182366298485	-7.06557153106791	-98.4721178457807
130250000	-26.6760748229217	-58.5289682883995	8.68446863894765	-47.9131919218511			-49.9481144659305	15.131056788874	-7.57143639098886	-104.311089568709
130937500	-26.8527103631273	-63.4643753445174	9.35131928991301	-53.3473710857687			-68.02695943095	-51.4591003856453	-7.81337105071551	-110.158484545295
131625000	-26.8513150620404	-63.5194556692873	9.96798805521097	-58.26801915192			-52.5180272220316	25.7222853305279	-8.38237235549511	-115.786180550715
132312500	-27.2455236616673	-69.6963275298603	10.4977459277463	-63.5102536660063			-53.5554040282475	-59.2865214255187	-8.70114537082034	-121.606370677696
133000000	-27.4361660391591	-68.8446980068201	10.9792348855818	-68.8115280393918			-54.6694979462511	-18.5119969429607	-9.21991106806062	-127.016237316384
133687500	-27.3218662219428	-73.6093376492467	11.3363616332718	-73.6916020751886			-49.9873482175009	-48.9990482947338	-9.50158687879873	-132.032639468273
134375000	-27.5889402007489	-74.4990298378697	11.7409637439048	-78.5653557850067			-54.3937944616671	-33.718303479676	-10.0050303785601	-137.693971761724
135062500	-27.5214243058235	-77.4164842641457	12.019267618699	-83.3679539440294			-50.9112485582919	-58.1983735783157	-10.3971369665977	-142.457818694577
135750000	-28.249948375181	-74.4181746561152	12.3719016892433	-88.1524317418852			-65.0878844112096	-26.5796079471625	-10.8454292491633	-147.439014308621
136437500	-27.7958682246787	-81.5805875675912	12.5827236179348	-92.7343141400905			-50.1687464298984	-66.3676389099398	-11.2443831407364	-152.280704576075
137125000	-28.3039233376221	-78.6750508976073	12.8642654213442	-96.942970337066			-57.8816164054607	-31.6946685303666	-11.6948047820956	-156.483185978713
137812500	-28.2920800707181	-80.203804394714	13.0298785368543	-101.374829722258			-48.994047127122	-61.7967929833707	-12.1204549407945	-160.804565450084
138500000	-28.5084698208474	-84.2527857478768	13.2480640351747	-105.507197608425			-52.3356256845799	-113.165421262693	-12.4381654108386	-166.051025303988
139187500	-28.3756431927139	-84.4598446403619	13.4141219786872	-109.947798158841			-56.485341630131	-36.6705076432481	-12.9259367047913	-170.692641219346
139875000	-29.3173017535622	-84.2058936212043	13.5981493347879	-113.810989039349			-55.712277060184	-83.3690209190515	-13.2300074087975	-174.735539726238
140562500	-28.8401615342854	-83.1588881302885	13.7291079321157	-117.870929462669			-50.1721656880265	-49.5391661414617	-13.7573651196061	-179.433516353326
141250000	-29.4990035553184	-83.9721323749874	13.9139392213112	-121.486809451432			-54.0867824002092	-125.477980789251	-14.0490761135394	176.639800753732
141937500	-29.2037320639858	-83.8632330974474	13.9699731959434	-125.823081031527			-49.4557406456186	-38.3855673471219	-14.6034125294327	171.654717247681
142625000	-29.7653189481763	-82.7533944905934	14.1222527157764	-129.346551482094			-50.8794906733561	-99.1967754955763	-14.8912881910857	167.766973687466
143312500	-29.2316019397926	-87.0044499348511	14.213665031898	-133.379396453048			-51.0111158117296	-89.0389128562202	-15.4252022962883	162.550771009633
144000000	-29.3551206405409	-85.2743391992783	14.3320930228532	-136.647990189646			-49.2534160018243	-123.82407926815	-15.6865818903837	158.437188059893
144687500	-29.7043249433698	-85.2050586373538	14.3752262031939	-140.633726633464			-53.9842294400585	-112.935787233827	-16.2016694663102	152.487036554329
145375000	-29.4750471982288	-86.5404966326399	14.4829600955834	-144.09724401897			-49.750148439091	-101.697410591494	-16.5345848267814	148.810212525908
146062500	-29.1078481288538	-82.446099063299	14.5183058569841	-147.848744739358			-54.8959697912619	-126.207729247209	-17.0423113341887	142.021715588969
146750000	-29.3379416441783	-85.8055619522304	14.5785573441078	-150.912278796224			-50.6813910287845	-110.727480795446	-17.4939089063912	138.247769745913
147437500	-29.4532371689202	-83.7892397971754	14.613696665218	-154.605055671293			-57.0396055388055	-94.8093671462875	-17.7665333013622	131.08144920904
148125000	-29.6468059816374	-88.1775134496633	14.6614422915932	-157.779698942671			-49.3041920632752	-126.83900179282	-18.2465542357806	126.616469953739
148812500	-29.7195727269222	-86.5297193777094	14.7017094738585	-161.06417069495			-53.7703844107284	-129.319165809639	-18.411135727328	120.454216252922
149500000	-29.4882108570864	-85.9422831754677	14.7339646554637	-163.949448293838			-50.6621122396924	-120.4008435634	-19.1249277122123	113.859323557195
150187500	-30.104920350071	-85.8755884469133	14.7219058924866	-167.22456806547			-49.1964044671985	-128.563103700234	-19.1139418172368	107.952520704526
150875000	-29.9249725325651	-89.3114959872128	14.7866174618527	-170.121986972284			-50.6856434661388	-131.578884361882	-19.5134022691158	100.543826721402
151562500	-29.8387093054407	-86.3199748046595	14.7754385244966	-173.237381091196			-47.6037486694457	-162.496213113923	-19.4016879216189	94.9131862668139
152250000	-30.0323957037989	-92.4195084365135	14.795702098479	-176.055831039792			-51.4789844608865	-111.132323924638	-19.8548417753845	87.0442376425839
152937500	-30.2792496178044	-90.7987863910123	14.8359919476898	-178.966619634275			-52.1931079713601	-163.732941997025	-19.696168113985	81.0396397263008
153625000	-29.8882955212005	-93.4424284862374	14.8407609913436	178.28327326549			-50.6756391589783	-133.89343260451	-19.7650406825342	72.9957583936657
154312500	-30.0988176494048	-95.7712808062168	14.8437319447982	175.486799729879			-50.9281097219664	-162.846538416298	-19.4008959403337	68.5587762880054
155000000	-29.5801675026385	-97.1133084274818	14.863448591991	172.711206726652			-54.5013474397403	-152.610382561586	-19.3432442749626	60.95515997339
155687500	-30.2463492220272	-94.7407308726298	14.8446216494378	170.216204668661			-47.3809521169796	-160.819051389896	-19.3101377983474	54.6815535680189
156375000	-30.2362438788086	-95.6950555513111	14.9049840505709	167.328470001433			-53.0801286961025	-127.010929155023	-18.9618399887094	49.2330953701318
157062500	-31.160117325151	-99.5862745942469	14.8733973192451	164.813119697782			-48.2578042188211	-164.092999318356	-18.7732712127796	44.5595821795272
157750000	-30.4542372770471	-96.7501057513972	14.9667600164444	162.419268664718			-55.0431975112105	-159.609411161166	-18.3720419656256	39.3670922800707
158437500	-31.0182911982816	-100.942570412698	14.9042362850292	159.626523314496			-46.8665076131597	-169.394991198366	-18.2763442503668	34.7784189254545
159125000	-30.0609581143905	-99.0211108088495	14.9705269238473	157.111018852036			-47.4255941426006	-172.147149185207	-17.8092521773365	30.4444036056887
159812500	-31.3347978889327	-103.610301637554	14.9585852757474	154.392693088196			-50.5636393044263	-178.291546615182	-17.5958159332354	25.8076263777299
160500000	-30.4398591422709	-100.839409927217	15.0067511439847	151.854805747618			-54.7927023567028	156.467822622907	-17.2111895509028	22.5724630032584
161187500	-30.8409031128246	-103.056768308704	14.9348356776651	149.476227473989			-49.9428273539762	-170.885111501558	-17.1385712798115	18.3980444901577
161875000	-30.3379183472747	-99.1228155475432	15.0405643642911	146.999943589374			-50.0214291632244	174.266568565365	-16.7203341425432	16.2688093044674
162562500	-30.6796618630804	-106.301259250407	14.9664490941067	144.223797284112			-51.9000914338499	-169.865648222609	-16.6123903430227	11.2642790794331
163250000	-31.2830235200182	-103.35861305049	15.0210925730155	141.882113507711			-49.3014433143866	161.64823038967	-16.2842721768732	9.47617319372253
163937500	-30.4959239627044	-107.340355242235	15.0007126242962	139.508159679797			-48.7110843887689	175.411636981722	-16.1390065163242	5.91568161682546
164625000	-30.8238011305753	-101.389706472293	15.0004067505676	137.120793535268			-47.3863274661067	152.321111093276	-15.8694673429549	4.26681110936711
165312500	-30.7401446581324	-108.799772373338	15.0002225742776	134.611393615893			-51.8633838743814	179.53749263359	-15.5397065777804	0.75041810578468
166000000	-31.2553794360869	-106.237840152097	15.0275086938328	132.362104958424			-52.2984948792402	142.987638410419	-15.4438752207208	-1.06766703249548
166687500	-30.6519687276008	-106.427739578195	14.9899961026838	129.911596620707			-49.1043556384675	174.93361136871	-15.1479913538594	-4.23544883925632
167375000	-31.1706477048865	-110.146926002012	14.9973079749076	127.823459103928			-49.6816213684681	160.044545572844	-15.0657745580707	-5.96093079485813
168062500	-30.7959923477734	-108.019914128519	14.9731601857147	125.425954863039			-51.4469618311598	178.322719759663	-14.728014032549	-9.15165587169522
168750000	-31.7865969299743	-107.532738518232	15.0069155271826	123.198736972582			-48.6132013437451	154.397928395025	-14.8831151258875	-11.1699261767239
169437500	-31.0553980120595	-111.756192579661	14.9421331295117	120.809871238964			-49.2850910621268	133.12584235189	-14.5801438799843	-13.7018192373442
170125000	-31.3716450660092	-106.508427859462	14.9760642456041	118.744390019985			-47.7716096085007	160.016952265352	-14.741130536081	-16.5382292465225
170812500	-31.2883402822423	-106.363714955322	14.9077715614746	116.521778665049			-50.46215895421	123.419311577239	-14.4341071727626	-18.7816317708306
171500000	-32.1303061330438	-112.27411703459	14.9302755545521	114.44470513044			-47.940574567997	143.060663753854	-14.6401283871921	-20.5420958725598
172187500	-31.2691880746858	-107.467784664366	14.9144045657208	112.087552146373			-52.1144974180186	103.856226046811	-14.4190397219613	-23.4119500183104
172875000	-32.2048390738126	-110.056346497201	14.9496391799956	110.361058237957			-50.3152272877206	150.957381177957	-14.3788031418295	-25.7683950782479
173562500	-31.8342042981837	-102.99365316182	14.8877479029573	108.104047820766			-47.4876058822232	112.902615373786	-14.3823326470181	-27.6888290235175
174250000	-31.8561196509263	-107.603259582742	14.9266940272524	106.170727378884			-54.7161200763183	134.838019253625	-14.3434009654998	-31.3450827187183
174937500	-32.0254417461334	-104.466642121015	14.9358668647432	103.946588676745			-49.7425958580933	122.669248154151	-14.4319222085196	-32.2805694518193
175625000	-31.5542106420763	-107.701759250632	14.9501342693353	102.163065234423			-51.6008841684535	124.970230114226	-14.4916922868296	-35.8985255389026
176312500	-32.3863109121215	-103.063283521724	14.9595603571374	100.004787582211			-49.5927606609257	128.914488583442	-14.4234389493186	-37.2289964001491
177000000	-32.577277122619	-108.128672287865	14.9905301518103	98.2968418723264			-52.1487792678236	140.997217585784	-14.3990799028188	-41.0676261477693
177687500	-32.7840044003926	-102.938391882089	14.9621781290246	95.9813046276852			-47.5996782122252	110.180328888568	-14.5046460378422	-43.0333514402511
178375000	-32.2341070678748	-107.576105111377	15.0323760664569	94.1087503976762			-49.3434368000111	147.004127838836	-14.4439652183855	-45.8520775146615
179062500	-32.4380019831798	-101.041172543285	15.0397067336798	91.7837539653495			-51.7472783274073	123.722504314354	-14.532468141005	-48.4706415161881
179750000	-32.5846824385388	-109.306761416598	15.0678678137628	89.9445353924242			-62.846950308989	127.371633552305	-14.432629804538	-52.0877763983408
180437500	-32.9242904305117	-102.991278240701	15.1131742614939	87.6182526539935			-47.8848428473304	116.960615787899	-14.6375545646028	-55.1980107892378
181125000	-32.5566696341702	-108.450785702137	15.1457946609485	85.6964770184343			-54.9025554061735	90.6632886866958	-14.6040193904707	-58.1401405321438
181812500	-32.9547786500343	-102.234236303087	15.1323483063399	83.3920496396986			-49.4071816068038	131.762801745643	-14.7431398196954	-61.1873646060422
182500000	-32.435694283194	-107.84832130682	15.1954962165304	81.4156699152236			-52.9487367631211	136.277446535234	-14.6501333598013	-64.2479769479584
183187500	-33.5920249089362	-106.2879121867	15.2118184231327	79.0129595375778			-46.7041303830149	120.063868675979	-14.751362511304	-68.1174198974295
183875000	-33.1305984870831	-107.130909653796	15.2299974844191	77.0039700076463			-56.6922457988548	67.6379459114819	-14.8290889784739	-70.2985521342054
184562500	-33.2348084618129	-108.841341559105	15.2117650452453	74.9747742699279			-47.6774567884808	121.777241991366	-14.8734757132528	-74.9306019388021
185250000	-33.5053064995165	-112.892777674565	15.2762457995798	72.7828965620065			-48.3035790462021	68.1929475229559	-14.7741433630469	-77.8494246798557
185937500	-33.9273700833056	-116.384266927178	15.2366734873698	70.4271536535637			-48.1575577736922	127.603461554327	-14.8149696629464	-81.7842923306286
186625000	-33.2866510403855	-114.492282906419	15.2723602921008	68.378759868598			-52.9235341443596	60.1074884931906	-14.9182480091456	-83.7412923827858
187312500	-33.0362826998246	-123.026001493818	15.2512627856328	66.1243481533752			-55.4922536699391	89.6683816707156	-14.7917192479242	-88.5889617615654
188000000	-33.3521412380722	-125.003072175171	15.27380044091	64.1098981569354			-50.4045389577928	79.4869935264016	-14.7841640702724	-90.8266182233045
