# Hz S DB R 50
100000000	-27.1937063305501	-10.5116876540812	-28.8675254998386	-2.3319811390754			-65.2190117482538	-163.124204012421	-3.4474862590535	71.1185141890911
100687500	-27.887992232076	-9.68080606706224	-28.6559224191369	0.472212747219573			-57.182136135848	142.950159686138	-3.42437519286019	68.46538472415
101375000	-27.1578854223259	-11.5937440765372	-28.1011889889442	-4.5379181531342			-65.3558326650098	-68.2033040713281	-3.42466483690719	65.3414830448437
102062500	-27.7079657401877	-8.57600741434433	-28.01343782875	-6.36882863303673			-69.8452233724031	-73.4688551063051	-3.44515534353951	62.7461614567512
102750000	-27.1643723131914	-9.73164955645327	-27.293086846851	-7.42083536125351			-57.8136073939617	-30.0029047079576	-3.42146063616934	59.9039970332149
103437500	-27.6620631119147	-11.5066740595537	-27.1646031759551	-9.12912081226821			-62.3268264239356	113.952600608132	-3.39674933810005	57.2742170650162
104125000	-27.2064939750077	-11.1641342551424	-26.6946069727307	-12.998683405544			-55.437203520092	9.43792387156708	-3.41361022523708	54.2311302566558
104812500	-27.958974374021	-12.4507275799712	-26.4589442068221	-14.7194355093267			-64.2349467603696	-148.713317564757	-3.44512584527314	51.7214473796543
105500000	-27.1887572857376	-12.3280344226256	-25.795519839025	-16.8685325882318			-61.236605946372	137.560931113621	-3.40542539316025	48.8787539093535
106187500	-27.8554457273227	-14.2398232962817	-25.6563227791555	-19.9386734156216			-63.9514198243273	153.182882975311	-3.45954928852035	46.0397373778844
106875000	-27.4540186365996	-12.9664117781633	-25.558287815967	-21.2930285637193			-58.7121034074076	-11.6108088723045	-3.43137065874777	43.181573463667
107562500	-27.5711720788861	-17.1694585845544	-25.2679349231581	-25.6132737237393			-63.0070080025539	-13.7404779721681	-3.48159487307227	39.8947596029083
108250000	-27.2401237781344	-14.8004534234863	-24.8623358491979	-27.5750088374121			-66.0087163911821	-81.7111235058476	-3.49698005092851	37.2696027444857
108937500	-27.5623518979447	-18.4493926602279	-24.9344347257841	-30.1535243213457			-61.262932226325	-129.219215316217	-3.53214023524841	34.5706074658693
109625000	-27.4994514916558	-14.5834962748286	-24.3944138452747	-30.910672848324			-63.8088875774153	126.949693176826	-3.55268498134496	31.7933393788114
110312500	-27.7160852055545	-17.8458751147624	-24.4632328861281	-35.3272461347677			-62.9217243744334	-146.062620488399	-3.63298701078311	28.8526580037251
111000000	-27.6192196727066	-15.4615251844518	-24.4030394804257	-36.2934113290773			-61.37620012459	35.3907023605975	-3.64590667017401	25.7427719188925
111687500	-27.9018726672064	-20.5248730463824	-24.2189758155359	-39.6416293167992			-58.2966032336649	54.8205104760769	-3.69850846191288	22.5774781002502
112375000	-27.8497614603962	-15.6962669796784	-24.1837155189648	-41.5805172689914			-60.7753811456072	95.0100685558075	-3.75879880034183	19.7704254937768
113062500	-27.6541450851461	-23.3562523890928	-24.037636147742	-44.6084799640347			-77.0098886929914	-19.7961992343521	-3.77154213454825	16.5352879663345
113750000	-27.958133920532	-19.6415855584895	-24.1850744650317	-46.9492415519689			-61.835204552055	95.0939084109709	-3.81378124305178	13.6109687035671
114437500	-27.8589257995545	-23.7978432360055	-23.9654768734529	-49.4165871357955			-66.6658432718584	0.726083771321879	-3.85057917302981	10.3571294811491
115125000	-28.292479859516	-23.1660960928709	-24.2796418207115	-51.3122839210341			-66.8152423093794	100.566485539237	-3.9440693839868	6.85698681309137
115812500	-27.8524343281126	-23.2663846335575	-24.201942426434	-53.242103868191			-73.3729941126853	-143.55044767695	-3.97936435355679	3.24520629223038
116500000	-28.5051568737312	-25.702877858137	-24.730100196211	-53.7918098465409			-67.3265711508974	-66.7231069020343	-4.01799000078698	-0.398951341296823
117187500	-28.1504900033342	-26.4090373738824	-24.9594597447114	-55.2449138472294			-55.8022303139841	-47.0375106574109	-4.08823557930721	-3.95265540572716
117875000	-28.782665658957	-26.0493264124974	-25.0880909779055	-57.9048410131264			-61.5891104283465	64.2712278640752	-4.14600256462328	-7.74261106441409
118562500	-27.7801330458206	-28.5686904946984	-25.3375204650291	-57.2092857724417			-62.7601317392196	-99.0830570737059	-4.22204356089104	-11.5200813221181
119250000	-28.7472608496155	-30.3875405378923	-25.8634452028486	-57.6244253431032			-56.9061760053492	161.529738460303	-4.34725805186409	-15.7513985429664
119937500	-28.2554335125648	-30.6012644508281	-26.1599697470832	-53.907408904474			-53.1266864327799	13.7303809431468	-4.40294410120738	-20.0858428358943
120625000	-28.7565489587092	-34.9876172093501	-26.7871810571721	-52.2754509445251			-54.5364971029843	-179.710228823459	-4.47138902284268	-24.7585266822826
121312500	-28.2804946920674	-34.8214082693683	-26.9116296560241	-44.2917237420296			-69.3355371216178	-120.291974147573	-4.57447183224119	-29.3460212670189
122000000	-29.0403229093142	-37.2515504380375	-27.4096263346139	-39.5352111602166			-56.6638238163722	-142.833026685442	-4.70220835151895	-34.0637179186642
122687500	-28.8659013148043	-33.9653161902179	-26.4906649494081	-29.2112011799606			-60.541242680134	63.0317372445269	-4.81428922598939	-39.0672594626468
123375000	-28.6713972422546	-39.5779662232027	-26.3301707779013	-21.7288057200835			-57.8617442341815	-111.97870925273	-4.92660994879462	-44.4108400332065
124062500	-28.224858791734	-37.5596791517818	-24.8346199912616	-13.9510635513447			-79.5137230814462	-49.8798684391817	-5.10663315417203	-49.6906091946257
124750000	-28.7714362625374	-42.6466245019605	-23.3731303828072	-12.5249365582067			-55.9276511823869	-131.621336958778	-5.27446052320759	-55.4154807715795
125437500	-28.602560486454	-38.8835838028893	-21.7836111611081	-9.140598622322			-70.4278829786898	-68.3991192161624	-5.48850314814123	-61.3398505178406
126125000	-28.747726010668	-44.0389976865836	-20.3603823581494	-10.4624003997983			-55.7200543140789	-132.129085911769	-5.69694609196422	-67.0563702629487
126812500	-28.526143700068	-43.2598016668909	-19.0528980254122	-11.8177724365086			-52.2804286308571	103.809337758849	-6.00217628843411	-73.1399565751738
127500000	-28.1342226709029	-48.230579035763	-17.697416904129	-15.2513387280111			-72.3059164626055	152.240754020694	-6.2675380065328	-78.9613002018765
128187500	-28.6515725230708	-47.2030588192308	-16.652814163222	-17.6020292444142			-65.869297285042	74.6094971614827	-6.62870189595391	-85.1459116431239
128875000	-28.3505571689045	-49.7834943923558	-15.5836293105598	-22.9622643435429			-60.8842651364513	11.0741405666447	-6.97903276341553	-91.2423239534906
129562500	-28.2916507395549	-48.7696035298992	-14.7175686961229	-27.1086464866006			-58.6365629982053	86.4877090362844	-7.31493759462484	-97.5920485471201
130250000	-27.701656699151	-53.7144702000797	-13.8060465861377	-32.733925401889			-62.6418200185036	43.0855312133638	-7.77887847807214	-103.279676539289
130937500	-28.533946994939	-53.5775691958277	-13.221828475239	-37.5199503478374			-61.3911633927328	94.6481556788984	-8.11260545221533	-109.117350668736
131625000	-27.6825365973031	-54.608482350041	-12.4682162133977	-42.7346452679449			-54.1350022558612	-7.76036710998904	-8.59644301814951	-114.762230099504
132312500	-28.1170277727846	-58.4993362778286	-12.0286216626633	-48.1197554122028			-62.9832568612185	113.800802744158	-9.00128421480601	-120.633107490776
133000000	-28.0931228412325	-55.2011576981019	-11.4290088090193	-53.1366978786533			-55.3377095591332	16.1528687396634	-9.52289103606441	-125.694992710787
133687500	-27.8342298347872	-60.2927522957032	-11.1704566895738	-58.0606337883325			-57.8372033720304	113.678762274466	-9.92784824662713	-130.901637066763
134375000	-27.7022659804667	-57.9760231218076	-10.6673104020586	-63.0623004671929			-61.662097678789	-22.6665075429932	-10.4452069360458	-136.583301592549
135062500	-27.4484965065431	-63.5504362749607	-10.4213547807596	-67.7047062979659			-53.6658241979356	176.223075854456	-10.9106414812311	-141.109037338925
135750000	-27.3898545535835	-57.6096674393259	-10.0684204402449	-72.5074770427807			-62.2781141635641	41.4443851317853	-11.3757209425082	-145.721530893339
136437500	-27.4337208379694	-63.7924687808637	-9.83753067059876	-76.8652605824972			-58.6658124324256	-124.476396310426	-11.7384590832629	-150.36230460079
137125000	-27.1846929563042	-61.7174613892181	-9.53258410314972	-81.1307406721291			-66.3710881441542	-44.4514975310303	-12.2473361866811	-154.889473972682
137812500	-27.1709478868934	-65.3671022139307	-9.39484344695646	-85.7334590372526			-60.9690441289535	-154.897900003048	-12.6533260099569	-159.061884310638
138500000	-27.2597308878841	-65.5291391197933	-9.13933112035177	-89.8139968418038			-58.4312629716523	63.0214135470713	-13.0723154791593	-164.056193820633
139187500	-26.7360743623607	-67.8266408091182	-8.99592573512204	-94.3234943383629			-56.2962918149025	-112.082059720662	-13.6268293979803	-168.105001668291
139875000	-27.084600723883	-64.5181977681139	-8.86754979062695	-97.8598494216525			-60.350348511865	44.3647283475209	-13.9498146092407	-172.294479868889
140562500	-26.8321874505107	-69.1449612579621	-8.66590246586634	-101.973786690095			-57.982067368976	-125.912442590586	-14.5271251281965	-176.734076203703
141250000	-27.1562720097251	-67.0291053260491	-8.52368767776714	-106.04377892901			-53.4213988990629	51.4118189401704	-14.8532818608292	179.078139489951
141937500	-26.8187443094585	-71.4206452188269	-8.43395724882859	-109.81447986106			-59.5090730973336	-56.9244700997935	-15.3767266344514	174.450732494029
142625000	-27.4781404563384	-68.4019777136803	-8.31719232391868	-113.518030985406			-75.3354372364329	80.6641917840585	-15.6770887344797	170.91569492162
143312500	-26.7295844459547	-73.4160471542687	-8.22155078594814	-116.865262429843			-61.504520448952	-90.8673098061235	-16.2428227515568	165.995491068061
144000000	-27.0558679570094	-72.5530648714005	-8.08222771671307	-120.800348696127			-58.3696630854484	75.8612265773342	-16.5647256335345	161.710576518293
144687500	-26.5329060295029	-74.1407394222293	-8.03917197141281	-124.372269605276			-58.8800529774554	-5.47564280904576	-17.087337899134	157.518893240181
145375000	-27.219870700437	-74.823689823456	-7.94051963440412	-127.852289206774			-59.0887635738248	129.515574223083	-17.3258253344004	152.198077604562
146062500	-26.5671602091135	-71.5399696050363	-7.8986880324238	-130.996459376368			-56.5195757146932	-14.6689264719826	-17.9403958286534	146.805305046033
146750000	-26.9581930464832	-74.3985685399538	-7.84311766479666	-134.579886904699			-57.8982983750497	154.85577794257	-18.314008489178	143.174464056427
147437500	-26.6220768129235	-74.9076927341912	-7.80810458747189	-137.614568882066			-56.0904405515486	-7.77578404908613	-18.832871669625	135.879754350643
148125000	-27.1636894570882	-79.036430839172	-7.70859661197518	-141.084213023356			-65.9608305632409	-70.588219018017	-19.0425634173025	131.786956114966
148812500	-26.8649589556006	-75.8786201426488	-7.71391308444661	-143.952100629857			-67.349726035883	96.4739340746857	-19.4644386807122	124.567939689209
149500000	-27.1555775274647	-78.5020451587578	-7.64353717918334	-147.053207034566			-57.7139984471592	157.711275103654	-19.9103562469694	118.748791593464
150187500	-27.0240337105946	-76.5930930183509	-7.65815797045708	-150.260364852117			-56.7136740999852	-41.3898353006957	-20.1782512119203	111.90580052652
150875000	-27.2080012629702	-80.1624676975587	-7.55733418968594	-153.196997956435			-55.3012847189112	-170.642544494849	-20.4192852812566	106.306460218131
151562500	-26.8976584779123	-78.8817553987751	-7.58401085396616	-155.990716339724			-59.2441284775675	-51.8007424253665	-20.3794515594523	98.2694368981049
152250000	-27.4246770620205	-82.1947567903032	-7.57413344790328	-158.914026619122			-56.2623378759305	-154.186946589801	-20.9346206061925	91.7067502450571
152937500	-27.618744782703	-80.2316013115399	-7.56772426123448	-162.005022911917			-54.2078007218639	101.417876091633	-20.7237587808627	84.9072151137019
153625000	-27.4655894222372	-84.605259430251	-7.49174186351044	-164.617913811557			-57.417749732487	-106.077612637049	-20.7994119705817	77.8361372257811
154312500	-27.3331139166654	-83.8560062648282	-7.54158119021993	-167.273430233589			-62.4487098554077	79.790050864688	-20.346431220968	71.2531259331035
155000000	-26.9853208750846	-86.4329079346827	-7.47220236229004	-169.897551219583			-58.0709407970555	-103.386812825759	-20.5521539169781	64.5480852816917
155687500	-27.7694778487288	-86.5034808497372	-7.49919078547489	-172.686784842042			-59.9379233737483	139.005753432466	-20.2926012187169	58.7943015270435
156375000	-27.3415949990204	-87.9948899705037	-7.40183563884082	-175.343079877384			-65.7150552383856	-89.978583916256	-20.0848199736603	51.7387235803524
157062500	-28.0552098720194	-88.4807791865284	-7.48799984714099	-177.838927756379			-56.3276564066657	106.255513162367	-19.8667469671318	47.1333130374154
157750000	-27.2901457853076	-89.6421027959297	-7.4053965237553	179.609929099269			-60.8360632339394	-111.582778856289	-19.4195236294669	41.9650594592113
158437500	-28.1157253024721	-92.5789779022528	-7.44822880607789	176.975717526609			-71.7233437322415	-92.703798145882	-19.1545150624062	37.9515896034734
159125000	-27.2347791902347	-91.7186434344543	-7.32910877452159	174.810582919086			-53.1644389620376	-101.95125391786	-18.6999069695043	32.2941421623726
159812500	-28.2324856996462	-94.0065534853462	-7.34357795358018	171.998261042738			-68.6063383780286	124.546853866218	-18.5297619176643	28.1581688506527
160500000	-27.4030362591943	-93.3573174380437	-7.2945060512117	169.789596517845			-59.032684391973	-57.6285686974674	-18.1012653539447	24.4889579403533
161187500	-27.6148966634451	-97.2433102006536	-7.37619859818173	167.282503903797			-59.6427971392841	-167.914284242874	-17.8707852829717	21.1909947407164
161875000	-27.3669855595461	-94.823808438569	-7.31208158450697	164.644030212283			-61.4762241771176	47.4656172157141	-17.5348967843694	17.7150406199852
162562500	-27.7825204397951	-98.2910295605824	-7.31610372146916	162.042438320119			-53.6139132148313	166.70516663326	-17.3485134842032	14.0195337387438
163250000	-27.4707450724571	-95.0543633104007	-7.29155359532083	160.03004945926			-70.9598905976969	85.2702799584022	-16.8561641579094	11.706027249202
163937500	-27.6653863777743	-100.46908123198	-7.29591903223015	157.496830277133			-61.7716443223822	-179.362034075191	-16.7775570723092	7.61556437614403
164625000	-27.5619686283448	-96.2086255084359	-7.28805500720219	155.018974334596			-65.9253421574353	-1.61466145164802	-16.4246900288365	5.4757071491956
165312500	-27.9189007646323	-103.030554869025	-7.29027490395206	152.81310935535			-54.9850693284931	139.05698059865	-16.2735940925046	2.28528837408467
166000000	-27.5875729116955	-98.5779553686643	-7.28827021960279	150.219454046037			-62.107896638842	39.388796118226	-16.0269660510209	5.48184918883034E-02
166687500	-27.5598067471626	-105.461198787819	-7.29172103313604	148.115146041421			-60.5777061669234	-169.538064288325	-15.8353203214494	-2.50312585615263
167375000	-27.7824337221242	-101.732058652037	-7.28639484001539	145.770883804358			-61.7038810203312	14.7702151720262	-15.6633512759403	-4.52523394402011
168062500	-27.2737002798802	-106.496032491795	-7.31627300452763	143.79921784079			-80.9746064067182	-142.379451121439	-15.4272052904638	-6.81042879208673
168750000	-27.6392087492831	-102.049811779143	-7.30516172665542	141.405040096342			-53.8370858693935	12.7725346060141	-15.3699516917992	-9.09207664539994
169437500	-27.2106991367617	-105.804660076906	-7.35120870395659	139.312336425345			-63.3844068414161	-56.4866556772067	-15.1055424201382	-12.2225567844957
170125000	-27.6144751778317	-103.795014460848	-7.29114327077205	137.080111148044			-60.1242686599605	58.4962964913888	-15.2446343918306	-13.8853038601562
170812500	-27.2621702545966	-104.89457176606	-7.35516838863326	135.101287859477			-71.129192675361	15.8858956558604	-14.9209087254334	-17.1118997855267
171500000	-28.1471320375744	-106.49799122312	-7.29318782785259	132.839718472357			-54.3330173744132	117.020704061384	-15.06038968748	-18.577341959267
172187500	-27.1546295635808	-106.317500178755	-7.37204542636532	131.052331040931			-70.1310609619202	155.655670898214	-14.8486856238107	-21.2443449461929
172875000	-28.1723213876257	-106.293252778328	-7.29394567409979	128.811030803063			-60.4183022461744	171.578549149326	-14.9018384874518	-23.3378289948671
173562500	-27.4677062343495	-107.142249204314	-7.3846061580255	126.872934732434			-66.5598109876311	-30.0637817830712	-14.8005240225062	-25.4599533282513
174250000	-27.7765877076429	-109.602991955746	-7.27871917193336	124.715183419523			-58.0591131504967	176.64792035758	-14.7169497724268	-28.5238998032961
174937500	-27.4771368022867	-104.803093119141	-7.32993929612996	122.995750873869			-63.7909065584544	42.0517351498613	-14.7103757039568	-30.4868146150764
175625000	-27.5767868560342	-109.918227051169	-7.27735322379616	121.065346296314			-61.0561792033095	131.059321216485	-14.7993084169111	-33.3915484848367
176312500	-27.5891851362156	-107.5504988262	-7.3318855237612	118.925314228035			-57.1324942326138	-8.72606408445898	-14.7778111827421	-35.720038332012
177000000	-28.0635452469597	-110.971272991097	-7.24697376669524	117.075488802456			-57.001284783506	139.924925114082	-14.8128556938407	-38.9734077289437
177687500	-28.0217064797475	-105.493904301598	-7.26309699919959	115.08086253014			-68.0303087532991	-72.5954940553057	-14.8346240606925	-41.0289465201028
178375000	-27.8958827115678	-112.212813559061	-7.21068900868465	113.361923537632			-58.2544572963725	-155.641217828249	-14.9082013739179	-43.6805820361106
179062500	-28.0683820812672	-109.41750545058	-7.21961377885763	110.948694551694			-70.7786512690243	-121.343353901469	-14.9217534045666	-46.699660551379
179750000	-28.0761309310695	-112.791247423903	-7.15725412582181	109.228360707833			-55.4831516300656	167.502031552711	-14.898116038433	-50.1110747989317
180437500	-28.4798410147776	-109.24538349594	-7.13958836426315	106.726595133534			-58.6655418223944	84.0929327430963	-15.0293723439974	-52.4829137517592
181125000	-28.317737478024	-116.401000734326	-7.08216894503704	105.028992228349			-55.9191374496719	179.481408439456	-14.9130272059571	-56.0425505010128
181812500	-28.7833680735542	-113.355514189767	-7.11550755048312	103.034136930322			-59.1781382522114	86.6235082026849	-15.1318084292218	-58.230950877979
182500000	-28.5802926219902	-118.512940124485	-7.01816620687431	101.221956753077			-59.4423328419192	-156.429282632936	-15.2062898216049	-62.2463010641977
183187500	-29.118036395937	-114.314276285832	-7.0156271301018	98.5226907424208			-62.1776828489012	110.729780777341	-15.211895205605	-65.501071497014
183875000	-29.1489397014715	-118.080888879723	-6.96332472649102	96.7784779354773			-56.5916484316866	-154.92070489043	-15.2608161892688	-67.6285928980892
184562500	-29.2646385570074	-121.562089763981	-6.99142987076434	94.8218034245937			-60.7702447289958	136.822108794669	-15.2908066176183	-71.8740511389387
185250000	-28.9955078706399	-124.363591767664	-6.93027181388701	92.7650580455762			-59.3914257020263	-88.6785709148032	-15.2663487110746	-75.057195423089
185937500	-29.564595219409	-124.60873943349	-6.94183854553665	90.4820524883344			-59.4268826347137	135.920484858905	-15.351080626377	-78.2324118425037
186625000	-29.2034721474682	-128.493476171601	-6.9247802283242	88.3594331234664			-54.4623596436197	-80.8015484517685	-15.2894472170199	-80.8543102323988
187312500	-29.8233524263656	-132.166464256752	-6.9038385871618	86.3459384246399			-57.0717414910967	86.2678095997231	-15.3299490268944	-85.0004360664484
188000000	-29.3410120365338	-129.599678612394	-6.93931598474032	84.2037863992259			-55.3031638771519	18.8758144125513	-15.2163117403916	-87.6693688019864
