# Hz S DB R 50
100000000	-29.2405067663894	-10.6507420637833	-14.7562715197018	-4.91159428097103			-54.7323654922681	-25.6962279570217	-3.45920179384615	70.9172285676485
100687500	-29.9881691504296	-10.5647978447824	-14.3964561304892	-6.48442166898638			-66.1102566210084	53.2583486010631	-3.42761089764914	68.5508148915535
101375000	-29.28087015036	-11.7072236869909	-13.8540240650347	-9.09644165246111			-56.4048373840849	-56.2405799232762	-3.41764628413625	65.4216995640586
102062500	-29.9508388299485	-8.86170034572568	-13.553514634618	-10.6325036809589			-58.4758127392003	84.8514179386907	-3.43419361679486	62.811801986443
102750000	-29.0621850675371	-12.6864020027846	-13.0869886743247	-13.0703236004154			-53.0983538109836	-16.9374486472074	-3.42072946233565	60.0222318519058
103437500	-30.0490965710477	-10.369553017164	-12.7613107063326	-15.4541489499589			-57.4790434231674	-179.550949431217	-3.41492400526433	57.6358829709812
104125000	-29.0068287045696	-11.8112655058291	-12.3461775915314	-18.097896517642			-60.2560401426862	4.18475360783271	-3.40583833662666	54.6082560317134
104812500	-29.9391473709905	-11.860460306187	-12.0631238664654	-20.2304015270518			-63.7017180564811	-136.985689979679	-3.43836250793483	51.9591551286946
105500000	-29.4370945887857	-10.2974003797746	-11.6335790481736	-22.5131220181721			-53.7264951626856	19.6098801815185	-3.3985029802921	48.9682663448503
106187500	-29.8391546161346	-13.2263928372908	-11.3854071311033	-25.3879597695134			-62.6982932823307	-93.9709493301442	-3.46657574598943	46.346212726673
106875000	-29.5389352925529	-11.670029235283	-11.0893209243752	-27.7867721025619			-67.4800257613123	4.19707058076882	-3.47025301888723	43.5540590916878
107562500	-29.573552296279	-12.2811823586014	-10.831405376448	-30.5321490243819			-61.5992137758493	-95.5918381396883	-3.48499952118908	40.609121116114
108250000	-28.8118843598827	-10.2027718805103	-10.5836411197605	-32.9141423164354			-69.5691893234148	131.654903772795	-3.51121235570887	37.8699247833583
108937500	-29.41819975468	-15.4623901290182	-10.4162904462196	-35.7498894427249			-59.7003762168761	-72.9330767976083	-3.5275709623966	34.8630218081843
109625000	-29.2785018422395	-10.3600548455849	-10.149105421879	-37.8878689834488			-84.5756066180183	42.4487358624263	-3.54361915454958	32.0336352824965
110312500	-29.6354048697613	-13.4225721575912	-10.0351213431724	-40.8771039467505			-58.7828353762106	-77.7117070262058	-3.58810469181982	29.398333342713
111000000	-29.1366200532749	-13.4918551716613	-9.83838198254089	-43.3119860710197			-62.5436634379851	54.2824587478048	-3.64556877205725	26.3241202440801
111687500	-29.6535211212518	-15.6676881639803	-9.82775677033544	-45.8499163352916			-57.9089400469808	-135.887791318979	-3.63799843008669	23.1631249275642
112375000	-29.5072170984032	-8.55391638285756	-9.71239316677799	-48.1911094451405			-59.7857351320734	90.3181725149783	-3.74025855755827	20.3998103928894
113062500	-29.6855859596757	-15.5240409249573	-9.69778052174908	-50.808229273836			-57.8541698986702	-62.9019582238568	-3.76614848674859	17.0740475594506
113750000	-29.6280255838353	-12.5630747254155	-9.66854539731126	-53.0379389458837			-69.4472332131844	149.90088336621	-3.80205390690459	14.3109514765783
114437500	-30.1404944891701	-16.2582702019497	-9.70722483633697	-55.2010073507495			-55.9219893225142	2.53609448200468	-3.83964005544553	10.892668179043
115125000	-30.0244605302515	-13.8603606651712	-9.78011921065969	-57.1733737322925			-67.5900228248474	-148.855921305367	-3.9147555655582	7.64786944371981
115812500	-29.997371228023	-17.9807247766611	-9.89360543205748	-59.2523978849181			-60.7161215084799	-35.9066563438399	-3.97592640977704	4.1626213744464
116500000	-29.9367755813932	-17.9036851061822	-10.073239437929	-60.525239315685			-65.5639698110203	162.844796600973	-4.05241275850271	0.660627092560293
117187500	-29.7768764557941	-19.2560199091285	-10.3225701423686	-61.8225300345881			-58.5830723477915	-85.6187623224551	-4.10798721653792	-2.78563918420622
117875000	-30.47972771692	-18.3136534162452	-10.6003517703796	-62.8270387939225			-68.0298773248842	-129.756330515654	-4.19283730251331	-6.44684086742082
118562500	-29.5875730351001	-20.1245612873965	-10.9221415578925	-62.723410706556			-65.9168458589945	-0.135740469749468	-4.26938174676905	-10.4384291930728
119250000	-30.309740341461	-23.0535060269095	-11.2583310946742	-62.4210370561365			-56.5376026578049	-178.75785170769	-4.3600269301495	-14.4715629601806
119937500	-29.6762602939977	-22.7804342178891	-11.6638732512772	-60.070750068341			-60.5585878434151	83.2794225076325	-4.40774970014915	-18.6228072181234
120625000	-30.375646840588	-25.4923925463155	-12.0402685035323	-57.2764050084217			-59.2409294429445	-146.380358572208	-4.49260568448638	-23.1083590721224
121312500	-29.8329513291863	-28.1241969547867	-12.3453457067965	-51.8733567481656			-73.441398355507	-144.914640479816	-4.64394640112564	-27.6849284902226
122000000	-30.7697150800843	-30.4734065663441	-12.3898136449812	-45.7766646358788			-58.301799658457	167.034555038415	-4.74171235820302	-32.4764095450065
122687500	-30.1930415272792	-30.5318826082552	-12.1058612171235	-37.4182526229189			-61.9418329126169	44.882836766595	-4.88886040077256	-37.357853437448
123375000	-30.5172238399136	-34.9441372670413	-11.3199098367977	-30.4497336066448			-60.3085038648304	-94.610684309758	-4.9888432844413	-42.6574224315307
124062500	-30.1363386589307	-34.0753783157825	-10.1836638942675	-23.7147467126712			-60.5909415018141	43.4785753376576	-5.19507710729614	-47.6755378966647
124750000	-30.23276230644	-40.8524315272107	-8.73590236406187	-20.0651488399281			-54.347364979486	-108.58244981054	-5.37259019195181	-53.3218962670659
125437500	-30.1744655600001	-38.8371417744596	-7.32628673297303	-18.0019365421207			-61.8731109084252	51.0801244642113	-5.63258717383742	-59.169379580843
126125000	-30.4828721938079	-45.2202419916656	-5.82259430469995	-18.5353683054584			-60.4242724106503	-137.215533364513	-5.88930971926459	-64.8545824251385
126812500	-29.6928005665794	-44.7872505960144	-4.49779340240354	-19.9262553549015			-60.6205247394418	53.8865955971855	-6.1901670800587	-70.7440537177853
127500000	-30.0097640759805	-49.6629910059957	-3.21865330179468	-22.9597519457187			-56.976515677149	-45.4488833076854	-6.45791305281641	-76.5511890614174
128187500	-30.2471843129209	-49.3117992121701	-2.07809636007279	-26.6696680283226			-69.4439130557543	-37.2984042190157	-6.82952673081321	-82.7525498986956
128875000	-29.5541700804633	-53.044877177475	-0.993129035677978	-31.1000924649841			-61.7705835186895	-19.3720868435948	-7.20344188783597	-88.7280004783436
129562500	-29.8376265386376	-52.3342189888056	-0.114542809117922	-35.5945589323024			-80.4187352545022	-178.062433666299	-7.59687487287437	-94.7192337726715
130250000	-29.0140150505518	-57.0975730861105	0.778234615484199	-40.8435478043301			-57.6290596487016	8.00995816204905	-8.0741273977063	-100.400175584869
130937500	-29.8897456559589	-56.6077152300846	1.4170089209566	-45.9741905375327			-72.0965441560805	152.469482738364	-8.45009347494941	-106.157999313432
131625000	-29.0110608421984	-58.1291873086165	2.10012587118808	-51.3492929018438			-58.8346453173045	-11.0044793985609	-9.00808325755139	-111.395304926035
132312500	-29.6491806588655	-62.9844481833501	2.64138931111335	-56.483287610906			-59.2144757076726	-104.356164739633	-9.42407166923317	-116.822943906911
133000000	-29.1312190298654	-61.3235658976771	3.13709294278559	-61.9726919403241			-74.6032618236713	59.4866015315091	-9.94395277776022	-122.068470434985
133687500	-29.009782603116	-67.7403103882321	3.49927131476314	-67.0552827241827			-70.2458603989515	-140.003420037432	-10.4042731542873	-126.866452594235
134375000	-28.6621974994979	-63.7979894637696	3.95612592550016	-71.9864705745128			-58.0110245618598	-33.4183062291846	-10.9214484578076	-132.439647131313
135062500	-29.310489022232	-67.5280183227828	4.21077683513793	-76.8273399709489			-59.7647367350352	-113.098209586127	-11.3816433830567	-136.92855288307
135750000	-28.6178251377672	-61.8908267754873	4.54958912157168	-81.6629845190523			-54.9303650182836	-17.5678609987758	-11.9113411230405	-141.282980459415
136437500	-28.9413296943902	-70.4456628866462	4.7486914608651	-86.4368488447736			-69.3004512949231	-71.940149073113	-12.3223393103573	-145.779500102036
137125000	-29.0080513263545	-67.6675177904021	5.05341170585148	-90.7300571055412			-59.648125076329	-26.1059843685966	-12.8614331929815	-149.594330472612
137812500	-28.6681151990453	-72.5238201423702	5.19989107543588	-95.2905573123031			-55.3535128260759	-65.9865695405999	-13.2721284400712	-153.936867969409
138500000	-29.0723200696932	-72.3983884590339	5.44290245707149	-99.6028756892439			-55.9500443598536	-0.226734297399695	-13.755451559412	-158.810851554903
139187500	-28.2825070795484	-72.0279427340097	5.58999418984878	-103.792100901364			-52.4485226873688	-102.64717378569	-14.2029314454262	-162.060972434665
139875000	-29.1872227036217	-70.011538552597	5.77434897688941	-107.90485624739			-55.2998283637598	29.9466295024074	-14.6775416131273	-165.686301623901
140562500	-28.9716967070188	-71.9493704362859	5.87889265128241	-111.800820487536			-54.6466394309929	-106.147445647465	-15.1772342561805	-170.253834213568
141250000	-29.0677368877956	-69.6432798439851	6.06317326106628	-115.882099070593			-63.5472430147251	-151.474142870946	-15.4302961992029	-173.998753904616
141937500	-28.774045355865	-71.9482947173019	6.12066366888439	-119.813338229529			-56.0251699566392	-82.4114617593946	-15.9960995405737	-177.694810665741
142625000	-29.0485905231354	-69.2762840716937	6.2955457014404	-123.52782957869			-70.9562561806957	177.566483308833	-16.3755816994778	178.006839390328
143312500	-28.4654336896423	-75.828976120834	6.35230246084877	-127.258951798591			-55.0788133215842	-91.3773842004756	-16.9470670719878	173.694976796251
144000000	-29.1554141259003	-70.885021075447	6.46412286459256	-130.75900269293			-59.5156326814254	-155.600057022553	-17.1168430278658	169.655972722602
144687500	-28.6244126128234	-73.4045447841799	6.49514276807413	-134.69656604691			-52.54589763011	-85.6135288698972	-17.7715261286608	164.123192376368
145375000	-29.4562582466411	-75.9372979561783	6.60594204022243	-138.19983598234			-55.2521817639281	-146.451816605865	-18.1249649663117	160.074940304403
146062500	-28.4278505267591	-72.2989250293918	6.64492338971707	-141.645657922145			-58.6684460252439	-87.0961003941048	-18.7349619910987	154.831653669354
146750000	-29.1558740048765	-73.3202878923917	6.73958437764326	-144.909688297521			-58.0669325615621	-129.375124007811	-19.1938705717851	150.31366254098
147437500	-28.6500633730972	-73.972084145357	6.76197852248225	-148.329252352853			-55.9198363282216	-94.1388715469566	-19.7272677839008	143.771163255794
148125000	-29.1830853717251	-78.5685930398772	6.84065952527109	-151.819078682585			-62.8340558176401	-113.44186311978	-19.8936663679962	138.708062081435
148812500	-29.0640244793831	-77.4396316906025	6.81645839080832	-154.923784959163			-60.9485262400967	-69.1387339026322	-20.4024147356124	131.695547281498
149500000	-29.3736706510625	-80.6416970829696	6.88912377321456	-158.011676295007			-56.6345194291858	-130.240121124961	-20.9234180589343	125.56031056212
150187500	-29.1137425379685	-77.3541544493175	6.87573261003298	-161.127717359498			-60.6108001264923	-170.528636919794	-21.1463945393307	117.407641235271
150875000	-29.1927007189211	-80.5129960990331	6.95598037188374	-164.281902957505			-50.3823607966142	-129.437809728591	-21.6000827237499	111.214288644731
151562500	-28.8997785758131	-79.3383331282691	6.9156079334725	-167.247731593616			-71.6891085451423	90.5611811836779	-21.4677489858607	103.305176098179
152250000	-29.5237429038022	-85.1540193742709	6.98573421690987	-170.125019889031			-51.7071027985835	-146.508571673261	-21.9969476151488	96.5885968951378
152937500	-29.6629444005674	-80.2768843167102	6.99331640919617	-172.828080856381			-55.8488763002673	-120.042373697645	-21.6220197511849	88.1932535271869
153625000	-29.4323343445998	-87.714218931698	7.00263212102924	-175.902369514235			-51.5517110103581	-161.982937002872	-22.0011915422947	81.6544269785444
154312500	-29.6776560601123	-88.0315384903744	6.99720358008179	-178.47823875518			-65.6514722653833	-130.496042988486	-21.3857083004451	74.1212051853175
155000000	-29.3194520084261	-91.6013548934861	7.02033705011995	178.487064945105			-53.8164651936996	-129.69309431035	-21.3603654728813	66.9500225778178
155687500	-29.7666415606303	-87.03951142266	6.99510963263818	176.214687212752			-61.9660432688733	160.885753419135	-21.1847684727801	61.0329774352843
156375000	-29.3688873220183	-92.6300881208596	7.07856049864117	173.214406746409			-51.8624340865554	-144.370668223422	-20.7310737856866	53.0273337123293
157062500	-30.1927030111581	-90.8725057268878	7.05262511707222	170.66276909323			-58.033417619796	138.594103859206	-20.4371338671749	48.9658327925585
157750000	-29.2203555264744	-93.2364983698181	7.13873273656044	168.073551059979			-56.6665755750266	-166.619945721275	-19.906250899336	43.8273846638439
158437500	-30.3416336122561	-95.557398661341	7.06104551417565	165.480142924148			-51.3844891869455	170.564872625521	-19.5851107059757	38.9766834201039
159125000	-29.03356529308	-94.4828744964107	7.15546355339732	162.926526453071			-61.0815976669575	165.999938424856	-19.1952886812176	33.6720346159238
159812500	-30.3098332584041	-98.1016277730307	7.13181871160497	160.316289700164			-51.9856384635871	154.373890632003	-19.0039839173045	30.1063478256375
160500000	-29.2606885587374	-96.8490061446766	7.18879937884142	157.741112289948			-56.7489486649198	82.1566828368353	-18.3021324791904	26.6638996922933
161187500	-29.8795604549095	-100.113358790881	7.10227617570857	155.531628721908			-51.9858831868363	173.684168962155	-18.176371962395	22.4854515400237
161875000	-29.48083736966	-95.2413471178089	7.22742381846758	152.950398287332			-70.8053136300195	-63.7831474701657	-17.8222421558994	19.6575001580446
162562500	-29.6011202132795	-102.68466687172	7.16191445156711	150.140683725307			-51.9341981066592	165.849456676077	-17.5506273169658	15.062162168053
163250000	-28.925741694929	-98.0158831192121	7.19196026197927	147.624608342793			-65.8465356955364	132.690073896431	-17.0161364756516	13.7003831794904
163937500	-29.3269444443003	-102.186572596921	7.185272140346	145.471135420988			-52.3179651653694	167.305836791659	-17.0091992384264	10.5075513667054
164625000	-29.2466551783477	-95.9533781906211	7.20350056130054	142.731306213033			-56.8005315156066	-177.654346833235	-16.5404616832826	7.51960850235324
165312500	-29.3396470841847	-104.845247768815	7.16970042073958	140.50389120882			-53.1034223941428	176.090157160164	-16.3416492707378	4.79866183249522
166000000	-29.4717606887928	-97.5657381612766	7.18530761778788	137.906045032348			-62.3348846659885	111.410814548367	-16.0106834942951	2.67287185848529
166687500	-29.1270153088702	-102.383349985326	7.14598063120365	135.597139564256			-59.958989184581	144.350479115714	-15.873878574326	-0.388782735281412
167375000	-29.1829134477253	-98.7216218868596	7.17599429942402	133.415677471439			-60.2216895249038	142.706699393368	-15.6247879861625	-1.57874310391353
168062500	-29.1892875027373	-103.759440266897	7.15404548701831	130.996620165116			-56.6237414950112	-146.550707108603	-15.4535784422644	-4.38006737224035
168750000	-29.1658299652444	-97.9625569899837	7.20020263892637	128.743369762146			-54.5159220758604	124.268870058841	-15.3685371041192	-7.16766571180469
169437500	-29.1004212909292	-104.72076432562	7.11457474852395	126.67432968218			-56.1991414982415	-156.16780968496	-15.1583738572977	-9.63309174790156
170125000	-29.482784320373	-99.4085595544297	7.18447766146785	124.355356627067			-54.1773352641847	128.517387914982	-15.1152927290617	-10.9913799874129
170812500	-29.4244898859075	-102.760186149028	7.11000725132697	122.072081374366			-57.5631200242087	-161.436978130064	-14.8181385242571	-14.1912262838192
171500000	-30.0967281364435	-101.735321689128	7.17161517260054	119.843487317019			-54.9104359730506	120.467145273536	-14.9695035469728	-15.4516341288106
172187500	-28.9428710967897	-103.308207400943	7.0830160927908	117.832361783816			-64.1161802518906	91.0115745120863	-14.7139760330813	-18.3217828708659
172875000	-30.3689969514244	-102.048690600705	7.14671680170791	115.873765428126			-59.3220156988439	117.731653022287	-14.7387752441452	-21.0721066932922
173562500	-29.4281568421533	-100.517942740742	7.08494073988513	113.658935214918			-77.419387495704	119.559267693921	-14.5991800875662	-23.4269627565087
174250000	-30.0089111631424	-100.694221754886	7.16975218379225	111.555450654347			-52.6037623258313	155.569178143749	-14.5966310919092	-25.8385491321805
174937500	-29.4324616129339	-98.4689057382201	7.10263530378513	109.585292126061			-65.0137103445511	120.959608945953	-14.6111157737283	-27.3323358216369
175625000	-29.9488986397678	-102.819591054164	7.14081088303245	107.464752652229			-51.2584786771983	129.03179859001	-14.4823034420702	-29.7755384087591
176312500	-29.752206311129	-99.6219929139214	7.12218762688047	105.554933781046			-64.3150431574203	-99.9614916178598	-14.4971461290646	-32.512821137394
177000000	-30.4469314963363	-104.39260539796	7.18776775606516	103.560997560072			-55.4462611634287	126.677928206654	-14.6503984843628	-35.3601894152943
177687500	-30.6978577093661	-99.256091212579	7.12901904012876	101.442934701052			-63.6013227816521	97.1397670679983	-14.5485553461748	-37.8237783691997
178375000	-30.6117679178876	-107.54906235915	7.23140331842028	99.4874346667062			-55.1800247334807	-165.372042422432	-14.6485464919087	-40.171004647122
179062500	-30.5982244930877	-101.186569461668	7.21113087865356	97.3443310295107			-59.7803628183841	11.8660093388117	-14.6275699466772	-43.0107388447161
179750000	-31.0505314467918	-110.064719067033	7.23457562805816	95.4187865520444			-51.487623446506	132.184315467294	-14.5689601306279	-46.2970434963345
180437500	-31.3438743746275	-101.524297019655	7.26724750897342	93.406651439314			-62.7704446988354	141.373123699097	-14.7227529908098	-48.7787905935547
181125000	-30.8764871512679	-107.684305814664	7.32057368571088	91.2048524449041			-57.7930317134501	126.76419687302	-14.6259837661431	-51.4098307770486
181812500	-32.105272671252	-102.927123972108	7.31491110712925	89.1846190380633			-66.7964752408122	103.234135711438	-14.767152755886	-54.3524521092487
182500000	-31.26914948483	-115.396595867203	7.39187485642567	87.0011260689478			-59.6864519682826	138.441343135534	-14.8247086587602	-57.6294829309963
183187500	-32.3796701050556	-107.202070555663	7.36412120552227	84.7803625010146			-55.3447329534972	61.0248840042567	-14.8770456031467	-61.0965054559751
183875000	-31.4037101997903	-112.251230057874	7.43518348209065	82.6878488785234			-60.1033455337329	149.362170158103	-14.8699941062	-63.5945211088125
184562500	-32.4145421209096	-115.131345899088	7.39695380427351	80.7933741839896			-56.9978407617672	61.5191743737631	-14.9355345618442	-67.2617070141467
185250000	-32.1567432590943	-115.276380423128	7.4565207873606	78.4015452336493			-60.1769064764129	177.316385233697	-14.9360762338052	-70.356470966222
185937500	-33.6034957410038	-121.608624621062	7.42857866171139	76.2166833419838			-54.0040410364054	86.5523066507168	-14.9701452535969	-73.9256108175802
186625000	-32.1622201595367	-124.100683811367	7.45577953881702	73.9943635496534			-70.7145234968618	-18.6427843969968	-14.920968697046	-76.6755336490787
187312500	-32.7756450194958	-132.550446249854	7.44539868648998	71.9534645798928			-51.1276582093987	114.233145922671	-14.9661921476416	-80.504006076068
188000000	-32.1311139389688	-130.26299903037	7.47127287370013	69.7499413025588			-70.1105876537858	150.509057114008	-14.8681202349688	-83.3455112860549
