# Hz S DB R 50
100000000	-36.4903126298134	25.9224208085529	-6.68874103186214	-9.56019636933246			-61.7262924183045	-40.4633909894847	-3.43716400533097	70.7770310920618
100687500	-36.2941954000158	40.2665265067974	-6.26861827611838	-11.6228957030704			-58.6207262356747	117.867051512094	-3.39925891509534	68.524707919339
101375000	-35.4406010396995	28.5007388873098	-5.77331627275382	-13.681037202965			-56.8038561812213	-24.2165412831699	-3.42180957344554	65.4745647840579
102062500	-35.350528697366	39.7983561114544	-5.42767884041707	-15.9232056504345			-66.794682270385	0.765309470406529	-3.44281305182895	62.7641189595673
102750000	-34.4397891137279	29.995945131876	-4.983171964441	-18.2523490480821			-54.572506707488	33.166681993168	-3.41634429358842	59.9582263470968
103437500	-34.6025076585149	39.8615467528972	-4.66997858392309	-20.5548536008747			-60.9354805879969	-145.513868521934	-3.39749590239292	57.306407463584
104125000	-33.138552610765	33.0962355747981	-4.23653026861831	-23.1224927313069			-57.6867333977428	14.5044489011759	-3.39417206535115	54.5689799489079
104812500	-33.4674993044034	36.1314327379374	-4.00800681413273	-25.412691433769			-64.3324121793443	50.1962717029466	-3.45007138853742	51.6938950906465
105500000	-32.0319928778639	36.0733762747016	-3.58311283039742	-27.9649164041593			-73.8438509494093	8.71247749456597	-3.4120760701725	48.7283449918654
106187500	-32.8653539523417	37.1030130673278	-3.36190686900546	-30.5793037622882			-60.8940869431167	-116.462487413051	-3.45027580955033	46.2161868277989
106875000	-31.729861282029	35.7132284968894	-3.02496067977126	-33.2075651685109			-58.5778780554092	24.6592332684852	-3.43122091133301	43.3098830487941
107562500	-31.8603468763433	32.4849081343646	-2.79314403256706	-36.0254596555598			-54.2600651661819	-115.769204991668	-3.46305310018681	40.3584605838355
108250000	-31.1358419324272	29.8668864656381	-2.52095330103221	-38.6038013661009			-68.440348561315	-52.0633459651202	-3.47677785590235	37.590645344777
108937500	-31.162225633958	27.8549254469563	-2.37154800984801	-41.273815787791			-65.6528567012784	-71.6415713355088	-3.51269100311745	34.5616033768894
109625000	-30.2765346671893	33.1752886811491	-2.10503084252749	-43.8524675099973			-67.2203064798859	69.6838424760575	-3.56786663140238	31.6786357810459
110312500	-30.3562803521343	26.4443777663406	-2.00197234734573	-46.8682717478619			-78.7829543983942	-171.910208256506	-3.60356384651074	28.802271236701
111000000	-29.684788201999	28.9493837085662	-1.80914811049279	-49.363087334231			-58.4703433123629	35.4663842389254	-3.6418779670904	25.7472656060308
111687500	-29.9958719320675	23.8303766185264	-1.80117808569088	-52.1044668705427			-62.2416001391486	-68.524434675537	-3.70857345952596	22.7062721486847
112375000	-29.1063787453156	26.7238738959534	-1.68809403752799	-54.5212159820099			-61.6560949486259	-26.6812863404798	-3.72824673963675	19.7571978751835
113062500	-29.5079488981916	22.2824251639261	-1.71484441579092	-57.1167399410149			-54.9104506722793	-106.934403402281	-3.7631258375154	16.6821529723912
113750000	-28.8151216505643	23.3879274638816	-1.70903691878358	-59.3070992470931			-60.517301268926	14.3278863020624	-3.83328218815467	13.5553264759773
114437500	-29.2271114624205	16.7301375618033	-1.77549394675928	-61.7294083562123			-54.8112288256196	-92.370819401139	-3.86502763946892	10.2536890043435
115125000	-28.9337605482126	19.4012404962389	-1.84443231359395	-63.7685603016882			-58.7969464804156	77.2395479677827	-3.94876913429712	6.73600056950452
115812500	-28.4662998562354	14.0173256251705	-1.97236312857727	-65.8207658081597			-60.3809548781635	-32.0101691956039	-3.99034964600884	3.27940842005901
116500000	-28.5204949957117	14.6294569753204	-2.17120700815999	-67.5360074536645			-63.3130341063232	-163.752224878301	-4.05320555452033	-0.337708560614738
117187500	-28.2121144162122	7.60871019075737	-2.4362740944772	-68.8707180689358			-56.2498664680226	-2.10438617776126	-4.07827154780611	-3.86298349225011
117875000	-27.9221066105452	11.1226598858337	-2.73961858827662	-69.6938721633089			-60.6431273563182	-114.040834998432	-4.16729991456366	-7.70241193370955
118562500	-27.4710952342872	4.89379641830772	-3.08625279857331	-69.8279723656154			-55.8619510381699	-16.1468452975089	-4.23777968345185	-11.4151877580129
119250000	-28.0216586384924	2.32812401225116	-3.48967583500924	-69.2873423277771			-56.0918868506279	-173.139570208844	-4.316830108086	-15.8084741220451
119937500	-27.3815772366899	-1.00626564083669	-3.94955221936204	-67.2547221876852			-58.1362664404847	11.820311144109	-4.37824081630182	-20.1234551931339
120625000	-27.8176315476654	-3.26031992402748	-4.39109706836812	-64.0053974718947			-61.7038144619662	-59.5974283504997	-4.46127045828185	-24.4379162015763
121312500	-26.9234874487094	-6.37721598801333	-4.73081366369106	-58.7271803785951			-60.7815824498429	-69.7642686594321	-4.57974913448829	-29.406142746526
122000000	-27.7106542514846	-9.37942850594729	-4.79189672700607	-51.6183633672215			-67.1463682246427	157.601511561091	-4.66034279637082	-34.2747098844433
122687500	-27.0651365699326	-13.1428837101165	-4.48989903865557	-43.3849539368677			-59.9249649216313	-28.073193293336	-4.82609041795507	-39.1544563534378
123375000	-27.2298939771445	-19.4155214980181	-3.64409378540182	-35.6361216703444			-53.3094533659253	-101.766472497321	-4.9474807142033	-44.4204150358356
124062500	-26.5520075616388	-20.7562964285288	-2.49936886901345	-29.123665065918			-60.9020436111174	48.2174537201108	-5.10624902880747	-49.5123897060201
124750000	-26.9013449842926	-27.7506576088221	-1.01309246112874	-25.4931646674873			-71.0982531591085	-71.7268569838674	-5.28319087355643	-55.5194224212273
125437500	-26.6355620051891	-29.3032268155996	0.420705189445774	-23.579717671205			-58.2126730800425	107.698154412952	-5.46691561238319	-61.5531918476805
126125000	-26.9152106798158	-34.5412319419181	1.93125336048204	-24.251232188246			-56.927117747885	-30.6503603736211	-5.68639341769264	-67.1722895692258
126812500	-26.7046752438654	-36.3540328805623	3.26673211292078	-26.0210448567402			-55.9162928457226	19.3871017834675	-5.98451798304774	-73.075334042365
127500000	-26.5266541047685	-41.7166699559836	4.5686232227096	-29.0431467867358			-59.5631757039107	20.860545692248	-6.24089490802476	-78.9608876597316
128187500	-26.9813156349593	-44.1424018251117	5.67770678997172	-32.6603405599636			-62.9880999889035	15.6164511470713	-6.57456180863258	-85.0547988024867
128875000	-26.4853929740678	-49.5893612216258	6.71883579624292	-37.2143044212329			-60.2221137999425	-38.0943987634552	-6.92781818546342	-91.1971366452235
129562500	-27.0604250651272	-51.1681930865942	7.58132394162798	-41.7897234496625			-66.6357771425332	-178.744608079087	-7.28505115489474	-97.6099427110141
130250000	-26.6469202700585	-56.5030271824542	8.44034095089051	-46.8671557987422			-55.8328395143554	-7.14797665687714	-7.72524514618021	-103.427046135723
130937500	-27.5593756343846	-59.884634529362	9.09628969889049	-52.2054465371421			-58.5764413383433	-71.7554784328277	-8.07460278899342	-109.097632679202
131625000	-26.8622824602652	-63.2964851888353	9.73444689844433	-57.3037785936158			-55.1400312048859	-52.0479230444187	-8.57395490963444	-114.966161556296
132312500	-27.5594072779246	-66.143083240165	10.2421006953151	-62.5584513492926			-54.9740731624802	-2.14548619703701	-8.95543085713417	-120.571577592525
133000000	-27.4951080717032	-67.7006246403669	10.7551593502909	-67.746571393791			-51.8794848363095	-30.8938588790275	-9.44289945927396	-125.628439594649
133687500	-27.6934315483038	-73.2410406968122	11.1269753095076	-72.8178349600836			-56.2258062264082	-64.5185315890468	-9.88828295806849	-130.839244196474
134375000	-28.0972134343483	-73.7237296314726	11.5395057367823	-77.6780147233089			-56.480400128342	-50.2445877484381	-10.317282110548	-136.070943264342
135062500	-28.0910445359109	-77.8228943338376	11.8210817474995	-82.4094796188857			-54.0916083979007	-63.2612286417844	-10.7656305934209	-141.062932643727
135750000	-28.5606034423157	-72.3642756249313	12.1634965311401	-87.1948261136245			-53.457428792005	-36.954584855418	-11.2566612558736	-145.346996365728
136437500	-28.4882246861885	-80.3438117930638	12.3588153668642	-91.9365628252464			-54.1945708537382	-73.7603939918514	-11.6432712341631	-150.408963291172
137125000	-28.7336555458639	-75.6305676360187	12.6487944062579	-96.0214769770392			-63.7956556247759	-45.4877761714738	-12.11513693888	-154.627577503427
137812500	-28.6948456395592	-79.0147878062724	12.808301925579	-100.406331006518			-49.5788341289301	-81.4964973561987	-12.5204916661143	-158.740206064406
138500000	-28.9448890272374	-80.0556226004365	13.0702068616094	-104.681693974133			-53.9394563091579	-38.0042894593759	-12.8921010374042	-163.980244500912
139187500	-29.2409102972186	-80.8107751861499	13.1956840632418	-109.001977900643			-49.5656254011923	-101.886443327982	-13.3575930602635	-168.18333462625
139875000	-29.5775718190284	-79.4503968876079	13.3905366329814	-112.887175675575			-50.8299546877398	-74.247268947906	-13.7067257146748	-172.599105662902
140562500	-29.1857288923873	-81.4317203449932	13.5048558741726	-116.905190327862			-49.0072852718893	-75.3744133494491	-14.1802409202314	-177.018196067905
141250000	-29.6838282802199	-77.1246088104269	13.7022798062926	-120.786016792937			-55.8037713242688	-52.6024051278212	-14.5390101163406	178.393930531468
141937500	-29.507526436286	-80.093798548825	13.7359533692865	-124.863575306207			-51.0598657178431	-85.8421618796477	-15.0342472513376	173.759421256104
142625000	-29.9822853075206	-78.7606954456307	13.9145579729112	-128.524096041324			-50.5756750023686	-93.8890620861966	-15.3526024093296	169.907351921735
143312500	-29.1974194246104	-81.1413349635484	13.9907908715503	-132.183418599907			-52.2867504986443	-70.699900906585	-15.9650269747995	164.261810005131
144000000	-30.0228605421326	-79.8233679793792	14.1142670232903	-135.817685241193			-52.6528613099775	-119.059246576983	-16.225649615384	160.030032333592
144687500	-29.3875023525717	-82.0076564659719	14.1733777725894	-139.712471578403			-49.5425562359038	-100.393520559211	-16.772183128132	155.711488105423
145375000	-30.3399072155417	-84.0507932343732	14.2557371276428	-143.163522085591			-51.6045931335772	-118.705699892417	-16.9966547725196	150.895267892352
146062500	-29.708690349362	-80.3467956549903	14.3075484437877	-146.588622861636			-50.4545524505445	-88.5058636986395	-17.506388128536	145.110389980689
146750000	-29.9918320423525	-82.536884634855	14.3861833986257	-150.035436581292			-51.2453103984935	-131.619682404169	-18.0062610179728	140.491007426865
147437500	-29.4543243571271	-80.9411520480149	14.3863961320285	-153.374869016817			-51.1249267457333	-105.808207917673	-18.3531279422537	133.583744272725
148125000	-30.3572682299364	-84.5253291630877	14.4499640649298	-156.738688487649			-49.7140548773083	-132.841545448582	-18.668324433407	129.398485901319
148812500	-29.7358127706546	-83.0173561308387	14.4833420830398	-159.956800772544			-52.0888702016188	-102.565885387927	-19.0837051719495	121.263029952956
149500000	-30.0288693016582	-84.5396656683762	14.5380987750433	-163.123137146103			-50.784623377027	-139.950490498234	-19.552071219264	116.214930075259
150187500	-30.187776759312	-81.0260553030069	14.5005444645268	-166.232015351669			-50.4401097002321	-130.588742008283	-19.7440997256917	109.227409119724
150875000	-30.3231269025283	-85.5970998182552	14.5859048302922	-169.332053188678			-49.9444603956767	-142.753669799399	-20.1174874619426	103.170193446672
151562500	-29.7051710461082	-84.7146371463896	14.5533830093504	-172.207556960161			-55.6149975234448	-109.034580809845	-19.9578259057734	95.9123674234558
152250000	-30.0655891675084	-90.5049764162273	14.5964307466783	-175.226570222561			-50.1789482857618	-128.553274741048	-20.3149300947317	89.1998592539573
152937500	-31.1459125947058	-85.6853664302862	14.6042025689652	-178.002420974676			-52.439200275294	-142.184305884446	-20.1654414880181	83.0666816451581
153625000	-30.100260894114	-90.8090578519037	14.6467320975276	179.180672995748			-49.2689747940877	-143.388558041783	-20.3252002295989	75.4240016505053
154312500	-30.8411599188676	-88.5811277135114	14.630452149849	176.502999007515			-51.5643969423076	-157.576252164092	-19.9754283585228	70.3133426577651
155000000	-29.8061707696592	-95.7318373439101	14.6563592495452	173.445285852408			-47.8132171540581	-130.572333667417	-19.9213617082431	62.3550307155831
155687500	-30.959553566501	-91.7989758496204	14.6177630564402	171.144376967828			-51.5443262999096	-173.201202984923	-19.6719412792	56.9244438658341
156375000	-30.3608725548219	-95.3300640219207	14.7098425516058	168.240013523456			-47.5000358619077	-142.173659407816	-19.4358599695107	50.7370496166618
157062500	-31.7800695429651	-93.134134465553	14.6656897736365	165.773863384523			-55.1162424097127	176.002545965505	-19.2802026793814	46.3468534305351
157750000	-30.2297979196572	-97.101717416531	14.7418142405693	163.070933339259			-47.4321610617813	-141.040744664318	-18.8989999276911	41.2133845499075
158437500	-31.3952648374721	-99.9425523444943	14.6858453548761	160.521066266094			-48.618636311205	154.189035388267	-18.5621338399856	36.8935208804719
159125000	-30.2886940318826	-97.1725921953517	14.7612615565428	157.920159064825			-52.2129105888861	-170.707158360701	-18.1785561933816	31.528344200932
159812500	-32.2954659108167	-97.81226002239	14.7613191138447	155.344622819312			-46.8995961761693	-175.23390337957	-17.9963699164287	27.5648098581365
160500000	-30.6442049871488	-98.4005725173515	14.8113399709461	152.843825737193			-53.7554371339628	-177.851035404264	-17.5174319179435	23.7939951916164
161187500	-31.1947955841721	-99.5766448388545	14.7311728360244	150.58308003092			-47.7507792451149	-175.734947205919	-17.3696724081659	20.3527655394219
161875000	-30.3227699851948	-96.5531630090624	14.8487546247134	147.946652705167			-50.7844903033148	175.969793386481	-17.0404533422741	16.7959124095926
162562500	-31.1466379704317	-102.256086274058	14.7775537499618	145.278978592254			-46.3440508615098	172.71086013122	-16.8854943364891	13.3264170565858
163250000	-31.1022848153829	-98.4923152467544	14.8185872600814	142.77576577222			-51.6969878458236	166.493848936925	-16.4095632354183	10.9025786392797
163937500	-31.2560243575771	-106.138443024749	14.7914577526218	140.403158443047			-48.075707596387	159.280370762623	-16.2780709973131	7.99633659014172
164625000	-31.0228463120342	-97.4823144302064	14.8026101970025	137.991334882537			-48.7687443778491	141.375897891398	-16.0624726048842	5.36032036774635
165312500	-31.3943352883899	-109.407255213244	14.7920724271954	135.550775719001			-49.7371755294282	167.440405589536	-15.8563652624415	2.00282146823023
166000000	-31.3057808478482	-98.343683623017	14.8377560826339	132.979523302145			-48.9469365537231	161.245752441644	-15.5907563369587	4.54040248394421E-02
166687500	-31.3090802480012	-108.248762032423	14.7935223197801	130.66751013077			-46.602328118441	165.433570684196	-15.4682632606249	-3.10295916435018
167375000	-31.5486499108991	-103.506344279331	14.8308409976851	128.511807591458			-53.2308624383648	161.887465865226	-15.3524851682284	-4.55856084017459
168062500	-31.1616101210401	-107.898083417073	14.7689478352496	126.035284937292			-47.7085249195401	169.467437432965	-15.0943196931662	-7.96455545628116
168750000	-31.3409436305951	-104.245787415834	14.8198079030975	123.859061671723			-50.0272034439382	143.371723945524	-15.0847795749896	-10.0336528422924
169437500	-31.2903198512591	-108.066251052549	14.7658837181136	121.601300622093			-49.4188760839566	167.653487208183	-14.8441405608484	-12.6299198847775
170125000	-31.8158902306841	-101.325500104191	14.8029871478118	119.240257803506			-49.3131619801548	160.282010829574	-14.8846774223736	-14.5208591567191
170812500	-31.2923503282063	-104.11883860848	14.7355931693143	117.192184805712			-53.1973416436002	164.350859331851	-14.6579944701812	-17.205276111544
171500000	-32.891845945724	-110.370141812739	14.7676726965473	115.013255770002			-48.3929522607607	160.320921035809	-14.7968944299131	-19.0680075414044
172187500	-31.3033619062243	-106.880995862366	14.6973152941357	112.913042874096			-48.9367038910123	168.59162231714	-14.5550093465426	-21.899881522595
172875000	-32.3716203843308	-106.048333943355	14.7660659012211	111.053826549614			-48.6386727326548	141.487493222608	-14.6090736968806	-24.3833318966115
173562500	-31.1873087891152	-102.947276007179	14.6972810776739	108.875733463245			-57.4358697941116	176.020096324828	-14.5096148810003	-26.4507809931609
174250000	-31.7155450387076	-102.826074249819	14.769764519132	106.771362043985			-50.2097015570919	130.670277263368	-14.4843422479394	-29.6747898486957
174937500	-31.9659895322427	-101.252006051995	14.7436026432738	104.72611727663			-60.8398285335606	84.48496186647	-14.4513535846476	-30.7857091820298
175625000	-32.2166136989453	-108.425095428685	14.778124081583	102.687579090883			-48.0281098034237	133.411003018428	-14.5307216752868	-34.1232609256613
176312500	-31.9628356630368	-101.425667250132	14.7440486324681	100.770617273223			-57.7371086250477	111.493362904734	-14.4780511597975	-36.4308501042025
177000000	-33.0597579933032	-102.732744512664	14.8160026997566	98.8390062286853			-50.6810818667964	154.091920827639	-14.5472516872119	-39.7869987054526
177687500	-32.9742891913055	-97.6664889549699	14.7838448966885	96.7988172649116			-54.6927951524213	111.269690894441	-14.5974714767868	-41.7315047596859
178375000	-32.7166443496631	-108.587018572957	14.8545801910222	94.5770821248222			-51.64256495457	141.386870645049	-14.5913826035173	-44.7589544388978
179062500	-32.5288480819841	-100.492297501429	14.83035430726	92.5879038111285			-51.3773039598986	103.547093801948	-14.6739763120123	-47.595447747544
179750000	-33.2083458105516	-106.238529556418	14.8789821455283	90.7284824142958			-51.9016577212488	147.834375471144	-14.5480432162029	-51.0866493990142
180437500	-33.1011048019083	-95.7578614349759	14.9146156030869	88.4044881245686			-54.3966265228987	127.885228680478	-14.6329884456903	-53.6181206890076
181125000	-33.388164842539	-104.69613944991	14.9477066349107	86.4158269641622			-54.8877156835381	149.462282463757	-14.5911670307649	-56.9063842659549
181812500	-33.9729058738685	-96.6574064121464	14.940893621825	84.2368415915584			-48.6849609098118	113.188768063978	-14.7723945106955	-59.9586434178189
182500000	-33.3968863143859	-109.637960254196	15.01097851359	82.1872928686308			-54.1157169262137	109.815591979662	-14.7214822478144	-62.9568909830201
183187500	-33.9885181314489	-96.8182596866457	15.0082634624639	79.8742058441938			-49.8432319820003	106.868981897755	-14.7171426246039	-66.6216786598281
183875000	-33.4881165241913	-110.795759817358	15.0483235028561	77.840393549268			-53.3051828959982	98.3556466047201	-14.7984516003605	-69.3157245202647
184562500	-33.7816676534665	-105.822392836522	15.015995014476	75.7406712309054			-46.4405070176946	106.380463545454	-14.8929276158177	-72.7322992633912
185250000	-34.3386509441779	-115.363601637769	15.1035794822688	73.5795767982248			-55.3155943572426	87.0280191028685	-14.7873684802182	-76.2007065191146
185937500	-35.0852467525964	-109.559179224389	15.0514721289484	71.3045055553126			-47.479676806126	113.110152000733	-14.9236951428945	-79.9425524976464
186625000	-34.6435735420859	-113.857735556472	15.0936495256101	68.9565864591839			-49.911266655989	115.201269130918	-14.9183177307219	-82.4130707153018
187312500	-35.2833700357979	-126.700609352908	15.051551436174	66.828998203081			-49.5073765726347	117.873057089257	-14.8361092792827	-86.1543874271633
188000000	-34.2377919095417	-118.527326598273	15.0704090543366	64.7194175581152			-51.4281024780546	83.2302779370681	-14.8125494978567	-89.1929535287274
