# Hz S DB R 50
100000000	-17.1758803242757	140.277019659114	0.888562888448488	-9.02795032011098			-65.6751465554503	-18.3547969358274	-3.46240786469238	71.0095297146792
100687500	-17.0942925490377	138.148119285939	1.3099692727498	-11.3225220908577			-62.1047647947639	-29.3148328815497	-3.41177789811218	68.4749505813887
101375000	-17.1566125889741	134.526705883041	1.75742978356598	-13.2236583583027			-58.1268916783368	62.6640169122014	-3.41407282601673	65.6656244289506
102062500	-17.0061158095981	131.682222988237	2.17047000860101	-15.8293882445347			-57.3992498192746	-42.9122160440517	-3.42475130085912	62.7126028087748
102750000	-17.024407353695	128.111295740932	2.5917808774694	-17.9120411656431			-57.708006023437	48.3947455325038	-3.42924880962082	60.1813636045878
103437500	-16.9493921330387	125.97483877361	2.93676013903558	-20.5437922890498			-59.7355301675234	-40.9379292361008	-3.41598136226911	57.1839707959574
104125000	-16.9183235908057	121.173613749062	3.33247957562295	-22.8556874919919			-57.5492421475574	52.5187439013325	-3.46507161054531	54.5762202426194
104812500	-16.8754890129383	119.300319459491	3.64599749378065	-25.5781294278392			-58.7689115197357	-28.5374587931239	-3.42371150996673	51.3437581161426
105500000	-16.8172060875796	115.566360476488	4.00499300192332	-27.9076302592991			-56.7135552324634	-15.3497088788044	-3.41136858446532	48.9481805193296
106187500	-16.7411644293905	113.036722134035	4.27837659005099	-30.6406326192409			-55.6889573437101	-24.2395697367223	-3.42917968441077	46.0406793466187
106875000	-16.7208059927708	109.27460322276	4.59179115130398	-33.1531708015303			-68.3475795067569	-32.1266209791815	-3.47419198596656	43.2366382102237
107562500	-16.7418896577041	105.904285483544	4.8477718225065	-35.9645538264239			-68.2510577565333	23.39196009734	-3.45300956392228	40.1926564258495
108250000	-16.6697054041477	102.374549256346	5.11083496241029	-38.5365193054372			-61.4958947592025	-37.0860529736399	-3.54025004804103	37.6391590882935
108937500	-16.7028649769633	99.4602076468928	5.26554337421569	-41.2348931142047			-51.6363982625785	3.53295242176885	-3.50608567833687	34.541610560003
109625000	-16.6235237214612	96.3302777734645	5.48591483516719	-43.7383321786059			-65.7104225219651	-112.557674431178	-3.58200233778891	31.7915004586988
110312500	-16.6081611021219	91.8364162196004	5.62522023108095	-46.7060766974456			-57.5914947020834	-38.5865780524855	-3.61962635631611	28.907219823076
111000000	-16.5291763932651	89.5573441592535	5.7572914241115	-49.3123982943064			-60.2928094383492	-96.3647797413784	-3.68809856723083	25.7456012177783
111687500	-16.5647537746868	85.0844232273367	5.8028534299036	-52.2600502218784			-54.8430165574869	25.5726456535317	-3.67910054810578	22.5174274067898
112375000	-16.4264623942041	82.2825114488398	5.91015902623174	-54.4675350651811			-62.963422733189	169.408311120046	-3.78737759124152	19.9266740218601
113062500	-16.5045790084346	78.0009203375312	5.89829514846247	-57.2238586684031			-52.4738275394685	-3.59755054951517	-3.75318259844725	16.4187296133754
113750000	-16.4721044059166	75.3684695501213	5.89116444101552	-59.5684996309828			-58.4168793357433	-67.856571138227	-3.83926455532352	13.5749879656423
114437500	-16.5256957313327	70.6614723183847	5.82450473098254	-62.0226593583534			-60.726484888773	23.8543438654088	-3.8605907749043	10.2277627255261
115125000	-16.5883840111907	67.2090990852771	5.75973855565795	-63.9577268149532			-65.6406775334205	-100.440495300776	-3.93203866845339	6.71323430464881
115812500	-16.4073804521952	62.4409641536838	5.62989053140466	-66.0644449735172			-61.7777701171886	-39.0424898563013	-3.99942160642228	3.16853649187797
116500000	-16.6119622655686	59.1772698471219	5.45264360829371	-67.5701669326705			-62.9576709295717	-131.169006592267	-4.0462010436751	-0.450546876892098
117187500	-16.5280960446123	54.6396986264623	5.16923435425275	-69.1211926353459			-55.0405512303911	-21.4077189928281	-4.0773765556515	-3.92275961206678
117875000	-16.6408559595756	51.1537720429888	4.85481963133721	-69.7443404093658			-56.6008060169274	-106.303932345092	-4.16364525669534	-7.83014957361001
118562500	-16.526544765494	45.8233163571526	4.49667889853034	-70.2624711733377			-63.3543084110517	16.4075108487833	-4.2436551261942	-11.6277765369375
119250000	-16.7294475618015	41.7382469724772	4.11145226855813	-69.2940344183234			-58.2646699935291	-86.0537347791176	-4.33047491161517	-15.9256054379036
119937500	-16.7149882066168	36.358635932506	3.63589550457633	-67.7661697085792			-73.2063750660168	5.57130466254137	-4.38966466920077	-20.1150886276651
120625000	-16.9139213154296	32.21786305898	3.20216080425759	-64.2467725830402			-56.9510903187879	-73.597448426329	-4.44840080972841	-24.4883440155806
121312500	-16.8593837155179	26.8110498777361	2.86474594680164	-59.0271306958871			-54.5215544835232	69.6556486673956	-4.57370848434752	-29.3790754011222
122000000	-17.1148557305644	22.1215548129076	2.81671173183628	-51.7982381644721			-63.9776667185621	-30.3944570552382	-4.65871834323464	-33.9320534351857
122687500	-17.1043342218226	16.9723584098339	3.15287279299312	-43.7665269887965			-67.6720621796812	-138.416649164206	-4.8343382622498	-39.1145381333977
123375000	-17.3242398328804	10.8682116835832	3.96383690452925	-36.0826612423449			-52.5412795850929	-17.0601424280032	-4.92700964785891	-44.2396525530985
124062500	-17.4737025181476	5.04534887839097	5.1277881911426	-29.8171728201516			-67.1106943859412	68.4633312538975	-5.09331845165078	-50.0552112307865
124750000	-17.6710266932602	-1.50534059004307	6.62045148057845	-26.0991144261973			-58.2153435582206	-54.0406888815504	-5.2572083204813	-55.4148954878333
125437500	-17.7946195000134	-6.96941816586837	8.05920319997866	-24.4905480428497			-58.5199834746364	0.167705047580924	-5.45962982190753	-61.4480465127745
126125000	-18.1283048175765	-13.9254601709761	9.52877257427681	-25.0683630942754			-55.2965370136708	17.9819466088306	-5.72378699184161	-66.9931896138206
126812500	-18.3786953903032	-20.0465751895056	10.9019927225121	-26.9521107381259			-63.2956195348725	-48.8637311320176	-5.95632304388208	-73.1972619707885
127500000	-18.7261148282221	-26.3075127198872	12.1398553971634	-29.8079631491271			-52.3566287742429	-5.13731187714787	-6.2437357756343	-78.6610330742946
128187500	-19.1670365398544	-33.1251481534259	13.3010023421266	-33.7731592767894			-52.2700019874102	23.3612712790513	-6.53850790839233	-85.0517703016581
128875000	-19.3287362244235	-39.9684246929575	14.3232484159126	-38.3203132791613			-48.6343994506204	-0.474720020758907	-6.90690066558773	-90.8716932861915
129562500	-19.8649099744067	-46.4361429909113	15.1800223286868	-43.1769602994179			-52.6098422441738	-21.4420369203891	-7.20214573246664	-97.2067420791509
130250000	-20.1588858522025	-53.0284720941551	16.0102409357505	-48.0774853395919			-49.2837259286974	-2.12136784749833	-7.72135183346955	-102.711089111889
130937500	-20.8197164188937	-60.133441749745	16.6734213407462	-53.4738992177613			-47.247565923638	-33.9213856037901	-7.95737938743183	-108.529476552866
131625000	-21.2384160689329	-66.9448026967394	17.2934084010105	-58.6516787175195			-49.6240466248307	-6.08575813777522	-8.53971848271994	-114.058116128721
132312500	-21.8627366711619	-74.0544178406014	17.8239531040881	-64.0027347987917			-47.6803119301557	-52.7811620410397	-8.84921985093377	-119.806916703058
133000000	-22.5558892237041	-79.5179368632353	18.2910171032814	-69.1649217233425			-49.566990751196	-9.99668880933635	-9.34768914478194	-125.137357184847
133687500	-22.7902213132477	-86.4758799846784	18.6798995811419	-74.3042606132003			-48.1605244689287	-46.7005918559911	-9.72399277421134	-130.300746956334
134375000	-23.8825323836589	-92.2286508818983	19.0659330576771	-79.1004030438267			-46.5431556589837	-37.011852359808	-10.1463011542415	-135.688289853967
135062500	-24.1946220386194	-100.847013564315	19.3444278667928	-83.9211831382692			-45.8642417332971	-54.6619718261584	-10.5316110556825	-140.736646871072
135750000	-25.2448645528295	-102.981851721394	19.6882007102093	-88.4590202240531			-47.8814439772797	-40.2284494025858	-10.9686385133611	-145.256242675966
136437500	-25.7978253430618	-110.592561804477	19.8536364957209	-93.245614626198			-46.5061040110466	-62.5824795846459	-11.3459090300351	-150.237772005305
137125000	-26.6472461978298	-115.644130984572	20.1715800181239	-97.2668609539179			-46.4567925477092	-77.5260185201847	-11.7793051252307	-155.294820321981
137812500	-26.9768659377753	-120.151805442974	20.3177650538397	-101.866904176218			-43.8572888072276	-67.3622373591541	-12.1507947075819	-159.463366133676
138500000	-27.8780349253656	-127.329634495721	20.553555954342	-105.878700548427			-46.1329473363669	-58.3544401197597	-12.5233171880388	-164.805843978681
139187500	-28.6815985886695	-130.957976904757	20.7120457139755	-110.19289013109			-42.5570519694796	-63.4132978485796	-13.0056180948285	-169.462596038636
139875000	-29.7390375056962	-139.012801991384	20.9167061548894	-113.959341232496			-44.9502227662969	-87.823769426216	-13.2631531702463	-173.333227359766
140562500	-30.7670969266018	-141.778788567936	21.0496791617275	-118.200868290951			-46.004667040773	-81.7120011727764	-13.8493802793865	-178.570885804029
141250000	-31.7847265830657	-147.136396826053	21.2020475048409	-121.874975177109			-45.5491911447318	-99.8481178925167	-14.0769339086667	177.044592485556
141937500	-32.916740917974	-151.644260913037	21.2910490878011	-125.988720515373			-45.0752221168372	-80.8147935073523	-14.5698946066567	171.537031038657
142625000	-33.6978488589652	-157.036762743085	21.4401419595407	-129.571085723433			-42.2388729678808	-102.300843893819	-14.9122413778238	168.195652560992
143312500	-34.5318347147625	-154.716148299068	21.5387218904643	-133.55018787716			-45.5461358912939	-84.3984385885846	-15.3532225232177	161.668180888038
144000000	-36.4548688279607	-164.629898317161	21.6394865649943	-136.7440030443			-43.3907880637897	-105.137352502337	-15.6398771683875	158.53838201058
144687500	-37.1681410354513	-168.262581454682	21.6883271581399	-141.011247247144			-45.237605368897	-109.24579897483	-16.1227638358489	152.092819170797
145375000	-37.3550205004829	-177.145149404333	21.7977409332674	-144.22749820904			-42.9159535363979	-114.072782475441	-16.4809275424638	147.731455513356
146062500	-41.6476556518267	-162.295751320117	21.8371638286902	-147.923689071326			-45.4167364543374	-114.92015351217	-16.9406863632927	140.011078312058
146750000	-40.9932878761641	-168.019877896642	21.9076590138787	-151.214886277487			-43.9749750708291	-118.244434148963	-17.5285101048725	136.981962739988
147437500	-43.7837974198204	-164.143890993963	21.9580700981365	-154.742477783492			-44.648538601901	-113.220831379418	-17.6312993199722	129.627714159643
148125000	-41.9750573653689	-172.530452491103	21.9715280155614	-157.848327513807			-42.8092840625081	-123.498392179019	-18.145663305585	125.424663178169
148812500	-44.6362989534071	177.869863788802	22.0086257505911	-161.270569519238			-44.082336841195	-126.790519266064	-18.3817183080132	118.096267353736
149500000	-43.5123471274803	-176.80807901037	22.0386298950165	-164.120791489882			-43.5230558247951	-127.842729824005	-18.90910884122	111.628328047002
150187500	-45.5900957427439	-177.753303766766	22.0588474652586	-167.560316894538			-43.4611026713152	-136.984654813444	-18.9614917534893	105.615455128077
150875000	-44.2045507392656	174.934190751852	22.0964700772383	-170.287647584135			-42.5747350553295	-125.970708149356	-19.3176446954267	99.0502386044308
151562500	-44.7047690866212	170.556529061915	22.0990702711109	-173.34080618467			-43.6663300512326	-152.11188848733	-19.253555034602	93.350178202715
152250000	-40.8972621381686	162.728067455995	22.1079028460386	-176.186786105851			-43.3723590291027	-138.353023328759	-19.4463157629276	85.7723291082707
152937500	-42.311648431631	146.491606386212	22.1428254461806	-179.115793599724			-42.7740723334715	-151.762669998108	-19.351706507728	80.5881784220187
153625000	-42.1292626985019	152.203662576578	22.1642431736856	178.195361547702			-43.0332118527694	-138.574644340512	-19.4521953177756	72.7658456587058
154312500	-39.6350493831874	137.373468142607	22.1764484233309	175.461181065673			-42.5999667657228	-157.528315254561	-19.1614556401567	68.5147088366923
155000000	-40.6710996155592	139.42738451467	22.1682183174238	172.629068380517			-44.4310540167836	-156.535940668866	-18.9547323759536	61.4646354569978
155687500	-39.5492053429697	124.491260877378	22.1652801427563	170.012872924653			-42.3052226408869	-158.066109237329	-18.9036751736751	56.4352821817456
156375000	-40.7997543852931	118.844196056268	22.2302142416259	167.287635325655			-44.5075463275728	-150.523879766621	-18.64963265971	49.4022779101752
157062500	-38.2068472909793	115.230123933638	22.1990850279725	164.525285138506			-43.0040585532637	-155.818192013254	-18.4907501405475	44.597182080014
157750000	-40.3172275243554	109.69554744584	22.2891147710141	162.141790642463			-43.597455576315	-167.757698869318	-17.9722298974696	40.4829107652984
158437500	-37.7031430558072	108.98475677652	22.2449129871224	159.511960235597			-42.4047289194074	-165.234817461589	-17.7670246774437	36.0766811350695
159125000	-40.5245785439447	100.911966819176	22.2900783762358	157.078670427429			-44.8744244318308	-178.713283532846	-17.4284302875897	32.2978157015474
159812500	-37.3482504118772	96.6099953127591	22.3049859406136	154.183035293288			-43.4191009429448	-162.290119506582	-17.2523818448963	27.1196210461532
160500000	-39.3104208451888	89.1213293319827	22.3303873602092	151.881890750272			-43.2974403105465	173.41741189406	-16.9896077846192	24.3350526943126
161187500	-39.0968111969334	96.5126757387248	22.2814547771989	149.362579393511			-43.2568050151519	-172.767625564739	-16.6791632104379	19.7239265399205
161875000	-38.657089412859	79.7090573211622	22.3671754879391	146.775196409832			-42.4978658053072	173.65709654856	-16.4646821767017	17.3445035755124
162562500	-39.0122563261497	96.3542254885794	22.3237458740756	144.021906616213			-43.8181619844877	-176.482551966216	-16.1555402018205	12.0008398071458
163250000	-38.2081516233543	80.8344482796771	22.3483525823494	141.674175444996			-43.7844781443952	171.855201140269	-15.8415726947894	10.6465474002944
163937500	-38.7943880352529	89.8204812070158	22.3637412018332	139.209551920829			-43.9937358275103	174.308705804355	-15.7854562561453	6.59003936864366
164625000	-38.2996335052908	72.9950169624554	22.3389080420649	136.767028972503			-42.9700522807093	165.582779108582	-15.4873245326986	4.36160539741065
165312500	-37.4978089639302	93.3546806292467	22.3388623572053	134.339009044387			-44.2652516519447	161.848806992045	-15.2945768270707	0.85521052919135
166000000	-37.1449386662937	82.3760926690505	22.3369084964197	132.016841501069			-42.8710874542972	157.176545563567	-15.1153567319622	-1.0074376410945
166687500	-37.5322096323075	85.3126841910688	22.3022650652607	129.326005606955			-45.0816720060284	159.634681004404	-14.8855524329332	-4.16344227888044
167375000	-36.1489236057057	80.495516222387	22.3559115075867	127.499557336689			-41.5819742976048	161.543937626777	-14.900164887647	-5.75029130232571
168062500	-36.3894524978211	77.2637415597425	22.317936267119	124.92229501677			-44.4983766657648	152.047880723886	-14.5666540412682	-8.03446255754536
168750000	-35.2208808870925	69.23661020511	22.3009318747276	122.75662304462			-42.3191950028257	156.978298799244	-14.6113744228659	-11.523401604081
169437500	-34.7252936108008	74.2760815769525	22.2809982514942	120.518432124516			-44.9358404802013	142.705668943279	-14.3441547927453	-13.3229292937741
170125000	-34.0705017102938	67.0681497438669	22.3194322759983	118.233172318707			-42.3976815955552	155.908213235279	-14.4898188750132	-15.7830571128748
170812500	-33.6154300379429	60.6359959688587	22.2658886707357	115.949334663289			-43.0840734863923	141.561581724147	-14.2356171016812	-17.8847536354675
171500000	-32.1828501861776	64.7055926777947	22.2833524297167	114.067275403108			-42.9744693855439	152.709542530335	-14.3469355378198	-20.3825981959879
172187500	-33.3357470481669	56.4612704488842	22.238450035849	111.641450002947			-45.3685380071634	137.584401146047	-14.0817296913317	-22.3708913188639
172875000	-31.5215376745855	56.1540765411569	22.2666993714066	109.930609357173			-42.4198351866623	142.354550707407	-14.2359030371366	-25.1762804516667
173562500	-31.6274196376235	45.3049445885931	22.222582188952	107.690928968063			-43.9409859458579	134.744236263096	-14.0303512745744	-26.634482735544
174250000	-31.1914206432284	46.0200652681297	22.2638820090644	105.637206204258			-44.2760027540295	144.718518757429	-14.0052562165408	-30.0928705305798
174937500	-30.493683071885	38.3774770951759	22.2514242245881	103.553703390627			-42.422719679508	141.235759690195	-13.9872930862462	-31.7571732560897
175625000	-30.7198997612272	40.3024781689157	22.2681612053938	101.705524901852			-42.7791514289419	141.976179494393	-14.0150514019276	-34.0267352479798
176312500	-29.7589904710648	32.8025267626682	22.2781360349465	99.5452515405442			-43.2745409935468	134.125270088966	-13.9628285492654	-36.6557350537031
177000000	-30.0155348065277	32.6012956699107	22.304503645851	97.7897565117256			-46.3844071635228	138.482547132685	-13.9567977172464	-40.5441523464846
177687500	-29.2753343286283	28.0504900335695	22.2901054868099	95.5913060005807			-43.8988144833608	112.925364241088	-14.0565870268917	-42.2967002322261
178375000	-29.6820437406851	27.0443172451982	22.3386391044403	93.5325092909135			-43.4170793283269	131.732469134234	-14.0000907779504	-45.4861642436805
179062500	-28.8570274778028	22.334142806393	22.362144354226	91.3576756356595			-41.7285877961979	114.293415416592	-13.9469903556665	-48.071028049671
179750000	-29.4336594969656	19.9601204999298	22.3774535044101	89.6220220703861			-44.637825631972	117.538551318133	-13.8369876319963	-51.4494873645751
180437500	-28.1143898764512	17.4646851522067	22.437497135054	87.3803210949596			-40.7198149960712	121.08263288402	-13.9892590496514	-54.2073805719161
181125000	-28.3693747109467	13.4938842116669	22.4589714909785	85.4293237750721			-44.7136327299999	114.109771089236	-13.8644827665236	-57.5145544495492
181812500	-28.0671120629905	14.9115776727032	22.4567058173085	83.2282565847149			-42.0824147018801	127.614639391909	-14.0770157389059	-61.0185344974892
182500000	-28.8171253571499	10.7755346084397	22.5057920092902	81.220822947574			-43.3217937248008	107.413616386005	-13.9830595203592	-63.4818048955371
183187500	-28.1892800743062	10.2774643990767	22.5335670274789	78.8018818713981			-43.208216889389	112.678555706759	-14.0394831899859	-67.5667130066032
183875000	-28.4016491574982	7.65521203911083	22.583725066104	76.7021006244731			-43.564385901072	111.953759324844	-14.0930558934043	-70.3366007458715
184562500	-28.3990648064482	9.24082170274539	22.5462331953567	74.7920139836102			-42.5173864743101	112.977468042114	-14.143578043889	-75.111215129625
185250000	-28.9177708537108	6.40605628214178	22.6234083471965	72.5693968777284			-42.1842267838621	93.1141369912745	-14.1399086950765	-77.731830805337
185937500	-28.5495968130632	8.87404440194522	22.5712749787066	70.2020562662429			-42.1912775868118	108.592332279989	-14.0870529874613	-82.2844279202898
186625000	-29.5855600152172	7.04392361908347	22.6143141548207	68.1804829790411			-43.0806732736372	93.0334309481934	-14.1592863821323	-84.7453271637382
187312500	-30.1241150203895	9.72836038549951	22.6107309165637	65.8219245586427			-42.617805841095	110.700018668323	-14.0935790832173	-89.2240737513097
188000000	-30.2614340995739	4.74658588499397	22.5971470397307	63.9475605770237			-44.0998561970533	90.4168135408105	-14.1760903934104	-91.7143134337654
188687500	-30.3509657653232	9.5024584674499	22.5835123869104	61.4927050559721			-43.2768282380718	96.0884077087188	-14.0345992700516	-95.2182081169421
