# Hz S DB R 50
100000000	-30.3308524776741	-37.2234564935282	-20.8410161800989	-6.33802955104469			-60.3964347790927	12.7701453468293	-3.40829213688819	70.978828985537
100687500	-30.8041786947763	-40.2059622571264	-20.5415457354463	-9.6054955263605			-71.6350351191841	154.072741050334	-3.39229434660893	68.4211709505062
101375000	-29.9897704886721	-38.0425844087439	-19.952879779163	-11.0258369460133			-62.1246624128353	-108.854337097667	-3.39968370481561	65.4188499685718
102062500	-30.5630490326554	-38.9778352786054	-19.6276453401215	-14.271017683206			-62.0028627147731	-103.187165916521	-3.41857936598303	62.5100193017135
102750000	-30.6441928890573	-36.4595341900531	-19.1556464808687	-15.3515032779188			-64.2845809398419	12.6141490222395	-3.41803295182579	59.8792247622577
103437500	-30.8800422397917	-43.2345063025669	-18.8804627531393	-18.6353025556664			-56.1979350217737	-55.3130933580461	-3.3792877272	57.0389224290497
104125000	-30.2218841569789	-36.7462404918973	-18.4644327886617	-20.1745504326977			-67.9320262683216	21.30623951891	-3.4088155196165	54.3147936586285
104812500	-30.9357266666043	-39.8389512966976	-18.1389789762256	-23.3997160120991			-58.054979002225	-78.7556948339446	-3.43241001667211	51.2149583652275
105500000	-30.9747062718945	-38.1686476106022	-17.8459817436612	-25.5567496276236			-65.6592713032597	-119.670059580266	-3.42464286059231	48.6016879385251
106187500	-31.3116571896819	-42.8006533864704	-17.5631317506175	-29.1597230634155			-55.751423205911	-90.2084148577925	-3.44867539892045	45.5061962464525
106875000	-30.9783312552047	-41.0503805912045	-17.2919324615878	-30.3863222146247			-59.1517679888744	65.6089282631067	-3.45760570502004	43.1477175746397
107562500	-30.8811847125529	-44.3100801454634	-16.9731944002721	-33.9797284562033			-62.795231732787	-82.9662889892815	-3.45071555200046	39.8837687705536
108250000	-30.8857774271046	-41.9000074163827	-16.7734993576787	-36.5007715382894			-62.7448261344203	117.432014588732	-3.49302236259928	37.1309303827625
108937500	-30.8196622964284	-43.777713256242	-16.642180331176	-39.2854862574924			-60.4757658498706	14.2960721736704	-3.48029860011043	34.0018448095708
109625000	-31.7508471473424	-46.0058624091474	-16.4365037062591	-41.9474810298267			-56.4501885266442	138.422121460756	-3.58119125108995	31.46012732548
110312500	-31.4017457908437	-42.984163330701	-16.211525776486	-44.6183077316549			-60.2574050146695	-11.8320555603638	-3.57020233094451	28.1147211206378
111000000	-31.4584523940027	-47.3792865869265	-16.104507840469	-47.4303560426701			-57.6279280218121	154.300833179185	-3.67550875497759	25.3751994782628
111687500	-31.0075430492195	-48.2374719522972	-16.0928540757247	-49.9152807871231			-65.683112665513	-62.2367213315164	-3.67425573023241	22.1608962201143
112375000	-31.7829393038298	-46.7638432295368	-16.043275917288	-52.8023006150953			-58.5383139209402	-143.805851196019	-3.77262340490302	19.1873395617493
113062500	-31.3552237853821	-50.2209000231472	-16.0140329679415	-55.2140333417988			-60.7804028029455	49.1253217453759	-3.7279605550725	16.019324411308
113750000	-31.9200058661101	-47.9571862164662	-16.0985147068881	-57.6472966795644			-62.2918913311817	-145.226393739987	-3.86181233192475	13.0466404125493
114437500	-31.6695987773659	-56.1054371372737	-16.1683062152342	-59.7783273754524			-56.2576100582157	23.1006869214691	-3.83785058253205	9.69279914888991
115125000	-32.2599389075671	-54.4073497902501	-16.2280552164171	-62.5092096604201			-62.6732625877904	-53.5333135553265	-3.92827001186193	6.16312180252806
115812500	-31.6631179733437	-52.814722268155	-16.3926539860263	-63.7703730418318			-75.6613495476472	56.3001530237665	-3.94368870282458	2.56577825564378
116500000	-31.4861841982167	-57.7304322448383	-16.5865920750655	-66.2576149795092			-60.1039777002783	-131.967459638398	-4.01561777751302	-1.22090629207158
117187500	-31.6030212395755	-58.6829912874835	-16.9303681338274	-67.2343711871121			-75.8054947001929	-39.2290549927917	-4.04573931863094	-4.43828450778021
117875000	-31.8132678295362	-59.1877694342348	-17.2316719629745	-68.4257603716674			-60.9219748890869	-92.9640779246996	-4.13295666980141	-8.59932087659905
118562500	-31.6429724813206	-59.1607299154561	-17.6542788058228	-68.1983915783512			-64.1275592762599	129.357737500802	-4.18047144723239	-12.529256283476
119250000	-31.1544057728046	-62.5897895520195	-18.0037704823513	-67.5109148690297			-72.0742746499878	-114.451247381158	-4.27046241362231	-16.6116844221285
119937500	-31.2967360173306	-64.4530049152388	-18.627862625684	-65.6222126343083			-56.1026562325925	112.658608281171	-4.31130923305027	-21.3311944012582
120625000	-31.4497475253661	-65.5420350013063	-19.0411130870824	-61.630454287033			-53.2391343119598	-118.642464207239	-4.36497639247987	-25.649853504134
121312500	-30.9285815182833	-65.8330139540198	-19.4741305050103	-55.4508877763613			-69.9021315073676	74.7966816613859	-4.47021909748781	-30.5457395989992
122000000	-31.344420717266	-70.8499617598804	-19.466876524923	-48.2940438058396			-55.9634063302365	-75.2582365669844	-4.55336033297536	-35.2624632026349
122687500	-31.655086783822	-69.6179807080727	-19.1844546794438	-39.8125894694844			-59.5380152319168	-126.98307749389	-4.7063988329906	-40.4596394693652
123375000	-31.2209924643633	-70.9269094357117	-18.181336594527	-31.2410185708889			-56.4741131259188	-34.1326038574696	-4.80914672639004	-45.6144874927875
124062500	-30.8909919825718	-72.1143629005543	-17.0899998760798	-24.9414212840489			-60.5017601532404	74.8528253477876	-4.9647780750752	-51.176184004625
124750000	-30.6280285989807	-74.5531881933	-15.4647218995619	-21.2532229702428			-67.6768639777384	-110.994240239435	-5.09440240122707	-56.7966694008431
125437500	-31.0744647434975	-73.0417844239982	-14.0696307207674	-20.0034527915758			-57.0234797396646	163.962124810858	-5.31952753087658	-63.1654925828833
126125000	-30.8337245472833	-77.1155717053228	-12.5078175332541	-20.6072501187478			-54.4980025234831	22.995258496755	-5.56617767598054	-68.5323266215363
126812500	-30.6360063092755	-76.8538491819099	-11.2230341691907	-22.6841964937645			-65.2868595043258	-57.8910622831419	-5.75278616447027	-75.0357143548543
127500000	-30.1184324718536	-76.6638432372459	-9.89367836566425	-25.3638578019447			-67.9158810266843	-42.4242468055244	-6.0609562769332	-80.6743955999762
128187500	-30.6067810394011	-77.7862966194884	-8.79918509913901	-29.5199403217063			-65.8118124608967	-146.695539743627	-6.33496680893771	-87.2090639755379
128875000	-29.865197582892	-78.7565150236496	-7.75664434635364	-33.8371316349072			-62.5020303974388	-21.172773378752	-6.73199143445451	-93.1983872736143
129562500	-30.2498966469934	-82.8582801897287	-6.94752651162737	-38.7922011405132			-63.7672491844656	-122.61464129995	-6.96949258899761	-99.7382201509874
130250000	-29.7291491118255	-78.6067331711553	-6.0981705846828	-43.5753129152696			-56.82206572453	-1.84748564659492	-7.45837209516406	-105.42221877085
130937500	-30.0642685158098	-81.6309397507222	-5.42407115653286	-48.9854784681092			-64.0752778063475	-94.4109892302415	-7.72397352672992	-111.318200267893
131625000	-29.6282514126643	-81.6290880873852	-4.81131241554196	-53.626052897147			-55.4908041835447	32.6914943351302	-8.25008415242448	-117.281673797086
132312500	-29.6909537394447	-84.2798795058933	-4.28903846899366	-59.1562340918224			-57.619932439619	-71.2767603508705	-8.53312165640424	-122.944835648717
133000000	-30.1294082896613	-85.6243656605163	-3.8462299904762	-64.1212689883338			-59.7271067718254	-34.9081819563891	-9.06039683823307	-128.486472780595
133687500	-29.1985994130596	-87.6570161453396	-3.44884577183801	-69.2119916190962			-59.3546649693191	-85.3107714977796	-9.44662442220081	-133.677385066172
134375000	-29.9186069100157	-85.7485149643233	-3.0547820812629	-74.0167230702326			-60.3574897359672	35.3264035282443	-9.85888129098125	-139.37409585107
135062500	-29.2155848784702	-89.7288871600515	-2.75156492584179	-78.8165516161247			-69.9331919042685	-53.6695122911129	-10.2892423072454	-144.319470113281
135750000	-29.6431460447259	-82.2826650726696	-2.45347813360611	-83.3937019809364			-58.9989386959645	76.754972315073	-10.702271729233	-149.060815757157
136437500	-28.9821184491842	-88.318825245559	-2.19088191553863	-88.1027158333915			-64.1911308037542	-55.8160494411281	-11.084903634235	-154.052939153438
137125000	-29.1552150881785	-88.7165039221242	-1.90416386996768	-92.1785263661698			-65.239119905158	41.8232058530574	-11.5626128853464	-158.630889011294
137812500	-28.8142005696208	-89.9468673088183	-1.75302951478613	-96.7929968202051			-54.9963873923447	-73.669820608622	-11.9544418096092	-162.997327676148
138500000	-29.036065414349	-92.9653627234317	-1.50584255373701	-100.808134680927			-58.7073822663936	133.477112958363	-12.2814366663657	-168.437880313311
139187500	-28.7797614388709	-92.225253633015	-1.33867639888198	-105.066064823898			-54.9641046972871	-67.74539201146	-12.8190605081871	-172.447431833034
139875000	-29.1773923883142	-92.4793415083906	-1.17782399761333	-108.886065769134			-59.6687371514246	-52.160266699885	-13.1228887132055	-176.567138580586
140562500	-28.8544030485753	-92.7936331347895	-1.03902177752222	-113.018379501158			-53.665428636207	-18.0490140434092	-13.5903032382401	178.432914614154
141250000	-29.1289674214881	-93.7528733779284	-0.870961091568115	-116.880318725944			-57.4918575761441	136.233802708312	-13.9214210751238	174.253223183185
141937500	-29.0040508535126	-94.5324863827249	-0.801344418159202	-120.832468954885			-57.7784307669916	-43.1806846921142	-14.409073315374	169.720768634514
142625000	-29.4175854510035	-95.3028913267676	-0.64417059797667	-124.523728053452			-83.7314883288001	35.2491855179451	-14.6898251269628	165.906127244725
143312500	-28.405367121433	-96.3575567613556	-0.563877393963522	-128.217190283784			-60.7655227474702	0.982628212284418	-15.2631964617085	159.812677974715
144000000	-28.7688437541996	-96.0083504435384	-0.443922840014071	-131.490039662374			-60.2758813485772	-85.355690602813	-15.5579786967841	156.424638707362
144687500	-28.5623001028194	-96.4943708912919	-0.401556416272017	-135.487182193889			-61.9818172784857	20.0054882928517	-16.0293933141962	150.970373424478
145375000	-29.0846143106627	-100.331041233432	-0.297393615254081	-138.773892051686			-52.4415415593987	-111.765152164527	-16.4346338041921	146.199266352914
146062500	-28.7084308007776	-96.5850871700756	-0.265992104335126	-142.401089115319			-62.0771660983113	140.936846499289	-16.7595808714046	139.817828399829
146750000	-28.9388133502112	-99.8090519625718	-0.183736412964785	-145.652468774127			-59.3578436593778	-118.564409110979	-17.3256258639586	136.028570690282
147437500	-28.8340668629151	-98.3997574097565	-0.178242112784727	-149.316740364976			-67.1832718183545	63.9490512607025	-17.6182951073104	129.196070876233
148125000	-28.5429668224127	-101.439195347474	-0.114360757104024	-152.093704465751			-57.7269075269838	-94.9597652505821	-18.016099762424	124.975088810778
148812500	-29.1181721586877	-102.867231065578	-9.27376868790468E-02	-155.681179493845			-72.5495176732848	125.516542185549	-18.3042726023872	118.016439239838
149500000	-28.644374186694	-104.071060380458	-3.63701454882234E-02	-158.457064308896			-57.2357065396774	-89.2129756495686	-18.8123859604654	112.317753326786
150187500	-29.4637514624115	-102.950416222777	-3.98938608027459E-02	-161.929338944077			-55.4443249379733	135.350581637162	-18.9449869624558	105.834073307792
150875000	-29.0034673459605	-105.127332979984	0.020188723502193	-164.714123004389			-62.8470912055021	-121.869385548352	-19.3648990966193	98.9310246582763
151562500	-29.1865194109561	-105.60338496715	-1.27321574551546E-02	-167.758701134968			-59.4937277528223	97.1945425850538	-19.2431749357229	93.3145076990421
152250000	-29.1765273995925	-108.286613767315	8.46899186196828E-03	-170.487715797796			-55.0934566165809	-116.438857227677	-19.7349230990091	86.1554280773763
152937500	-29.7752217206275	-106.211814546158	5.64366465060784E-02	-173.370403978045			-53.5766622360936	-120.112363667989	-19.5961286953311	80.2377414941528
153625000	-28.7744519505971	-108.557722282806	4.98384848654884E-02	-176.247549962188			-58.0169074955071	-105.095216262672	-19.6243002827021	71.7955817858612
154312500	-29.3298640879135	-108.32907669051	8.17408564387489E-02	-178.81973294661			-60.7829833267179	-108.56375178812	-19.3974274078148	66.9036869112067
155000000	-28.7075607938196	-109.856974983582	0.079759390149177	178.323022927255			-60.2881685367262	-78.1584646715438	-19.2199184268596	60.5967238442581
155687500	-29.353040300844	-111.057483079447	8.28525898001836E-02	175.933589056063			-59.2286681441455	-175.92209171976	-19.2329324573488	54.6598705299147
156375000	-29.3595324957646	-108.54647758959	0.135280003369606	173.129348638479			-59.9092294914764	5.98180854904419	-18.9878962196281	47.8441100540869
157062500	-30.0806267539177	-114.28675831298	9.26657325514067E-02	170.358843836556			-56.9768566037251	-161.164732394926	-18.7907811021063	43.3852671422481
157750000	-28.9962423683078	-111.269781044747	0.1476657117488	168.147982986262			-58.0100120807795	-0.680762874137944	-18.3835076335283	38.0279015424625
158437500	-29.3603541235739	-115.308697756256	0.139792034446294	165.387970029153			-70.2831614178279	-136.872352738759	-18.242318173686	34.5943658754642
159125000	-29.0043441868336	-111.796676531389	0.182445487339682	162.879424656213			-55.3312299996228	-74.6826507880001	-17.8357084808197	30.0793796502718
159812500	-29.9510848968199	-118.660445243176	0.180311015143803	160.289088307626			-53.9754143525218	-141.891457436116	-17.7664850211051	25.0656871968789
160500000	-29.2495951916932	-115.591229954848	0.211357979492502	157.627915346032			-60.9815924557322	-178.115018518917	-17.4127580957312	22.2750941709444
161187500	-29.1132882926591	-116.990513889293	0.148810022145964	155.509619507886			-62.2336690350502	-179.561079591224	-17.1037465487323	17.5064020057949
161875000	-29.5756125885361	-113.736852156374	0.240292041744035	152.999355490581			-59.1474949699991	32.1116767022801	-16.9360325378648	15.8270797810844
162562500	-29.2435220084352	-118.084804682799	0.191787636441365	150.257715133302			-59.3104320813799	-121.439860524689	-16.5977743055163	10.7656782466999
163250000	-29.5740996447419	-115.242532787792	0.229561944138453	147.739621860437			-64.3160198632655	161.679947359269	-16.3493049045495	9.38224159908395
163937500	-29.5310614725372	-121.039939935114	0.228429748964655	145.573848943203			-59.6522188354093	-101.993291522718	-16.2106447500548	4.90486585149058
164625000	-29.902089302444	-116.780215497535	0.220241442696076	143.113219957546			-52.7846397980625	92.3119689414606	-16.0424167073039	3.14189229779742
165312500	-29.2831564745723	-124.402938101973	0.226599321707209	140.731941354843			-59.258598435415	175.71778332993	-15.7347399710012	0.341075972758308
166000000	-29.6919860724769	-120.387970298007	0.239480874554909	138.476155939417			-52.8695514491073	76.7341987194463	-15.5910112438478	-2.17858768814303
166687500	-29.088679080388	-121.594904186918	0.189614711315168	135.981813765597			-71.0655320412861	31.771875767331	-15.3181822868251	-5.28805253192787
167375000	-29.5374303867991	-121.862994162127	0.243085699601002	133.966380764587			-56.9650977518741	-169.249169071807	-15.319679802464	-7.30823594808168
168062500	-28.9570846508446	-121.020047626304	0.194120174171293	131.470564853655			-57.8285287445525	-31.4474494293231	-15.0319378380593	-10.56170849827
168750000	-29.6757833024494	-123.120193373341	0.240020271713771	129.497875511424			-57.787642104509	-154.834856517778	-15.1057615393418	-12.6045483220841
169437500	-29.3542449704169	-125.008845421624	0.135763086015009	127.03815897027			-61.5563661766645	134.015245520966	-14.8636841679317	-15.0200801883091
170125000	-29.6315019746881	-122.865206471055	0.193011615794536	125.134830648483			-59.4530210145772	169.233348706938	-14.9784071269214	-17.3300846587055
170812500	-29.7397120703124	-122.593597837849	0.112880879715055	122.713437059867			-63.6151922020708	119.376473460434	-14.7003838066755	-19.5901847173565
171500000	-30.2014199263636	-128.329831669136	0.165498320874442	120.731423449245			-55.2856918305539	176.55277504846	-14.9044289432534	-21.7669130028677
172187500	-29.45687778948	-122.094194105659	0.128310264844532	118.513757079429			-59.540772949828	-94.6403409245584	-14.7618054213667	-24.2805959225592
172875000	-30.1674091400419	-127.352958586109	0.170342619145515	116.83227195482			-63.2070165672237	173.346493648543	-14.7650449418479	-26.8663016811577
173562500	-29.668728017085	-125.400855998413	0.131041984170088	114.389853214705			-66.0308519424351	139.926784021689	-14.645061239437	-28.7783040247762
174250000	-29.7716612476979	-128.355230763389	0.195517513417486	112.696214504888			-70.8071549168519	-30.0061206908982	-14.6446503763749	-32.011120138938
174937500	-30.2961202403967	-125.454858408248	0.150281629556165	110.403701664303			-56.8674797495174	67.0983419976768	-14.6363741196162	-33.2189185937368
175625000	-29.5710904976598	-128.986873709324	0.183179097669377	108.546886663743			-58.3372297096762	-116.606180720801	-14.7585824866441	-37.0253558733795
176312500	-29.8892598310294	-128.069606042705	0.190992880065632	106.456683840955			-60.4871902030989	103.87875853242	-14.6640225031227	-38.7227898686678
177000000	-30.2902840188217	-128.490886978923	0.225838304824196	104.751871150213			-71.9861215703123	-89.7652927820419	-14.7445464429334	-42.633268086984
177687500	-30.9809788951304	-127.942443888235	0.218416921904597	102.483832009165			-69.6846495083148	51.3828743227241	-14.7969908043437	-44.4721212863308
178375000	-30.1573916717049	-132.323791197227	0.243230861967199	100.696253123291			-62.1946031035433	-144.963438984145	-14.8198649329195	-47.4697598148617
179062500	-30.6074463569737	-132.091813184816	0.276543852117632	98.4362535931248			-61.3751125529673	57.4095014007923	-14.9431307551386	-50.3366900736394
179750000	-30.2465361867417	-131.959113634447	0.26772381955325	96.6363419380904			-61.1985077952885	-20.6603314581006	-14.8055533171137	-53.7846209288294
180437500	-30.476223339757	-131.46480112836	0.349746782763223	94.4668992561203			-53.3209270377689	109.427234938722	-15.001456826869	-56.9499448430075
181125000	-30.2681248692769	-133.653206440133	0.362267229406982	92.4111910028278			-68.5552093162325	43.9156117650662	-14.9721136814916	-59.9288737574311
181812500	-31.0672465275564	-136.019167838851	0.359970028455719	90.3112347228616			-57.7374693085342	112.12863336344	-15.1173738353254	-63.340570990156
182500000	-30.1572195122575	-137.767836950611	0.443889882231867	88.2467010671713			-60.5507629874197	-134.967737990238	-15.1154063428472	-66.2948323467043
183187500	-31.287761512915	-138.390632491636	0.44952563765542	85.9767594281483			-52.7171739067655	143.649981575868	-15.1750312645192	-70.1269107446639
183875000	-30.9740967427548	-139.084725736239	0.466967856198266	83.9497547486521			-56.5477633618499	-51.6494462228253	-15.2570197283241	-72.231042829308
184562500	-31.0146796381291	-144.515075320707	0.450071088049211	81.9197762196438			-55.9132349195576	149.604357051464	-15.3006175675081	-77.0674224570986
185250000	-31.4525824081524	-144.27829712282	0.505717729910641	79.7238916149656			-64.6975296871292	13.0329352027386	-15.2693013838521	-79.4455161968737
185937500	-31.8058267804421	-146.989389723408	0.469927614970638	77.4999209364879			-57.1711729403189	92.4273374245026	-15.3481806486335	-83.567300959997
186625000	-31.542979109648	-146.078884093869	0.50668169338939	75.1972956767793			-60.8280069007289	-21.2225858518015	-15.3048912052312	-86.3477340872089
187312500	-31.1532024477557	-154.295132302384	0.488941513956481	73.2729108357224			-58.3604673682348	-169.480256929298	-15.1381267005631	-90.6909335483365
