# Hz S DB R 50
100000000	-32.7808182230947	22.315266326923	-7.55433384075777	-5.19095249161046			-60.452823992328	90.6675387536056	-3.49855398170258	70.5225863673698
100687500	-32.4060260916334	29.0813055914245	-7.14428505283665	-6.75576417242635			-57.5091081047166	33.3310037246685	-3.43971699316652	68.3948390056967
101375000	-32.4492393254834	24.8713763946551	-6.66492818960737	-8.95605869157271			-65.2476883723598	153.556999364171	-3.44937165778128	65.1618070007477
102062500	-31.6849722211187	27.9013278191909	-6.25600759043124	-11.0124983635317			-62.6425682360581	16.922091137888	-3.43697154342012	62.7352597275382
102750000	-31.3315933835741	27.4291402123342	-5.83741675293492	-13.4901125243553			-58.5264890496436	-90.8703584419383	-3.45433749955508	59.734790013751
103437500	-31.2427502646761	30.8538739301488	-5.47683977570473	-15.5807554993434			-64.5083946542036	62.9703823629924	-3.39314022587074	57.3254942229386
104125000	-30.8164482738276	27.5244282697442	-5.09726955220942	-18.0992336817539			-56.6123363858472	-34.5047611270774	-3.43806063976192	54.3181244491035
104812500	-30.299686886913	31.6686220426785	-4.77280104182356	-20.3495713977251			-68.5944652680596	99.6247737114023	-3.43751155246419	51.9441415985925
105500000	-30.2521388558563	26.8866663066437	-4.41125353341585	-23.1588807476602			-59.6571616184885	-60.2259263353895	-3.44968816582341	48.7486526313544
106187500	-30.3251967582729	31.6579191776027	-4.09065237982819	-25.3149936891574			-59.1908817498377	125.965561211652	-3.42932647421407	46.3289977323787
106875000	-29.8805016297661	26.9143877980749	-3.81111076042305	-27.9709092851159			-64.4777603214567	11.9541127775302	-3.4880727657352	43.2135414984889
107562500	-29.736704603796	27.184601838231	-3.58058093593879	-30.4089922108716			-62.1469866192919	112.575067691274	-3.46090657090176	40.6411535025478
108250000	-29.257657494335	22.9137636032146	-3.2958909263762	-33.1950717899989			-61.0553031657594	-51.7531441335755	-3.51547268341497	37.9299041523539
108937500	-29.5368174004209	25.5312446672881	-3.15779826920757	-35.5186183892876			-60.505137978884	136.211697389492	-3.51101841486248	35.3213881132749
109625000	-28.9960066049607	24.9647131879716	-2.84967564385799	-38.2405759021402			-55.3544140433484	-10.1917397490107	-3.56847890840618	32.2459486712105
110312500	-29.2221226469708	25.8096148722504	-2.76348917354471	-40.6785057615762			-59.1514975660189	103.391080607656	-3.60764297124932	29.6941085166672
111000000	-28.6586173723893	22.6482311361088	-2.58020870196595	-43.3465371617216			-51.7979784586347	-60.6723920436903	-3.66339659654618	26.3580067581727
111687500	-29.1650769456196	20.8938124017136	-2.50899594467759	-45.7894937896443			-69.475025837719	1.04529570565781	-3.6600178103383	23.7118884411278
112375000	-28.1054239248051	23.3969051685438	-2.38447506247043	-48.3129237204042			-60.3332680039486	-30.3650556844608	-3.75389096165905	20.4570857610795
113062500	-28.4201367233875	19.396051133531	-2.38585175438158	-50.6868476348662			-65.6401450550794	-176.551400201329	-3.77538411537307	17.6888510076409
113750000	-27.8400583972149	19.2235553875441	-2.37361575194192	-53.0113668293389			-61.7637209867774	15.0215194653565	-3.82262353815494	14.4719186006045
114437500	-28.4737436692921	15.3170468566543	-2.42516091111276	-55.0986391071463			-60.212523762983	-91.3165233269183	-3.88030668749058	11.4326036054939
115125000	-27.9232753733481	16.2395529520076	-2.44852474858955	-57.2701750885758			-63.4787102615778	-23.2603026865042	-3.92831156373987	7.90919211350657
115812500	-27.885619150834	11.3976615293838	-2.55866018502374	-59.1100399670378			-68.8401111703287	-121.539419096693	-4.00614219600996	4.48014032004436
116500000	-27.5547847111152	11.2724965664358	-2.73171557890197	-60.5884337794957			-60.0052569375537	21.2110783571651	-4.02731098829389	0.949367253964671
117187500	-27.3784372983181	5.5248492790241	-2.92534810469099	-61.9196956009725			-63.1476505215315	-56.5906124673993	-4.08815275469358	-2.42360109275849
117875000	-27.2485141495372	8.11864578379804	-3.20353593233847	-62.685619483198			-64.1142611609773	119.979333252002	-4.21707722892288	-6.23960737005087
118562500	-26.8092771342877	2.95182438259479	-3.51010738703987	-62.7567189072836			-57.154953547962	-127.736357107439	-4.26816096136874	-9.8000345740042
119250000	-27.0864197701543	0.921023783471166	-3.85532925782362	-62.2073999001934			-71.7234608632183	-21.1582125098466	-4.38114981236735	-14.1987090806347
119937500	-26.6289357039351	-3.70501953593282	-4.24024343539235	-60.2147498129707			-58.5388467158072	-73.8438216177932	-4.44513120143484	-18.3199421260823
120625000	-26.8960509860254	-2.36999771988149	-4.63018277625591	-57.3030090933325			-71.5398782749708	123.146852829522	-4.57215743272549	-22.5435391709687
121312500	-26.4671366603648	-8.49613123718769	-4.87488668936069	-52.454924043833			-58.9313287617596	-41.7400595720802	-4.65911780826099	-27.2011608285431
122000000	-26.6982474831385	-9.18305944166445	-4.92579385954796	-46.1620413466881			-65.3746027174903	-154.63682797722	-4.79326196359606	-31.8165680664005
122687500	-26.5193440213455	-12.8757504309018	-4.58026354272081	-38.5553654361066			-55.0422065365897	-31.7548903713731	-4.91193230081422	-36.6331931563063
123375000	-26.7077237008707	-15.726392489174	-3.84038175287238	-31.3464987887902			-68.7984374220854	-51.2813464874122	-5.09587146591297	-41.8969970833509
124062500	-26.0205009658574	-19.3772955844403	-2.72694312448162	-25.0106680820169			-57.7565643266426	-11.6119786733733	-5.27683500608017	-47.1822739603153
124750000	-26.2803951068901	-22.9969669921897	-1.34483640151025	-21.3019055837421			-57.7589599635476	131.928684020662	-5.50140297937545	-52.7418069870999
125437500	-25.7704568413202	-23.559616742029	9.05499242900758E-02	-19.2610376979337			-59.754405105992	-20.8996832242397	-5.69772242453207	-58.2499817246517
126125000	-26.2437595040175	-29.2878968454576	1.53342646763233	-19.957611428075			-65.0809637203064	-95.0514384129087	-5.98524661429616	-64.1277280069996
126812500	-25.9220165831421	-31.425643312202	2.88282037756895	-21.1751283300375			-51.3402719811596	-6.53506553912236	-6.27960079937019	-69.7560467533911
127500000	-25.8792107355974	-36.2941269770548	4.14847979046258	-24.3712706900562			-60.5499245165688	37.6351500533126	-6.60259425739914	-75.6170297020455
128187500	-26.1932347931014	-37.3313860188771	5.28130392852913	-27.7825967761088			-54.7033608624475	8.64083145093774	-6.94329888107697	-81.2897221275843
128875000	-26.2162363376218	-41.7979061658705	6.31900767506208	-32.3339920267436			-64.3957897911967	-41.597214399738	-7.37047877260672	-87.5741465129846
129562500	-26.0059675370345	-43.7937411822554	7.23559172924114	-36.8440210034988			-49.5945352715854	48.4784881552187	-7.72039852142095	-93.2658013705776
130250000	-26.0008568735622	-49.5094489101592	8.10920238434201	-42.17528030124			-53.4880513419847	-74.5429046231313	-8.23078729254298	-99.2426704550184
130937500	-26.7371851422532	-49.6711045954985	8.79028840432816	-47.2011098285414			-53.028212171845	-40.961775792351	-8.66694714103831	-104.591430972658
131625000	-26.4385829499327	-54.2218692649687	9.42096130943151	-52.5111544001083			-58.6153959882286	-50.9867800499677	-9.19496479876779	-110.084944333286
132312500	-26.9073562833702	-56.5721463137394	9.9716385419781	-57.530150241406			-56.3240103749325	-41.4123826989893	-9.64441562731814	-115.230477330242
133000000	-26.9218282703733	-59.8972114309709	10.4506421600526	-63.296739915684			-53.1106990553927	-53.0391552198549	-10.1693484545138	-120.732009936148
133687500	-27.1956593641486	-63.0133754069599	10.8456396065662	-68.179093002062			-65.8197236741799	168.72112496551	-10.6917569553307	-125.384668455221
134375000	-27.2235257670891	-63.8303180068061	11.2672290916643	-73.2807326650453			-49.2092245806447	-62.2247722946806	-11.1400993603947	-130.617368373159
135062500	-27.6838195956873	-66.7747545366285	11.5500388433277	-77.9533845593446			-64.3830823747634	-30.6917095216573	-11.6817100777362	-134.995994761284
135750000	-27.4153848050523	-64.0183443700643	11.8567729171153	-83.0986080443878			-47.9765759830116	-70.2068333123594	-12.1792826972046	-139.36034967147
136437500	-28.4155256567096	-70.8577714627311	12.0770810089892	-87.4913262926371			-52.7993558002642	-63.1786502534384	-12.6050449644965	-143.85305238541
137125000	-27.8930493189399	-70.7834160318758	12.3620151929536	-92.1273802237068			-52.1096880215576	-81.4287781781696	-13.1324682098039	-147.406247208019
137812500	-28.4876974993829	-71.685172660447	12.5264153214434	-96.4737604672027			-53.5322525751825	-100.442864881063	-13.5451934637277	-151.670265187239
138500000	-27.9281884504343	-74.0422731586495	12.7641735853572	-100.803901953911			-50.6113726795014	-71.318115626988	-13.9755015514587	-156.697036138529
139187500	-28.5215733771266	-73.1749901553145	12.896593675185	-104.882730063303			-53.3525088213177	-111.25020510273	-14.4547589219141	-160.257703051854
139875000	-28.9867934238323	-72.8887866431813	13.08960446359	-109.175205792964			-52.9296754669851	-66.2959370275886	-14.9325177665038	-164.039632865776
140562500	-28.9207103842427	-75.1671761210885	13.2086268457091	-113.07592332231			-55.1460441465665	-128.911230167578	-15.3094347413139	-168.348721412566
141250000	-28.8299505126809	-74.2962657537854	13.3754253352459	-117.116677498269			-51.8533641718148	-98.4141424169643	-15.7765390618474	-172.432702427093
141937500	-29.0190458163557	-78.1697415482734	13.4509377352646	-121.009381862419			-52.6287120267281	-112.464665513503	-16.1404495999089	-176.323357428539
142625000	-29.2342578741626	-72.7326232302779	13.5842421036246	-124.870015571852			-50.4354616887084	-76.2935240155672	-16.6180674955275	179.320397776911
143312500	-28.6906256341039	-81.6377347589042	13.6729606326253	-128.538293115169			-49.5230014747583	-94.7110154711874	-17.1438415441076	175.187208455208
144000000	-29.0505697725793	-75.0729361409275	13.763819625555	-132.098297783826			-65.8662183330771	-36.3376553732038	-17.6430003126606	170.424257732135
144687500	-28.8063035335221	-80.3633774247144	13.8237579136352	-135.875441591244			-47.5701859973467	-114.466306546425	-18.0152743445279	166.487254823655
145375000	-29.5142939597965	-79.4792166607206	13.9310052938645	-139.312034059156			-54.5600611789861	-67.6147857376984	-18.4537397832643	161.393680981988
146062500	-28.4067189481874	-77.8838877767833	13.989942945425	-142.71799924064			-51.7367514611535	-128.975458873352	-18.9693590248312	156.220092506219
146750000	-29.438893998149	-79.6073012483542	14.0262363889394	-146.283972035854			-51.8734334970422	-128.041882051362	-19.5006337398262	151.986275575682
147437500	-28.4082706316762	-80.5687992064183	14.0735260343168	-149.454323347246			-55.0516734929522	-131.368990774653	-19.9677290802449	145.069710868474
148125000	-29.137584196202	-81.7834959841697	14.1210899108445	-153.087311284743			-52.9336152657767	-109.21788377836	-20.4064276211295	140.798720957614
148812500	-28.4568143383069	-82.1175776934754	14.1679641167284	-156.12356227458			-50.7425352480406	-101.749625633833	-20.7163594668549	134.494730295964
149500000	-29.0228654538099	-81.0154970789375	14.2046120429023	-159.300209774739			-56.2088767836261	169.555779113545	-21.3006748142095	127.166443671874
150187500	-28.6854530021713	-81.6579824730868	14.2049438121415	-162.468856028752			-52.4965732285938	-129.105911189852	-21.6359808830662	120.112726857205
150875000	-29.293310737899	-83.0292627725175	14.2591756275303	-165.611973779268			-50.696199900414	-141.820254971217	-22.0049793073484	112.893547017765
151562500	-28.4520966446741	-83.4305407402412	14.2603169062227	-168.345928894269			-51.4794033937864	-133.893322961937	-22.0922241656892	106.209113664918
152250000	-29.6693228363598	-83.4967146604321	14.2583450858683	-171.45609262979			-52.1840844122424	-155.584205021274	-22.2056526238462	97.2421176397498
152937500	-29.1636657026371	-83.6895798960433	14.3032794335745	-174.115530049836			-51.1199049478197	-136.358421926818	-22.276805332055	89.8381065934023
153625000	-29.0568154340436	-86.8564336145744	14.3159407814404	-177.182257317086			-50.1020740037987	-163.5952443214	-22.3924311825428	81.4865523750752
154312500	-29.4239848646047	-84.6861917526103	14.3490501268233	-179.69206304286			-62.1146077116846	-139.474408414503	-21.899589225232	75.3094875919327
155000000	-29.1977880780726	-90.5952394777466	14.3323739192859	177.019964816843			-50.0699116323631	-143.630598706249	-21.7124038028568	68.242867749352
155687500	-29.3837751985321	-85.5984126615022	14.337366188067	175.006329977593			-54.2771537973247	-136.643096890975	-21.4912100769512	60.2296310653509
156375000	-29.3552993916919	-91.4042695428413	14.401251302877	171.942334940828			-49.8035325113321	-171.929638904161	-21.1521984185449	54.1926874162917
157062500	-29.7942621614144	-85.5996239874957	14.3560246071195	169.376452298306			-61.7447448026785	-175.64030923525	-20.6977322833961	48.0819607939909
157750000	-28.9424198312792	-90.6096441472783	14.4461776318349	166.731099665359			-47.5194850065144	-174.93609304887	-20.3047043930488	43.9858124573984
158437500	-29.839391177958	-87.8245435427378	14.3942819342237	164.277391891802			-58.0038421320757	161.405999613388	-19.7514982601076	38.8456306171247
159125000	-29.1181565449721	-93.1139220824232	14.4340144300107	161.45882506855			-48.7867129294909	-163.291350349431	-19.3533806876779	34.4726538408183
159812500	-30.6656876998569	-88.857427835703	14.4397052082087	159.049174817912			-49.5227970761817	179.208644093555	-19.0538046544966	30.155913494976
160500000	-29.2003987485678	-92.2002762191617	14.4780273726078	156.288680802837			-49.0812813668484	-177.466367017644	-18.6421438555497	26.2926168892639
161187500	-30.0191710603927	-90.96567599071	14.4418343929412	154.215016698291			-53.2188935823555	175.84615075971	-18.1871038448765	24.1917213301426
161875000	-29.1277286234311	-91.2903584398374	14.5326589885826	151.361726083084			-53.4718170469887	-178.930182333992	-17.828061902759	20.279179261454
162562500	-29.812904467528	-94.9889180659666	14.4682379593116	148.937824577758			-51.9051058973713	159.773777826867	-17.4738523027473	16.3114339485438
163250000	-29.7411221196136	-97.458308768396	14.5140253254617	146.238889307967			-51.5671854180704	-172.222719046321	-17.1298628308349	13.0202120592001
163937500	-30.0852155864731	-96.8608592778987	14.5136369557597	144.081945733695			-50.2242168652028	142.150588406506	-16.8446526342435	11.1312217532305
164625000	-29.8126654380505	-93.3384737590839	14.5337914276152	141.387038189943			-48.977444470468	-161.480755498665	-16.5706247831923	8.28688735625966
165312500	-30.5417498243394	-98.4655184025986	14.5256095399709	139.040719535057			-52.5538450136792	167.568690193446	-16.3310299157928	5.53364512943093
166000000	-30.1005120495082	-95.626471467292	14.5228247674471	136.484322940929			-51.4546678676137	172.830926554127	-16.0327118316504	2.26372014223616
166687500	-30.4878708103888	-99.8405939447812	14.5114745070056	134.256562784438			-48.0919506888462	155.427804875846	-15.8409925219649	0.321080370120136
167375000	-30.0784199341667	-95.9886145633705	14.534902442091	131.949961087573			-53.1110904932535	173.273133550829	-15.6608130681112	-2.36350228316787
168062500	-30.0258567187451	-101.843381644341	14.5181958546065	129.640582043236			-50.0839701422483	152.494224531759	-15.3457577745305	-4.24594103290084
168750000	-30.220673318303	-95.2224727611455	14.5073760649847	127.292735177416			-51.9687513497188	142.416346169995	-15.3574643036271	-6.77039744269956
169437500	-30.5233145515698	-101.441641866183	14.469015695199	125.09442456688			-48.5532202228355	157.947031180465	-15.1374811574707	-9.47169149487671
170125000	-30.3385291238102	-97.0086949435525	14.4994309201854	122.639499644048			-54.8218780524903	146.16118568366	-15.0894694138611	-11.0237884712934
170812500	-30.5895336745969	-101.946063378746	14.4394044365292	120.813750819398			-49.1019270523057	149.21261577894	-14.9478215884748	-13.6567297797128
171500000	-31.3000195373015	-100.351096824271	14.4648551964531	118.273848846271			-55.0017844302562	157.352408466375	-14.9489429810334	-15.5274576349468
172187500	-30.3542323599449	-103.187989840342	14.4331158259225	116.36383492902			-49.4446156592662	167.007620346031	-14.7476417008835	-17.9470364425026
172875000	-31.2625230244491	-101.615978312512	14.4499725060329	114.114622992699			-50.221687646848	128.932136823808	-14.7270822207946	-20.0828184016057
173562500	-30.5150517306315	-102.014580426483	14.4293209279174	112.162440957457			-49.6372689424952	156.252996122101	-14.6475415197095	-22.3840714870421
174250000	-30.6988307846642	-99.1611688905437	14.4669875405882	109.878043614489			-58.0477903090872	141.278356311665	-14.5889347228767	-25.4216647644158
174937500	-30.5574072999153	-97.5970407814333	14.4521461165771	108.155936965935			-53.0893637342244	146.650140573406	-14.5743221341628	-27.1424035715815
175625000	-30.9800625033453	-100.927020175971	14.4589462178618	105.994894090072			-49.482658166762	124.772751403531	-14.5656498319464	-29.8582862695105
176312500	-30.5313120943474	-101.194406061936	14.4741812902935	104.015862908056			-52.5128004281762	169.808689610844	-14.4375292069996	-31.9573946600226
177000000	-31.454185622038	-101.078670704166	14.4966494467491	102.175128895812			-50.7389966436334	137.234819621617	-14.5343482746105	-35.3407687299024
177687500	-30.960484521092	-98.5274839888134	14.5034217476896	99.9813784075154			-59.0723245987285	134.63382987543	-14.4819308954089	-37.864363535548
178375000	-31.10433589214	-106.582532480632	14.5442609595988	97.7877818098888			-49.2767175401204	120.607122478489	-14.4958888693306	-40.5799334882297
179062500	-30.4524698340558	-100.94218254839	14.5486412065619	95.9314766022182			-57.6366751893969	168.108819644677	-14.4858491504543	-43.489573565266
179750000	-31.2609582623048	-102.658473813324	14.577951938915	93.6665999992341			-49.4948556940162	121.763190748558	-14.5201489414913	-46.6850306777079
180437500	-30.4444082145063	-100.294788461767	14.6163706322585	91.9092996141485			-51.4179894823686	102.538214483822	-14.5742404769153	-49.1859389287125
181125000	-30.7863003667699	-102.962457570661	14.6352289609216	89.5453712004505			-46.3143358888446	107.058777418758	-14.5283910953206	-52.0083572736276
181812500	-30.9974662509198	-98.8204957431434	14.6329213677552	87.5461489641337			-50.018813597623	107.618473877166	-14.6322533333604	-55.2200513023151
182500000	-31.2747748636639	-108.367514173402	14.7017794975925	85.3375177966172			-47.796485498837	105.160843511954	-14.6027449942132	-58.2693422611594
183187500	-30.8502897906577	-101.788424921949	14.7223135734028	83.2468260013509			-48.816275972217	104.657964012442	-14.6592761305838	-61.3923587743853
183875000	-31.0710857907654	-106.626936635533	14.7421774432394	80.9190230838982			-47.7269468790312	145.299051884742	-14.6577072248581	-63.9647234373988
184562500	-31.0765151101617	-103.663366573751	14.749388712665	79.0976690461887			-52.3336456592842	105.199102722382	-14.6963615568569	-67.8356763419426
185250000	-30.9720684499652	-110.301591558984	14.7869158212224	76.5968946458266			-49.6587405913617	105.812124894679	-14.6637845671149	-70.8126871020066
185937500	-31.656589584954	-109.608643325421	14.7963949345687	74.5919640304086			-49.4085525934662	77.7727131728424	-14.7285546079665	-73.8926421855724
186625000	-31.021109865698	-112.172662730191	14.7800359212292	72.2329359578877			-50.0462303930481	123.939807289655	-14.7295479474222	-77.2653400343703
187312500	-31.8619491353921	-117.185963535681	14.7831123090987	70.2082367877482			-50.2700000254933	87.5432519555997	-14.6240587821783	-80.3791343348932
188000000	-31.2704885314249	-117.129122037245	14.7945024727785	67.9721354681337			-51.7391931879721	116.870489419695	-14.6344004880618	-83.462656045197
