# Hz S DB R 50
100000000	-28.7972369943541	-14.9183457718646	-22.3829809994425	-2.02304955480063			-61.878131157364	-34.3453165323778	-3.46422175455108	70.8481608792057
100687500	-29.435048928178	-11.7174645735804	-22.008859687141	-2.99633966210609			-54.1850888163924	127.1833324427	-3.41867648681686	68.4535683131266
101375000	-28.7893483809007	-15.5467771129837	-21.4466089246152	-5.50489316630222			-57.8868274512041	-35.4810787544605	-3.44335380982514	65.5690788679173
102062500	-29.3725677685061	-13.6665360037266	-21.1861363695763	-7.11423374810282			-61.5472255523468	111.197003572729	-3.44986418026607	62.900178268327
102750000	-28.7391705293667	-14.4048308905897	-20.5722179047544	-10.2121834602187			-62.5844043411591	-39.867433628466	-3.44506536212764	60.0377857183373
103437500	-29.5628146317855	-14.9333810331156	-20.4402395724143	-11.3440208549149			-57.9158800878237	-158.833025816985	-3.40491626279167	57.7575132246182
104125000	-28.8654669007818	-13.997414915779	-19.8962736433005	-14.3138551388053			-60.8072984351712	93.2283071745058	-3.38223171115336	54.6811801960133
104812500	-29.2785825689689	-17.06915687555	-19.6047682198342	-16.4423304504407			-65.4120554958351	171.931861369388	-3.45437348103535	52.0115703824663
105500000	-29.3521933069495	-12.9288919640148	-19.1685328957896	-18.4537562537802			-58.5060827838835	13.2897021337608	-3.40730607594028	49.1085670089617
106187500	-30.0277045529393	-15.8202357481615	-19.0002726656522	-21.7853460739739			-65.2061658692525	142.703959290875	-3.4611410653604	46.5890122863193
106875000	-29.7007514747989	-17.5796217075452	-18.5824313926406	-23.6094012841494			-61.0242657769244	29.3685934612348	-3.43823879505544	43.6852992462396
107562500	-29.5493717970746	-17.0793675456447	-18.4265823425676	-26.4215037516676			-64.3971452318289	-103.770251426849	-3.46989473416213	40.6371218121769
108250000	-29.0138098485634	-15.409699955127	-18.1223851527081	-28.9517057969626			-59.0149686568559	52.1156264091688	-3.49730888630554	38.167205440857
108937500	-29.5741233923346	-21.1090970348833	-17.9253190768709	-31.6386960503522			-56.7940556877548	-117.120381678383	-3.53314637354173	35.1853880850028
109625000	-30.115189062803	-16.6219031240719	-17.6929542798241	-33.7293234304062			-61.4501289694738	120.064416757009	-3.53940526855104	32.3756903970206
110312500	-29.9006512523041	-19.1982961260793	-17.5579418699113	-37.2676226871109			-55.6544169757988	-152.83185942882	-3.60136722338008	29.6485089784978
111000000	-29.7685190885603	-17.6937203255252	-17.3449187938098	-38.7796649940283			-55.3880467483286	116.241675489387	-3.64923251033493	26.6318194552574
111687500	-30.0939562252888	-22.9722121095841	-17.3422282990687	-42.518717260601			-62.3178746811011	-118.15190372751	-3.70831588817143	23.539906169971
112375000	-30.1367869812904	-16.2158172059248	-17.2574155480693	-43.5947028392916			-61.0869391125254	41.4454227815899	-3.76108013710712	20.673922810875
113062500	-30.0915880350926	-25.6551469482584	-17.1886793229656	-46.7772653915929			-57.3630558697369	-42.558055047895	-3.75323443097179	17.6323711853549
113750000	-30.3558565473061	-18.3324220813991	-17.2190978653928	-48.7849634446971			-57.1804045877684	101.037619702331	-3.82516176875388	14.6610768030783
114437500	-30.4920281010431	-25.8946471928481	-17.2421557396045	-50.575978647159			-70.0671673133931	-39.1281969359269	-3.85749242378822	11.437006188871
115125000	-30.8079180176262	-23.8728889277646	-17.2837540120224	-53.3111344355884			-55.7434233910807	172.563601512417	-3.95853330634563	8.0022966168988
115812500	-30.2380432901963	-25.2038568545458	-17.3863581669135	-54.9147587438464			-54.7275864187865	-34.3002164822836	-3.98207083878614	4.4520770467153
116500000	-30.8276558809564	-26.9809001697676	-17.6540614864616	-56.2113474462777			-56.4116194572057	129.836546754148	-4.02836683889898	1.00444416832019
117187500	-30.7603633014162	-29.4954807187725	-17.7858381805981	-58.1886606107172			-59.2459477727275	16.5664450878857	-4.12085073046793	-2.46759861255844
117875000	-31.1106763650328	-25.8907716681518	-18.0781355495776	-58.3851828249224			-63.7025906379887	126.446995682612	-4.19703547938281	-6.12764195188329
118562500	-30.3142079424767	-26.0804003400671	-18.340637828264	-58.0301092109194			-57.3175620164039	-25.6046379762311	-4.25928071179736	-9.89380918638704
119250000	-31.0068661141192	-32.8825583147384	-18.7060776457526	-58.2606950237092			-70.5775864110419	71.5409057083026	-4.37545552226593	-14.0372728903209
119937500	-30.4510893752916	-33.0118811431521	-19.0822096169423	-55.3067029088677			-60.7340939416876	45.3615243471888	-4.42754114494122	-18.3962749252614
120625000	-31.2606072840002	-35.93480313334	-19.445923391399	-53.0962044861083			-61.2425204717298	113.6011548903	-4.52509287996805	-22.8106133791157
121312500	-30.5955910995803	-34.5687012351979	-19.7516343619282	-47.8228941031313			-69.4862200419586	27.3421722719971	-4.65018408032704	-27.1443294569818
122000000	-31.2357904960325	-40.3018046392314	-19.7233198687183	-40.998094685628			-58.2657405301531	-108.899162694463	-4.76675481262506	-31.7334308436405
122687500	-31.2023750649412	-37.7395161063054	-19.4554847875803	-32.9337324935852			-63.418929152905	-68.9042442077413	-4.93542952089009	-36.8125788650966
123375000	-30.8081445800299	-44.2769864553257	-18.7786373824331	-27.3647446370368			-55.8932188866833	-114.560778487566	-5.06090973839271	-42.0818342236531
124062500	-30.775731585637	-43.3204827927466	-17.5504374455949	-20.5558015502179			-60.9334740280903	134.786499762107	-5.27079101641511	-47.1414114442277
124750000	-31.1294098372479	-47.3004733728105	-16.1833016076966	-16.4878153403755			-56.8947588949695	-122.844877198142	-5.43104932628057	-52.8123434990955
125437500	-30.4384725103876	-43.6316530522325	-14.8083783756107	-13.8883713021429			-67.9172261557869	-179.771681535164	-5.67945163030581	-58.6105583092426
126125000	-31.4455219711168	-51.0709831622058	-13.3385511738076	-15.0314028444273			-64.1789713747733	-15.1632762008195	-5.94661567514025	-64.052160557183
126812500	-30.9829081270221	-46.1643342209649	-11.9639256828484	-15.9236236923732			-62.5581534050143	98.6068666892396	-6.28428148940739	-70.0010148767786
127500000	-30.4817995812745	-53.7167723903486	-10.717876610611	-19.1543253537954			-69.8096549466144	112.787596840378	-6.53698948202406	-75.5684130466689
128187500	-31.5335234601988	-51.6114632005594	-9.5609257826809	-22.4341130864554			-58.8430779197942	37.8568135296052	-6.94770989405442	-81.6959527385348
128875000	-30.3008948395037	-56.0775485558319	-8.49690841802123	-27.1569121202695			-59.0160827019273	-125.837706844417	-7.29422929955457	-87.9209674897319
129562500	-30.8677611823027	-55.7460450472866	-7.66867829554722	-31.5141269586944			-61.2393629951773	141.540021533338	-7.69128416559733	-93.8821688549242
130250000	-30.0690077184444	-55.5657928433052	-6.72792524266502	-36.7284622153668			-63.2804282477556	-27.9515430679494	-8.18535481850275	-99.5189818764767
130937500	-31.1538552896609	-57.1676317807991	-6.08944287536371	-41.867098110944			-65.9758018243634	-161.692887772866	-8.59133194487074	-104.922232037878
131625000	-29.9910392986745	-58.7608163408938	-5.40009074199172	-47.2443095334053			-54.8353194295445	-34.323381148822	-9.1492624015755	-110.229231265939
132312500	-30.5372855142191	-60.6282801580247	-4.88948060511114	-52.1434197158985			-72.1191325849064	101.212455375211	-9.57351295936812	-116.080448876889
133000000	-30.1952477678413	-60.9161270431084	-4.37531700889275	-57.6761910346006			-54.6459073002421	-40.5399840395901	-10.1320030696218	-120.724668936176
133687500	-30.2840960083116	-66.9804277379857	-3.9994531394226	-62.7904879831335			-78.0864351856016	-125.959680157842	-10.5884851938424	-126.048250717221
134375000	-30.0702178663008	-62.8838178874867	-3.55057330155191	-67.771926078859			-58.2081399775727	-41.8444357945322	-11.0993202727491	-130.780665246699
135062500	-29.9534024309443	-69.4934781007643	-3.32799523127546	-72.6486171270033			-67.8093348187371	93.8206141937459	-11.6248296540739	-135.73319352453
135750000	-29.8831603784591	-60.0552010473926	-2.9399365544633	-77.3861842415789			-56.4677483382343	-33.8053923990242	-12.1401451592931	-139.898355723289
136437500	-29.6883768706914	-68.8392652048008	-2.73804900909028	-82.1728310534387			-64.7718517041286	-153.359752514791	-12.6015926032827	-143.932297849125
137125000	-29.3325155000111	-65.6344013911298	-2.4382307743591	-86.4206337871617			-54.843690908085	35.785448712649	-13.1496956401703	-148.04516797578
137812500	-29.4612397007278	-70.7702343889411	-2.28451251063541	-90.721189999201			-68.0486699970498	-101.167740823553	-13.6198790291566	-152.300460288299
138500000	-29.6613012569763	-69.1174936226738	-2.01730475072743	-95.0494570746862			-70.8312837105311	137.203670393639	-14.0197212162729	-157.197009201914
139187500	-29.1488783755554	-72.1615543879924	-1.90918929285546	-99.5732626802033			-58.6986690741253	-74.6530653393858	-14.5793830451101	-160.478574050044
139875000	-30.1569661983854	-68.8992760532696	-1.72736191247754	-103.275565751626			-60.8540588668592	119.071763628435	-15.001330828974	-164.274379229691
140562500	-29.3081724029689	-72.7234610192869	-1.59841716459986	-107.219515913421			-65.4597465291926	-79.873073910295	-15.5284435130331	-168.172119004635
141250000	-29.880279960418	-70.3895698483832	-1.43118241829188	-111.329681582909			-63.1915411517422	48.8565433865218	-15.8610080307462	-172.39666915003
141937500	-29.1023634134261	-73.0100110815117	-1.36943075458212	-115.221006755391			-57.2762137648011	-88.222085106383	-16.3444126673217	-176.826253252637
142625000	-29.9981260074158	-72.0401351654662	-1.23007971379886	-119.066061592378			-63.3688346962005	143.488060524824	-16.7316791730344	178.908415980724
143312500	-29.1832022665448	-78.7286375425592	-1.14543368032269	-122.795465998368			-52.7802883318451	-124.042107247629	-17.3586702243315	175.366778300904
144000000	-29.4673336369372	-73.7601320237409	-1.03042246254217	-126.16797262088			-63.5268584409308	-104.528077140616	-17.6510409513652	171.184241133759
144687500	-29.127904292981	-78.1952775183384	-0.98241237520316	-130.061438068075			-56.5266695313406	-92.5072205815531	-18.2903371312402	166.782546873632
145375000	-29.8012478774681	-79.8046326701776	-0.874791241891005	-133.524198841097			-57.4591067215398	-167.472933173706	-18.5499800004488	162.037763131037
146062500	-28.8419559971436	-75.6030739455361	-0.83734444570345	-136.853998032909			-58.8354608109943	-46.4036274013376	-19.2697091389017	156.583638268876
146750000	-29.5697108572771	-75.7579870979808	-0.753484963217305	-140.366913268881			-61.7192781600804	144.670055403828	-19.6509212932118	151.957174609886
147437500	-28.9259856123635	-76.0920191274819	-0.754624597622989	-143.529115773048			-59.9102821956984	2.56815819033483	-20.1487262278721	145.694165281374
148125000	-29.3018263358597	-81.3652825045557	-0.655525821690212	-146.971437313436			-61.1733140315249	46.852314491511	-20.5116975060243	140.687658451759
148812500	-29.625281657146	-80.614836508286	-0.65055634634153	-150.172772240034			-64.1096425076263	21.0621017508231	-20.9792089637157	133.162610073714
149500000	-29.4608787237247	-82.0889316818714	-0.563399415202882	-153.296037186869			-56.4290965288921	-107.346894895869	-21.6695386095826	127.433948089551
150187500	-29.375532048325	-80.7896912956754	-0.592566300862258	-156.295421702567			-57.8942449100813	-15.8123787381052	-21.9237527768851	119.330597390148
150875000	-29.7968939343939	-83.9169639554451	-0.51188885342741	-159.582593026157			-58.0347151987541	-149.471952495581	-22.4960713714567	112.393197075932
151562500	-29.4229128188163	-81.2872650798828	-0.563837518625357	-162.281192724198			-73.225437935686	-63.8830223788431	-22.2854037472088	104.402049542305
152250000	-29.6832829539428	-86.9915494570396	-0.492798335193052	-165.213352760557			-53.0998314131815	-152.892432173776	-22.6480298213128	96.4868425910303
152937500	-30.08252009812	-85.0734742383526	-0.508328464733167	-167.943936843875			-54.8318325243479	85.1503173627815	-22.1886208475797	89.1010090831796
153625000	-29.2000774954671	-90.6220213993444	-0.463800514905299	-171.137752994081			-55.6056964145341	-159.053565513444	-22.5608303474585	80.3680371218363
154312500	-29.9229573761424	-87.428237898904	-0.454879306681418	-173.683499646796			-57.2014238073539	108.10268858841	-22.0560414128848	74.2155320608283
155000000	-29.2694235657488	-92.278183833127	-0.464952209486479	-176.539542235076			-61.0634405798904	-127.030617108247	-21.9174123907908	66.3922462506847
155687500	-29.6803774744663	-89.7699163296804	-0.473917006205815	-178.867020823735			-54.3656060947843	97.8526770339661	-21.6323687406491	60.3492397528401
156375000	-29.3530377442309	-92.254148097308	-0.387241871361444	178.438431742464			-65.1155390352534	75.6563512893075	-21.2284606881062	51.4864492918093
157062500	-30.6049756039669	-89.8978175029586	-0.437810733382325	175.655114882626			-60.8005462489704	132.595322816979	-21.0083440869944	47.4677884218343
157750000	-29.3769811712177	-92.8771107008444	-0.35128655506806	173.112698065503			-52.3365672051802	-95.8892509148655	-20.2450745603614	41.0578833836261
158437500	-30.5830214661188	-93.8437733677699	-0.424848456076662	170.533044882974			-59.5943772028719	156.828487015702	-20.1007615938186	38.1617912564585
159125000	-29.0819810327682	-92.8904188828962	-0.347883259439564	167.917385925364			-69.6193858868486	20.5148748410911	-19.4913791512033	33.0114981819979
159812500	-30.8730743247081	-95.7499583348443	-0.350541434903942	165.333246988843			-60.0093661337941	144.221237865137	-19.2247609222635	28.7820734207904
160500000	-29.4745703694539	-96.077590147132	-0.295249943919013	162.857355438779			-62.3842957035253	-57.946026187845	-18.6860634133661	24.7669282322174
161187500	-29.9733696574382	-97.3096672002039	-0.364362405526569	160.492573266336			-50.7194919386585	164.791528129694	-18.3821000546089	21.4882111994037
161875000	-29.3721609050328	-95.7124567566349	-0.273985043466474	157.85028744265			-62.5164730870826	74.7569441408316	-17.967135681968	18.7977943991348
162562500	-30.0038421860735	-98.6702249202294	-0.308068618539815	155.365689688162			-50.6643644323594	149.503548184237	-17.7095238606266	14.3569032393422
163250000	-29.5172056769568	-96.9530842186783	-0.287696185065004	152.701143899512			-59.4309319498261	-25.8837033674207	-17.1886615086281	12.817078009318
163937500	-30.0152098463825	-101.742782919883	-0.30366267875512	150.519922092649			-56.8250103467225	109.132815906435	-17.0864155645059	8.92302082627558
164625000	-29.6259500190231	-97.044014563442	-0.282447799064768	147.958289395866			-55.7733838413627	67.7020309418395	-16.7225320991389	6.49882578545728
165312500	-29.6207859422429	-104.335083313729	-0.299992349651402	145.49934266675			-60.3466654927621	-157.496055089295	-16.4787109114228	3.74669712574057
166000000	-29.9650221999945	-98.2881697586268	-0.287368756243073	143.092863189663			-56.0848118634202	7.90573800642312	-16.0610590822254	1.71888127501753
166687500	-29.8050085524219	-104.541976402497	-0.319935900124383	140.96564410428			-61.8358777079208	114.244446076244	-16.0064599957671	-0.916804982887
167375000	-29.9788319227324	-100.951763826957	-0.277450356367385	138.705887700127			-59.718179115443	110.483372585896	-15.7987669089728	-2.54447360130986
168062500	-29.6222593006624	-105.232457286804	-0.304250852150719	136.371604085774			-58.6447528099664	168.730673770945	-15.5173417623117	-5.78381934560406
168750000	-30.1399801070047	-98.9776642856388	-0.282584457262736	134.1381924379			-60.2980008254796	-113.084098156904	-15.4214711716525	-7.57089491000062
169437500	-30.2570638485809	-105.989096351647	-0.345101946527136	131.833368748617			-62.2398120058089	-141.450466925309	-15.1606267532067	-10.2317636812485
170125000	-30.0240601726054	-100.958038625108	-0.287855885750284	129.477058536626			-61.7009260970468	160.810055978688	-15.2352692300966	-11.5452505969848
170812500	-29.725732480297	-104.185690662478	-0.363965775224046	127.420089281507			-59.4584875637281	-127.447956600589	-14.9238855046185	-14.544317498152
171500000	-30.304920925486	-104.084594956302	-0.287011942464943	125.141521336381			-55.8514186993397	146.621073141518	-15.0134823986971	-15.8635413378364
172187500	-30.0923962373505	-104.768397464285	-0.37740570126947	123.184761370087			-69.2565064254244	-38.7372532282299	-14.7343332501923	-18.6395528546682
172875000	-30.9680517430567	-106.485821454675	-0.324794785182531	121.199773224354			-71.9683193295014	167.655993852891	-14.7273881351998	-21.1505590780532
173562500	-29.5901698443347	-104.798205694939	-0.359725525767245	119.091528606493			-61.8081003698351	-89.9766452037943	-14.6000069034221	-23.1461589710578
174250000	-30.5161143416728	-101.982159558167	-0.292151169015172	116.89573727476			-58.5664570444207	102.791225396987	-14.6396003699622	-26.1345975330465
174937500	-30.0547192139287	-102.763371732055	-0.373019463457083	115.12883181393			-66.6824178196598	69.2341018180105	-14.5225548599129	-27.3507500882955
175625000	-30.168180188478	-107.396899954198	-0.318432610493019	113.075386998014			-51.2137849811147	144.81979880629	-14.6672702977766	-31.015805003143
176312500	-30.260757544213	-105.053694205791	-0.349466739619912	110.985876502133			-73.4865316197005	-122.601112746385	-14.5013797720919	-32.7472915996865
177000000	-30.6726560362678	-107.640512107265	-0.275225541921067	109.272475850359			-53.3457595779404	152.762024820275	-14.5507325683043	-35.530685420125
177687500	-30.8354340999569	-104.274263578201	-0.323899206639402	107.032122992964			-65.9741147345896	-14.3435611928134	-14.5528194990157	-37.6255747551902
178375000	-30.4538184588234	-108.885804851442	-0.261891537107933	105.030397396324			-58.8876991112258	-159.046479780685	-14.617190008734	-40.5318691889811
179062500	-30.5073837623965	-105.991951671745	-0.241951827413067	103.089323161104			-57.7624721068759	68.5795874744565	-14.6478425916134	-42.9002801479967
179750000	-30.6143751126137	-109.954322812993	-0.197092394840894	100.923342774663			-55.4648225356662	-148.005896801971	-14.681341977748	-46.4289114409274
180437500	-30.6786781808378	-107.086432955878	-0.169809290020938	98.9553035543051			-58.4785438472909	70.0804121841382	-14.667362548573	-48.8777901268564
181125000	-30.5769622754867	-107.632380314439	-0.153752124760841	96.7909212494246			-57.4033547962788	-174.475523750004	-14.6444351749506	-51.5324393002812
181812500	-31.7521496213473	-108.661301532841	-0.18672978659823	94.9187329042243			-74.6563043742824	-15.5878783915551	-14.8135103818041	-54.509745740825
182500000	-30.8957321108954	-115.223395217404	-8.26665959054515E-02	92.6267681949048			-51.1727577364162	-150.20746915933	-14.8151729751291	-57.7424212781021
183187500	-31.7242648668943	-110.847922565082	-5.71088196802765E-02	90.5612287354521			-54.9189947494781	63.2815785472132	-14.7471073342341	-60.3650307764279
183875000	-31.4519185489802	-114.713525165978	-2.17226896174009E-02	88.417776743789			-59.7034586023536	-134.546529140387	-14.8366917251233	-63.5612326607629
184562500	-32.1819758819225	-113.366638387136	-4.92700715585842E-02	86.5613199049188			-59.4246620306292	45.7426170562477	-14.8980904803409	-67.1381883687649
185250000	-31.6635732909819	-122.005110199158	4.80612521728394E-03	84.1771948932927			-61.3042971174427	71.908237996051	-14.8522775991176	-70.0498827397001
185937500	-32.4596252348067	-117.14872460529	-0.047175273328841	82.0583554657157			-62.0154181012054	18.8621077036626	-14.947073036458	-73.4447818671729
186625000	-31.6949578909162	-122.930954745068	4.10894514544536E-03	79.8782099727633			-58.7720255989175	-136.496657762856	-14.8954705859669	-75.9275799228868
187312500	-32.1939636376761	-129.824690925933	-8.72944167776629E-03	77.702214434358			-56.7782129312927	135.472538740918	-14.8832937710146	-80.016018679659
