# Hz S DB R 50
100000000	-28.3453679109254	-19.6479991862444	-28.2979008097355	-0.790394808456057			-61.4586959617867	-24.2788191171168	-3.42619641401295	70.8372133640991
100687500	-28.7682750998441	-18.7666852485054	-28.0670480534071	-0.610250891761661			-58.7178173668827	138.374572336462	-3.38481230044196	68.5785365582714
101375000	-28.0452366829113	-19.7272033841225	-27.2597372935993	-3.87481735422329			-57.8615656146273	-29.5230616979412	-3.41726364270296	65.3264372982099
102062500	-28.6685016097839	-17.5868680553234	-27.0525265305928	-8.88640025400493			-60.5048208512778	109.674703371666	-3.41579563652926	62.9088570464586
102750000	-28.1261677535264	-20.550713300251	-26.4613498828943	-10.1313072245713			-56.6696209299632	-51.1713837071425	-3.44272646878772	59.7618423124267
103437500	-28.6278220308563	-20.4726976173772	-26.2826325021819	-12.2735783459496			-71.3959634626091	-8.50812335024765	-3.39529496540637	57.3287580009916
104125000	-28.0573990871751	-20.8086134548478	-25.8866663030749	-14.595274026863			-67.2737729527728	-119.964950569247	-3.41490970773448	54.257333551713
104812500	-28.4560371550336	-21.1889922075581	-25.7711559256512	-15.9203978045491			-62.5847618785382	-137.742037815699	-3.44413492454348	51.5911011832644
105500000	-28.4091647441547	-20.8311347320977	-25.0611229623758	-18.8549270460418			-69.4674703408324	-128.382759683388	-3.4387995673722	48.5708706764717
106187500	-28.9443842932337	-24.5351924132591	-24.9814702098927	-22.9055335728214			-57.0787163000921	-128.404269780294	-3.49916739812047	45.8293831140473
106875000	-28.6756730469669	-23.1074109212386	-24.6232334011553	-22.3130259094807			-56.7575386030955	43.5968943361114	-3.46430077612132	43.3078733805226
107562500	-28.3694094137234	-25.9022028361206	-24.5319848991541	-27.5379422285665			-62.7647287438553	157.17512758999	-3.4683487550906	39.9815197508145
108250000	-28.2349019381188	-22.773481885858	-24.1770279240162	-29.1614959799735			-55.9205731284776	33.1687008684505	-3.51581997032451	37.1028276689976
108937500	-28.3458253004765	-29.5550647973825	-24.1479694497785	-33.4174935643656			-59.6456685079819	-145.564054203921	-3.52983765125836	34.2923083612682
109625000	-28.6260858382113	-24.688016008794	-23.8100249323207	-34.0745439543571			-56.6758737538297	29.9349959379745	-3.56823092514874	31.3315364922639
110312500	-28.6949669003326	-28.8736058282237	-23.7184598516015	-38.2341684656496			-66.1179074092462	-104.544916156811	-3.6061664717524	28.3845666075375
111000000	-28.8026046378242	-27.4987468774904	-23.5539220541673	-39.3731519516663			-68.4197812505714	-76.4797533226957	-3.6498580629399	25.4732829104059
111687500	-28.7773664788432	-30.9954944818964	-23.4254056214964	-43.1723015086448			-59.2933831795035	-99.4253930901834	-3.7055414453818	22.1944705610191
112375000	-28.7864936822267	-26.2221672869807	-23.465330029655	-45.5740287053845			-55.9324420802601	-166.316073793346	-3.72111340587859	19.4546614147185
113062500	-28.839204865401	-32.3796421523893	-23.2817577176187	-49.6175260747838			-63.6720611470876	-153.172926009127	-3.7694359771352	16.0873409354013
113750000	-29.0109326048088	-29.1008210184038	-23.4367810370964	-50.7246231565007			-75.6340520408254	96.1525090491109	-3.83806403620644	12.9122944309298
114437500	-28.736723457679	-35.0418038271258	-23.4968016501457	-53.5550207140915			-65.1320316167102	6.20048633541472	-3.81590637092153	9.61504137318211
115125000	-29.5184842597096	-35.2363257102088	-23.5695939126692	-54.9289426289596			-63.0245911215565	146.862198108081	-3.92325002315037	6.14325568512719
115812500	-28.7515746077627	-35.4919025669804	-23.6086015167362	-57.0758524598292			-62.9780189754129	-25.6546306616303	-3.95429596490143	2.63762460537124
116500000	-29.2705684251922	-36.5466617188674	-24.1442544768232	-59.5959813864106			-60.9184743698172	-150.463058510778	-3.98323333103503	-1.24204482997677
117187500	-28.9218404092304	-38.3087995239655	-24.1610081065147	-60.1818995318825			-63.0974587389027	-38.85886718922	-4.06610246757152	-4.79464802009785
117875000	-29.2005437042298	-38.9886953470757	-24.6754085706191	-60.9555720662701			-62.3715372150949	160.348117547855	-4.13041044694314	-8.6155389085102
118562500	-28.4256084610321	-41.0363037243888	-24.8359213890429	-61.2747072848434			-63.2403986543669	-51.0245793105067	-4.20306345976103	-12.5372671541777
119250000	-29.227317265832	-42.4367739586269	-25.430480737284	-59.9390059972622			-60.0999107356564	-146.881483114332	-4.2764531470246	-16.6646302522205
119937500	-28.8580156823191	-43.3576850327038	-25.8483696112334	-56.7535006477477			-61.5973764635698	32.0131369297478	-4.32700247124911	-21.2090745461561
120625000	-29.3739700350086	-45.6207645092353	-26.7312752920607	-55.7311758678616			-68.8474872677908	144.399205230483	-4.40720950054993	-25.7739535673123
121312500	-28.6216761466367	-45.0004563843621	-26.7701672253968	-47.3223120428016			-62.7565503080288	54.9752603769922	-4.51070635053513	-30.2150791336718
122000000	-29.5072998773569	-48.8895315491829	-27.1708979398685	-41.6029809926027			-61.0305253081871	173.552487524764	-4.57582021457612	-35.3590538627272
122687500	-29.1232171460549	-47.8022062391227	-26.0852854442352	-32.340480698673			-62.0997944615282	3.53184231500433	-4.70543589866965	-40.4318833268235
123375000	-28.8245030401499	-55.2092019140829	-25.6184617061682	-24.2368901088658			-59.6608332691088	-70.3322646443854	-4.8039966436407	-45.8321661127853
124062500	-28.770404906474	-50.7517363121596	-24.4840804987969	-16.61334459925			-59.0142015811932	21.5837476354523	-4.96804273078929	-51.1300792669596
124750000	-28.693975560171	-53.5655062353991	-22.8992861456416	-13.6731571494566			-63.1821040834694	-109.800576267853	-5.09608407345456	-56.847354175456
125437500	-28.5027565014588	-52.7020345880887	-21.3636465348939	-11.6725968956224			-61.9324937502628	149.321176937606	-5.34386488962268	-62.9492514412401
126125000	-28.8769374952625	-57.3812670376042	-19.9116794367054	-13.5328082487798			-56.9130199840003	-81.6192614151283	-5.50800465583676	-68.4981789079202
126812500	-28.6170340881421	-55.3548194831206	-18.6182796164277	-13.9664588634179			-56.2768792974189	71.5879489223708	-5.78932685353743	-74.7110849424634
127500000	-28.1225028225352	-59.2398949239615	-17.3304654529285	-18.1954213340526			-65.3355713906274	-72.9080709760291	-6.02516875899054	-80.6274557214679
128187500	-28.6406646659729	-58.9643484046657	-16.2184036209883	-21.3465920571257			-57.6788274832329	177.923659457115	-6.33778170452854	-86.9983896584329
128875000	-28.0844731540729	-62.61142021616	-15.1637665355835	-26.0839291414911			-57.78572547835	-126.484949653009	-6.64311145902316	-93.4017286509857
129562500	-28.4897419766842	-62.5459356323565	-14.2797295148848	-30.2621197353494			-59.6521321173103	142.348493754648	-7.00684041788207	-99.3883024646566
130250000	-27.8271577470165	-62.4445358283653	-13.4150910446951	-35.5117824190992			-60.6923152813884	-78.588914187885	-7.40723677511854	-105.462859753726
130937500	-28.3316880511332	-63.9893696533256	-12.8068371824157	-40.410389222454			-64.8657663544506	75.059556519966	-7.76910044161959	-111.165595674166
131625000	-27.7245658666284	-64.367363367724	-12.1331404833839	-45.6230637223056			-55.3599432108251	31.0659464992414	-8.20807335703666	-117.112724758743
132312500	-28.264612154785	-68.1193658621574	-11.7338774985961	-50.7832791086354			-61.1058193321505	136.073238054532	-8.58628984136623	-122.912748706882
133000000	-27.8022951155482	-66.1945339607389	-11.1349660616211	-55.7721665004566			-54.7713734087915	-39.4613781315443	-9.06219158034053	-128.125553038581
133687500	-27.6008972240831	-73.166911380874	-10.8030545577181	-60.974010611288			-61.2098279023668	-126.512666626923	-9.43320740156102	-133.782929598938
134375000	-27.9284250409812	-70.2258181284879	-10.3962313297193	-65.6913307974832			-63.0845718646643	19.26621212462	-9.90382805564991	-139.232846695389
135062500	-27.6589142613033	-73.0179690499293	-10.1230001001978	-70.6391857584408			-62.8609544395946	157.338961861856	-10.2916957924437	-144.279231807852
135750000	-27.3354809627303	-68.9352391985062	-9.75300011077261	-75.0186594002983			-66.1636342545726	107.438934444178	-10.7344017578998	-149.009308008586
136437500	-27.3337585580981	-72.0072464594958	-9.5378766384872	-79.499921067599			-62.9625415685916	-114.116020531915	-11.1359837743139	-153.984687060849
137125000	-27.3235256008734	-69.9557344822259	-9.27565242655457	-83.6307321284457			-58.1312335990005	29.0506191779481	-11.6071431166796	-158.619097408077
137812500	-27.0835248057964	-75.4367381600014	-9.09657953643121	-88.2747511220343			-62.3655363446343	142.390192304922	-11.9770734352655	-163.026008668501
138500000	-27.0866776011556	-74.0399876774964	-8.83798060538469	-91.9679700774799			-63.1621712851734	1.78921730960731	-12.2968933260134	-168.264139897941
139187500	-26.8059842596012	-77.211842734745	-8.69684259004089	-96.4692505888764			-57.4742956678166	-133.070582885737	-12.8160665225391	-172.377006289644
139875000	-26.9784231312712	-77.0361629808731	-8.5071265526128	-100.210171246415			-60.2534966439966	-55.8434510464201	-13.2173042955918	-177.161923357722
140562500	-26.8035477381829	-78.6240849319574	-8.36840252488747	-104.157716277484			-60.0633322964674	-92.4020908163356	-13.6317656406355	178.838085304864
141250000	-27.1970679888484	-77.7373656688213	-8.21751739973755	-108.085459447957			-55.9696071011866	-43.4881670787562	-13.9379995200601	174.277387052215
141937500	-26.4845298208628	-81.1184423465248	-8.12119771520189	-111.759959579467			-61.2911774425089	177.78412517427	-14.4150902649585	169.120474111021
142625000	-26.9267027680651	-81.0039220569885	-7.98157392865712	-115.651818363199			-64.7863674340962	128.501294231977	-14.817991669632	164.864532179111
143312500	-26.3816585951672	-83.3891799779811	-7.89056867132723	-119.127069580818			-56.0509471591537	-51.9849104909611	-15.2213846412593	159.631365656899
144000000	-26.8753619744915	-81.7011560671208	-7.77773114837372	-122.677863406204			-60.3573194748983	82.8387947044045	-15.5495767044904	155.801429254269
144687500	-26.660130338784	-84.646961794395	-7.7268257409553	-126.256886200814			-67.9812398427194	-156.714619186242	-15.9759795322615	150.860515921826
145375000	-27.1238415092218	-85.9996650808668	-7.66086816386561	-129.929629676162			-69.3731701790946	-58.738116732093	-16.365313727618	145.645616098834
146062500	-26.0685874395774	-83.4265149416876	-7.57731401290773	-133.089276597984			-60.9579242164927	-114.610927366532	-16.9157436299898	139.813021317024
146750000	-26.8673205479358	-86.1222543483355	-7.50498814811415	-136.592256565821			-57.4391034643318	179.402078995753	-17.2768218165056	135.913160159766
147437500	-26.2839831155836	-84.7346732844136	-7.49869922917254	-139.672427696645			-60.8639653728279	-74.5757802065095	-17.6773632976718	128.18133779262
148125000	-26.9072117132368	-88.4435115021156	-7.42319454156492	-143.390590703325			-54.2756584399345	-161.716637617423	-17.9579589363751	124.464574745796
148812500	-26.4623988028771	-86.4552567020288	-7.41017905850536	-146.172306884935			-58.9094137112909	85.904223627967	-18.2204586698167	116.786206710092
149500000	-26.8174080295253	-90.7900007979124	-7.30898099611091	-149.383260309051			-61.043192211381	-176.19192113958	-18.7076733615788	112.036202395505
150187500	-26.8211317560069	-87.4952140889519	-7.36587999621237	-152.424303425021			-61.1946620481565	-62.0529994319495	-18.9254667010865	104.726188746421
150875000	-26.7167975530904	-89.2757592248339	-7.26424104073098	-155.370501553258			-56.2841056791424	-127.761361601568	-19.1774470247422	98.3581222613311
151562500	-26.4711519718717	-89.7307752285632	-7.30948784545745	-158.080666878401			-59.4886299643683	-94.8468892247787	-19.1550968380464	92.5309406800025
152250000	-26.6909592925061	-93.4210678172377	-7.26084861397226	-161.320312237468			-56.1770375641014	-123.681304341289	-19.431723165556	86.7421104541031
152937500	-26.9976787966149	-92.6062572794763	-7.29300267949714	-163.995483298953			-59.2387530739428	-72.6932581537841	-19.380021546892	79.8902405316003
153625000	-26.6428913893097	-95.9908463886983	-7.21048028942247	-166.505558028621			-54.7782860801574	-94.580369354628	-19.6048139949585	72.2028594764995
154312500	-26.9327849905753	-94.0095058418046	-7.21012913513341	-169.281620661816			-66.773385747104	82.3884959811121	-19.2739532250479	66.9460562455498
155000000	-26.1876397879502	-98.1810223682099	-7.21878317674695	-171.995541189313			-55.5364587532402	-86.1120030478901	-19.3475945531198	60.4729519997072
155687500	-26.7760323106023	-96.6016043464954	-7.2212129663997	-174.54592015069			-55.8945948810358	73.7556963770525	-19.1322229027265	55.219394875577
156375000	-26.6226089833117	-98.5067251121051	-7.1331024015233	-177.4053333224			-60.7665454654103	-117.699142279862	-19.028042395287	48.9201674147911
157062500	-27.3131620365905	-98.2157587389892	-7.22259839924159	-179.797508095772			-62.1166052832089	-178.721762811783	-18.9123061694201	43.9743390687993
157750000	-26.5705232566906	-98.8498296915653	-7.07683566385445	177.874058381448			-55.3933709674354	-98.9968902324097	-18.5422170085519	38.8546071859821
158437500	-27.2717701185743	-102.123214743708	-7.18659455676075	175.241669065698			-54.3542141374412	138.081668589889	-18.2754871962899	34.5456052827625
159125000	-26.6112765011782	-101.130076404046	-7.09385855084745	172.868248439471			-55.8597155887316	-24.7400163001296	-17.8454143834202	28.9398177354508
159812500	-27.5281903559525	-104.190346822409	-7.12374048273647	170.296165200389			-54.9704192403189	-136.575801756891	-17.828466154029	25.2377065563586
160500000	-26.8147399664703	-103.142371586164	-7.05868318028998	167.867142602585			-60.444970447106	-6.36075008130805	-17.3683830428542	21.6160712602677
161187500	-27.1270895181257	-104.752932704664	-7.10584917002134	165.549601380879			-56.809237280687	74.207060412284	-17.1592146449644	17.866806964275
161875000	-26.7568627827265	-100.893355413084	-7.01971393330617	163.067688681045			-59.5092857956437	-53.652206506891	-16.8613270794652	14.8343328374438
162562500	-27.0800552543395	-106.534702673662	-7.04402890725201	160.599024136339			-76.5982709896037	15.3882230997827	-16.6459288742233	11.2008554908512
163250000	-26.9712124535966	-104.576233295786	-7.05441449314439	158.32981514349			-59.7217572723761	19.4586220704509	-16.2832799670362	8.81522299144872
163937500	-27.2474181773303	-108.519090153495	-7.03338273137001	155.783153422888			-61.0355218648926	170.340480756121	-16.2831577167928	5.78932471325245
164625000	-27.0570720390761	-104.986982626424	-7.05539453342007	153.27299341858			-58.3362838552222	30.6718462754264	-15.9432527308361	2.87927823459038
165312500	-26.8876862433143	-110.285971973525	-7.03324994791516	151.018476815144			-56.1433307787072	-139.126724713069	-15.8766425395268	-0.142986124547121
166000000	-26.9792355702475	-105.330798698401	-7.01329220291497	148.820621348455			-64.9221757998735	93.4720278263603	-15.6859466678725	-2.83739784466422
166687500	-26.9337863863571	-112.85434158743	-7.07975396617901	146.615048661895			-62.7552269159816	-136.144764228726	-15.5409167505652	-5.24983306270914
167375000	-27.0678842747883	-109.054993307451	-7.04240060854206	144.214060376025			-57.369832752258	-16.7712399708476	-15.3887957579766	-6.53372912267122
168062500	-26.6717828823729	-113.247699006186	-7.03538446057299	142.252239496593			-66.2862612732381	169.562437134247	-15.2179324268454	-9.86397302987638
168750000	-27.1306841381335	-110.855220825007	-7.02967145182377	139.834088544085			-54.9037891246163	55.5791651189578	-15.1144204308785	-12.0419989460992
169437500	-26.93430934805	-113.527428267182	-7.07593930252075	137.900055567141			-57.6086275668021	-103.482935347987	-14.9657276429528	-14.6699985965855
170125000	-26.9499803811438	-111.339503262415	-7.01434923166482	135.61081586176			-58.3601537793788	31.494552783458	-14.9468864760586	-16.8632349425967
170812500	-26.6883611974364	-113.865371114085	-7.08036036727389	133.596946937076			-73.058249731166	162.311091297075	-14.8349123473277	-19.5354460489153
171500000	-27.5782288005138	-113.706172707904	-7.04232727569755	131.348059419462			-58.118521478545	60.7343790464677	-14.9618991767188	-20.8506926996545
172187500	-26.4418043704476	-114.453741623674	-7.08316540233403	129.459544177017			-57.4148369608421	-111.93604531103	-14.700932732394	-24.1731016455986
172875000	-27.2853483273113	-116.403728418881	-7.00762952320922	127.259923950479			-56.4696988734143	17.478004758813	-14.7250972546463	-26.9634715243148
173562500	-26.7175629690755	-114.535262974089	-7.1174540149985	125.439745118436			-82.3901722406294	-78.1562750475936	-14.5986122903153	-29.2996467573907
174250000	-27.5569723610077	-117.705514209436	-7.0265268351674	123.589633983198			-52.4312507296321	136.513893681981	-14.6696889223674	-32.103165330697
174937500	-27.0303374763254	-114.169780938275	-7.09585460175598	121.454239737009			-59.1657711734046	-46.2615421858679	-14.663978506254	-34.1461903007532
175625000	-27.1264927736784	-119.206308787274	-7.00239332944701	119.504136900525			-58.0379260269285	163.307851887082	-14.769103824843	-37.2552081957103
176312500	-27.0276382333958	-117.042095161377	-7.04979622868357	117.72753422573			-62.0397612666337	50.0131964785114	-14.703625103343	-39.0690332561283
177000000	-27.2781097915299	-118.563206130987	-6.96464920152384	115.860951490345			-53.7692147411853	125.26524792655	-14.7546948201714	-43.0200371192218
177687500	-27.4262448603326	-116.218627083014	-7.02493545797774	113.631901099337			-70.0679602433755	-93.2191902173482	-14.8660275531396	-45.4067142545672
178375000	-27.4398334376801	-123.566215818008	-6.87527554991772	111.632352912877			-57.7227154630738	116.551907301673	-14.8536433682603	-48.2747856239662
179062500	-27.4523322902512	-117.876480453572	-6.91939399391382	109.442097672606			-54.9884918531997	-27.6093715319483	-14.9086836302106	-50.5004237207507
179750000	-27.1896407639868	-123.665378306721	-6.89506706072262	107.891553524122			-57.2835043278847	-141.01483794716	-14.8798582099262	-53.723955086358
180437500	-27.619332972874	-118.507712547217	-6.8429656223788	105.686130714404			-60.2748863190566	-79.345516892976	-14.9504341561031	-56.8379360496667
181125000	-27.5136773150191	-125.887662172818	-6.82667435597016	103.685896661985			-57.0128178145134	-142.067100413064	-14.9621856024302	-60.7128360904841
181812500	-27.8454299865233	-122.909084696129	-6.8224386968742	101.671465973923			-56.6962510359194	57.8082171135175	-15.1161703478375	-63.3813094584583
182500000	-27.3134025319512	-126.095774679862	-6.74576479002766	99.5275998452863			-56.5683794825599	-126.647088844311	-15.091500560843	-66.5522016458798
183187500	-28.3814328442606	-122.689979376949	-6.74805492391092	97.2571058627946			-58.5603559053443	71.0033768889318	-15.1627333598576	-70.2978417630328
183875000	-27.8510029306562	-128.571985397767	-6.71269248874755	95.1473565151775			-63.3595841364144	164.434835922155	-15.1797165444633	-72.6353621377819
184562500	-28.2817926102334	-127.193873090233	-6.6920486197826	93.1827987722032			-53.6453945228019	101.347618507007	-15.2991063056388	-76.9342129556143
185250000	-28.1492144173434	-131.933720564904	-6.6450838354857	91.1157853557144			-59.3976781339223	-139.816405361486	-15.2057750020435	-80.4430157248187
185937500	-28.6972998780517	-132.290374864236	-6.68544437516605	88.7964261247713			-57.975759805203	66.2394339322126	-15.2296326669881	-83.7503898343539
186625000	-27.8874742012288	-133.594149521755	-6.691288004417	86.6392339068146			-57.5992084855919	-52.304649659861	-15.2206713613581	-86.4461665679376
187312500	-28.3460850745811	-139.02808518657	-6.65664042654694	84.8679844865542			-56.8617764451966	-168.876858346146	-15.1677462976439	-90.4946498898062
188000000	-28.2107740400405	-137.509804374127	-6.68132565728308	82.496231736837			-60.8121876043015	-40.8048360734507	-15.1514605082987	-93.1640757404106
