# Hz S DB R 50
100000000	-19.9157458076832	133.285105516195	-0.137581747033634	-4.60692361518931			-62.9341046316474	99.5254235283168	-3.48369589382424	70.9638353342799
100687500	-19.7871538261353	129.98921567403	0.3385573281527	-6.59424306075849			-56.707325995935	3.38383489971708	-3.42365808204846	68.4375108321062
101375000	-19.8080318325099	126.823965820393	0.755957162143689	-8.60725481920054			-57.7950792899096	80.8335549687551	-3.45953280020742	65.5655300095828
102062500	-19.6779114132014	123.563785615832	1.19390082190212	-10.9172757628703			-58.3518438366629	-23.0349932950053	-3.43414267428368	62.8716360603666
102750000	-19.5892868602075	120.96062298312	1.57246781649251	-13.1507298255715			-72.6352446732095	-127.291443787158	-3.47746523432413	60.270387933757
103437500	-19.4214977848494	117.302665178967	1.96751835368605	-15.2821800010777			-61.5991590358285	27.8582182084602	-3.40577391496948	57.4317803646275
104125000	-19.3490096607573	113.782248917453	2.31479963907089	-17.5765381397746			-64.6448078967463	-178.589096556439	-3.45571187503535	54.9582477891386
104812500	-19.2676020101719	110.366371475085	2.68460850233104	-20.2636843691071			-50.5729482011092	6.09759069320725	-3.4113144752137	51.967334458145
105500000	-19.0494579838807	107.955240468495	3.01983765233684	-22.6039995644249			-66.9617829047869	-135.588253077928	-3.42189030998583	49.2997031637207
106187500	-18.8786558315597	104.663354201665	3.33631914474029	-25.0982214088752			-56.9205865013295	-19.1430726820808	-3.40881081777968	46.4756471398495
106875000	-18.8885595044648	101.523028830209	3.62185925591905	-27.6124925539592			-58.8434318931927	-61.7778467173978	-3.4868585398162	43.7719816887574
107562500	-18.6484798206008	97.7180015261463	3.90707907940848	-30.2437095140496			-59.1078843091387	9.87070256542609	-3.43773462769988	40.8269001904128
108250000	-18.6840365765559	94.2458136538398	4.12010556807442	-32.7498499747821			-58.6404337082487	-108.045199400184	-3.56368480849183	38.1144606655831
108937500	-18.5997990135318	91.3890743459401	4.34760380038589	-35.1222593299813			-56.9132165102898	-4.4815780273593	-3.48827259511278	35.4531000996371
109625000	-18.4457470966406	88.0842633267778	4.57203774491403	-37.8959476154346			-58.0369664917273	-75.1944302009575	-3.60315250269142	32.3699117758882
110312500	-18.3494317507765	84.2522796867776	4.70324870789044	-40.3986504964833			-65.2895170641631	6.71167857349886	-3.60211378747026	29.681459506849
111000000	-18.3142352573538	80.8870029685868	4.88559558769677	-43.0899534377209			-57.1492791811496	7.78487989326904	-3.66957921715257	26.5397881921162
111687500	-18.1422633408553	77.6524464365831	4.95865539816609	-45.7444482877672			-56.3305712771216	57.6789154586635	-3.65183819657868	23.5874461166175
112375000	-18.0377036942167	74.4190597915517	5.05658570676685	-48.0011148342357			-54.2135482497792	-30.8631312380657	-3.76042408647021	20.7083398910239
113062500	-17.9610504138378	70.8436185359184	5.05699832817168	-50.5114826187137			-62.9113198780144	35.0580092346641	-3.73509852863383	17.71744673723
113750000	-18.0021849009468	67.4235714321131	5.09971960936938	-52.7574586104304			-54.6152065124124	-53.7616391263038	-3.85862396168119	14.4255304795489
114437500	-17.9223088337264	64.1579119307706	5.07484133584342	-55.0130845475092			-59.4461158975788	36.5198927001272	-3.84636224198104	11.6482426459566
115125000	-17.8419978481435	59.9853333513489	4.99413092267515	-57.0033295595827			-61.2692929800007	-13.8898564271429	-3.96621927044227	7.91534294048584
115812500	-17.6261905642812	56.6507099152202	4.91856061033209	-58.8883550688413			-73.3168402814774	67.2836827722203	-4.01233782259727	4.74821959103288
116500000	-17.7016405155794	52.904342766827	4.7320648358324	-60.4066805172808			-57.7204487549197	-43.2873743838183	-4.06537130557173	0.994417407923686
117187500	-17.6943092210191	48.7057825468874	4.52511408561649	-61.7803147281945			-61.2895879493231	-43.7072021500163	-4.11356264770049	-2.39352413593842
117875000	-17.6280457749568	44.6014289778141	4.26792912768472	-62.4415530978319			-50.6729062878923	-15.7896672017814	-4.18595403648491	-6.13128293983311
118562500	-17.4042764897656	40.1003756980413	3.9776387637609	-62.6297556695279			-59.3449502424527	-41.9168389070325	-4.27672714934174	-9.87161189821057
119250000	-17.5268189114506	35.5990037791507	3.60208608831314	-61.9147915413554			-57.1792221520344	-65.0847022852451	-4.38827166211085	-13.9535451020601
119937500	-17.4941019003899	30.8065323729017	3.23377070184327	-60.2371632000055			-60.1618198988685	-137.013791837301	-4.44008064479118	-18.4379177400793
120625000	-17.5084698538527	26.8156551636465	2.87166000948472	-57.1673256333895			-58.6913996196247	-11.5198443135989	-4.5493424717054	-22.649738558204
121312500	-17.4640219079709	20.980257783519	2.58131173751707	-52.4367504303247			-57.028091482118	-71.317279269089	-4.66105721503991	-27.2342888182092
122000000	-17.5168879933532	17.2888387974897	2.57452046858431	-45.7398552310975			-58.1539236389236	-12.5310250600812	-4.76134519018371	-31.8503911892903
122687500	-17.5294676725757	11.9315433425723	2.87733239687887	-38.298525629564			-57.0691150759823	-93.7493095556979	-4.91332915363968	-36.9823652603124
123375000	-17.4960838813218	6.31129547965505	3.66521605021492	-30.9813908897171			-66.729621461953	47.3688685277994	-5.06037488203439	-41.9060523196614
124062500	-17.479306294683	0.306736011081528	4.78957021885265	-24.8491797088594			-56.396099122356	3.97352771951468	-5.24295900774855	-47.1503204408973
124750000	-17.5970767183328	-4.49797150497549	6.19830090966717	-20.9537365933			-57.4525251453469	36.7261541983648	-5.43585743276581	-52.6257838655868
125437500	-17.662895179131	-10.8202142147849	7.61886898281237	-19.2998727451613			-54.7600596709395	-9.76369006706717	-5.64880308343109	-58.7709882545452
126125000	-17.8995199478695	-16.510382130694	9.08361163669731	-19.7547027979899			-51.8841835547598	31.9728813889041	-5.97140346603026	-63.9865206374899
126812500	-17.838083071531	-22.6819108875588	10.4619915592334	-21.3691248772034			-51.5714573278952	-12.2436741234558	-6.23231787907187	-69.7640523728553
127500000	-18.1989669664198	-29.8290863086892	11.6927496993245	-24.5163943636005			-50.7960565171933	14.898052167741	-6.59617670600178	-75.5957960524163
128187500	-18.380552754934	-35.3647909705258	12.8531476969076	-28.1670320833236			-49.9333763726312	-3.894829755974	-6.88616705423851	-81.522957023194
128875000	-18.6436971939939	-41.8624935411593	13.9099811904227	-32.6422240695385			-52.3900389176762	6.77607804422481	-7.3622330734119	-87.4567740471055
129562500	-18.9136977324691	-47.5814892352711	14.8227167431913	-37.2935348139688			-47.8369395256122	-36.5358877318921	-7.6347712260247	-93.364470140545
130250000	-19.2650929960892	-53.8858386995785	15.6486605494687	-42.5156353881935			-49.3095293307819	-7.0595811924851	-8.23749408047465	-99.1083919159265
130937500	-19.5483060298744	-59.5065360196796	16.338313890898	-47.8650267596487			-47.9065176896223	-23.3993367683564	-8.52109108285643	-104.073356968101
131625000	-20.0452999918211	-65.547275650754	16.9500651129111	-53.1515311113965			-48.5500114806772	-29.1022353584176	-9.09891380670743	-109.653774871314
132312500	-20.3969890051058	-71.7864553288152	17.5132917924913	-58.4904685034209			-45.2812119147155	-41.4495681739456	-9.49387351043793	-114.509410526691
133000000	-20.8956412888186	-77.6606105005362	17.9536340104356	-63.9644948754943			-47.5247102628673	-39.2748750023305	-10.0191918631838	-120.051600012892
133687500	-21.2056916616494	-82.5013981494061	18.3829397408687	-69.0005236883992			-47.7308300218323	-43.1839528681945	-10.4763155853719	-124.461350374129
134375000	-21.8664059188638	-88.5116120103319	18.7518985363551	-73.9577326541691			-49.1897815431754	-64.5929869900178	-10.9910493173127	-129.810815340444
135062500	-22.1752995458618	-92.9542348019109	19.0522613996746	-78.8180279780138			-46.1042639054646	-47.1775251654286	-11.3845308938042	-134.177052279661
135750000	-22.9299066673628	-97.6997327224859	19.3589789993974	-83.7685309399501			-46.2952303127919	-65.4420013229437	-11.8442160460531	-138.429461064001
136437500	-23.5598965017191	-102.308502550694	19.5846428780414	-88.4158429128052			-46.8963156386799	-49.8786293885502	-12.3663704410331	-143.113630724378
137125000	-24.0640529784787	-105.131909756428	19.8383858472763	-92.8017459262148			-44.6988993842667	-70.7913659903887	-12.7773284182696	-147.391684488018
137812500	-24.5905696486848	-109.543854978596	20.0264754097153	-97.3107929999172			-47.3518814019154	-53.7649251461772	-13.2233681406183	-151.406946726549
138500000	-25.1394643507173	-113.932482941064	20.2230628459849	-101.418619603679			-44.3826633334121	-91.0706812688298	-13.5860776700736	-156.404541776507
139187500	-25.8047060565443	-117.216179307751	20.3876573028285	-105.678503904654			-47.291522061528	-78.2626219803406	-14.1649133511468	-159.754862078928
139875000	-26.6291233243441	-121.869553621858	20.5623127422228	-109.696694444121			-42.3534055011125	-82.9521605383293	-14.4119917957511	-163.61666364507
140562500	-27.3884502349343	-124.581755666251	20.7023790327041	-113.720158909546			-44.9403471487263	-87.167783450825	-14.9104657892757	-168.326282984711
141250000	-28.1838183183256	-126.560931963915	20.843615854528	-117.655791848295			-43.7118838867416	-98.5314948799906	-15.2048221374757	-171.875786728424
141937500	-28.8421980000929	-129.515098083299	20.9256550349055	-121.739668070523			-46.8837363448233	-95.0043683393269	-15.6493245238371	-177.349465023986
142625000	-30.0418505333388	-129.975330999412	21.0583612053379	-125.341117353184			-44.9268659996375	-106.246968632437	-16.0926887595697	178.82700629455
143312500	-29.7870981924661	-131.838135824609	21.1724623745479	-129.149184306578			-44.256377182024	-122.396986034669	-16.5758002025756	173.247807987629
144000000	-31.3427596537655	-131.044091092812	21.2386893717765	-132.435983803495			-43.8535372035918	-108.39396248801	-17.0072007363373	170.518295848732
144687500	-32.1835718871738	-132.954740518707	21.3200608477176	-136.386050905505			-44.7729576139563	-126.473820285507	-17.4474903568092	164.509183443089
145375000	-32.1096394156203	-136.098216377601	21.4010410310398	-139.923313335913			-43.7096022956208	-116.351796976488	-17.9444352060537	159.486046845207
146062500	-32.9730781961748	-131.793624048287	21.4709624277278	-143.504083629505			-44.5020370571907	-112.447757576821	-18.211313985473	153.877508668478
146750000	-34.3860185031765	-128.88329522873	21.5105463948198	-146.682196904688			-43.446875273737	-117.248909036921	-18.9365910318979	149.793738110714
147437500	-33.6310782704583	-127.485886028496	21.5485095922046	-150.118625487516			-44.7991947517976	-131.867051106097	-19.130005519291	143.042530134649
148125000	-33.9275927060431	-134.492057905824	21.6014254004689	-153.447266848004			-46.6802139411876	-116.607154111415	-19.7056969059748	137.506735245336
148812500	-34.5698593603784	-136.312573462705	21.6410859009066	-156.708032702822			-44.366008121586	-141.175936239726	-19.9624632111266	131.415536443505
149500000	-34.9164753886634	-129.945011886108	21.6478554705304	-159.828215071596			-44.4332446504264	-122.164025799761	-20.6220017038442	124.09738533506
150187500	-34.3160907126427	-135.035899574934	21.685579402508	-163.084402183661			-44.2787774626027	-145.401503398248	-20.8815500441939	118.606052498468
150875000	-35.3293587697971	-137.759531606557	21.7234887717242	-166.00153669882			-45.7372714641021	-145.284049885227	-21.2428087108759	110.547301269522
151562500	-34.4284784298382	-140.531366256171	21.7277301014453	-169.06083121897			-43.0683847990835	-144.520354781304	-21.1142509566396	104.707107453331
152250000	-35.3651840071926	-148.443431995874	21.739785220916	-171.990107859014			-45.8587312035293	-132.385495388241	-21.3960169057503	95.7885774994506
152937500	-35.1842868656272	-149.268091858572	21.7801016381425	-174.726046456543			-43.289829184829	-137.381324020463	-21.2678140056575	90.2274860272704
153625000	-36.085064261589	-157.075515057744	21.7857757193679	-177.611040541062			-44.4640357713606	-162.199771931692	-21.210794980833	82.7323656924213
154312500	-36.1037092018659	-158.516701234249	21.7985159951896	179.646628525363			-44.2702560972021	-152.915843477134	-21.0703308688212	76.0343612115983
155000000	-36.0215885217901	-161.33654955478	21.7963959571887	176.75405261255			-44.6159691682812	-167.269400766607	-20.7926915587936	69.5187383401656
155687500	-36.7589481742931	-162.196754308545	21.8297522179507	174.361917657441			-43.9425741451409	-156.249246177354	-20.5970971507169	61.9167632067946
156375000	-38.5908567895832	-174.273796315854	21.856805982917	171.454234025316			-45.633222243951	-173.560180357894	-20.2555992704287	56.444520701908
157062500	-38.755446210152	179.168874788229	21.8568183263788	168.985324494927			-42.3692590418056	-162.219800792328	-20.0033669537522	50.5614347365194
157750000	-38.5347842479581	-175.533528684141	21.887536474502	166.372771147912			-43.9986677106552	174.741584266159	-19.5742848624147	46.8016753335691
158437500	-38.0347731733771	175.883693678148	21.8801796114502	163.65486217013			-43.9771145600689	-167.354463126739	-19.0938961319649	40.8124781367992
159125000	-39.0506410098863	-171.631437032673	21.9035740103214	161.187208120126			-43.8171112785575	174.149694481267	-18.6696549082428	37.0409132814691
159812500	-39.6775815330757	168.883102251084	21.9545659742485	158.449127972155			-44.0579686576058	-170.75940844241	-18.3328267985917	31.4646416234416
160500000	-39.5062211830555	179.78428265994	21.9769568768339	155.831162935042			-42.1774097241586	178.548689160246	-18.044606296559	29.3038283373722
161187500	-40.4397776984923	177.22950981728	21.9452853107885	153.465549599807			-43.4659823639568	-174.572579023718	-17.6324089682421	23.5498281207793
161875000	-42.8837331855237	-179.118733241495	21.9952182565362	150.981439871462			-42.6047993828689	171.836966294256	-17.347916769518	22.1984556062961
162562500	-42.6399012299305	177.047111150758	21.9537966915485	148.225149683922			-43.8999348497419	179.434431411471	-16.825096524175	17.2539785075683
163250000	-42.0618867073385	170.948523092268	21.9733821895566	145.729548620311			-42.9467578451397	168.288386223202	-16.6795685944724	15.032613597118
163937500	-42.0251127004187	168.327550266343	21.9919020635338	143.306069468959			-43.8270483349237	159.077610526938	-16.3028708282109	11.5941805222944
164625000	-43.2405105371096	163.610716707787	21.964879881521	140.910717387799			-42.5907894845979	166.805082167145	-16.1301324484508	9.10575397400769
165312500	-40.6802760561457	147.885173581453	21.9791147092241	138.376207136186			-46.3119115819448	159.613229586927	-15.7911166484273	6.4780502133387
166000000	-41.9222726870997	140.587109706915	21.9899990629863	135.963252171162			-43.5236365988999	167.742729310422	-15.6813676255279	4.08180999069673
166687500	-41.5108529666011	141.908232150019	21.9767803298913	133.568414814182			-45.1381567194498	148.647715051111	-15.3071397707558	1.44746726144185
167375000	-41.2831541290641	133.137748363263	21.9858221984041	131.33729857222			-45.1033821624555	166.080975856523	-15.1883867947008	-1.24218988369824
168062500	-42.9776249733711	123.272927002514	21.9767922381706	128.82948812678			-42.8797553185882	140.87418227236	-14.9619301863225	-3.27655209685178
168750000	-42.1428084324111	105.638772606215	21.9842002235737	126.569894302832			-43.7494916754321	156.686572114625	-14.8832299983402	-6.41685745789968
169437500	-40.8017085161802	105.950223023469	21.9395414755717	124.42619695726			-44.4219528063147	139.489325405154	-14.5994752739097	-7.9069728858996
170125000	-40.9918067037735	85.4646306058184	21.9546458487761	122.036999506301			-44.9064526804096	160.141042856458	-14.7285551528857	-10.8289653952765
170812500	-39.528398472867	75.0067421858689	21.9203273444462	119.7929865804			-43.4294436683483	140.846061876113	-14.4491088799053	-12.7166886256879
171500000	-38.0180461287828	81.6223497231329	21.932139692747	117.81676046847			-43.9788187076749	150.074589461726	-14.4138088091879	-14.7056973629267
172187500	-38.1782963933567	75.2194418653551	21.9018735612238	115.598760667954			-41.7751503722224	130.906380330127	-14.2067901554959	-16.9230243785441
172875000	-37.0776196879143	62.7139992108884	21.895495668466	113.678638878865			-47.066878134675	142.226449638653	-14.1977600502275	-19.3726142789077
173562500	-36.7210431373838	60.1744036110769	21.8743922735162	111.540354275768			-42.6323727289164	135.921698158751	-14.0525181465153	-21.2110698151945
174250000	-35.6546517108542	51.5996854676044	21.8837590087584	109.512938219845			-44.7191708064644	138.886727933004	-14.0543747168268	-24.5722602962774
174937500	-34.3363457316907	43.5850181502923	21.8972358490058	107.409296383309			-44.1277487521724	138.218093645478	-13.9840607021677	-25.712634554058
175625000	-34.5214704662629	39.9236147488529	21.8997337267179	105.358054363918			-45.7387778858697	129.085003517771	-13.9374362887318	-29.2235840641824
176312500	-33.6031812409866	37.2881215106103	21.9301815395319	103.398041874892			-42.6467875558228	131.592237553421	-13.9395781075839	-30.8955904611843
177000000	-33.7632162319651	30.9412915814316	21.9156382108137	101.518462022195			-46.6552669596998	126.827969104988	-13.8349756831854	-33.9142603702594
177687500	-32.6070087886733	27.7216891282598	21.9387153144215	99.433758641293			-41.5426369380069	146.537776236085	-13.8660378749455	-36.8230542153408
178375000	-32.98979599283	23.4457996841836	21.9630036589367	97.3570167466428			-46.208829492574	112.562549184446	-13.874282867605	-39.5615757806971
179062500	-32.4451510527632	17.4819515094041	22.0058766635481	95.1482864745812			-43.4391206988218	134.053802361168	-13.8598120772571	-41.7979353395057
179750000	-32.561260463064	14.5098985834063	21.9915183961824	93.2713871221016			-41.9538191286926	119.673120374113	-13.7710959994501	-44.8868600171371
180437500	-32.0616964132742	10.3434752180783	22.0611014116121	91.2480678701293			-42.5377492144834	130.203813044192	-13.8302921108526	-47.6699593046661
181125000	-31.5825642323571	10.937548632507	22.0671534196994	89.236052666931			-42.7647379797547	104.407287967311	-13.83907872909	-50.8035006419096
181812500	-31.4986772162017	6.56465024026725	22.1062219860505	87.0877268158498			-44.0704946898065	113.324793469951	-13.8424605063919	-54.3184196840579
182500000	-31.7439953192389	5.85720111637707	22.1307084436351	84.8059782489027			-42.9000042573259	112.160781248291	-13.8794030137683	-56.8977702824571
183187500	-31.5336080682374	1.85403279883231	22.1854330811386	82.7784559145974			-44.6367807677756	122.330911724108	-13.8051946431112	-60.6898193130326
183875000	-31.4594991745742	4.43963205311929	22.1922998809629	80.5144952556449			-43.4891949367372	106.227087623226	-13.9501880969598	-63.0380713473516
184562500	-31.684299881399	-2.84372122815483	22.2097738564852	78.5695826013617			-44.3585386244255	90.4955338629596	-13.8778311437742	-67.314518925793
185250000	-32.3592614678729	0.765998174409884	22.2415309820645	76.3286010879572			-43.4757806272918	87.225569625241	-13.9965780671987	-70.3740152618212
185937500	-31.5050825395048	-0.770577225819733	22.2462175402968	74.1553151876255			-43.7819745933972	97.299079509161	-13.9061739181986	-73.6371092310752
186625000	-33.3614010693986	-2.65756930835814	22.2500924338514	71.7662139502826			-42.0962514539131	102.907292251639	-14.0286427210429	-77.1581462659745
187312500	-34.1015714671408	-2.84636577466062	22.2657060834956	69.770027451929			-45.1101552036725	104.044196578383	-13.9120136047345	-80.6938740122201
188000000	-33.5249244286246	-4.60151465086802	22.2391442075193	67.5126648821011			-42.6466814676036	91.3614740126412	-14.0625328879306	-83.5691777454022
188687500	-34.2026927145319	-5.09246856094337	22.2416539133667	65.4160447957491			-42.9289996138912	78.3914983364331	-13.9856296815129	-86.4336850950646
