# Hz S DB R 50
100000000	-32.4481501344395	24.1696602212507	-7.52532145308879	-4.62283190956441			-59.5261049915027	131.854726740442	-3.47487691587605	71.0597959952808
100687500	-32.7849016081718	27.103969130292	-7.13015230171208	-6.8938671278487			-57.0100778175698	-112.987404788595	-3.4249666918915	68.4642740826043
101375000	-31.9114598864202	26.1296187866402	-6.65369004923754	-8.63218966667905			-64.2367934716217	18.2521265334098	-3.43025827147016	65.7186667600191
102062500	-31.8561350590111	28.0525242195601	-6.26502264820306	-11.1154765222234			-59.1939237339191	-125.952933750931	-3.44374392808293	63.0280008116527
102750000	-31.135138067273	24.0560512771061	-5.85647962396711	-13.053322047674			-59.3515582806768	92.6215738970083	-3.43385772075434	60.2236856864306
103437500	-31.3169137274918	26.0652441653162	-5.49114996319015	-15.6062653105522			-59.141912515506	-74.148773967249	-3.4081885816351	57.3673549126101
104125000	-30.3238727414385	27.4172521538913	-5.08980212519834	-17.666989034169			-74.891312734235	155.884342456865	-3.4309014077331	54.8755114834546
104812500	-30.7510330579876	26.3976163653769	-4.76750737333054	-20.4292696359703			-60.1215980090899	-62.9500167327168	-3.46330767365573	51.9472544735068
105500000	-30.3206163300316	28.1849076549928	-4.42082074049483	-22.5014189537117			-57.8354404828283	102.633067404924	-3.43149185047143	49.4405598631732
106187500	-30.6063399609426	29.4153440227976	-4.10408691383696	-25.2136361598687			-59.1080942803256	-52.2455658228955	-3.45118296693088	46.2130644419857
106875000	-30.1344864903808	30.1726095122613	-3.82189012373836	-27.6016998634805			-67.7798692773095	143.43939423447	-3.48218120931848	43.961877322395
107562500	-29.8715885314634	24.901579651695	-3.55163576764165	-30.224637782684			-57.7095959231626	-53.5033434234703	-3.45403334969854	40.5238534473381
108250000	-29.3073139735291	24.7889196557173	-3.29925706972209	-32.5161609291032			-57.8672462078281	102.55310059143	-3.54531609289111	38.3259507439928
108937500	-29.5161357709909	25.8581419171081	-3.11147443546645	-35.087544093234			-57.417896918764	-96.6750822724782	-3.48795350313509	35.1933948217407
109625000	-28.9483397900458	28.3330146185175	-2.86858504694242	-37.7166063081563			-70.3526951556995	139.319377858317	-3.56227482025621	32.5443933956578
110312500	-28.7229649258488	23.3581161049741	-2.72935535587857	-40.3575951466945			-59.3428788065009	-31.8283770325397	-3.59396794083506	29.4510258179743
111000000	-28.9061489668487	24.5273206053758	-2.56553352420075	-43.1067992539912			-59.1672392164207	-119.726292608002	-3.68676887654785	26.5530712820804
111687500	-28.6358338375283	20.4867715541062	-2.50040010284298	-45.5629830768811			-57.5001149179252	-82.8329705454345	-3.66778598100989	23.6663263196414
112375000	-28.1862443591777	23.079882106262	-2.4017587681383	-48.0046010566877			-63.0976523053078	-112.352558013844	-3.78543743961177	20.7326778953861
113062500	-28.1413814694614	19.6927336872847	-2.4169549515986	-50.6526310783596			-53.2343408803272	-27.4233030482226	-3.73217630189601	17.6849683547143
113750000	-27.7906611202299	20.2158412381556	-2.39594744566884	-52.7432104018578			-68.5064960690199	-85.1229218652504	-3.87549080589843	14.454577363436
114437500	-27.8923456980923	14.964890307185	-2.40886475653849	-55.0714563216958			-63.4566767845808	-4.29322338650714	-3.84965654585146	11.4263940789828
115125000	-28.0739857405148	14.9312331752484	-2.47088767765933	-57.0629784265382			-71.1616116003658	-168.421591726669	-3.95401964005105	7.97607416794084
115812500	-27.5727054094322	12.3794560400935	-2.56579191901295	-58.9697166061625			-64.3836639303094	7.08458777564277	-3.98521172080123	4.38574766449967
116500000	-27.7189042201339	11.9044892863236	-2.71354864489362	-60.3030687739308			-63.6328520108828	-145.175055481872	-4.05714286824951	1.18676390256885
117187500	-27.2936474597932	8.77709995332864	-2.95101906673389	-61.6459185537678			-62.6231959481683	20.7987254782543	-4.11417368055633	-2.37019165086288
117875000	-27.2525209316793	7.37138361822668	-3.21081684448972	-62.6774038107735			-58.2479727582418	-66.2806960677566	-4.201998730802	-6.12132663677288
118562500	-26.6352553551395	5.29707123093435	-3.51678982168736	-62.7198745020186			-62.9630811951434	68.401052128883	-4.2832400399383	-10.0183637141086
119250000	-26.9949790607097	0.93162285210127	-3.85232415593152	-61.9653675858419			-59.3882536865665	-47.8977166999991	-4.35153333668171	-14.0658524636225
119937500	-26.7583131979876	-0.804678780799833	-4.28979860761794	-60.3613944771359			-66.9988767683383	43.0847473595914	-4.45349927447329	-18.4665081716463
120625000	-26.9156435839336	-2.87331530975505	-4.64294092111598	-57.0676081330231			-58.7888106298671	-38.3380535023774	-4.54954167724945	-22.6151139484641
121312500	-26.6734591603554	-5.19919743733453	-4.95708486657135	-52.2493055459619			-60.7996799270973	148.905474034253	-4.67325941443398	-27.151894599988
122000000	-26.6103747324265	-9.01624704140301	-4.93844106045766	-45.652214685945			-55.2281206701482	3.94244986440685	-4.77040194823869	-31.9067700335552
122687500	-26.7466989126072	-10.917168974251	-4.63028453325488	-38.2243637642881			-65.2960921869083	-91.0066761374288	-4.94313778699187	-36.8194367530303
123375000	-26.1835971576303	-15.1938730328693	-3.85373709773232	-30.83224073793			-61.7802515922341	6.19783908341786	-5.0506989175578	-41.8689221933145
124062500	-25.90564959255	-17.977995176647	-2.76222118766902	-24.7986079514584			-65.628475209923	99.0862975187666	-5.26932169953255	-47.2254478712458
124750000	-26.1912104218226	-21.7483378720475	-1.33847979880574	-20.6275584000882			-54.6667201660362	3.2478344816687	-5.47150496306934	-52.6250577653422
125437500	-26.0454564078709	-25.3648790552529	3.41932052638565E-02	-18.9486973711675			-71.2873055652029	55.7961129996438	-5.68905476545777	-58.7379034329086
126125000	-26.3545003692143	-29.9532378664744	1.54194497551285	-19.2937076333567			-54.9179548877053	6.20139831133781	-5.94913806557953	-63.8157475672276
126812500	-26.1043754946535	-32.348313024638	2.89578523063915	-20.9729143912775			-57.4036653766538	-90.9131974726027	-6.20571374113104	-70.211881798997
127500000	-26.0247328890873	-36.5708516743845	4.16211402585776	-23.7882038313005			-60.3665462108588	-52.2233783723167	-6.56799996702033	-75.5296112276737
128187500	-26.4185511196614	-39.0909499324711	5.31082617485283	-27.5471122658425			-67.5942317542819	-0.987559471143542	-6.90409059087701	-81.7118206164164
128875000	-26.2151351665112	-42.3040230963162	6.36725170112669	-31.813735327652			-54.5620478843884	19.0142482386157	-7.33589335524683	-87.517731087476
129562500	-26.1972398385282	-46.6138813561788	7.26318337393202	-36.5970490048616			-53.6577667331493	-35.5863179543928	-7.68125950978969	-93.5498173761612
130250000	-26.2030021142631	-46.9277661033645	8.13364352773431	-41.7681174712188			-67.0666552142676	-35.1884044989069	-8.21100500741604	-99.1222891588448
130937500	-26.3481078049885	-53.0141515762753	8.79473518804601	-47.1754212128773			-60.4949665567408	-80.9172155921	-8.54740918935646	-104.8049118536
131625000	-26.2295081948357	-54.5222905910515	9.45674168234639	-52.2428401546632			-51.6471131441256	21.0173922478374	-9.17062952056608	-110.109551667219
132312500	-26.6705593515325	-59.1462098093355	9.99570626366185	-57.6206878615137			-51.0782810465146	-25.2331640161272	-9.54064801522225	-115.295609494828
133000000	-27.1472485060301	-59.6778682147536	10.4777499302377	-62.9151951979214			-56.2907790083394	-19.4829626831605	-10.1656186406307	-120.468450907046
133687500	-26.7121479137654	-63.8779301297627	10.8784126564608	-68.1700550984873			-52.124300248623	-69.2396181912397	-10.5529904280681	-125.476721293174
134375000	-27.3065069432324	-64.935393442068	11.284301179444	-73.0134812028639			-56.4507409846478	-75.6458204194131	-11.0888839406102	-130.766986904721
135062500	-27.0853012551687	-68.3609455680159	11.5596442558202	-77.9144408843683			-51.4504041493343	-62.0349542142168	-11.582766058316	-134.809189909844
135750000	-27.3932949787233	-65.9009924179806	11.8990821141659	-82.768505967463			-53.2239202718825	-55.8168279902643	-12.0566739789844	-139.552103435462
136437500	-27.6309604731907	-70.6782783607325	12.1117014618091	-87.5051737947692			-49.292341348857	-33.3926158139272	-12.5466493020202	-143.738577140229
137125000	-27.8850760850492	-68.8354686835114	12.3777666188215	-91.7806609953518			-56.4605138800679	-55.1001864462746	-13.0387436354855	-147.616704138913
137812500	-27.6923236500497	-71.1970547079635	12.5527930901428	-96.4522624193281			-52.4212911514266	-62.6242861987889	-13.5465632929151	-151.465210798812
138500000	-27.9420182789993	-73.5984377035093	12.7856852110335	-100.508522163675			-53.4600224199121	-108.73851866868	-13.859307146274	-156.473374822635
139187500	-27.7375022339606	-73.0577217666489	12.9191495567222	-105.023680334616			-55.9277493289687	-61.1741426633278	-14.4654785370132	-159.50479480896
139875000	-28.6258969370448	-73.7514665973079	13.094713447438	-108.859966214378			-53.318923302646	-101.937910919876	-14.7891018393604	-163.837411249046
140562500	-28.5808523088383	-73.2453328794094	13.23119134747	-112.992821279208			-53.2474525064546	-69.6736923188049	-15.3109774637842	-168.198173001613
141250000	-28.8274232006023	-75.1710997358721	13.3995977489611	-116.886594107566			-53.7181282443021	-112.820519462428	-15.5861741498613	-171.856177705771
141937500	-28.846129006694	-74.058833741192	13.465563566503	-121.054259222122			-54.6021794807973	-83.5120988714723	-16.1521008531343	-176.822805898723
142625000	-29.2370436729638	-74.1311042259253	13.6069983825028	-124.552484644662			-51.3557190059131	-106.211190747672	-16.5116570934844	-179.609044559815
143312500	-29.0066311729227	-75.5836533178178	13.671617781322	-128.565516123452			-53.2233665256758	-74.4621589642033	-17.0546191142981	174.895203110252
144000000	-29.1835606241445	-74.6373094679701	13.7947684330066	-131.61436243519			-50.0883929514286	-98.1561193450462	-17.4447105110949	171.436651560699
144687500	-28.6877871129404	-75.1268583053459	13.8298176386408	-135.806547599471			-52.4420238268714	-93.6678828858566	-18.0197404086156	166.194010113002
145375000	-29.6471098547837	-76.4171427249364	13.9222982712028	-139.012972428816			-48.9890495596067	-118.202488234992	-18.3368249310177	161.689181401843
146062500	-28.7570439021095	-74.4450989557713	13.9908544408776	-142.716070010138			-55.0407453006013	-122.28253607628	-18.8909780340145	155.560699181676
146750000	-29.1653365567339	-75.3245026464862	14.0645024909723	-145.941355773238			-47.4124077109463	-127.950780168314	-19.4141242196745	152.425731823597
147437500	-28.8533052220963	-75.3640659444942	14.0940288453005	-149.58822211485			-55.1590279889988	-127.374799285228	-19.7471384807365	144.752991378899
148125000	-29.0179084303551	-78.9390685025788	14.1312141153616	-152.651485455689			-47.7673520785611	-122.023943955735	-20.1279553957508	141.226437656044
148812500	-28.9858692157574	-77.3983459062651	14.1761381376175	-156.075789463926			-55.8120020635888	-149.140196398551	-20.5648977149815	132.492040780495
149500000	-29.0276775139724	-80.8290773167581	14.196410256429	-159.110007726124			-48.3821633963071	-124.902262257645	-21.3503674609072	127.059326344852
150187500	-29.201725093609	-80.3625987490823	14.2156355652619	-162.522447773968			-52.1315928755614	-168.433810383757	-21.2108727872992	119.008463167332
150875000	-29.1735815913852	-82.089299254259	14.2641236387165	-165.366178020774			-48.6216489727328	-119.382656497872	-21.8936039060141	112.869432109798
151562500	-29.288178249887	-80.5590412524251	14.2583699357869	-168.4180447486			-50.6176241322085	-142.050075682618	-21.6892224311745	105.742610459228
152250000	-29.1758857884339	-85.5983482667989	14.3007602432505	-171.273012924496			-52.2326943876744	-135.004750009937	-22.1469357673255	97.1496556385188
152937500	-29.575364003751	-82.3286914827771	14.3309935537646	-174.201670013957			-49.688623853313	-174.346900877256	-21.8781525821622	90.6142360887702
153625000	-29.3958926211462	-85.8620927350749	14.3168864728636	-176.824623303192			-54.3987434957954	-143.649109520417	-22.0134948963607	81.463222987296
154312500	-29.9861310405152	-85.7218059123751	14.3424439208439	-179.749846880915			-47.8537432108266	-158.629949267848	-21.6304138351064	76.4885403111541
155000000	-29.1452169477175	-88.6278022048969	14.3547801294867	177.508465508984			-49.3070750255077	-140.442454227378	-21.3904278609915	66.8276882710404
155687500	-29.7380894716402	-86.3039821696387	14.3352454426268	174.92626375964			-50.4366600784981	-173.336465203117	-21.2729918402411	61.2961078286684
156375000	-29.8357482571359	-87.453836895091	14.4066995124933	172.221251288935			-53.3025099883648	-168.911965157974	-20.8275829837684	53.851036828734
157062500	-30.2927113444159	-87.5508344065905	14.3693404996715	169.521493464403			-49.8045204093179	-169.430984854386	-20.6061198204811	49.2343135865486
157750000	-29.5510236192979	-89.5968949036651	14.4345725162669	167.071317535948			-54.9547607189999	-167.600786317241	-20.0263291421216	43.7928600637664
158437500	-29.84761923727	-93.843737271018	14.4000513819434	164.317315380354			-51.6028545874421	-171.440242808875	-19.7190111361913	39.098835488752
159125000	-29.5656396122042	-88.9935545853102	14.4545519619014	161.760197198626			-57.1177597656784	176.439533688916	-19.0037067502129	34.9453713893725
159812500	-30.1673205024467	-92.7724079193808	14.4547970990794	158.949036741511			-51.159922235714	170.708976930821	-18.9195829544127	30.0761575487676
160500000	-29.4972481706235	-89.6504698301378	14.5077671471294	156.738085720703			-53.6435476809243	-165.658334875384	-18.4080214732334	27.0197092423808
161187500	-29.4453969614768	-94.6851763055442	14.4264505618113	154.216991160257			-49.2491962785937	-173.830776740396	-18.1392726465504	22.0457133202808
161875000	-29.8550060591044	-90.866603364845	14.5452467241012	151.608492831047			-49.0579971880085	149.762634258945	-17.8074451432896	20.2023411777519
162562500	-30.2168233552776	-95.6046291906283	14.4785104039223	148.89182514558			-52.5661264031319	-158.510619857257	-17.3387104377128	15.2201293126052
163250000	-29.864709807952	-93.7538272753452	14.5119324685151	146.499359692586			-49.4775978913608	149.425550813326	-17.0381217889739	14.2354562647246
163937500	-30.0272543120875	-98.4549106663981	14.5004334414342	143.993940528014			-53.8403139550046	-170.972006512059	-16.8220943374584	10.3993999002305
164625000	-29.9557254845845	-92.2808777034987	14.5197040829171	141.652931225708			-54.4686906737703	130.69442158519	-16.4240427954774	7.50594487002675
165312500	-29.8858543942483	-99.6381279679702	14.5058180930894	139.047064962093			-49.185088867001	160.153002374846	-16.2203922523258	5.24798862412455
166000000	-30.3471907911431	-95.2761023656067	14.5279621197065	136.637398074336			-51.1420664816054	132.559824348065	-15.9846433647917	3.248015636893
166687500	-29.7402647534631	-99.3387533154483	14.5079588856651	134.296438221939			-52.5722267120208	157.453558945809	-15.6847392950308	0.261082170586441
167375000	-30.3254688638885	-98.7909345428243	14.5209107809328	132.081928621513			-46.6114688944984	150.95140003891	-15.6634435140976	-1.26345563261544
168062500	-29.6578274796271	-98.2268802522094	14.4896946934173	129.588275041012			-54.8617645026185	156.228270356624	-15.1684248910519	-4.09516695762702
168750000	-30.4918492978743	-98.7751997016399	14.488863854719	127.638837072261			-49.7937200536981	142.324416669321	-15.223237191561	-6.61087590290812
169437500	-30.4032615046469	-97.937054706563	14.4742488570584	125.236159060632			-55.4940517593307	154.746780776501	-14.8897404238021	-9.18412583776714
170125000	-30.159048144971	-95.8438184283362	14.4834690138719	122.916918697665			-51.115507657666	176.341659259534	-14.9867731117063	-11.6010480706999
170812500	-30.1538920305614	-96.2562182508876	14.4472917968681	120.531083230856			-51.1103707850127	125.76155168262	-14.6968547767454	-13.1890800882626
171500000	-31.4084617599756	-99.265557253803	14.4699862740422	118.660637992318			-46.5880740634387	139.90100725364	-14.849108173549	-15.0667931031141
172187500	-30.3262799194614	-99.7144371469992	14.4228063189957	116.349516024528			-52.3309007724373	124.07713781493	-14.4833934552031	-18.1362993524239
172875000	-31.2490945106205	-98.2584375671522	14.4608265399187	114.496433198312			-51.330899509603	163.150748853479	-14.5311577717636	-20.400182367072
173562500	-30.2738027058483	-94.076771436575	14.4200766572886	112.236551634584			-50.9200018355474	147.777422063839	-14.3817742154611	-22.555148210245
174250000	-30.8693121420632	-95.6350013416713	14.4521024093418	110.211372129855			-51.2352793733803	141.26761460462	-14.458303822213	-25.5190709544389
174937500	-30.6048044877734	-91.6386881720135	14.4347125634587	108.09179263339			-48.0696156235257	120.552662710553	-14.2988676846282	-26.8501885019609
175625000	-30.4085603053844	-97.1631472664511	14.458085613286	106.250117754188			-52.6372144557086	136.6527156606	-14.3927323607776	-30.3376573104404
176312500	-30.9393759496035	-96.0593467750397	14.4587821264097	104.120353335785			-48.2364020868376	117.821360828388	-14.2701004474566	-31.8864854168043
177000000	-31.0038775981032	-96.7965112081314	14.4834711573822	102.378365127766			-51.5420148222192	126.847208792936	-14.2964236070835	-35.4016217047727
177687500	-31.019452584435	-91.8933689688421	14.4871430021193	99.9129152917865			-46.9974081602776	119.732317263792	-14.3375833770251	-37.2376474928878
178375000	-30.4058581888443	-98.0452368567672	14.5296348297407	98.1861496852803			-50.7999123978312	150.297798695685	-14.4067973497475	-40.4593676663117
179062500	-31.1918267139274	-94.4045214007671	14.5389855464407	96.0521780027737			-49.1116632108245	127.565628267287	-14.4427522222226	-42.0493705183592
179750000	-30.9557159988321	-94.9188644010856	14.5816556850225	94.1493541813773			-55.2709808376696	149.101293510755	-14.295872916922	-45.5730190108509
180437500	-31.2574617354487	-92.0898533162443	14.6158888230744	91.8613970161593			-47.3768882646225	139.404643877341	-14.3523403209195	-48.1757121889945
181125000	-31.1565360509039	-97.0119117505626	14.6323743531613	89.9485521150805			-50.9895632555382	110.107859937701	-14.3293042092546	-51.0217309268297
181812500	-31.9710772213918	-97.8730950325792	14.6439492718226	87.6769640028767			-46.4246706133795	117.17530577393	-14.4923667824492	-54.319484603123
182500000	-31.2565560794993	-102.07741362981	14.696609906721	85.5889961447221			-56.5102768321085	118.492813390598	-14.3848149137746	-56.4143910466266
183187500	-31.8543462240065	-95.6561834870508	14.7201336594886	83.2810310702245			-51.5635932850515	102.38458416978	-14.5186147165714	-60.4257939254087
183875000	-31.2677172436015	-97.8597508799369	14.7461510569859	81.3691540808781			-52.6016289339596	73.7935536898228	-14.5388253815761	-62.7404143599662
184562500	-31.7136654142702	-102.50799850493	14.7232010782487	79.2392483219068			-55.973718612013	119.922739080487	-14.5238648883825	-67.366159779444
185250000	-32.1028981345595	-105.019597411035	14.8009729985344	77.0228753721027			-50.8090505840115	121.958660980057	-14.5636309942237	-69.6381703463311
185937500	-32.7650691248607	-102.984099617171	14.7705124277516	74.684410343412			-49.2764722320409	119.615420282977	-14.5735272276058	-73.0254851180085
186625000	-31.8808711583454	-109.137852669404	14.7937710988115	72.6638254658099			-49.9549207739884	69.8142471085751	-14.59442724295	-75.4773108175087
187312500	-32.5344584805918	-111.354932284355	14.7665315879091	70.2402063368307			-49.334715194928	118.721765640641	-14.478672883415	-79.6834351097373
188000000	-31.4674317055414	-105.468430608744	14.7836616448445	68.2694323352254			-52.0717672979038	79.1421208426302	-14.5796929020428	-81.9753578690181
