# Hz S DB R 50
100000000	-15.8357494265502	146.14677790824	1.62943181427182	-9.84841573729514			-61.0873009564742	22.3379761900111	-3.44332885116754	70.9738811894531
100687500	-15.8360182432914	142.7846433632	2.07609799606738	-12.1394407349382			-69.0643200878888	-72.5678779619198	-3.38842077902615	68.4501792087264
101375000	-15.9114680953106	139.694452861345	2.48577036007712	-14.3383168724419			-55.9544910395537	129.884119150717	-3.41517128527801	65.3339815063536
102062500	-15.8307881638948	136.578717797466	2.92245944409939	-16.6604812477948			-54.1961389418038	13.1752248851015	-3.40105724359711	62.6971296596345
102750000	-15.8680171236191	133.642161575792	3.30552092898786	-19.1613079454056			-61.8248596958185	-153.3596591802	-3.44983889249315	59.9290256339816
103437500	-15.807047089218	130.790229206216	3.69801771129392	-21.5179666348806			-57.5961462185618	6.89622672998637	-3.35232165349453	57.1644793544584
104125000	-15.8502084115953	127.320035136811	4.03570103443985	-24.1346326563946			-75.0751218621161	158.420138757418	-3.42401316443378	54.2180731391069
104812500	-15.7936701794404	124.369973156617	4.39289597449694	-26.6635916114392			-53.8905713133565	25.9847698666036	-3.42547171478507	51.4227734629551
105500000	-15.8044672381289	121.598427091417	4.74809901063967	-29.3343749805665			-62.8729779290549	30.6506701628404	-3.42515386406372	48.6060224850736
106187500	-15.7621323346613	118.200502947204	5.03388784137128	-31.9979470463835			-54.5976833836848	14.3472524105937	-3.42402067179389	45.7884807668152
106875000	-15.8243837874	115.359358007622	5.32415903087406	-34.7425110973625			-64.4303626745274	76.7331578273878	-3.50996880618338	42.9670482286561
107562500	-15.7561662831528	111.334133204152	5.58805094001387	-37.4622909417677			-63.863195929511	18.7446134086212	-3.44322882381131	39.9834125558603
108250000	-15.8128039811472	108.105265866356	5.82309045722521	-40.1320296757742			-63.742855433955	-48.6372723002418	-3.54129722801489	37.077124522632
108937500	-15.7627695953465	105.137529465274	5.99923050712465	-42.8778056460726			-54.3872618447702	37.5679399616096	-3.50432305218646	34.2357620646807
109625000	-15.8293957150064	101.420001364303	6.19607562551039	-45.5918814569158			-56.232452086706	-26.2777719992993	-3.60366634981954	31.4683019028179
110312500	-15.7549701270724	97.3698479665681	6.33768330029413	-48.5324168604189			-57.3553512151688	59.7022175231356	-3.60842858070352	28.466796087216
111000000	-15.8951649130893	93.9002815338829	6.4655844452976	-51.4220546123913			-53.5423205690241	-58.8866726701026	-3.68502573563194	25.4193839309385
111687500	-15.8424259804697	89.9673394699823	6.53126985625422	-54.0755898713024			-55.4813909356965	22.0780208827971	-3.65527216441549	22.3760559086794
112375000	-15.8515898181378	86.1325919229498	6.56348633292586	-56.7115190876003			-54.0391379875433	-59.1067271687985	-3.77160792766049	19.2000103630041
113062500	-15.8702576363112	82.963016135991	6.55955053242821	-59.2972626259877			-65.1185162275349	13.0959444848609	-3.71929852623176	16.1015747092444
113750000	-15.9159911838234	78.3223758416894	6.51977809855726	-61.8398441386027			-55.2835946945993	-52.4711636717651	-3.83598464925762	12.7814671890863
114437500	-16.0097128330477	74.7421359534284	6.47279591438468	-64.3718796065715			-60.0189012817032	-26.1084395965098	-3.82216062417082	9.62286267524114
115125000	-16.0997499932111	70.539630260673	6.36829759254024	-66.3574988605557			-56.10826395102	-17.1483197921393	-3.92298344360665	6.14548078123758
115812500	-15.9704081402493	66.1605744992945	6.21477210436682	-68.4231449719389			-67.2335267972598	-59.4329741296583	-3.95256730809715	2.42244928792337
116500000	-16.2149473480042	62.0160568228576	5.96673820141629	-70.2001515619188			-59.4249228389117	-44.5699360108579	-4.0094105355297	-1.16139341096533
117187500	-16.2285210822151	57.1770138201054	5.67925203112118	-71.7442620168166			-65.2241887044439	-79.1100434729695	-4.06060784127525	-4.63010641449481
117875000	-16.2974418557626	52.8417067525184	5.35260176839058	-72.6301384646999			-55.6138036883174	-51.5476225448769	-4.12404453822294	-8.66356882743769
118562500	-16.3668299932261	47.7029729605754	4.96937695530421	-72.9780458083849			-72.2789831747879	-46.0554511236566	-4.17873713880486	-12.397848804671
119250000	-16.5030307942074	43.1218897205997	4.50463989709069	-72.0471402011703			-52.1859637041611	-12.2614812369353	-4.28268042116035	-16.761119291359
119937500	-16.5450769231083	37.8981099051457	4.03973610631427	-70.1820804019978			-58.8613957531945	170.849316697304	-4.32138362922299	-21.30624555058
120625000	-16.7063768312916	33.5609750436874	3.56306223879191	-66.6116744478614			-55.03519972185	-39.5956857731736	-4.39760231733241	-25.6930423992091
121312500	-16.7105350829625	27.5069932093856	3.19102578504591	-61.0036313731204			-57.327715827754	-71.5986123694565	-4.46981145296806	-30.617520428661
122000000	-17.0035117989379	22.3513030536302	3.09357617835452	-53.2606217582355			-55.9261784255862	53.595526799124	-4.59657973722634	-35.1613069899456
122687500	-17.1221122307476	16.9957576598943	3.5150955520944	-44.7048594599667			-64.1026323837828	-61.8013133922424	-4.69433730243391	-40.4376865749605
123375000	-17.2823998410957	10.5720831549071	4.38269117932532	-36.7574781127122			-59.9063014307699	63.3625415692483	-4.82356396680962	-45.8673550258209
124062500	-17.4824030807037	3.7507173880497	5.66439659784508	-30.5506029972138			-57.4582881526525	-79.9659909679921	-4.93984648888709	-51.2565718776888
124750000	-17.7182482283045	-2.49701734080624	7.16354148486398	-27.0628299882001			-67.2380386428562	103.870463371849	-5.12888217625722	-57.0016690370692
125437500	-17.8536182700016	-8.9353373193766	8.662178921568	-25.6204356265742			-61.505958295219	-27.1513944029054	-5.28239764072126	-63.0099482341115
126125000	-18.3654738787869	-14.7295368861941	10.1382187216893	-26.5659893106401			-51.6242565376272	28.5733581317651	-5.53221037554381	-68.4991270727696
126812500	-18.5312500064947	-22.4080040796331	11.4921239147733	-28.7522203678489			-53.2320264102601	-54.5536947212719	-5.74068790684165	-74.789563739826
127500000	-19.0145954873327	-29.3018992700682	12.7267871922155	-31.9138555959788			-50.7422031879153	21.1055216276214	-6.05932321028193	-80.4770072789813
128187500	-19.2179616450919	-35.8726843770718	13.8652135050974	-35.9532224191286			-51.3340309434128	-5.19762376552286	-6.2892200430597	-86.6795013732983
128875000	-19.7135452685592	-43.2773461169639	14.8438385446755	-40.5932655908528			-52.038412533131	-8.06375338087813	-6.68282413947125	-93.1343007770011
129562500	-20.0986052995577	-50.0556262345868	15.7093842505405	-45.3628429061289			-47.0674052887252	-15.3472969424802	-6.92634911187493	-98.8877626121403
130250000	-20.4800860669212	-56.6601493287054	16.5061206888106	-50.4950107796041			-49.3996140940315	-24.8788178881137	-7.39032504908418	-105.238597819364
130937500	-20.9540357494926	-64.0207186053374	17.1674887782476	-55.7760745759636			-47.8814911640871	-34.3697295598188	-7.61670952910873	-110.771069657203
131625000	-21.4089062001735	-71.3899218504916	17.7469036279819	-60.9786140063534			-48.2760401887573	-32.7757423972315	-8.10540231597802	-116.789279672115
132312500	-22.101101738142	-77.8333766927267	18.2726637015343	-66.0392352851099			-47.3189782496014	-29.1097253384298	-8.38257515078834	-121.982586162788
133000000	-22.6487368496271	-84.6281695683876	18.6885525383457	-71.3896992307186			-49.4790467712685	-35.9994181690661	-8.85817443689857	-127.695017075493
133687500	-22.9474396161857	-91.7407949678244	19.087446206441	-76.1521626590097			-46.4646695254472	-44.8898409163516	-9.17593819100724	-132.725762883598
134375000	-23.6991898839678	-98.5366843451996	19.4432206577483	-81.1006965230848			-48.6458846823794	-40.2966033651186	-9.5844746579229	-138.824716197132
135062500	-24.078971010098	-104.898200765498	19.7652061985396	-85.5202388528343			-44.4108435852231	-47.4493173418465	-9.93443490551988	-143.480706093933
135750000	-24.859442855044	-109.312240564342	20.0348064732587	-90.321687811532			-46.7227101587739	-67.2245126285958	-10.3692166488263	-148.316672767736
136437500	-25.1345532463691	-116.633510002172	20.2794379905917	-94.8594258318821			-43.8514791435616	-63.5073115658972	-10.7097858134648	-153.520752574172
137125000	-25.8294147440642	-122.334870348161	20.5243345647228	-99.0521480572892			-45.4750016842544	-67.0676997152058	-11.1096091857832	-158.200966019861
137812500	-26.7304698120637	-127.991015526974	20.7190171966586	-103.4048461742			-45.1826277787767	-52.9721968171146	-11.4852517880695	-163.376211654036
138500000	-27.1183645646026	-133.283225542936	20.9323998592916	-107.418501384662			-46.0466706300321	-87.6060172823302	-11.7770781146015	-168.476537072185
139187500	-28.004492670266	-139.281809047216	21.1033361789542	-111.703794453323			-47.4786663568747	-64.9368627653621	-12.1692683059395	-172.757934770308
139875000	-28.9538784082295	-146.443140823825	21.2658953479745	-115.643557477147			-43.8217457702858	-87.5348852805025	-12.5398986542744	-177.174542078682
140562500	-29.9833116804003	-153.677197279251	21.4413941600887	-119.797713855707			-46.1193714736083	-88.6774383094912	-12.8887533651406	177.49527646151
141250000	-30.5508646809009	-154.340850647032	21.5934891076209	-123.81385470593			-44.1365592403618	-94.2366727899689	-13.2760913637459	172.913465383251
141937500	-31.377153472151	-162.458403629835	21.7129356846403	-127.703111491738			-45.7304778080225	-97.2584110202692	-13.6694220925367	167.419901437128
142625000	-32.6247714976015	-167.866863509872	21.8164805478699	-131.257577759071			-41.599788399225	-101.753804031412	-14.1029011007654	163.881567420685
143312500	-32.4060113102726	-169.69504060706	21.9524584826624	-135.302878195252			-45.4002283929913	-105.068835201984	-14.5068414328705	157.349375774828
144000000	-34.7694042596526	-169.190661711488	22.0396853302359	-138.407278905246			-42.2282631343107	-100.774918446751	-14.9175185884196	152.990896324565
144687500	-34.6459070182871	-175.892317629553	22.112160234275	-142.446871441768			-44.5213796838209	-113.290049197784	-15.2290789260696	148.436014617308
145375000	-35.4610787000084	-179.998361888111	22.1602309968314	-146.027115785475			-42.7203768185763	-111.670482542302	-15.6909991854343	143.793634797312
146062500	-37.1525982608739	-178.091869036943	22.2499316343178	-149.451592154904			-44.083636065177	-127.743661465823	-16.0632514938891	138.014385083216
146750000	-37.8243324309381	-179.823076957086	22.298361740766	-152.820620641814			-41.9704534740002	-112.783569712786	-16.6439415271252	132.931216082457
147437500	-38.2433952505976	-177.307236329919	22.3295477338996	-156.16951291921			-44.7147438268708	-125.005996084428	-16.8340095768716	126.908834335511
148125000	-37.9398985957117	174.288848165581	22.3609598542204	-159.625443688041			-44.7784415527088	-120.349093592728	-17.2368112621407	120.962988341371
148812500	-37.7188963895704	178.563754554721	22.4143760993322	-162.750699359993			-43.8413171029697	-137.198827765548	-17.4474682083281	115.436721308938
149500000	-39.5985435089145	173.423668075739	22.4291838893695	-165.774719346495			-44.6587508472852	-116.630614353212	-17.8924311812084	108.694319507155
150187500	-38.2494371757667	173.8123230644	22.4726349513016	-168.998577792482			-42.2128869090921	-135.202085261655	-17.9465806734906	102.900122979468
150875000	-40.6286486909996	167.979405341562	22.4499097196667	-171.942095527748			-43.5681773980637	-131.775510489772	-18.2880763682197	95.6597397941376
151562500	-38.1970200861559	169.587743080156	22.4750731248794	-174.862844642355			-42.1593751945417	-135.331157934628	-18.2133388603642	90.2235031269876
152250000	-38.468239222814	164.150349066351	22.4659161253425	-177.804454615253			-44.0911771094805	-140.861512195896	-18.4704597241754	83.256183010184
152937500	-37.1453589058823	148.773006591629	22.527523981621	179.412843058585			-41.4243757168473	-144.822629703623	-18.391733274865	77.9426408333723
153625000	-37.2761719268956	152.662532436896	22.5164028842753	176.495969293215			-44.0176353797315	-161.215930404828	-18.4512232682445	70.5883409526434
154312500	-38.1660177237266	151.970369058068	22.5573565360173	173.871693450577			-42.886853919855	-153.570651530843	-18.3056637864457	65.8398726352198
155000000	-38.021939530389	145.440953074032	22.5165968726795	170.958957118458			-43.8300577534085	-156.278357427503	-18.1552496088815	59.6913959096062
155687500	-38.5860965298732	135.495591830012	22.5328503336102	168.408449622003			-42.5749825500119	-154.331069314412	-18.0869707258719	53.3062635889977
156375000	-38.0318253011349	125.348320426772	22.5907702396431	165.469511433399			-43.9149027996779	-164.259082236657	-17.8480417821699	48.3549721457454
157062500	-38.3396327580292	109.718296076611	22.5832579649781	162.971208360177			-41.6884561240842	-156.496450581999	-17.8203473132862	43.9705043185905
157750000	-38.261602251378	114.226813590159	22.626439227863	160.503291425219			-43.9557734831016	-161.526670958881	-17.3868716734319	39.4188031992525
158437500	-39.1572086745254	111.250882205626	22.6207993149755	157.988542106995			-44.3268670247941	-168.394435280639	-17.1868831385356	35.2597556500823
159125000	-40.0193194658166	111.10295299297	22.6359757847603	155.369338297995			-44.0561912064357	178.564455249075	-16.9281927371059	30.5602946945615
159812500	-37.4439040653667	106.936804394111	22.6577873922104	152.655169878318			-43.277593378921	-166.365285773251	-16.683024795407	26.2391117235692
160500000	-38.2891456222231	102.477962465378	22.6769109952803	150.251349225213			-42.9209005659411	-177.384640252475	-16.4521840100437	23.012968122801
161187500	-40.2123433496745	101.134418663869	22.6563524486254	147.967554305725			-44.06446055918	-174.412008408199	-16.2136602222373	18.7454451759456
161875000	-39.6439450442018	97.3595418203703	22.7098966853801	145.323807369808			-41.6551588940199	174.450003193583	-16.0584047328739	16.352093205867
162562500	-38.8857952688679	90.8787837664316	22.6968568785627	142.607883011084			-45.5750044554177	-179.138694541406	-15.7690216705725	12.4450632447448
163250000	-39.026497801824	96.0513941511951	22.6909092530547	140.123737314948			-41.4205386668414	169.202621444015	-15.5887295575854	9.36778941019543
163937500	-37.6127127335174	95.3691554001052	22.7005917082548	137.784926112177			-42.8010925136089	167.730317138433	-15.4080192982644	6.03921472092116
164625000	-38.2533379300204	90.6880450944708	22.6686375538683	135.252200290962			-42.106084344878	165.641067063074	-15.2181985335783	3.14002641511998
165312500	-37.179880251692	92.3516739309847	22.6734042425551	132.948593451596			-43.62117212651	163.308493597525	-14.8471718070192	0.60669659916382
166000000	-37.7551567300083	87.4962567729828	22.6812470259534	130.538186312801			-43.3245622098718	169.840030751587	-14.7964754645083	-3.00619635853937
166687500	-36.5620621877173	94.6050244601613	22.6697761960021	128.12878736203			-43.3813412543854	165.385720941088	-14.5731134704214	-5.42965139546435
167375000	-36.6959461993548	92.8424253997385	22.6738747799643	126.024060919763			-41.0891092041186	166.310721710297	-14.6256287653467	-7.98238953529975
168062500	-36.029355455867	84.2960840663701	22.6533770271083	123.720234897088			-42.3826534323118	151.908622844565	-14.3023025407647	-9.87905485473458
168750000	-35.1455830936205	86.9685141619858	22.6515544403163	121.549079351478			-43.8443759139337	168.386179156434	-14.4036881554915	-12.7571319792132
169437500	-34.5371546802639	83.7814139128228	22.5988197296866	119.422915393607			-42.8040329694963	148.785070929605	-14.2548552641962	-14.8188658263707
170125000	-34.8583538414639	75.7986619784427	22.6385278473628	117.032610674118			-43.3352146588037	157.970259763156	-14.3244142734315	-16.8340745460848
170812500	-33.6758738913083	70.4013944280485	22.5882845938641	114.98559767235			-42.1768142269419	149.297716556133	-14.0961135365884	-18.9749685120093
171500000	-32.5940267379567	71.0307741957639	22.5746977026825	112.930192516824			-43.989109506997	153.319719045169	-14.1215443327597	-21.2705979522714
172187500	-33.2146001918285	64.2158788821908	22.5757034659536	110.691077886821			-42.3080512117008	140.975604037122	-13.9454001110257	-23.3897197215187
172875000	-32.0715495489341	62.7367323872243	22.5858095732463	108.77035154205			-44.8474379893623	151.744281933288	-13.9451212702258	-26.8447385814774
173562500	-31.289840226771	53.1512369701556	22.5841774607996	106.682889359123			-40.653081553529	138.099698804927	-14.0061902465723	-28.4797946071282
174250000	-31.7499795960685	51.0280116621957	22.5761295285808	104.510024249334			-44.8445254348653	131.968968339115	-13.8855565434675	-31.9389651033786
174937500	-31.2205720323566	45.2337656817077	22.5993634623861	102.441574631729			-41.8474938868533	132.635725761862	-13.9179675609782	-33.5680855639271
175625000	-31.259178274617	41.6473558186293	22.6032171178355	100.453233386998			-44.0957175580205	130.960413651287	-13.8555828548904	-36.7004965933918
176312500	-30.1667051372066	36.2989955545767	22.6369569205119	98.3388725355015			-42.1340544562927	135.972777526231	-13.8637625231959	-38.7579517160754
177000000	-29.9413364070993	33.9335810536844	22.6524750659326	96.5227596372711			-46.3618290700491	133.902574185306	-13.8556578220853	-42.0826603084297
177687500	-29.0875982162347	31.7662154533157	22.6671302854189	94.3989904948475			-41.8036838214272	136.143798036186	-13.9751137024537	-44.6503035472132
178375000	-29.530147734168	25.3158102844068	22.6851180937094	92.2845599215711			-44.9767752724015	119.212007479665	-13.9367092231044	-47.5006602244952
179062500	-29.0941012786441	23.64205106183	22.7292526198377	90.243112890928			-43.3339163857599	125.813652011492	-13.9698040647932	-50.5390026175623
179750000	-29.4584104937419	22.7316822732747	22.7329724590757	88.2752022518217			-43.4579492027071	112.898642398813	-13.910194262586	-53.6326725495331
180437500	-28.9219372599489	16.9874935603657	22.804223744949	86.2622649351666			-41.7080710854763	123.551336141419	-13.9679047503317	-56.9372284884012
181125000	-29.2307209228496	13.6052575535158	22.8015163844294	84.090872582261			-42.9272469335014	106.195296249768	-13.9813267507129	-59.2090362536774
181812500	-28.9680510353986	11.9224526473029	22.8043401220988	81.8675462570892			-43.1742448102945	110.66332149866	-14.0805628299692	-63.3142934164793
182500000	-29.4880202522932	10.0991524328788	22.848471944386	79.7949367885251			-42.2511460469565	118.331686353057	-14.0700048203374	-66.3974250350922
183187500	-28.814982780253	6.65075733211359	22.9111002862249	77.6232706471972			-44.4450360839474	121.478979632584	-14.0360623353567	-70.2337348033805
183875000	-29.2538058026617	7.18754453478302	22.9044836239134	75.6931810894709			-43.5012609144505	105.463094767214	-14.1505124698664	-73.441654693019
184562500	-29.2666531064128	2.00230459758257	22.9054516872128	73.6729693396944			-43.3596144699889	115.225016787895	-14.0637099969169	-78.0267201631651
185250000	-29.9466200274001	4.44720973344295	22.917096126883	71.3965022623715			-42.0858796072626	100.072224513226	-14.1004000430511	-81.2848620814597
185937500	-29.8905895102259	3.45285242202819	22.9288929311604	69.181300800016			-43.0990386620571	109.229155529821	-14.061287314704	-85.2674357304206
186625000	-30.7556247370959	1.54032915883226	22.910277684053	67.0362184817309			-41.9802779355991	100.124841339714	-14.1657868721761	-88.5935529689316
187312500	-31.3695402264076	-1.64048486796103	22.9320674296617	64.8576174353042			-42.7047317423021	105.892771607674	-14.0061229540572	-92.3807265088657
188000000	-31.1517388185694	0.506585770709228	22.9052767994014	62.706719960218			-42.0428890733804	95.6010616771016	-14.089639061166	-95.7874868852636
188687500	-30.9698503087359	1.43391163391529	22.9163479925823	60.4879163509977			-45.2226137598365	96.4754356504482	-13.956928373934	-98.8067640085009
