# Hz S DB R 50
100000000	-45.3655592003945	71.2053987042106	-5.74659498907939	-10.5257000584552			-65.5605623325787	67.6249401452333	-3.44885751529317	70.9689521237282
100687500	-45.8308576577503	75.4802741766699	-5.35797476223033	-13.0889777512378			-65.5444695688722	101.112940648251	-3.38026236840358	68.3005579647771
101375000	-42.877761472676	60.1133194966455	-4.89868873875595	-14.9653952497744			-53.5342061288175	60.0485931723553	-3.40932341912866	65.4004590699151
102062500	-41.5463210289736	67.6091773602233	-4.50499867947675	-17.60918461244			-66.0517750491101	166.701263518214	-3.42706976265931	62.5960829811671
102750000	-38.7736299919744	60.2505731734925	-4.13615582322534	-19.7545206975004			-57.7358027265367	-21.3509613389626	-3.40438796594774	59.9838185377258
103437500	-39.258825661787	58.7625791361152	-3.7802674676614	-22.4675116225117			-76.3642735540016	-174.281583715259	-3.4006148688939	56.9776859206087
104125000	-37.1718918522826	52.7482092508652	-3.39398902144039	-24.9113090487823			-55.9701745027955	73.0561850061366	-3.39752113192922	54.319209538897
104812500	-37.6787305060524	55.1744652687706	-3.09210459117668	-27.8576936638238			-60.6195255990729	-134.383089601106	-3.45264727999375	51.4589890438829
105500000	-35.8424948461454	50.2200712486955	-2.72830915270277	-30.2319677756891			-57.3676498388733	116.552073789263	-3.42765412511708	48.7757682845171
106187500	-36.3629489927538	52.8925778478775	-2.43693269309488	-33.0041973490996			-59.8492717741128	-26.052914612746	-3.43961481443648	45.746211099369
106875000	-35.4119338784651	51.3383106921717	-2.16670461073859	-35.4252857951415			-75.4031497317623	-136.912527386226	-3.47548433267744	42.9134108674891
107562500	-35.2307208782871	42.0331989567486	-1.89362219891997	-38.4072356067722			-71.1131328052996	-110.566395293567	-3.46171455790999	39.6732238082522
108250000	-33.6611093559777	42.7363383593356	-1.66963663294036	-40.995469007913			-57.4001364963283	82.2005282252974	-3.52019739087702	37.0909477145704
108937500	-34.1211104106494	35.9998413408423	-1.46148945959257	-43.8653996756543			-57.1626346397928	-74.2170323616757	-3.51204228488146	34.0869075803968
109625000	-33.1761631635238	43.3211653928849	-1.24317719931627	-46.3334408910641			-65.4404755596206	160.789575338079	-3.58458502288423	31.4423416152085
110312500	-32.7180306840734	34.2632141656986	-1.13584165549566	-49.5954004772879			-70.5578639075302	-81.9195599070665	-3.59352376870678	28.3725286616712
111000000	-32.2195237092453	36.2497511126221	-0.993937399432771	-52.0415518641105			-70.8233888398101	-96.5618800290527	-3.67142765750279	25.2430630681678
111687500	-32.2649086594052	27.2992557725088	-0.941494623943372	-55.0053219564175			-55.8382012406185	-60.4407095380215	-3.67088858204753	22.2873956841726
112375000	-31.2956125037679	34.0028206491947	-0.866673769551236	-57.5015639031224			-59.3217008865272	173.090462314148	-3.76296484178556	19.3092816576003
113062500	-31.3717938996039	25.4020258316049	-0.91144443094845	-60.2579428596734			-63.7817067785557	27.2278245414534	-3.76812103201174	15.9944774112404
113750000	-31.273152799405	27.0938248979888	-0.919084848446374	-62.715919256431			-54.7280865328872	-136.411964664722	-3.83816633201768	12.8244644300737
114437500	-31.0068786529925	19.2666628879069	-0.981270715115922	-65.2408398671719			-59.0675773148854	-1.61335648523096	-3.8565361225663	9.45741538123395
115125000	-31.0055461058429	16.3666237211331	-1.11749597800137	-67.3558100394574			-68.6929820380681	-38.2417867657793	-3.95178150988827	6.20420546506281
115812500	-29.9620528326117	15.5360037668023	-1.28426808734766	-69.5035402413729			-59.9220651979008	23.4621243181606	-3.94969118954274	2.5300462476967
116500000	-30.2471817845106	12.0835773957888	-1.49745594844851	-71.076024892746			-67.5896267862231	-147.056901356444	-4.02203972260688	-1.15108577610894
117187500	-29.730491830697	8.3326284609552	-1.80144046138029	-72.6874795409544			-63.3106524428153	-48.0091872174849	-4.06623717069696	-4.82965866663163
117875000	-29.6514546848503	8.16109943891047	-2.1266092932833	-73.5566987118452			-59.8159548698856	-55.2829917861672	-4.10734090951658	-8.53136303674378
118562500	-28.9252487141967	1.45810577293834	-2.55445691012965	-73.8059362896686			-58.6551192720508	54.0076375957909	-4.19698118602098	-12.5042092237148
119250000	-29.2308539234521	-2.82548865336539	-2.99139434053028	-72.944725954327			-63.9443438092611	-143.734597495749	-4.25117613687892	-16.7956981794135
119937500	-28.5865386885331	-5.05786683217331	-3.54102878165853	-70.9989946903733			-62.6043056969627	82.5221480506041	-4.32129765430629	-21.1738674217226
120625000	-28.968875257203	-10.6463403328408	-4.00369357758083	-67.1913676205656			-67.4014819425288	-76.494577909728	-4.38377400228041	-25.6490787333261
121312500	-28.3199385932675	-13.834639560429	-4.3996242166624	-61.5009652604015			-60.625186557731	118.769879324968	-4.49249833614347	-30.3240307772384
122000000	-28.2144022605079	-18.8902469083673	-4.47979288972679	-53.6102407122575			-63.9694882344876	-88.8951786476529	-4.55573940799669	-35.1203926570712
122687500	-28.1236850678561	-21.6161507128183	-4.14275453939381	-45.0885134683944			-59.9848176755821	51.8735585167806	-4.70513327117248	-40.4289323312583
123375000	-27.810605535604	-26.5662886133321	-3.25962895257384	-36.916408573617			-54.1769312639505	-49.7994548963647	-4.78917441182337	-45.7170548073208
124062500	-27.4183999383749	-29.0469127189817	-2.04658375323802	-30.477333901231			-67.4882542992755	79.9278846699134	-4.98621676125	-51.1065268655757
124750000	-27.4106175988653	-35.8731287209094	-0.488866359121281	-26.7294843708906			-55.54165757274	-38.6785488459465	-5.10663220243518	-56.9293304076014
125437500	-27.1029270532878	-37.0944609594587	0.951815799549812	-25.2973606008575			-82.7270512585796	-57.7833789333866	-5.30729288506473	-63.057221308325
126125000	-27.3218841364429	-43.8810485189969	2.45924348391681	-26.0842950894379			-52.2798597663739	5.54075554013726	-5.53878390562677	-68.5603293003833
126812500	-27.1328680308016	-46.8221932322611	3.80259345959393	-28.3678599341882			-67.7353630514131	-93.6600285495105	-5.77029422440542	-74.7590319978085
127500000	-26.9195517301793	-50.1262784945678	5.07645751511114	-31.3565112118257			-57.26927579775	38.2215299261681	-6.03997364896291	-80.6448885811274
128187500	-27.4192839028858	-55.2011774748225	6.19963289820546	-35.5378610706583			-61.5749593075428	-55.5422870431937	-6.3295322245776	-87.128536348275
128875000	-26.9309011851542	-58.6227435187184	7.22162795974049	-40.0744773417817			-54.8807794521029	9.52222991135499	-6.68794791341994	-93.1764785500828
129562500	-27.196766727429	-63.3084971472636	8.0756614454465	-44.9954004462659			-71.3235245977025	-56.6483621148546	-6.9628676472744	-99.6123658243719
130250000	-27.0413386847259	-63.5630490265229	8.92386831136841	-49.9897169490685			-56.0442139386195	-31.7576255230048	-7.4003490865052	-105.542515877526
130937500	-27.3600871469186	-68.6005601512581	9.56175848484518	-55.3713781631627			-61.524028519057	-55.1480147673494	-7.67463857299998	-111.031388249784
131625000	-27.148774305347	-69.3222526921025	10.1884506457097	-60.5370348069954			-58.5361214771944	-58.091889117641	-8.19856908529323	-117.228576639998
132312500	-27.3107320086154	-74.6639426379577	10.699999872703	-65.682040793082			-57.6804606452557	-81.3207198659499	-8.48226282082565	-122.809983311222
133000000	-27.5115026365592	-75.8049678013478	11.1509914450002	-70.7756436380623			-52.8244540450872	-16.6222427181056	-9.01149692630298	-128.23785000651
133687500	-27.4113281660371	-83.9570487784204	11.5345797770813	-75.7560361233004			-51.2255453831393	-54.6481448251435	-9.33029611593922	-133.388701679229
134375000	-27.9755226029366	-80.7848404200348	11.9277677458058	-80.4206685650357			-57.447789416514	-26.1792608079435	-9.82423329987699	-139.310798724671
135062500	-27.9011400296143	-86.1130327637702	12.1976110881072	-85.1731908270863			-48.4125167497678	-59.1486547088857	-10.1812946113544	-144.025290379244
135750000	-28.4631164199881	-82.8234130235102	12.5124186646486	-89.8070144132525			-57.3604930985573	-80.0879869776754	-10.6400380560557	-148.888045022687
136437500	-28.1834377675751	-87.8137558158328	12.7751716929373	-94.4203572803023			-51.4592126647304	-47.0109587788485	-11.0348512199123	-153.984344579988
137125000	-28.5907204878447	-87.0375897749329	13.0143064735312	-98.5047615508991			-56.0727231995574	-83.0684290699067	-11.4252164292541	-158.556207322487
137812500	-28.5458676729911	-90.757890159663	13.1886957076347	-103.13231338223			-52.4634138925118	-57.3729483676919	-11.8173252864951	-163.117227948795
138500000	-28.6718680535913	-93.0441680192536	13.4269548810228	-107.003330142123			-54.2591870465902	-71.9425487027597	-12.1162667985466	-168.697461776606
139187500	-28.5571075815995	-90.4388106014674	13.5759203657012	-111.295148450823			-50.0500047426789	-68.059987148793	-12.6429249127853	-173.086054974234
139875000	-29.2317895470412	-91.6253718881128	13.7653088883735	-115.129232929554			-50.3968627226247	-88.8334231108975	-12.87853767683	-177.378786273149
140562500	-29.0138218392948	-92.0432833558088	13.8901002242001	-119.289198935779			-50.3465075587395	-78.2575686785497	-13.3536762961341	177.582117273361
141250000	-29.4425739558096	-90.6538251817714	14.0663095890253	-122.949226765891			-52.0527025686343	-107.162979541189	-13.6877958012901	173.148718560709
141937500	-29.5307806505816	-93.5366972164016	14.1297513279983	-127.089134892208			-50.4159070874005	-98.01401788345	-14.0811877718293	168.121624604209
142625000	-29.2790707264471	-93.2687749050301	14.3040881201026	-130.542918150064			-52.387660078618	-126.311265055402	-14.3854400801769	164.089802324634
143312500	-28.7818868874579	-93.6971475161064	14.3784908296951	-134.670400166684			-53.3668296041137	-98.1951302836307	-14.9389222653409	158.510276862785
144000000	-29.6582956811529	-94.4579208193956	14.5066729400441	-137.932985428765			-50.0804416538304	-99.1096554540382	-15.2558695573812	155.523676038933
144687500	-29.2283087367794	-93.8243038193505	14.5686813151126	-141.928271646054			-53.1241748659392	-107.99552025412	-15.6802053158543	148.329457240035
145375000	-29.7523956807224	-97.3729923787252	14.6399589079471	-145.450797128346			-52.15207849679	-125.630276576849	-16.0319699500879	143.918613512366
146062500	-29.3303874339827	-93.9311390843228	14.6981037278345	-148.984433191459			-55.0224885657205	-103.368004664879	-16.4593124992682	137.902428974821
146750000	-29.5287957202848	-94.2244874058808	14.7734303653874	-152.29259287108			-49.3059328201516	-107.656165530854	-17.01740684968	134.446510445197
147437500	-29.5936442577438	-93.2861042131177	14.7828908583094	-155.786206120975			-56.5807202834254	-141.314732152797	-17.1450796884536	127.386646979902
148125000	-29.3978408861372	-95.3586729962388	14.8370635814984	-158.884791024809			-47.2579841037429	-124.570891472718	-17.636268424829	122.587041308229
148812500	-29.859700146563	-93.6353509284622	14.8469735610533	-162.248828904119			-57.6906203836499	-139.077537595543	-17.8904616752021	116.423998551673
149500000	-29.214870725652	-97.8985707017207	14.905177821716	-165.214574307561			-50.4144967498612	-124.024599648716	-18.4101022191525	110.265458420435
150187500	-29.7034732264331	-96.719818342421	14.8949938109634	-168.605020702103			-50.9755880437092	-154.632492298066	-18.5036521766376	104.254254926396
150875000	-29.4950774632957	-99.5779309824111	14.9467457318472	-171.351645398705			-52.4071385039133	-133.245081611521	-18.8494383891838	97.4701392325811
151562500	-29.7270525478268	-97.6955991551619	14.927628072382	-174.447682434586			-49.5997240128406	-157.431555008923	-18.7615568930121	91.6504909873241
152250000	-29.3737249443472	-100.417348856521	14.9707205924853	-177.21572671372			-51.5806887328429	-132.384622075798	-19.1807571992033	84.7659233062325
152937500	-30.410367378205	-100.365461252355	14.9651373335204	179.873372021568			-49.9608574159439	-142.788744562485	-19.0542856216754	79.0580364721694
153625000	-29.5046215249996	-104.538167544001	14.9830429703568	177.10814976648			-50.6845288986573	-138.09482788304	-19.13209344549	71.2986018568738
154312500	-30.2795515146471	-103.582656780866	14.9864870100395	174.484202652758			-53.4019726512876	-149.853742650578	-18.9159909990871	66.2478407417999
155000000	-29.3387455087623	-101.820853589981	15.0031919436538	171.620311095186			-55.4837395610096	-143.185234252172	-18.8669298794644	59.5890556288158
155687500	-30.0190945700828	-106.07333516548	14.9805980259359	169.163526053209			-51.7207996213883	-151.142228187562	-18.7012086703264	53.5714492017113
156375000	-30.0685985646851	-104.352717819387	15.038397543086	166.410882624835			-49.117610001481	-160.792281211149	-18.4049299713967	47.4224043174161
157062500	-30.4216575609733	-109.634711893766	14.9999699003027	163.798778265539			-47.6943621718958	-165.376480453691	-18.3378896968823	42.9560043839523
157750000	-29.6957867962777	-103.510056675308	15.0914322922786	161.398982518412			-56.9974821679751	-160.730788702544	-17.9684234799366	38.3226893317668
158437500	-30.5755470217679	-109.090680418723	15.03821858919	158.744247334226			-48.1680340881909	-174.07174843532	-17.7413932303521	33.7087847791543
159125000	-29.6731377982472	-105.282029891184	15.0827229954566	156.395072003294			-55.897837335815	139.865537841109	-17.3472263703221	29.6573859225314
159812500	-30.9007772179382	-109.810040573701	15.0670335882936	153.684832899394			-48.6663256694745	-174.142662624312	-17.3289937316251	25.3475896941993
160500000	-30.5054173315484	-106.616907759426	15.1194345800028	151.218071730251			-51.86566686991	149.950937931632	-16.8872301478294	22.6510762689467
161187500	-29.9319368056199	-109.171552054318	15.0496582322312	148.856046063455			-48.2279826388065	-164.349314527401	-16.7197994380471	17.4612612287234
161875000	-30.4476621079903	-105.658408698933	15.1583634736994	146.215938533618			-48.7192228711127	165.708266152565	-16.4750374618442	15.2577392851222
162562500	-30.0825805993715	-111.533454574791	15.124524517421	143.404512180873			-52.2986765831443	-168.352843834124	-16.2338596921573	11.0474001925377
163250000	-30.2050439563235	-107.238695077615	15.1271521870779	140.939071995851			-52.0699696846596	125.650769662108	-15.9188986815126	8.96651007600195
163937500	-30.0079624523597	-112.355245548082	15.1376809619602	138.476210161498			-49.277090716325	160.720575950281	-15.8171668777739	5.02290138625913
164625000	-30.4407407517747	-108.304500804972	15.1523330542682	136.06927810785			-47.3999747033111	139.678478356762	-15.584536248741	3.37920429743168
165312500	-30.3850697584077	-114.041817166508	15.1496561046227	133.533662263299			-48.8200120243341	177.07734059752	-15.3677434074803	4.89068620340768E-02
166000000	-31.0293428169553	-111.44122343738	15.1789294019964	131.174399719935			-49.4899983982592	140.835649972607	-15.2843392766423	-2.7202683779182
166687500	-30.0404081523089	-116.116038696658	15.1431069401484	128.834199360452			-56.052343700849	161.00637326857	-15.045315721219	-5.58419803961472
167375000	-30.7321089176974	-115.125812767269	15.1750734065779	126.706443080402			-48.5121006570288	158.067097600586	-15.1300832089097	-7.09098369702379
168062500	-30.2721874710262	-115.283912781475	15.1260012014483	124.045928402373			-56.8021538190156	171.898666717437	-14.7399227136938	-9.99445818926079
168750000	-30.9066910059369	-114.995450739009	15.1451996741721	122.059914707037			-49.1198927938075	166.780061459139	-14.8948281284948	-12.4203489824257
169437500	-30.5623302939089	-117.844222336866	15.0773443279021	119.799360985254			-51.0955852538856	148.775270949675	-14.5643773074779	-14.9326969859026
170125000	-31.4952329798154	-118.375501356615	15.1299502906804	117.624694506543			-49.3402615910757	142.146385239651	-14.7305452932435	-16.8500249245016
170812500	-30.9474380160031	-113.31524762019	15.0585390007934	115.215621360232			-50.6692346848041	156.36353209688	-14.5366294269395	-19.1185810785671
171500000	-32.0874053837424	-117.663288006113	15.1000862532673	113.429097037159			-47.5486853099253	158.420344687196	-14.6945604572454	-20.4847010188348
172187500	-30.8996755445056	-115.951924660251	15.0571172101954	111.037051893985			-49.8315407617884	127.630113098527	-14.3958429747379	-23.4179923642221
172875000	-32.1473825663481	-119.375279683439	15.0830531953055	109.430451128836			-47.9250072038724	163.505519724534	-14.5244963671244	-26.2412080667237
173562500	-31.3399235057823	-113.232960076978	15.0341035492305	107.155928530061			-52.4610498639147	109.379687669438	-14.349505555546	-28.3515575242308
174250000	-31.5000828698959	-115.195898560511	15.0878531802842	105.28659175339			-49.1536683600114	170.35331386635	-14.3129970044961	-32.2757756664503
174937500	-31.7582247125343	-113.091937035772	15.052933462634	103.092279110122			-50.5429473791849	132.635975333296	-14.3269538232445	-33.7026563777613
175625000	-31.1750918499985	-117.656826549343	15.0864165122089	101.256031290832			-51.1664659414967	127.318461702318	-14.3305873547466	-37.8506263264989
176312500	-31.8181205003411	-116.391940445739	15.0851221373716	99.0646664470717			-47.7158118350705	119.591831453612	-14.298636826235	-39.3684747245279
177000000	-31.7150533950564	-116.070322606618	15.1235069801874	97.1546345112678			-51.9709849370556	145.491508652485	-14.3426730146287	-43.3265354813242
177687500	-32.1745291226266	-112.785341131672	15.132350519224	94.9322071403304			-49.4729996167181	126.677138170629	-14.3793098986181	-45.4015925830185
178375000	-31.9758916778268	-117.251233568786	15.1787982275447	93.1892818362758			-49.5849725226394	126.875619479216	-14.406284977456	-48.4207153154359
179062500	-32.2380915528909	-114.001001085596	15.1790882532925	90.8679169523773			-48.7853366562205	102.912738642746	-14.5300499371662	-50.9746124051216
179750000	-31.9483785289813	-115.313044315979	15.2299977798469	88.9270929687458			-52.1946975737764	154.109507302659	-14.4798732057085	-54.9410782886942
180437500	-32.4328797470544	-112.511901901701	15.2641502364395	86.6054059814264			-52.020822089167	131.668728395444	-14.5852982038035	-57.5827221516926
181125000	-32.2497334558687	-114.521156217799	15.277465243141	84.7060195392479			-54.790257548865	119.408768811862	-14.518584725576	-60.5521805662396
181812500	-32.6793004997379	-115.483430140681	15.2788729819126	82.3851447007664			-45.9913408331976	107.109534154663	-14.740188896965	-64.0729578981072
182500000	-31.9095022233207	-119.600344431429	15.3471264021677	80.5033010623336			-52.2180102364974	112.843764669718	-14.6893104045325	-66.8714147343505
183187500	-32.9405131299245	-116.981078994172	15.3798506317729	78.0415298264467			-47.1601170750345	124.696930741183	-14.7462112744961	-71.1223422806222
183875000	-32.6432130985108	-120.66199881375	15.3814818608253	76.1367975273099			-54.1109675220951	81.0451500805466	-14.8269998153964	-73.1500049118223
184562500	-32.3061649749795	-122.80969923268	15.3667772976187	74.0946535971893			-50.7054576312672	131.808437480553	-14.8755416598413	-77.4422021168968
185250000	-32.9659278937755	-123.894421626607	15.4106555672812	71.8663574810392			-49.3034613713712	112.218651084545	-14.9008721408822	-80.0032264369236
185937500	-33.6534022152882	-128.03585441328	15.371587121357	69.4915536213886			-47.3342722649488	105.944012593745	-14.8807931804913	-84.2626876370578
186625000	-32.526624942031	-128.962906219711	15.4119304941446	67.406415597605			-53.6554522730253	79.9517988915178	-14.9249173183072	-86.7806237894378
187312500	-32.8906874596104	-135.604762807623	15.3936637751201	65.2284008700825			-49.5083056512164	86.1985403929868	-14.7599767260562	-91.1947760359065
188000000	-32.5043765934084	-133.854034077963	15.4099401519234	63.1557725151268			-50.83267111697	89.7721008826506	-14.8258954389798	-93.6743330424087
