# Hz S DB R 50
100000000	-28.9334227387226	-5.38377028378371	-14.9540436395367	-3.62338791532869			-60.2503722017025	44.2196790557573	-3.46956072529716	70.9864380958785
100687500	-29.4514541166196	-7.36406016103535	-14.5415876393135	-6.10716725312304			-67.7149439577728	-115.127340206574	-3.45402044003829	68.4258951725536
101375000	-28.9314162184981	-7.35320966306445	-14.034150261532	-7.34405562008098			-59.6788415551694	63.0460729091056	-3.45196156486987	65.5689578258013
102062500	-29.4847107980969	-6.20698133260579	-13.6567690621951	-10.2339765068893			-66.2123470798496	-23.4835559983218	-3.46076182020228	62.9169127696494
102750000	-29.0215797318026	-5.65086957695702	-13.1962066953296	-12.0915241819018			-66.1340723830948	165.706204077088	-3.45198416632758	60.3291889602218
103437500	-29.3338130045086	-8.25837526441355	-12.9252574546133	-14.9524536640841			-54.2165905689535	-85.0231857382038	-3.40587229952233	57.52229200544
104125000	-29.0200907313241	-5.85108085761289	-12.4650660423038	-16.8715679473552			-57.1020266901184	-9.93562598676056	-3.44644920718785	54.8774291283324
104812500	-29.3426860781329	-8.76188106244427	-12.1607168090353	-19.2916906276018			-56.403938974881	-103.065069083741	-3.44149977979612	51.8239333976431
105500000	-29.1796288212828	-8.76898446562978	-11.7957376397839	-21.8767381327389			-82.8380458680501	62.8713682608142	-3.42207691516175	49.3520099495858
106187500	-29.9461104601828	-7.98312984779121	-11.51782608967	-24.5294154197359			-61.0949930909519	-135.031477067904	-3.42580370244219	46.3785746774714
106875000	-29.7216556267645	-7.12886859428554	-11.2398482836504	-26.5668391862357			-54.7361872677968	163.149679626669	-3.46837721415706	44.0357346948446
107562500	-29.4570651270348	-10.1752878267093	-10.9729680237227	-29.5178195568564			-54.7577370195693	-20.456690952156	-3.46888975626914	40.642466218283
108250000	-28.9825283939517	-8.19572156504815	-10.7348089568551	-31.6632048934486			-59.9792128725454	49.0895593225677	-3.53278569401306	38.2786887461643
108937500	-29.1633619776981	-11.0134191131241	-10.5067113202064	-34.4338940605356			-57.9017268723563	-38.12514360512	-3.49450042900139	35.2321188907023
109625000	-29.8598586452773	-8.28528876140478	-10.3113111971233	-36.855435301996			-64.1940051753425	11.0359895988609	-3.59845641370399	32.5976870059058
110312500	-29.1128449310312	-10.9027878713469	-10.1185790681499	-39.69929505676			-60.5054585495074	-5.25268790883371	-3.59406429378169	29.735733202645
111000000	-29.7348502604904	-8.50264671182663	-10.0086777915513	-42.1443908329917			-63.5905700459193	-165.958653747151	-3.67221614274973	26.7072912242344
111687500	-29.2297452352206	-13.008176554319	-9.90032441393794	-44.6985908789405			-55.2984257163717	6.52518845855714	-3.63720269204159	23.5951721693834
112375000	-29.5305857159418	-8.41971005033489	-9.83435886780426	-46.9823087052837			-60.6078423051975	-131.152233827083	-3.76043477001451	20.7901687502548
113062500	-29.3116285655535	-13.0888050028437	-9.81847247796976	-49.601050693999			-68.421693149199	-95.0367339969875	-3.74686942406545	17.6591732567058
113750000	-29.6768086748757	-10.3628643582221	-9.81306460907278	-51.5719298626316			-62.0536407369945	-167.9820244657	-3.88444893609682	14.5154182995546
114437500	-29.7090810999799	-13.4423069961898	-9.84634713359616	-54.009776706908			-57.0478679886135	16.8831589188859	-3.83907194216278	11.4820190325103
115125000	-30.1067084433606	-14.3359920703227	-9.91031293417314	-56.0772585607632			-61.0775506998218	-144.962058436313	-3.96729971193317	8.28582065805332
115812500	-29.3776518246284	-12.7202429575424	-10.002561291861	-58.0332349719808			-63.691297215056	43.3216494605903	-4.00407720999018	4.66968911059061
116500000	-29.6087524157574	-19.1894289196241	-10.1724022998262	-59.4616237818641			-55.1804789532871	-115.681144430315	-4.07504564223676	1.00444081371379
117187500	-29.6053187735432	-18.2795173577473	-10.383796707525	-60.5554122521103			-55.6096006449438	26.1237449198242	-4.12692630817949	-2.51441185952889
117875000	-29.8925373677445	-18.2769850439826	-10.6802645921	-61.3292746179078			-59.2853701178506	-152.933849344487	-4.19432638279072	-6.21196533270215
118562500	-29.8026226941411	-17.6812311274418	-11.0157770367265	-61.5909298145546			-61.2620833955867	67.9489454169592	-4.26411121630979	-10.0841825996994
119250000	-29.9716668761336	-24.8728071944054	-11.3093150176678	-60.9600944867675			-66.8957687018818	-174.242888475044	-4.37653032284112	-14.0664608577011
119937500	-29.617230562268	-22.251322771777	-11.7531653204839	-59.2301035859274			-58.3182146322451	83.0728557528363	-4.458466106667	-18.4175628675096
120625000	-30.103435525991	-26.9656498540274	-12.0779037311462	-56.0957595123077			-70.3015846266681	-20.4594583355093	-4.53709366459348	-22.6174165397714
121312500	-29.8034999973228	-26.0694366147543	-12.4029679218871	-51.2183471085683			-62.5804344085496	175.908937450539	-4.66571192818806	-27.3719087297344
122000000	-30.091284603611	-30.2719546551104	-12.3813692277667	-44.2468190183308			-64.1780946004004	-40.6428794869458	-4.77386192735254	-31.8119097743494
122687500	-30.1944897954615	-28.9855412494427	-12.1273791747449	-36.9977683011698			-61.2759364277661	146.719811461832	-4.88857903186242	-36.8220230109548
123375000	-29.5760051706941	-35.7896802679189	-11.2604699284623	-29.6341054579214			-57.2644039542786	-38.4074275656569	-5.07556394276052	-41.9967695976886
124062500	-29.4037047054474	-33.9230249897563	-10.2299360175206	-23.427423834308			-64.3936778790423	28.0582286738636	-5.28429411443386	-47.2060897005949
124750000	-29.5887292699508	-37.7442535755735	-8.77669232983242	-19.5212398448617			-57.0393306871697	-22.4293930583251	-5.43656072412391	-52.5873145250673
125437500	-29.5070052050376	-35.086513468332	-7.39016461916799	-17.5757876515505			-57.5764078106018	-142.192244884985	-5.66742680636024	-58.8231475693632
126125000	-29.7828521940214	-41.3688975194546	-5.91805034171575	-17.9830971372287			-56.0517384450576	1.75092882621728	-5.94525850280221	-63.9983211915293
126812500	-30.0326936639075	-43.6496638964719	-4.5808157217241	-19.6203204774503			-60.5486675953505	-77.3778706662691	-6.26791995554981	-70.1895355935737
127500000	-29.2240081250824	-41.9184271289916	-3.28528505293363	-22.2987417832627			-57.5298513007399	-18.0662164786244	-6.56727833777456	-75.6561563544847
128187500	-29.7099188298177	-44.616128750213	-2.17310372419418	-26.2928957590188			-64.8255312129574	112.551247006628	-6.88284870132432	-82.1007650930495
128875000	-29.4003995143881	-47.592364472206	-1.0893235492387	-30.3344502523551			-56.3800466347721	3.86497378964048	-7.36815418534719	-87.8342561283054
129562500	-29.4911942598195	-50.5380847766722	-0.220448980308698	-35.1718443091847			-55.8192314232161	-86.4319706309437	-7.64809157030621	-93.9874499684077
130250000	-28.9813918528784	-49.717015854596	0.657350401972423	-40.1087681058006			-54.1065320028055	-4.20848550230206	-8.23298115199888	-99.4426158559652
130937500	-29.6633432712827	-54.0647915339637	1.34030175087379	-45.5259103673062			-59.4145246324366	-73.3144184690026	-8.58409425243343	-105.203742092222
131625000	-29.0602046128744	-54.4852937000843	1.97750207522422	-50.4801308264284			-51.155757686082	-1.88495062832234	-9.16066503814894	-110.306150725629
132312500	-29.2961908897304	-57.3770694233692	2.50624340116746	-56.0370634767237			-54.3978469345115	-67.910465741536	-9.51926691918402	-115.994717216023
133000000	-29.433744283311	-57.1441090768296	3.03609234969617	-61.3490217331299			-77.0640866164854	-114.239940271843	-10.1547731993802	-121.041739205112
133687500	-28.8585710324028	-62.0911391955962	3.41304635837179	-66.5210875518209			-61.2588166023315	-90.0424906809908	-10.5854357658386	-125.811544265105
134375000	-29.4424239901454	-58.6311476603588	3.83464316036908	-71.2525033692106			-67.4909046018762	-35.0473453619515	-11.1499126832434	-131.159809035711
135062500	-29.0026233986572	-64.5901375183939	4.12605887322027	-76.2054372644265			-51.3386480158273	-79.0160826998838	-11.6037332615827	-135.454035007225
135750000	-28.9600777732606	-58.3940736797114	4.44109496640458	-80.9996170020538			-63.5268362264127	-135.310616519643	-12.1168417778675	-139.956852820694
136437500	-28.7762562192942	-66.7971718636644	4.69181534080914	-85.7690937181972			-60.2251543353539	-74.2077789719236	-12.6248602681265	-144.305642451379
137125000	-29.0240300042498	-63.9366701947654	4.95175257718944	-89.9958494107747			-61.322939771395	-80.9768952221699	-13.1273220424746	-148.181310092447
137812500	-28.8222944117793	-68.6590281333446	5.12690062111075	-94.7253579942161			-55.5267622263687	-63.1645855989494	-13.6002855523978	-152.185876650288
138500000	-28.9348063221976	-69.6249599733259	5.3377866760219	-98.869703027607			-60.977287769313	-100.421647676639	-13.9720773591632	-157.354834699113
139187500	-28.5253256946537	-68.873494533684	5.4919869656602	-103.178977365905			-54.8318973968602	-16.9299804261532	-14.4984862500759	-160.777134345035
139875000	-29.3359468418797	-71.17115340254	5.68080234303221	-107.089390018663			-62.2970077722222	-148.073789654132	-14.8660419986851	-164.201005007357
140562500	-28.877954505381	-70.9105054654449	5.79419169662998	-111.291525752401			-53.1593601569817	-45.4751400404805	-15.47812464675	-168.512189041418
141250000	-28.9667185521012	-68.7373523148426	5.96392867711998	-115.159410417328			-56.2510529907433	-120.126556430177	-15.6860262123784	-172.456971893049
141937500	-28.492931024848	-71.672191794169	6.00913261635345	-119.107218132909			-60.6783057687681	-95.6993821362403	-16.3416835980876	-176.464562593251
142625000	-28.9623142125649	-71.6646293380853	6.17697221056324	-122.829828780007			-56.5776637395415	-127.264958653203	-16.6181114180753	179.768309805668
143312500	-28.2636131676425	-71.7038365616638	6.26590036097958	-126.773977482769			-64.7114365724397	-124.328594612803	-17.2069567003886	174.386834518235
144000000	-29.238732903603	-72.2791837502574	6.36768639118046	-130.081555312137			-53.3131144867053	-134.643350106726	-17.7074755010304	172.126813507348
144687500	-28.4876187869546	-74.6843207653276	6.40791848227418	-134.01108649119			-55.6155591959863	-53.2969646098864	-18.1274192846092	165.904324426686
145375000	-28.9255787086582	-76.1404513780212	6.5008847163804	-137.479096479519			-60.283993615925	-144.095128226972	-18.5748696316704	162.32615732111
146062500	-28.4020854348136	-72.8102215419413	6.54003873886637	-140.974123248839			-69.4094746177463	146.88484678998	-19.1678007536781	155.736236312089
146750000	-28.9144865909394	-75.0580246221882	6.62204132106141	-144.137238231314			-54.5440267209079	-135.07674734743	-19.7332328314272	152.688319660927
147437500	-28.645320445164	-73.9943979940887	6.64317362976802	-147.715127820604			-62.3283974661852	-162.982935401481	-20.0674165839543	144.886131673021
148125000	-28.9039478893186	-78.59266835045	6.69178111209348	-150.970247293464			-49.8120181123054	-124.687195865591	-20.4743156524367	141.205144268308
148812500	-28.8452416374729	-76.8030296769249	6.76224660407255	-154.148968439051			-56.0306877828746	160.536612042878	-20.9054268445907	133.810623041709
149500000	-28.5329209305612	-78.2450704457004	6.78788115521458	-157.199848607466			-56.2302356066238	-154.695560641945	-21.5660747811726	127.523885066092
150187500	-28.7129724324681	-77.2788733155529	6.79934357575031	-160.597929800653			-64.0612422686385	-104.201689352352	-21.6631893605266	119.584300018902
150875000	-28.7591615594874	-81.5159450197097	6.84319275990304	-163.567874471663			-56.4662845415621	-139.500341152707	-22.2606540742346	112.873157233455
151562500	-28.6785521170012	-80.0807691900027	6.84330370547148	-166.604989257725			-58.8607764882323	-147.077294125104	-22.1036096418459	105.560738425169
152250000	-28.7469636647599	-84.8016327978482	6.86325289411928	-169.373690120472			-56.3066765395994	-170.36086108466	-22.5398127379634	97.3869805510457
152937500	-29.4467886124681	-81.8059305605661	6.90357335141891	-172.398089252001			-52.5889951338069	159.276106292202	-22.3022231323858	90.3877272087681
153625000	-28.8263319380082	-85.0913354090009	6.91451711354448	-175.067745689042			-54.8323922610136	-113.804889520943	-22.450983724001	81.2837685746368
154312500	-29.1421439000425	-84.539370068342	6.9236006883661	-177.814092358025			-55.0083390501443	158.513993604821	-22.0846414884619	75.3580870282557
155000000	-28.761216269544	-87.2075737342962	6.93223549680017	179.216715661146			-62.9886950127031	-160.369189206797	-21.8899922885375	66.1929896844261
155687500	-29.5224519889187	-88.0557595559637	6.91036632055525	176.76327770657			-55.6714887382632	-170.85382987067	-21.7050145034929	59.7774667648237
156375000	-29.1024162536739	-88.038256687351	6.97272790889036	174.004701253886			-57.0268493262766	-164.666712566137	-21.3502362840004	52.8391747639506
157062500	-29.7365006206719	-89.1171398282963	6.94690085080739	171.23789603969			-52.861539841699	-156.627307085217	-20.9106058136598	47.6387946297028
157750000	-29.2902822580781	-89.0157434859966	7.02927569814698	168.830655723621			-67.7645782281367	-90.0257663594965	-20.3359438968327	42.964976675419
158437500	-29.4368161481858	-93.4732638559789	6.97374497332085	166.202008417878			-50.0805924035383	-173.419282268242	-20.096376887937	38.5442478482215
159125000	-29.0827508306182	-89.5886994758036	7.05324797053377	163.712797848369			-55.4832858683471	146.70154235792	-19.4711556624333	32.9847778372669
159812500	-29.850757191127	-95.6181903899518	7.04126144299237	160.91447432533			-53.3428967309434	-162.682713841323	-19.2046468447761	27.9415606304597
160500000	-29.2998803114436	-92.6265005288047	7.05332279725857	158.467185597746			-60.5076168321378	106.757312291036	-18.611510916244	25.6312898962479
161187500	-29.2580062666329	-95.9183823541902	7.01135153134102	156.062911654577			-54.979104016091	-149.647735896881	-18.5101518466192	20.7607478229813
161875000	-29.2625682635218	-93.373284198239	7.09873145817575	153.56309159493			-58.412445156957	138.151085023127	-17.9801444244331	19.4832603674977
162562500	-29.3369884614627	-96.7975906214978	7.06370610966676	150.80721425719			-61.9143392022658	136.329206339988	-17.6792013058252	14.416975938922
163250000	-29.5513524448053	-94.0044326248104	7.08895444325048	148.515245025258			-61.6100611278314	164.382631548798	-17.2661973830192	12.240839153603
163937500	-29.5496900923936	-99.2085023549059	7.09181141165825	145.946034462011			-69.888540192863	142.890482596731	-17.0333694701597	9.4283173963227
164625000	-29.238914024606	-91.4261349411856	7.09841361449283	143.5895445146			-52.6306309432499	137.668919146023	-16.7633875003225	7.63286905949886
165312500	-29.423469451012	-99.2728712374142	7.0854916532887	140.904840534007			-58.6713830643471	-107.885997635736	-16.3794347504376	3.77433715515176
166000000	-29.639501989484	-94.205648940666	7.09384993124852	138.677518034696			-52.595402750321	130.622657363035	-16.1538021215764	2.28155532093394
166687500	-29.1515363386138	-100.43929116636	7.06810704844832	136.252473736363			-61.8868796005258	-98.5342185214304	-15.9326798042229	-0.687296364779923
167375000	-29.3823822796744	-98.5247338447774	7.11969183823034	134.174627698724			-54.5245161147889	143.180199406251	-15.7253574632778	-2.62388702718682
168062500	-28.9864907771821	-99.6163089954676	7.08477030295847	131.733437130637			-59.6435891329453	115.08927186816	-15.4339689079647	-5.19715564762399
168750000	-29.5694022710057	-99.1800124534729	7.09518822213239	129.619822244125			-50.7722973764557	149.956957080743	-15.4884713648049	-7.48121841567624
169437500	-29.1080409394745	-101.503497432014	7.02868292838125	127.160961617433			-56.0301663314379	107.785352993239	-15.1623318606805	-9.97257595497089
170125000	-29.2448068876135	-97.509743862817	7.06777651167514	124.961953212606			-52.7121497951349	172.316542916351	-15.1572883672604	-12.13951007175
170812500	-28.9552538425649	-98.0259612976704	7.02253603462032	122.70645466915			-73.0113424919467	162.811214541558	-14.8598938129306	-14.5344066169756
171500000	-30.307518487679	-100.356885086778	7.0411614785922	120.654794536013			-51.2997400206774	171.415474728539	-15.0487573728342	-16.406162535701
172187500	-29.288320731423	-100.547121298134	7.0035870350611	118.43831548946			-64.761013960224	118.777744112595	-14.7580814097659	-18.592605064809
172875000	-29.9145153163112	-100.843743317712	7.05505871514592	116.555107249096			-53.2368428375234	-178.84242894532	-14.7452462079053	-20.8030923059466
173562500	-29.5078511852119	-98.3259117233026	6.99942052120947	114.304406695389			-54.7957136156644	104.540557016934	-14.6350609137896	-22.9389917292797
174250000	-29.6891091489636	-102.844823325423	7.04191064554164	112.355849444021			-61.7578695215935	-169.388798747272	-14.631733397408	-26.5926239101754
174937500	-29.6387848729163	-97.6023021403992	7.0153580376659	110.199576279052			-74.177794551612	97.6809574723618	-14.6101287162001	-27.6089339957439
175625000	-29.1659118928996	-105.634261616761	7.04115309847202	108.328341789976			-58.489555931795	140.832888777425	-14.7221747191152	-30.7644053061801
176312500	-29.8366062166734	-100.840700875706	7.05131106467791	106.119371923347			-58.4374550369176	86.5983697714865	-14.5113301128919	-32.2581490248665
177000000	-30.1052240059554	-105.403304502027	7.08493748662321	104.453366861664			-57.3246248177556	163.210391003533	-14.5577193319127	-35.6757636979258
177687500	-30.1012838501081	-101.612635869709	7.06527332153628	102.038706950753			-53.9487296826339	84.2493097221384	-14.6082580597496	-37.4250262500758
178375000	-29.7718872621225	-106.422095790832	7.12894681783406	100.217727310316			-57.51877589329	-154.391992382859	-14.5959390595808	-40.0844977180111
179062500	-30.2982681203614	-102.548336623083	7.12849147032574	97.9532448300389			-50.216149829097	108.833095591899	-14.6491155920909	-42.7391792456549
179750000	-30.2812773734647	-107.263591443261	7.14984969779833	96.2202116698141			-64.2510820811244	20.3518356200727	-14.5248282653497	-45.6051350886817
180437500	-30.6315806500736	-101.656323215666	7.18329437538688	93.9912057335669			-59.022827930566	91.5779861687671	-14.6937193656498	-48.32518457936
181125000	-30.3947285203133	-104.792759607856	7.19073767530392	92.1197318761807			-59.4329723367249	84.8335655492331	-14.6108038797434	-51.6477922627262
181812500	-31.2133073218956	-104.566744722437	7.22137912268314	89.7440015679113			-59.8948377332298	78.0717261286303	-14.8246633681277	-54.5420809364693
182500000	-30.4160507214137	-108.311871376608	7.26053453593016	87.7621541415754			-67.4259968978182	28.6611871342054	-14.7197971008355	-57.0304737651116
183187500	-31.0868989655227	-104.747707976574	7.29799901771463	85.2886095051123			-54.5994841577912	124.133106447918	-14.8313585146358	-60.8297318436738
183875000	-30.9134671381972	-109.608203928602	7.33425472610617	83.4805761765982			-59.1239563803565	25.2987127660107	-14.720549938708	-62.9375141856121
184562500	-31.1055127824511	-110.583177780863	7.29768333586322	81.279566910395			-53.1933944306019	115.491621787974	-14.8876773652976	-67.6122900360299
185250000	-31.2303024819258	-111.19069790127	7.3660203772302	79.1437605139806			-53.5992425800939	49.2630216976408	-14.8123643373042	-69.7533802244172
185937500	-32.1645508038691	-112.552001145436	7.34176876857338	76.7830227922205			-54.2041793421528	128.623706483592	-14.9059878750942	-73.6437209388001
186625000	-31.1934053790887	-118.119899025752	7.38160109205909	74.7560855539039			-59.9381933098762	20.5502452439393	-14.895070967394	-75.55946622145
187312500	-31.685983141162	-122.877862638008	7.35743484353895	72.3767197858301			-61.6535341067701	118.61318683669	-14.7128743554884	-79.7369783649288
188000000	-31.7380392482669	-119.606389301297	7.35574347509774	70.4128488670454			-54.9972679373577	109.128415128363	-14.8283481081872	-82.5724285000645
