# Hz S DB R 50
100000000	-19.9015585205185	131.751123763656	-0.123963268135907	-4.78722624671383			-63.9100751834949	40.2591146617604	-3.56616920487601	70.4381026863506
100687500	-19.7824897743277	129.173371635428	0.334936634396374	-7.13412881920112			-54.7801067243982	-54.4624504811137	-3.51034075964006	67.974241622581
101375000	-19.7063054110105	125.563616815329	0.728750147344021	-8.78114035605181			-70.1217079352603	115.604324691676	-3.53800853781024	65.1704351779411
102062500	-19.568304771539	121.938945416211	1.18378361245935	-11.0635354817294			-58.3413584158397	-5.74741433399038	-3.49198289306348	62.3489457370738
102750000	-19.4671922588169	119.343169500178	1.5694964752196	-13.2298939098282			-66.0455476303604	129.121043130136	-3.52742430238874	59.7746359093454
103437500	-19.2741534931236	116.635088057223	1.96929086327463	-15.6019573999602			-59.3868646100159	5.3551936227177	-3.4482636463475	57.1091964162038
104125000	-19.2563328564061	111.853296903439	2.31711897806724	-18.0277409741712			-57.1017948415847	71.7856704144592	-3.51601044925216	54.2800447435754
104812500	-19.1288488608283	109.749978291575	2.65367402708321	-20.3630693577824			-66.5701847011742	-13.1519225158311	-3.46192008548947	51.4711810772731
105500000	-18.9447265976228	106.86474568787	3.00954569844478	-22.7771118095371			-66.6163729491219	40.7768864293763	-3.48854390426178	48.7610164335554
106187500	-18.9189204828075	103.913684267458	3.31161708516668	-25.4129938320775			-54.5139169651161	44.0648871371145	-3.4459732627366	46.0625825308736
106875000	-18.8469454204477	100.473049395538	3.59681509669987	-28.0054726048303			-68.4989973841174	-159.185001400537	-3.57423374460503	43.2495562774169
107562500	-18.6732001289245	96.4191917108892	3.87374694035048	-30.4624862621627			-52.7863525078797	3.41982971445212	-3.49986199415075	40.3286740942393
108250000	-18.6758780647497	93.138553976962	4.11248288363327	-33.0069455338971			-70.7819180044721	-53.742467939809	-3.5743292444458	37.7225350357147
108937500	-18.5865409098374	90.7144761699239	4.31294650097733	-35.5031438322558			-58.5960034737511	1.56358937636849	-3.52173104697244	34.7964106879557
109625000	-18.5868964102191	87.9466766134292	4.53601821810171	-38.0225922937194			-55.1273631181515	-82.2022021088213	-3.64535840033285	32.0862023407778
110312500	-18.3648493582799	84.0033934423621	4.71368150190029	-40.7782507546129			-53.4656538713158	14.9821979291191	-3.6085625168396	29.3663492373439
111000000	-18.3614584654895	80.25948852429	4.87655950165627	-43.2378422234404			-54.1918747395356	-60.1091157989874	-3.73556004907261	26.3027000422002
111687500	-18.2203694895365	77.3543815791861	4.95819711319645	-45.9129186072423			-57.5285444915042	3.48347892862721	-3.701741200537	23.3996666385982
112375000	-18.0313717168749	74.4600988070221	5.04582222336679	-48.0212157741225			-54.9051689638748	-77.6198340275078	-3.77810213510783	20.3888407313866
113062500	-17.9763327176843	70.4458652419238	5.06104164694509	-50.7734600673924			-61.4670074245373	11.8202445937602	-3.7516082799863	17.5026947076937
113750000	-17.9714322456225	66.6622567230988	5.08602608136495	-52.8417274525466			-60.5756010847826	-14.7842934000515	-3.8678269931833	14.2627765623012
114437500	-17.9346734537508	63.6756741827247	5.07235159565072	-55.1015431688136			-69.3243233338423	-84.875206122434	-3.85623751008245	11.3273946795143
115125000	-17.9007768341578	59.3127982880803	5.00358635330063	-57.1041607915538			-55.4399905801264	-60.2687775670569	-3.93968088014311	7.97700547462898
115812500	-17.6472448280834	55.9716093894927	4.9275224817468	-59.0156837963528			-56.7495798982211	13.9184277003765	-3.99905713161196	4.59003689988966
116500000	-17.7426427145	51.2859125399235	4.74675631699354	-60.5907280852266			-51.5807202586517	-31.8312731985485	-4.05291470331806	0.936277415398965
117187500	-17.6680235546291	47.8802927240418	4.53919440335811	-61.9647147560882			-59.8782326213794	22.8121417137511	-4.10781149507848	-2.42497274815953
117875000	-17.5075191533784	43.6790834029414	4.25903940315341	-62.7414726556644			-57.0617267927418	-22.4097033367151	-4.18429848000746	-6.20426674300477
118562500	-17.4392420612081	39.1345899682304	3.95578936244984	-62.8575011166212			-57.9498826659431	-67.3194152383028	-4.25558069883041	-9.78320798896643
119250000	-17.4631159813119	34.0948238514786	3.62184417996521	-62.2219110765993			-55.1977983233345	6.9367411967789	-4.38482048958859	-14.0594786352511
119937500	-17.4224130400666	29.4550471133348	3.25365091328871	-60.5286021855324			-59.3835050037334	-7.62372744364182	-4.44554217844775	-18.3352487109907
120625000	-17.4157355558503	25.1862864862641	2.87702190722361	-57.4309119827739			-54.1543947503581	8.39016913429987	-4.55027650778373	-22.457543860503
121312500	-17.2886257509709	20.499894536418	2.63518428741086	-52.7771051838673			-61.0888803374157	-70.8690262162148	-4.65316302088826	-27.0929342391115
122000000	-17.4307831653599	15.9052515871361	2.57725595712306	-46.0419270267506			-60.7800926081655	15.595625619124	-4.8031322570553	-31.7280107569639
122687500	-17.375932521163	11.1105046307173	2.93147466466171	-38.6558155986489			-57.4495988205772	-4.99330970816774	-4.9423110960042	-36.6579182775914
123375000	-17.373787026341	5.33731429582686	3.69909754228488	-31.424105253008			-55.9350272787032	57.5983659777643	-5.11262526114374	-41.7928220086511
124062500	-17.3339599333802	-0.123487850923175	4.7851366892182	-25.3605547426313			-55.1463617987169	-20.6038678126602	-5.29354279850347	-46.8956086057942
124750000	-17.5062686453508	-5.086070881625	6.20423965865467	-21.5726084997585			-53.491748382555	13.1844839221438	-5.51645834211295	-52.454792623754
125437500	-17.4974709985837	-11.1676227327188	7.64485198009212	-19.8727157623727			-61.2639231007074	-2.70571590303535	-5.69008382589192	-58.3253137670674
126125000	-17.7585025254854	-16.8487254735254	9.0422470552813	-20.2337366534834			-56.9744406407885	41.0145183476611	-6.0359996721103	-63.7199681938685
126812500	-17.7248086511984	-22.6376528164821	10.4259948084663	-21.766902288588			-54.442409230342	-10.1548253596534	-6.30283472543672	-69.6745625685139
127500000	-18.0085889999329	-29.1913185517044	11.6915686777273	-24.6685604479884			-52.4200979036491	15.9077035065099	-6.65287538592088	-75.2826712973562
128187500	-18.2022943106741	-34.6487041628731	12.8392150461921	-28.4687674255584			-52.96989755659	-44.2914234632734	-6.97552015279488	-81.2941334974898
128875000	-18.6041722167696	-41.3568455644674	13.8651805742801	-33.0106516139913			-50.688539096365	4.87850142652219	-7.47497369988446	-87.442029186107
129562500	-18.6929531783695	-46.6929264231412	14.782737739589	-37.6339967113687			-48.8342568326422	-13.0308337006849	-7.78614352844138	-93.0426794805012
130250000	-19.0661929831806	-53.0140870164238	15.6228508653695	-42.8358131083055			-54.4413012735705	-6.02840897890919	-8.32241886561518	-98.9638067107062
130937500	-19.3910504098431	-58.7749651787242	16.3155855104116	-48.0901779495966			-49.8467434470201	-46.6066296436711	-8.64854655288394	-104.220230801769
131625000	-19.7429468802481	-64.7906876765529	16.9354318726894	-53.3856667372041			-52.079057412503	-4.59685080824865	-9.25215235925294	-109.743841456839
132312500	-20.2267458794788	-70.4258776924967	17.47945383579	-58.8180195492124			-45.8089048706666	-33.1628016056055	-9.60252597567135	-114.81317594679
133000000	-20.8322944264646	-76.5297041209548	17.9475662789858	-64.1750260756633			-51.3159543051594	-36.4098078787204	-10.2031108762492	-120.434638950484
133687500	-21.0087710056488	-82.1146145041914	18.3646276296836	-69.3298072184631			-46.048449774337	-44.87535156185	-10.588553575623	-124.865906196343
134375000	-21.7499890135342	-86.4491860968101	18.7438206132859	-74.2747227199832			-49.6372710598167	-48.6685229306205	-11.1393873813709	-130.559560875942
135062500	-22.242841384893	-92.733478087312	19.0510280207931	-79.0196556492642			-45.5562940336558	-46.0719516758728	-11.5390919167921	-134.609291869546
135750000	-22.915205367092	-95.2218851858795	19.3282997614336	-83.9365935407773			-47.2812479957256	-60.2053140545395	-11.9838339208434	-139.347466803968
136437500	-23.2716489798599	-102.084090228188	19.5924310845645	-88.5600256028301			-46.5805324384296	-55.5931032026912	-12.4649379953612	-143.925893734202
137125000	-23.9951139284462	-105.557930399285	19.8247045382882	-92.8817964258368			-46.6197299037531	-66.3752697091729	-12.9054734027663	-148.058701043264
137812500	-24.5549966742736	-111.162986940328	20.0199175345018	-97.362833382179			-46.1112591769438	-67.3118932312674	-13.3464727235299	-152.149117392413
138500000	-25.1059562309222	-115.486822340309	20.2410978304301	-101.55884140834			-44.8013489419326	-78.4208605316445	-13.6383608155581	-157.374499902923
139187500	-26.0124922470529	-118.41664946188	20.3891910874841	-105.912875392337			-45.3177235634487	-86.8241436904669	-14.1902697449923	-161.173331990242
139875000	-26.9597172480265	-120.809559064892	20.5357621874214	-109.825259821813			-46.3352363071858	-92.7221062997451	-14.4906282816547	-164.90765495499
140562500	-27.7328268339789	-124.715127017722	20.6672056839638	-113.887078794073			-50.9698502564064	-79.393778909009	-15.0194836002086	-169.95398449123
141250000	-28.213413546337	-127.654899128881	20.8140369749105	-117.751410476057			-44.7588279310592	-105.304289790755	-15.2675883689255	-173.571075110379
141937500	-29.0130664335782	-129.85402876734	20.9009450107084	-121.859484540804			-45.4752956160419	-105.309698279698	-15.6640494579085	-178.565391837964
142625000	-29.7324414528458	-129.48535272874	21.0351822440586	-125.604943292663			-43.7465716370911	-95.6728167488633	-16.1489601586106	178.281983108324
143312500	-29.3816138563637	-133.615725131991	21.1516211449563	-129.448405404556			-45.9740694002127	-113.706909892731	-16.5754729902572	173.018746619842
144000000	-30.8959009964221	-128.263506226012	21.2452324445913	-132.661058063004			-43.7191833407055	-102.601587019093	-17.1084411195941	169.673007362247
144687500	-30.5734031096255	-129.288559227386	21.3184977386624	-136.643005645953			-44.5077460609632	-116.114251872575	-17.3858979960133	163.904675767257
145375000	-31.4661494558877	-133.069274923659	21.380823314914	-140.068188684572			-42.8093591791359	-102.487494384101	-17.944670257272	159.867328939266
146062500	-32.1268720359012	-129.541351318602	21.4419928054058	-143.589944308404			-43.8669127241775	-124.798031731267	-18.3959270737774	154.749687361108
146750000	-32.4626669316261	-126.677575252683	21.4906631059928	-146.936343494404			-43.9518750604142	-118.745009956534	-18.920151626426	150.840161191202
147437500	-32.3206730926464	-129.329559024935	21.537740216933	-150.326381824405			-44.4332675401672	-129.998085015781	-19.2672304038818	144.217049883231
148125000	-32.5622041353822	-132.315735825359	21.5741644991636	-153.669238330147			-44.4154973250721	-126.030517668217	-19.8161940974173	138.860388341406
148812500	-32.8167830381215	-135.333645387641	21.637962887807	-156.971278685569			-45.0933424884098	-145.560014385186	-19.9865085966772	132.959872781993
149500000	-33.3800961792804	-132.718611884111	21.6529168489997	-160.073772522329			-45.7605604816638	-141.399129431333	-20.7277643496629	125.714274444716
150187500	-33.4499587315094	-135.963740031375	21.7046565898647	-163.283898204385			-45.0080607419758	-143.757049394482	-20.9413301772038	121.041161366869
150875000	-34.2750844357816	-137.198630171144	21.7158692537651	-166.293720135803			-45.4867295708303	-137.387057830566	-21.4542963809522	112.909857010517
151562500	-33.9239078062185	-135.51483446121	21.728038180397	-169.228773648626			-41.836854929569	-150.188550349237	-21.4167343829763	107.849724926577
152250000	-34.0788429453151	-146.13869705424	21.7315430554315	-172.134388537908			-45.2066634768789	-154.001890509887	-21.6430724088072	98.6697064727662
152937500	-35.4277458949028	-145.047818388926	21.780657378414	-174.932153131288			-42.8771437853296	-141.985335445374	-21.6382406865338	91.8636169238037
153625000	-35.2504202203581	-149.086563124582	21.7726834801558	-177.809995812196			-43.830109356266	-158.421868391784	-21.7479075868038	83.1895665701044
154312500	-36.2200906594707	-153.899609222739	21.8039742296841	179.403151469668			-44.0683774272021	-152.336010174757	-21.4405200512756	77.192015986994
155000000	-36.3414820138869	-148.050134503578	21.8019513809224	176.499930516888			-44.3761102920488	-152.818678265871	-21.157403102992	70.0350536717682
155687500	-37.1494541156868	-151.552937838492	21.7934226966613	174.150877029145			-42.9359143018299	-161.369677402179	-21.122354033604	62.0191672746625
156375000	-39.530317659286	-154.488640998115	21.8421865532888	171.190796233571			-44.7083127143742	-165.458226841421	-20.6828724571427	55.8984456589696
157062500	-38.7899616536609	-165.161932420049	21.8581271159575	168.5221692348			-42.3120450612894	-165.469896031318	-20.5105102369372	50.2151315541207
157750000	-39.7036668424215	-158.738242502849	21.8723953714548	166.141973886575			-44.3679495404908	-174.344240681234	-19.8710923266661	45.6376075069293
158437500	-40.3141752489391	-166.884005832621	21.8754612701664	163.45982522729			-43.4854722442946	-168.353920272779	-19.4863821005173	39.8529683751052
159125000	-39.7953546933139	-162.873030095508	21.9024513873072	160.949078201131			-42.8932215866447	-179.331774134511	-19.163564035163	36.2106273621835
159812500	-42.8047124426075	-172.796162767065	21.9374314288127	158.235540571354			-43.2146604460094	-167.687931325753	-18.7898852442463	31.0760184621926
160500000	-43.3266112098048	-169.944833055726	21.9549152573699	155.650346273894			-43.955418880027	176.058040751816	-18.239116610104	28.3165271234746
161187500	-43.0622118208017	179.047106706061	21.9110698640279	153.493334678989			-44.3372342073961	-177.811356090466	-17.8011244113378	23.569958451497
161875000	-44.4684443121204	-162.477360000511	21.9752985086318	150.762463211026			-41.8369736462231	171.430804323818	-17.6011989626204	21.417367501359
162562500	-45.7708148048288	-169.430072303796	21.9659260417732	148.179994574727			-44.9286367034349	172.948081557769	-17.0914845007704	16.0431044124746
163250000	-42.011033098162	179.77507605684	21.9727714208566	145.585311544141			-43.7802388443811	169.92556514973	-16.7456818541298	13.9031695473996
163937500	-44.879140595621	166.16041694498	21.9916094647638	143.276445801789			-44.4476225257165	165.719230452928	-16.4081478478455	10.9048904322688
164625000	-46.158349739748	161.691387884017	21.9796720868376	140.683598348296			-42.9643739883499	163.539966825035	-16.2022109294812	8.5940986148342
165312500	-43.1082604545907	155.802742527732	21.9794067924704	138.309581204116			-45.1744583986961	158.808935542935	-15.8459707419348	5.55026292749705
166000000	-45.5117219672918	136.32358712447	21.9887410015192	135.848338615822			-41.9615817942512	168.664425620306	-15.7316457226968	2.94919494789385
166687500	-42.5588303129417	139.169004013864	21.9647000052606	133.410002138269			-44.363532559919	146.076248235742	-15.3922651083579	-9.80314093321897E-02
167375000	-42.0060859463777	130.350062951785	21.9878987822032	131.167428227114			-43.4227296289092	163.123974224947	-15.3357702136862	-2.13813101200678
168062500	-42.7756617617987	114.675609973286	21.9870556768226	128.809696675818			-43.6050085515668	136.105463302253	-14.9420035195677	-3.96022030685513
168750000	-43.3265842695849	114.170550560325	21.9602482865872	126.50558370273			-44.1583814250503	150.166319071348	-14.9849174760022	-7.16750948752575
169437500	-41.8985714052029	106.048964835797	21.9369866277995	124.116181355704			-43.3389124153502	146.277956715231	-14.6658431026464	-8.81031903116258
170125000	-41.832728569308	95.7801301094874	21.9396738205316	122.072622698316			-44.6458608129581	166.784425800448	-14.7447888249543	-11.4337976809771
170812500	-41.1972360180121	79.8729768863538	21.9293313095052	119.733232780655			-43.1009247351361	137.386092055531	-14.4924380246561	-13.1856522892975
171500000	-39.5186266454204	81.0530317815694	21.9187107671548	117.58688608933			-43.2536479598709	136.583466596387	-14.4779160712655	-14.9205431069468
172187500	-38.8726318179577	76.854011001216	21.8916977904433	115.385095940668			-42.8055362031168	127.913144283492	-14.3045836911749	-17.3588563972986
172875000	-37.4232933010462	73.4724091221136	21.9110382120384	113.524639172978			-45.1187663457925	137.351737368349	-14.2952366640597	-20.1075000242069
173562500	-38.0965176260831	57.6325904957091	21.8817017701131	111.249348163487			-44.1771844742769	138.51498590242	-14.1078166139997	-21.3204103861182
174250000	-37.6104149236527	52.0416942604961	21.9136707674018	109.207504976606			-44.7563510409711	140.041411860229	-14.0542775312817	-24.6282107002072
174937500	-36.8798059380651	48.5587569358386	21.9265914498594	107.190924678829			-43.5925111322933	133.057549011948	-14.003272537641	-26.1045988565989
175625000	-37.1876109198257	42.140789087671	21.9035579924737	105.160905722578			-44.6548847593784	131.290835703592	-13.989771348242	-29.073427517213
176312500	-36.4012764206954	37.2264000480892	21.9339311191696	103.224931509992			-42.760020111042	128.486192867896	-13.9607625781385	-31.1438692039061
177000000	-35.4909123549336	28.4042417406325	21.9333944671683	101.334768366649			-44.8555002602227	117.973869377923	-13.965406686558	-34.5330491835374
177687500	-34.075564759326	24.0071635228471	21.9405680158386	99.1815359239423			-42.6022643284746	132.372411731954	-13.9742171854607	-36.2817854794729
178375000	-34.409953480709	19.3615805767132	21.9607067805798	97.1708593414725			-45.7905813111592	116.344337267353	-13.9944349538404	-39.3126915878802
179062500	-33.6913709703983	12.9324131148917	22.0170266375227	94.875652238603			-41.7518510539678	123.659081386754	-14.0157261885441	-41.7978858006712
179750000	-33.7924594510253	9.0297539338572	22.0019552544294	92.9393262869605			-43.6437947802235	114.004242145873	-13.8657502478721	-44.8314348389309
180437500	-32.7634601179094	3.79544050102316	22.0802301738892	90.8930734234988			-42.8338918917405	114.107854118939	-13.9258938724645	-47.9290653123479
181125000	-33.1746094966966	2.63739023479549	22.0728887179941	88.8862238582523			-43.4536424308596	105.368307134754	-13.8683350292789	-50.9433659933851
181812500	-32.612988792773	-2.87446895165143	22.1225842183208	86.8111354868826			-44.2251569261212	103.6317603372	-14.0158996100663	-54.1549476752275
182500000	-33.279806146879	-7.8140721484568	22.1419081759527	84.6112579938585			-41.9018856359338	102.525560467444	-14.0627687369734	-57.1498084955052
183187500	-32.9370712109006	-5.94644697543968	22.1948505741725	82.3748225203904			-45.5495764696582	113.560170888801	-13.8941870911416	-60.9669653200459
183875000	-32.6744593963581	-7.53672184087754	22.2346645361492	80.30618908108			-42.4626478813686	98.484870343011	-14.0590919993343	-63.4849507383641
184562500	-32.9313387527689	-13.9010073596592	22.2111521417127	78.275800460384			-43.8201240543696	99.0098518594133	-14.0683212947481	-67.842100748739
185250000	-34.0105120760099	-10.7200081820733	22.2230236116614	76.0496630492941			-42.1907054590446	89.9929683327375	-14.1347506355644	-70.2954872220078
185937500	-33.7895671132661	-11.9747792757061	22.2445733321306	73.7209578738876			-44.1706055344906	93.2150486489879	-14.1512169421956	-74.444172514569
186625000	-34.7134743057501	-16.5303749862147	22.2378458115741	71.7197089766225			-41.8813214128442	96.4978960559648	-14.2660200110299	-77.2837101399203
187312500	-34.6143743873841	-17.3492509266546	22.2443215987843	69.3638583708848			-45.1230904068598	82.8509494961079	-14.0541583108725	-80.5170847389926
188000000	-34.9666386628378	-16.3204480874174	22.2385173916938	67.3275141411059			-43.0652258809339	91.7742762850353	-14.2333145874912	-84.2118045505833
188687500	-34.6648971669193	-15.8751329263307	22.247780997788	64.9777212140926			-43.9210700008433	79.8550519210352	-14.0944066485432	-87.4179891786871
