# Hz S DB R 50
100000000	-33.5313763529349	26.3375458326332	-7.34940624880323	-6.0158176156475			-64.128806759626	59.5822661419233	-3.49128307596093	71.0415112245843
100687500	-33.7733125058804	31.2270659816922	-6.90309230701201	-8.41461304933522			-60.2741688402631	-19.1676212729782	-3.40955186328504	68.1977272436963
101375000	-32.9979523255654	24.1611201733542	-6.49546780724011	-10.2297901747415			-58.0839833901864	91.0990828810393	-3.45593053425155	65.5077076517706
102062500	-32.5290223067052	28.2945356342	-6.05776181726218	-12.4066519781258			-60.6229264994065	-19.2587050218446	-3.39341306446883	62.7368168488082
102750000	-32.0451903502713	27.3245567944899	-5.66334398036942	-14.6295799734152			-61.4309885265381	125.548200280841	-3.43883180933781	60.1761404560292
103437500	-32.2594279745129	26.9508182343167	-5.27653359229662	-17.0645371953286			-56.918930775012	-26.639472136155	-3.37674617190303	57.4568984830646
104125000	-31.5063671627442	28.4574125317685	-4.90450532473382	-19.4513203065529			-57.9939618553477	-149.825302136243	-3.45811194198668	54.5454059514023
104812500	-31.4459694823623	27.6510873685978	-4.56074577037189	-21.7645187740819			-55.5764111862213	45.2268257017144	-3.41219734751436	51.9157551501352
105500000	-31.0227603518103	28.2840479990328	-4.2403905496435	-24.3508485247936			-57.8968072681764	-158.965917029386	-3.42717608816688	48.9754155742896
106187500	-30.8930341109021	29.8256980280271	-3.92337237444299	-26.9006162965382			-56.2771602963358	9.68431325126918	-3.40565456897214	46.3266416065254
106875000	-30.547880402902	29.0792673666001	-3.64902969501503	-29.4359244150883			-58.8502527263352	-48.488149648335	-3.49888826201939	43.5367145323783
107562500	-29.9560217791335	25.8717645706017	-3.3596021979779	-31.9251414128572			-56.6053447871376	-1.71023146612745	-3.44644796673778	40.5948489655979
108250000	-29.5244747320204	25.3685393583172	-3.13758607244869	-34.4066378624439			-69.6032167729024	-135.459658066958	-3.54977499084619	37.9494849176387
108937500	-29.6264275589416	24.8266536295957	-2.9230950106176	-37.0001964595745			-56.3329930440493	42.6300832743094	-3.48112928431466	35.0055898785604
109625000	-29.2127005360394	25.0058954474857	-2.70135209892322	-39.6034210006512			-61.0574942423078	-133.218787546778	-3.572194570911	32.2008855296771
110312500	-28.9810925945762	24.094737213813	-2.5667229277499	-42.3993894377711			-63.8053092089693	62.820950500343	-3.54397742055071	29.2960689721035
111000000	-28.8143146725666	22.5543209423077	-2.41391713651742	-44.8221084750069			-57.4422868525329	-40.4669539642679	-3.69179332701872	26.1689377924417
111687500	-28.8535798279679	22.3250736307577	-2.33188845850693	-47.4110897299014			-57.2493752717114	31.1013375249389	-3.6263214292856	23.2786150226787
112375000	-28.3655745674148	23.2749528061815	-2.23585483979782	-49.8586809683205			-59.9319109203842	-27.972449193384	-3.74178087686993	20.3170877857152
113062500	-28.5283763204369	21.6241224506839	-2.23894338033694	-52.3253007372346			-56.3622879195305	-7.95132175100824	-3.74417347757735	17.415797993221
113750000	-28.1532098357731	20.4211410924875	-2.21929342447878	-54.5708312195147			-53.5930242854906	-71.0361608020476	-3.82186739006337	14.0947573044916
114437500	-28.4261124769921	17.5551011102422	-2.25844833773537	-56.8509212851932			-59.1310129852034	-130.76478511632	-3.86601400329346	11.04721440378
115125000	-27.8118595981609	16.0031131470314	-2.31406567453014	-58.7656479023315			-62.8708072480997	-20.6571507607428	-3.93558327794819	7.51629616934008
115812500	-27.460484713412	15.3204048516254	-2.41126330986536	-60.7668569057438			-61.5326138587406	152.220019545492	-3.97389440334675	4.18926188456693
116500000	-27.5499030852999	11.8758864087751	-2.606726555356	-62.1488069247392			-54.2498510755715	-84.8126467798693	-4.03829436350757	0.543446773842001
117187500	-27.3891495288638	9.09443801081957	-2.83440950703591	-63.6956106448375			-65.1365924740801	-98.7206991456242	-4.08899345868348	-2.76314101788862
117875000	-27.2202991821375	8.91182367720944	-3.13979341587319	-64.5121221792278			-59.834275144853	-73.5173681202155	-4.1933430946153	-6.44788912643607
118562500	-27.0333935004463	6.21468343368772	-3.41858286391407	-64.7952387418189			-62.7364753722262	75.4679210877524	-4.24469464240347	-10.3049925956178
119250000	-27.1068186037893	3.49053472900647	-3.79603938125434	-63.8954284773274			-54.2167260202691	-19.781622221	-4.35641281441759	-14.530591096899
119937500	-27.1981159818402	1.12656843611457	-4.21838653416231	-62.4701430734916			-62.0320011338709	-88.324613108543	-4.420725514828	-18.7640851295047
120625000	-26.989717200203	-1.9366911545135	-4.58040388989442	-59.1446697147607			-58.1267053610734	40.0406957418536	-4.50492875023581	-23.1708851644259
121312500	-26.6765354481337	-5.7273504838959	-4.86713887790144	-54.2110909696822			-56.588912861943	-147.527886318774	-4.62650376497994	-27.717919774
122000000	-27.0693693458157	-5.96858740464741	-4.95665093561882	-47.2630808933436			-60.7131930923092	-36.2812344920891	-4.74108805273994	-32.4127109137486
122687500	-26.9198071741079	-9.09197941869413	-4.61426724933158	-39.7305866787185			-59.4787482450027	-146.691844980096	-4.86998289630852	-37.404740130816
123375000	-26.6257701411592	-14.5459653757298	-3.83901625633964	-32.2289834132742			-55.4805727221896	45.7617160042214	-5.04100486865524	-42.3575934610982
124062500	-26.3825827218491	-19.2062338106852	-2.73330920873754	-26.0916663693143			-65.794289509504	-145.075533289271	-5.22290779044858	-47.8788623373247
124750000	-26.4990701828798	-20.8359947293135	-1.29457077666396	-22.0301588928778			-54.7098012436541	7.62278344986167	-5.42335138964576	-53.5637531686968
125437500	-26.305376011686	-24.3440902537984	0.151602158277975	-20.3508197585139			-62.8578878154422	-132.208950905224	-5.56811884880258	-59.2831340339628
126125000	-26.6112351886465	-27.5983467471704	1.60320917415784	-20.782150893147			-66.2505499473444	38.4531774984547	-5.89456641327051	-65.0715205388804
126812500	-26.3218268048356	-33.5014974611709	2.98730264960563	-22.220814900996			-61.283621929561	-21.1220911982071	-6.13289233869065	-70.799155921822
127500000	-26.5270462602127	-36.8277825862073	4.23983423616149	-25.2324804020025			-55.5920043842205	24.2511580507663	-6.48156905467897	-76.5500415244885
128187500	-26.5221544836626	-40.3864495859786	5.40615545986658	-28.8679188184037			-57.9459948773369	-20.0615747947334	-6.77193145368927	-82.6640940876429
128875000	-26.3513238788499	-45.3055606168208	6.44194423116053	-33.3998996755348			-64.1980230329718	43.1387539466758	-7.20467118674965	-88.7390421622807
129562500	-26.5556780875359	-47.9918496099193	7.33630418683455	-37.9890004140398			-52.073398856723	-28.0371480702787	-7.51994182387368	-94.6607397987903
130250000	-26.4374253030834	-51.4213694868434	8.1667158813912	-43.1474030100019			-59.0361285937085	-31.6094549050585	-8.09289943515036	-100.664827853075
130937500	-26.7399263133827	-54.8705730496173	8.88618239331703	-48.3564456877754			-54.7829308891328	-44.7710856238023	-8.41334241930765	-105.985699054939
131625000	-26.873483483417	-59.438287749907	9.5090332500199	-53.5810691660428			-61.5701750507013	-27.047681497153	-8.96301890327176	-111.608002707144
132312500	-26.8948745068012	-60.4132749783885	10.0476003737133	-58.8426644244456			-49.4198141437362	-40.3462957045035	-9.3561227300955	-116.788678087821
133000000	-27.3379096137563	-63.8666493862731	10.5202055267178	-64.2063988395382			-58.9586014052831	-50.7915118772617	-9.93430475620527	-122.172648797566
133687500	-27.1449101310722	-66.1832824051421	10.9294117252115	-69.2866636208324			-49.8772959268815	-28.6080420058001	-10.3283554466215	-126.842045830996
134375000	-27.5388569377761	-66.9133151610811	11.332041088277	-74.2292735778268			-52.3726164222293	-60.9516934601198	-10.8189631519295	-132.663466802552
135062500	-27.21772756238	-68.7319502088851	11.6685170873588	-79.0744468036909			-51.3832902892788	-20.4287692254643	-11.2995315332769	-136.779565048922
135750000	-27.7875151258611	-67.8755110083732	11.9544286033229	-84.0773981180197			-50.5787990658306	-83.599293322495	-11.7747340483628	-141.207691636408
136437500	-27.686674508672	-70.4151876736046	12.1996229402778	-88.6870726155099			-55.7264957882819	-22.6229998379204	-12.2393727040564	-145.85017231355
137125000	-27.9923377566001	-71.3942091011672	12.4504368274563	-93.0724193885141			-55.5045836667942	-84.2107576852022	-12.7118764853968	-149.645204418869
137812500	-28.0428775285321	-71.8132103380995	12.6538951515649	-97.4523102514616			-51.0151937781654	-49.6851838007079	-13.1928164559877	-153.974359356552
138500000	-27.8450803659619	-75.628691777752	12.8402763810664	-101.694372762353			-53.3463236785623	-77.7959408993085	-13.5446199864032	-158.834276535558
139187500	-28.2509796972278	-74.6914128458268	12.9945364771459	-105.98704153805			-52.21803663357	-65.4496219228353	-14.0866465919277	-162.737205530351
139875000	-28.6261287039772	-77.3682959102973	13.1740974581117	-109.962769250996			-50.9861439072451	-61.0152921564309	-14.4666536311286	-166.369517425641
140562500	-29.1753397536354	-74.6727896429673	13.3304940721628	-114.024547481489			-58.7833636027364	-30.6697255254814	-14.9217824151226	-171.044126733899
141250000	-29.2561079717589	-74.4286305421645	13.468386082981	-118.039177565061			-51.7341598652792	-77.3369350818732	-15.3146279827635	-174.218424939357
141937500	-29.0182577734572	-74.8828684270808	13.538778402655	-121.92203850111			-51.2412675522902	-87.8321728813853	-15.7904686618303	-179.353882457879
142625000	-29.4540705173495	-71.2399407246827	13.681084853272	-125.647667584855			-48.3919923290729	-101.005892654515	-16.2056277464191	177.841452008207
143312500	-29.0412663544915	-74.4892643697281	13.787784049922	-129.48494120761			-56.8486057436334	-99.7318314263581	-16.5698659883112	171.95012910246
144000000	-29.3312888520414	-72.804411840913	13.8789080041786	-132.755900164265			-52.0514663605488	-84.8496590859446	-17.1380052887535	168.413482513763
144687500	-29.2641920724055	-75.4859549311581	13.9542854055335	-136.773708655969			-50.7800274283245	-122.860848130517	-17.453220010055	163.77650828605
145375000	-29.5268513561596	-73.6450924160741	14.0082869903558	-140.28080678581			-53.5777812154991	-104.88529780223	-18.0413528810902	158.60201106687
146062500	-29.1206613174009	-75.5837603232037	14.0750639203508	-143.773119382833			-50.5001119312433	-123.317300995346	-18.4369272462781	152.631805777579
146750000	-29.2943300224521	-74.4628031018521	14.1246091100412	-147.149489619602			-55.1449131189762	-94.7408367376626	-19.0172152494273	148.560293318633
147437500	-29.1534125496003	-76.9943099242349	14.1876124993773	-150.526756715471			-53.601402040057	-129.986852928683	-19.2484841125215	142.930547836409
148125000	-29.4191552106643	-77.0138548162482	14.2099043550845	-153.86226269681			-52.0545495959747	-106.075268843645	-19.7765760563024	137.386544880425
148812500	-29.6766007587769	-79.3642075577511	14.2847807065326	-157.149285341128			-53.6224397887128	-135.927202636704	-19.9252550424786	130.711363218469
149500000	-29.5143682789118	-77.2768916375892	14.302069416798	-160.199774408246			-52.5125186534706	-110.420766582294	-20.555357459889	123.94480439793
150187500	-29.3635840549546	-79.9300545647806	14.3315386057953	-163.491500267227			-50.2251883977172	-146.643290422633	-20.6542555742483	118.023386953929
150875000	-29.7702736278461	-80.2327820022922	14.3402760839148	-166.361236701434			-52.8360798896672	-126.829646163905	-21.26335935949	108.802460519868
151562500	-29.5373223158759	-80.4877238974036	14.3742003970561	-169.369261474291			-49.6504847245522	-135.366898490097	-21.2365534105064	103.189259475565
152250000	-29.90406484037	-83.4221995221929	14.370553229703	-172.415653511931			-52.3443834206451	-119.144581550516	-21.6029490092039	94.7212386293245
152937500	-29.9148675292502	-81.8004751388087	14.419355696471	-175.147967006814			-50.2648404322074	-162.092755988333	-21.397776967499	89.6351336203775
153625000	-30.0889476962151	-86.6858393957829	14.4063315130154	-178.102382453769			-53.5233003216148	-170.206474691724	-21.2904462946182	80.084541006777
154312500	-29.7264810579659	-87.0097829239482	14.428234437988	179.248610127813			-50.6798153433589	-147.931153850551	-21.1813647674312	73.8198625118563
155000000	-29.4864095486689	-87.9839599736531	14.4379358831013	176.10311616052			-51.7981732330986	-155.323050044105	-20.9606654709624	66.8130899811273
155687500	-30.1427276028491	-88.1571162324252	14.4556518936431	173.847533240581			-51.6571460639982	-163.889287150727	-20.8001290827022	60.3404257051413
156375000	-30.2444001036827	-90.881854253509	14.4766504118109	170.92789996235			-47.3671778422694	177.596096179374	-20.5513621115649	53.8543407924139
157062500	-30.6094103235179	-91.5059881060686	14.481205097677	168.495885359057			-51.3452953583358	-156.373417426442	-20.1843781929509	48.16120723793
157750000	-30.2834256660769	-91.9726424601293	14.5221780162611	165.80526263161			-50.1798797904635	164.999772029433	-19.7454126101885	44.1318398482037
158437500	-30.4077184776818	-92.0311491542319	14.5000923443741	163.274216573532			-50.0546484115582	-165.16606069318	-19.4040206801459	39.0066544829724
159125000	-29.9315947639799	-94.9934597410145	14.5431324912887	160.560768985285			-53.3647131752467	-164.314553540375	-18.9225306878373	34.0587128869165
159812500	-30.7721959639209	-95.6528321994308	14.5576034945167	158.049090532671			-49.1664903412202	-164.348962090184	-18.6119029670515	29.610317685384
160500000	-30.0811434344142	-96.949958124209	14.598669662796	155.325071623004			-50.0799777079512	173.398645902838	-18.2376541892791	26.454318825475
161187500	-30.0712949196507	-94.7975184442378	14.5455013042211	153.1249723391			-57.2984395283147	154.819276164796	-17.7661250624044	22.0831395334972
161875000	-29.8248627133177	-96.47346864461	14.6296762445412	150.51074442552			-47.7257150973588	168.592637377908	-17.494078307342	19.9687080296214
162562500	-30.1541413767795	-97.9623424904024	14.5890427674842	147.918207197737			-60.4292824956087	134.852652047777	-17.1111381341326	14.580661436308
163250000	-29.9276978308922	-97.0315913490177	14.5892553233759	145.327105234122			-47.8993133027898	152.403242830303	-16.9506620370948	12.9769918556184
163937500	-29.9976441754894	-100.272590836495	14.60684290392	142.946737778885			-57.5242183231392	142.760858404895	-16.598521510665	9.79280062280842
164625000	-29.7721457319635	-97.5195269304567	14.5927042840195	140.432824391507			-48.9243382991781	162.046477475033	-16.3421537320206	7.32945750662918
165312500	-30.4729165111129	-103.828728475718	14.5915214284185	138.103702823144			-52.4976026535753	165.753010095307	-15.9995233154536	4.66306080174932
166000000	-30.1317460914352	-100.203447860919	14.573254327343	135.758440078988			-46.151209297407	174.147559148327	-15.9272094972225	1.41449891665342
166687500	-29.9697958597064	-101.936851418819	14.5877367744764	133.201823618381			-56.7768908933831	121.440348199701	-15.5537793707119	0.243925904513522
167375000	-29.9962616079219	-100.925781828932	14.6074463640029	131.155963292385			-49.900603468083	155.285101183629	-15.4696726298764	-2.55585030026041
168062500	-30.100115896377	-101.188335689578	14.596237097099	128.655072480462			-50.4603660698769	140.252612856295	-15.1664759408769	-4.70702146657931
168750000	-30.0612125162031	-97.200680081419	14.5808674138453	126.374095826617			-48.6410165171889	167.455928905558	-15.1564422116984	-7.85918582598206
169437500	-30.4527698886232	-100.22064440385	14.5432430181579	124.19486224572			-49.6722131395607	137.786843467463	-14.9006091345646	-9.39135821128687
170125000	-30.2672188725298	-98.0438295005318	14.5817796458204	121.938925497491			-52.3082357740074	133.502726693413	-15.0178382072342	-11.9776136183241
170812500	-30.4748058178276	-95.7388695308765	14.5299440905468	119.76404797661			-49.1353148490879	147.085013592132	-14.6544458707385	-13.9983522919663
171500000	-30.7561279370008	-96.3081804924603	14.5504612304245	117.566339298911			-53.4620373634522	169.340994292605	-14.6842081545014	-16.3898255220816
172187500	-30.3672085806388	-97.7433095458606	14.5296183113371	115.41911278143			-46.8832369647178	153.954193488844	-14.5151796205711	-18.2665434297224
172875000	-30.9772634269913	-96.5156214568773	14.5327302650857	113.397038265762			-52.0728295416806	164.593990081768	-14.4998189672446	-21.1768497882836
173562500	-30.7253753062939	-93.8800506362191	14.5303926927568	111.401691308317			-47.6410738369282	140.162052922571	-14.4754198789355	-22.8790847881572
174250000	-30.5161395082356	-93.05014398859	14.5661149757994	109.358501341024			-54.5626879711806	81.1311637633775	-14.3294878625176	-26.1772432837999
174937500	-31.1283368120765	-96.2301713833559	14.5470769080654	107.22259149378			-48.8188173492136	132.082051219924	-14.4170905918257	-27.5288312971676
175625000	-30.9314571288218	-96.4175982787041	14.5335798314381	105.240710406505			-51.906296458994	107.601253478378	-14.3536741776899	-30.2644656959955
176312500	-31.3443075309073	-95.4059156128102	14.5747930534739	103.207858020674			-49.2640366058931	129.55961676641	-14.293939096414	-32.6955151474633
177000000	-31.0476930666928	-93.8616103136374	14.5827466254404	101.300542332237			-52.735765778891	129.067891682014	-14.3169308136093	-36.0682260955839
177687500	-31.5327463431676	-92.5174996884729	14.5996854943685	99.0687211286106			-51.6208272769505	161.705817853471	-14.4178582289341	-38.0368588766471
178375000	-31.3463624522994	-97.0772460056838	14.6134708492839	97.1212503200391			-54.6930989253675	96.7638900708172	-14.4084596191991	-40.4946315566255
179062500	-31.7861448102473	-91.134637806236	14.6597084153849	95.0597294758216			-51.7541211563466	115.505628191232	-14.4512447696946	-43.3284230825806
179750000	-31.8344854334223	-96.774694198082	14.6382647547358	92.8634028751926			-53.7907323070156	128.619106116215	-14.3876067307407	-46.0836188576842
180437500	-31.7952709720639	-94.7770838287733	14.7112409648791	90.7721814790078			-52.0679891488976	128.905310610603	-14.4831077489014	-49.1903175302123
181125000	-32.3717669570731	-95.4448683966878	14.718522325373	88.9321463300234			-48.9842568900059	102.296062663644	-14.4440434407082	-51.6143524510258
181812500	-32.4281383954822	-96.9968178763023	14.7374611604113	86.7358426991195			-52.4419615990189	147.666029922726	-14.5562547252624	-55.275525555557
182500000	-32.6034531568274	-97.403135825934	14.8033206840637	84.6679556485218			-50.2641919749922	91.8741071562219	-14.5440116412026	-57.6370976148048
183187500	-32.7844430771002	-97.082262819662	14.8311100674195	82.2438144390028			-53.6204452897564	116.259941428085	-14.5325400663877	-61.4874145571188
183875000	-32.8651519040072	-97.7370205290014	14.8475302096601	80.3550579846752			-50.2046961161319	109.264845786921	-14.6341886770598	-63.5940023792521
184562500	-32.9786319349248	-99.5220221183936	14.8349358034993	78.1682204981837			-57.0393672456272	144.230461632442	-14.6942449256051	-68.2323881341203
185250000	-33.6199464721873	-105.660845155831	14.8867430482534	76.0236667076865			-51.3689828597042	99.2922620609395	-14.7193310425213	-71.0707192155097
185937500	-33.3616919190877	-105.752919156808	14.8798570037996	73.7589603220751			-56.2823065696469	100.125270595385	-14.6479355812809	-74.2774588809823
186625000	-33.2700290249218	-114.961204194835	14.8972827184551	71.6137475418981			-47.8890748518362	90.2578685775227	-14.8024438019087	-77.0420051999327
187312500	-33.897187290344	-118.472901342726	14.8870687757681	69.3935248999675			-52.9401126290491	128.679529700167	-14.615986636006	-81.240847546742
188000000	-33.4555813058217	-119.102834712532	14.8786503863845	67.2002651651104			-48.8739022869414	103.804288409241	-14.7841650772997	-84.2782339151066
188687500	-33.8694252068927	-121.953804184747	14.8693122656125	64.9646313722881			-55.8752875008959	79.365613063031	-14.5465474885334	-86.5101725861076
