# Hz S DB R 50
100000000	-26.9053921307481	-5.23980869362783	-29.8002659992938	2.205902509372			-58.6521701533383	-161.908791813215	-3.48418690137254	70.9745275187222
100687500	-26.9690707743901	-4.987321609232	-28.8276702114853	3.24520741759252			-58.8320520085566	82.3429787712129	-3.40279149407826	68.5234222190172
101375000	-26.9424620712795	-6.87629281738615	-28.9796761224359	-0.836678112191885			-66.4332274577277	129.066423448513	-3.460353067189	65.5556463630858
102062500	-26.8239673318909	-4.8827291535691	-28.2595374813584	-1.11327021167197			-59.1883440556904	24.0564750409275	-3.44236814713296	63.0053562581252
102750000	-26.7978128001866	-8.38817440934027	-27.9597138416909	-5.29338259781945			-56.6981055882073	-97.054298609334	-3.41945601353009	60.0083065544834
103437500	-26.9677954070847	-6.14933448543783	-27.4435200817024	-5.59465315563235			-61.7367389373486	44.4123373379105	-3.38817043177857	57.5959133600484
104125000	-26.6734353785236	-7.76915722384379	-27.1856655502374	-9.55954781529194			-57.7455103303759	159.96439508126	-3.42992159201734	54.4500124155307
104812500	-26.7684472252112	-7.00560598212036	-26.7266319753919	-11.3956304315553			-62.6238405959002	111.622475281713	-3.42872231981817	51.9254931488585
105500000	-26.5466786141393	-10.1233971996309	-26.3258825557768	-15.355743617661			-57.7458991351083	-80.5367897796749	-3.43899773486552	48.9910767714481
106187500	-27.1740810219013	-6.53148215310976	-26.2264817851394	-15.3232700487898			-58.0935527812991	121.572634233964	-3.43579109765819	46.6671903397551
106875000	-26.593581676872	-9.51633706921518	-25.7240813492347	-18.7193202470071			-68.8144927069092	-91.9486810553601	-3.48031118098322	43.3401823792706
107562500	-26.8491942659718	-10.0692709467455	-25.4646991507423	-20.1190235185045			-57.1044665094313	173.709379652017	-3.43935491915853	40.848758381678
108250000	-26.2861063344177	-10.5182423642653	-25.1678694941394	-24.2641434395287			-86.8142039145657	-119.578052732367	-3.48591957226024	37.6962328469221
108937500	-26.981749894876	-11.2200121349276	-25.2367581912923	-26.7191837413652			-64.532260500496	166.041954748653	-3.50026872731524	35.3356403699868
109625000	-26.7904766605836	-11.4677141824375	-24.7636171400401	-28.5424897231381			-55.7538570010334	-25.5780960873072	-3.55317272444062	32.1454871426594
110312500	-27.0128150100961	-10.8254802928819	-24.9642124262195	-30.6536069549045			-74.236027549656	102.205930164072	-3.5969864792649	29.4477688247197
111000000	-26.7535195031012	-11.1194295532281	-24.508446584295	-33.4681955270066			-64.1739014819297	14.9997545833628	-3.66853634368371	26.2534604221829
111687500	-27.2359032161618	-14.6800763057438	-24.5537931931383	-37.661696627959			-65.974507266407	172.936025847075	-3.68114305427238	23.588834293729
112375000	-27.0065558013449	-11.1523257854115	-24.4352390253472	-37.3442577539425			-63.0232990771377	-65.6285356530958	-3.72114860614575	20.2912082565143
113062500	-27.1634281986356	-14.31837211511	-24.6537216789938	-40.6402994136914			-56.8199823713899	-161.341391137862	-3.76410140674004	17.5513590365071
113750000	-27.1008957683049	-12.3250025157377	-24.350029115181	-43.2785269949567			-59.4745311400311	39.6188261690963	-3.83409444709396	14.2199181311439
114437500	-27.7383478915229	-15.7213323658868	-24.5747659536146	-44.7778738267454			-63.7149392219984	-129.173566954476	-3.87044994603991	11.4577066424304
115125000	-27.5439646838043	-14.725518662895	-24.5782361170428	-45.7142651982514			-69.4867709644394	-56.5182070437717	-3.9075152642386	7.61382681956859
115812500	-27.5432777547622	-18.9486265304066	-24.6408384817574	-50.5101211718044			-62.5246205078147	-135.479850466653	-3.99312750269772	4.22762764868068
116500000	-27.6475111441605	-17.3336851343518	-24.8100706304022	-49.5229104480411			-60.7355628219864	72.707937860924	-4.03002781991119	0.611327071496134
117187500	-27.8141089775304	-19.5420339507155	-24.9845753575686	-51.8045975144718			-57.7001473894007	-154.494946166083	-4.11666890014732	-2.70434689272472
117875000	-28.0609873874562	-17.6239629452367	-25.3797514815978	-50.8834208392605			-57.0618991813902	94.5210822488214	-4.18144871074942	-6.61169013342552
118562500	-27.7164934860979	-20.5742878683851	-25.4691359237839	-53.543125606684			-52.6280992743685	-107.240979506825	-4.25865593893655	-10.3470475226058
119250000	-28.3451177665704	-21.1679715912862	-26.0851940431552	-51.1895221854689			-61.9853052693323	74.1529905523373	-4.36008924510948	-14.6208396217822
119937500	-27.8846734826902	-25.4280659800317	-26.4871254917606	-49.8075807231916			-59.0342623700793	-33.0279174584922	-4.42914874373939	-18.6691314779643
120625000	-28.3467270273338	-25.3973074086473	-26.8098795816109	-46.0010548916807			-70.2289335629915	5.30486076309126	-4.51419821218916	-23.2417961937866
121312500	-28.1392000600082	-27.9796487927156	-27.005307777273	-41.5572262510415			-56.8822404967919	-40.9759870841057	-4.61280722788624	-27.6380457005838
122000000	-28.6991575001676	-26.3605201420606	-27.41877677192	-34.662340286417			-71.249392917536	111.029142451593	-4.74243648612008	-32.4688235666342
122687500	-28.4672125714115	-29.2691321513975	-26.5388228587216	-28.0484538877101			-56.1284942420756	-28.5271771017703	-4.87817483804411	-37.2569962872469
123375000	-28.6380196270737	-33.5695827999921	-26.4493611697216	-18.7875347443603			-62.9938273847317	131.920118713862	-5.04486516881571	-42.6204906266741
124062500	-28.2161071941789	-31.8401081420393	-24.8953531688032	-12.8608455766612			-54.2656434187401	29.3619183469399	-5.21355507139987	-47.7732119861773
124750000	-28.6833243311305	-36.394535667954	-23.7085075068418	-8.4567825641964			-64.1462483642593	-159.722534324617	-5.38971106631217	-53.5090772256946
125437500	-28.2162299885383	-35.1588449898669	-22.0615336906327	-7.1288342460844			-65.843140584824	-2.94746397916394	-5.59984882319059	-59.2888274286911
126125000	-28.9296458824459	-39.434966567898	-20.6305383343488	-7.18035135880588			-72.0741670255938	174.982215576565	-5.88410647116565	-65.167099616523
126812500	-28.5449686736802	-37.8014461235707	-19.1231110109554	-8.42892154317461			-59.0142390828116	7.21524426394183	-6.18483627599789	-70.7395995448495
127500000	-28.192829451687	-44.4582647632994	-17.9073720920255	-11.706710061726			-67.8663845544526	-108.30641262557	-6.46325293203699	-76.6950773848777
128187500	-28.2721216164875	-40.1065877121877	-16.7395360975184	-14.952694446336			-55.6665050924324	22.131980404845	-6.79028233904615	-82.4839010647307
128875000	-28.1709868110315	-47.6342320410838	-15.7876909000464	-20.0317916546683			-59.1510249536084	142.855120251723	-7.22153543740022	-88.8660579706085
129562500	-28.0701853601554	-44.2333662507269	-14.808328198364	-23.7731378060742			-61.493320396811	1.12204741208215	-7.59425014669978	-94.9374899124297
130250000	-27.5108475100803	-49.131854892228	-14.0380492564525	-29.5883083057663			-59.6899046151801	-104.512611812992	-8.06470837351255	-100.710400617105
130937500	-28.2386242821845	-46.9490504535277	-13.2660715791306	-33.9484549160325			-56.0053647814284	79.975246692439	-8.47558255468066	-105.942410317806
131625000	-27.5005914206162	-52.2665149682514	-12.6426483791669	-39.8408518672912			-65.7585978175294	-7.36102401591459	-8.97212112500342	-111.488094746707
132312500	-28.0058692090157	-51.537813605974	-12.1432818035166	-44.6748578455762			-59.3944474952621	67.634603166622	-9.43307215694689	-116.853195052131
133000000	-27.6338954149624	-52.7134695078101	-11.5759540675749	-50.4685063050071			-66.5039079263162	-108.120632746951	-9.95733067183123	-122.295473746829
133687500	-27.3902533880082	-55.2550633808166	-11.1967848734974	-54.7500901924207			-55.2831427234341	98.2709955079525	-10.4030582495514	-126.919779946288
134375000	-27.2268534040999	-54.6546566725215	-10.7370308243817	-60.3582486791943			-64.0910671403543	107.341052698031	-10.8884148292272	-132.320123050444
135062500	-27.3989764407165	-57.7454561974181	-10.4787647900596	-64.6158951859889			-62.1596750544263	28.1471171708372	-11.409631910436	-136.851473944545
135750000	-26.8670794290943	-54.6585271533964	-10.1515294793257	-69.701974905761			-64.4878611989905	-16.2805600324661	-11.8868984081538	-140.838769108786
136437500	-27.2244358579676	-57.2042421685931	-9.96732690950573	-74.17898371015			-56.1510748075964	132.444729047334	-12.3650533091576	-145.416487697525
137125000	-26.6969612907469	-57.9355517180148	-9.63611487195196	-78.5948578533596			-60.7515179234836	-63.1138821250705	-12.8963615653757	-149.555389355892
137812500	-26.9774118417778	-59.0535106250191	-9.4851059843358	-83.010233717308			-53.6103931956636	58.8051795576095	-13.3233623823953	-153.710338631853
138500000	-26.5840684350489	-59.6286187288976	-9.2296361540728	-87.3205445671594			-82.8727259499619	14.8575896027839	-13.7076523499999	-158.956675976688
139187500	-26.6454187206148	-62.4611238685205	-9.10491628377899	-91.6300671574615			-56.8163902692935	114.344934819539	-14.2384429752554	-162.10073763465
139875000	-26.6390720292432	-60.8687680546697	-8.87423619423834	-95.3652276667585			-78.4812816185839	54.400654598701	-14.6353183904122	-165.869598686482
140562500	-26.6167880651366	-63.8963206031849	-8.77584706248952	-99.1821521802563			-57.8936000552411	-38.1336386227965	-15.1459685402811	-170.509219936478
141250000	-26.796125879227	-61.1729927821439	-8.64691049145914	-103.378557466609			-64.2059645547336	17.4457152616338	-15.6191765939424	-174.014969901021
141937500	-26.9133512123738	-64.1842595654613	-8.54802192912169	-107.085244408591			-63.7493456902324	-143.581277429375	-16.0471142016035	-178.648064394396
142625000	-26.5106538452266	-61.7237754170209	-8.4037026425605	-110.959330447215			-57.4539216103796	14.7802216552301	-16.4621562682103	177.662469012273
143312500	-26.4740994161501	-68.7855947753835	-8.28874783402201	-114.68034560358			-67.4518664114616	155.103360099714	-16.8991607550402	172.851281398424
144000000	-26.7420591747976	-63.6429758236656	-8.20152913373252	-117.844775292107			-52.7844433828271	13.9837738453732	-17.3387296528884	169.176829039113
144687500	-26.3066204874801	-68.3574645901375	-8.11821753593731	-121.611408709188			-60.0617504848236	-97.9861688633977	-17.8786443473878	164.89034295138
145375000	-26.8368730401281	-68.6234501499045	-8.04611180712735	-125.198810639227			-64.0295006786868	37.9773125548899	-18.2805570655801	159.045143077045
146062500	-26.296343609245	-68.4904033731905	-7.95536657527067	-128.578007422568			-61.4403876585261	-80.022354430559	-18.9024571488731	155.019271464658
146750000	-26.8339172590889	-69.5217051922588	-7.93350761416361	-131.94963734751			-64.8716535466531	-2.81037894704195	-19.3012463777296	150.166621713568
147437500	-26.4265958806262	-69.8739938943182	-7.90040575387856	-135.228225633359			-58.623445705364	-60.7310821918271	-19.7440738467017	143.634841398656
148125000	-26.9565300732467	-72.1155528175013	-7.89758523019086	-138.655509601112			-63.477133780807	52.7849778080259	-20.0930135604506	138.385456986174
148812500	-26.6023056332812	-74.3061045805404	-7.78891859145172	-141.731726089974			-57.7845357697267	-111.209535738601	-20.5255595202084	132.031396920692
149500000	-27.0320497169336	-73.9145707946801	-7.78178605165659	-144.798629072828			-81.6974901698002	-42.1879736539014	-20.9157028774229	125.343582142261
150187500	-26.8710361034357	-74.1958875299826	-7.72940449680582	-147.802867425445			-62.5180993099153	165.151641995626	-21.3830986182275	118.96101500186
150875000	-27.1815617505251	-76.6580660720165	-7.72263827284101	-151.254383954548			-55.0335617029598	172.512533929798	-21.5980143028316	111.217411150347
151562500	-26.8013723883271	-74.4750988924871	-7.68106523926333	-153.585872095146			-55.5203279237347	-63.2797710165205	-21.8246336196276	103.874861696643
152250000	-27.5759547708313	-79.6229788018356	-7.67793255810884	-156.922746288099			-55.0305087339946	75.1484969918922	-21.92555623781	95.9723332643238
152937500	-27.0557954619682	-78.9785737395864	-7.65868557279087	-159.345438266811			-62.2155723485	133.74413824659	-22.0037379637374	89.0835761992871
153625000	-27.1161664095482	-82.3696170968458	-7.57514674015093	-162.437403855692			-57.6663523090122	134.146146627347	-21.9690090573853	80.7606451903617
154312500	-27.0147567542099	-81.3429564194438	-7.58206263967511	-164.693714629571			-58.3854408063765	8.44888937549912	-21.5473469488912	74.7421306213843
155000000	-26.917351088589	-84.9384938334773	-7.58631499680389	-167.908126096983			-60.0758263659696	-144.964960721642	-21.3606208263899	67.8274306964484
155687500	-26.9627169805215	-84.9464639429772	-7.6182345719607	-169.914716825814			-58.750700860945	-54.5508465702464	-21.1840139671007	59.3881580962843
156375000	-27.2423804473942	-86.6042777848435	-7.55010796467698	-173.109840706315			-60.8102055953005	142.701703115806	-20.9029930191896	54.5453549656037
157062500	-27.4014598936995	-85.8923583290346	-7.61679024083678	-175.332427927762			-58.7030511038498	30.2585346651723	-20.5248649386102	48.9850693798349
157750000	-26.9787909250841	-88.7501326658715	-7.49668233690012	-178.031549130196			-61.8620213835804	167.542156428581	-20.0108613733194	44.1511686339587
158437500	-27.3628879968438	-88.7576499190486	-7.54658359364034	179.550160812745			-59.3333018551515	-55.5552986159028	-19.5961700313193	38.6079501935422
159125000	-26.709386955181	-90.5225460254379	-7.46897806306262	177.02807749761			-53.5611770574225	-148.935602023857	-19.3702323813741	33.848763258331
159812500	-27.5650449215626	-89.1906117921753	-7.46151706622825	174.580519908307			-65.0100591015023	90.5901662768156	-19.0245885155728	30.076254688928
160500000	-26.9733000562871	-92.7926567557698	-7.38618506667213	171.941401375581			-55.591930586533	-58.1829284808014	-18.5129976887531	26.4531448286403
161187500	-27.0291748692943	-91.8234488284909	-7.50139665725106	169.545385262017			-57.9928643089552	62.0875739981276	-18.2374786168765	22.2169296941116
161875000	-26.8187936925436	-91.6570703367199	-7.39954767480067	167.18094929077			-58.4263658934061	-71.1504145463279	-17.895660693604	19.6941704484581
162562500	-26.8348510188335	-91.0854374456685	-7.46334315342207	164.561045709513			-86.5734556118966	-38.2437681097943	-17.5407363431402	16.0219432912378
163250000	-26.6880048274799	-94.2929573951802	-7.3904022963157	161.991395152538			-56.2253676358211	-69.6660247781439	-17.2143011068226	12.87901557941
163937500	-26.9994034576264	-95.7217824285628	-7.42380200859028	159.795619280036			-55.0407617642309	119.570808785312	-17.012304300484	10.9410058635383
164625000	-26.4933406732532	-91.5161958936404	-7.40451645345198	157.295372282492			-64.5843340682578	8.30633050072434	-16.7329531574646	7.04791804772137
165312500	-27.1745824886506	-97.5258168126382	-7.3913715718538	154.844246394666			-61.498786908021	14.5632963289592	-16.374593808426	5.21292117036254
166000000	-26.6836814796886	-93.5637773902802	-7.43203945733733	152.577143433455			-59.9656481710016	-21.0602711027044	-16.1815084745085	2.23226299586099
166687500	-26.8804539392416	-97.8531255883498	-7.40934342114947	150.419227430345			-83.649237091324	-85.2183954048289	-15.9498520686346	-0.348288284740469
167375000	-26.6380203611406	-95.9442912397743	-7.41160729605632	148.318145505824			-58.7291390545898	-141.932013556735	-15.8306132176622	-2.4086160843822
168062500	-26.653717191162	-98.5123712872012	-7.35760479550903	145.67383061796			-55.1146857780715	164.531729442302	-15.6044066854936	-4.93345699799815
168750000	-26.768843244347	-96.8171130382022	-7.42011769782614	143.768772617765			-67.8886504647523	-23.00880723617	-15.4253301441195	-7.29611566280368
169437500	-26.8734518793734	-99.4129956733017	-7.44183157938107	141.560445809215			-76.6845026777286	117.735598664962	-15.2547409043123	-9.2885114599744
170125000	-26.6285279985597	-95.9563647209577	-7.40875920350929	138.852061985093			-67.3140364856979	-96.8189488460266	-15.1679060050993	-11.4567409270875
170812500	-26.890635378167	-97.5411927111119	-7.44283193257254	137.152580970008			-59.9428679216216	-156.623044896673	-14.9778832538946	-14.2290404628922
171500000	-27.5440682868476	-98.2476828504585	-7.45469413120602	134.810115994157			-72.6757748637026	-34.4007050593788	-14.9956320326838	-15.8612122697016
172187500	-26.8032641000462	-99.2289527652662	-7.46271992458262	133.027085543286			-53.6892654717607	138.079941717114	-14.8725156488014	-18.4667453652516
172875000	-27.6607042910964	-98.5865023946148	-7.42104735091318	131.052327243079			-58.3858700414165	3.38029731999863	-14.7989437518278	-21.2039277228396
173562500	-26.7792680481002	-99.8487189325746	-7.42987315466636	129.044540239898			-64.3918125619245	172.44409055761	-14.6534373331651	-22.8015510084157
174250000	-27.1218811505843	-97.9361222263352	-7.45029302079453	126.752869834932			-61.6693539414637	69.2138690374396	-14.6147464402891	-26.0308485336454
174937500	-27.3028815885017	-98.4282040503836	-7.3990110997809	125.297805458628			-59.2112114107324	-96.7256570484496	-14.6411640676104	-27.9368451775787
175625000	-27.5429736896845	-100.727846003274	-7.37171297364594	122.887304263442			-58.462230782516	78.409957234475	-14.6067941714348	-30.3220702007556
176312500	-27.4944124745751	-100.730983365768	-7.41338526023965	121.278421909869			-56.1698598023118	-129.008244359954	-14.6203166010103	-32.777131546412
177000000	-27.8301781247752	-101.443385724546	-7.34809262749793	119.162656195333			-59.1260268175503	93.9986982934653	-14.601418527963	-36.0376519432324
177687500	-27.6927337251623	-103.178298579821	-7.37345356269754	117.471277189216			-62.0726940694769	124.822522344987	-14.6526950886107	-37.8796569851003
178375000	-27.7212693890924	-105.394022664632	-7.32013793501911	115.167770087956			-69.1619491038912	-29.5322733833444	-14.6677033052419	-40.5274514406388
179062500	-27.7574988612199	-103.359119077871	-7.31466908743509	113.432379080991			-61.6417431863125	-138.931084492803	-14.670758256946	-43.6593849424271
179750000	-28.2739963360491	-109.141184684877	-7.26038714489265	111.034409752973			-57.4294135328327	106.363514804401	-14.6389570022352	-46.4493046209566
180437500	-28.0601192229558	-105.583088362143	-7.23420550488249	109.337242677641			-61.0949213177226	-149.547664536303	-14.7374181123487	-49.2740629522262
181125000	-28.4391271406774	-109.074683703466	-7.21795348389667	107.096444198203			-74.5390048653752	-8.7105096876046	-14.7469616460758	-52.0010690462872
181812500	-28.149801178098	-106.840074716656	-7.22507388297673	105.229869274424			-62.7201032575212	-74.2189261566525	-14.824464962041	-55.0499320044806
182500000	-28.1564719238828	-115.054153956025	-7.08073439671754	103.127625892043			-61.7116408987716	169.989189100446	-14.8779459517585	-57.7172923426341
183187500	-28.7299055122511	-108.988241012044	-7.12952047174719	100.805042765935			-56.8384219638474	-32.9008083941547	-14.8389608514268	-60.8099055649999
183875000	-29.2135850269218	-115.58147311112	-7.04951226033864	98.8338558876784			-57.1645269737003	144.931582296998	-14.9481395682093	-63.6595084662498
184562500	-28.8446134784137	-114.666785505111	-7.09858362277745	96.9712230718083			-54.6916537036868	-76.1641309582832	-14.9451154519846	-67.1304688878796
185250000	-28.8906309796386	-120.534770186547	-7.01646899680042	94.6884390584867			-53.6200050381259	165.624736870393	-15.0256493879771	-71.4766431107924
185937500	-29.354994676415	-120.090336730901	-7.06197880168087	92.506109790167			-69.7424695184799	42.3514890783662	-15.0460524240679	-74.021836238447
186625000	-28.9848201685855	-124.231789077562	-7.01811239267832	90.347337662187			-64.6234986214509	98.9965214141869	-15.0879439194271	-76.66493890701
187312500	-29.0300831773929	-124.173845713433	-7.05034727439085	88.369334050286			-67.8217015496691	29.0134382046792	-14.9485235111649	-80.3016982102449
188000000	-28.9170331414504	-126.419906729312	-7.06184445666777	86.2530270037557			-55.5109477348258	145.074127289737	-14.9926685497486	-83.2900376588342
